!  2-Port S-parameters saved by WinCal
! VAR MeasName=S-Parameters (CALIBRATED_DATA) read from VNA (P5004A)
! VAR MeasDate=28/08/2024 10:34:39
! VAR NAME=S2_r4c9_SET3_9k-100M_2
! VAR FILENAME=S2_r4c9_SET3_9k-100M_2.S2P
! VAR DATE=28/08/2024 10:34:39
! VAR PHYS_PORTS=1,2
! VAR ObjTypeName=DATASET
! VAR IndexType=Frequency
!
# Hz S MA R 50
9000.000 +7.2452616941E-002 -1.7587980065E+002  +1.2290953269E-002 +4.5900020036E+001  +1.0512442805E-002 -1.6174896464E+002  +2.9983778714E-001 -1.2521238402E+002 
134145.181 +1.1112891587E-001 +1.6985350923E+002  +4.4133119922E-004 -6.8507033826E+001  +3.0602459742E-004 -8.1656607167E+001  +2.4646445534E-001 -1.7110415668E+002 
259290.363 +1.1264155988E-001 +1.7033722361E+002  +2.1926214502E-004 +1.7080888703E+002  +3.5502683688E-004 +8.2677004672E+000  +2.4950146326E-001 -1.6995115974E+002 
384435.544 +1.1317566185E-001 +1.6983328942E+002  +1.7954097854E-004 +1.3872057502E+002  +4.5063957926E-004 +3.1863779659E+001  +2.4483575759E-001 -1.6935767225E+002 
509580.726 +1.1531997236E-001 +1.7100987279E+002  +3.6409687999E-004 -1.1820077780E+002  +2.0869171803E-003 +1.2329335521E+002  +2.3114391099E-001 -1.6562269147E+002 
634725.907 +1.1395660009E-001 +1.7181615660E+002  +1.0727198589E-003 -1.4929252181E+002  +7.6205608286E-004 +1.5155283235E+002  +2.4681481476E-001 -1.6677797698E+002 
759871.089 +1.2046808109E-001 +1.7091900623E+002  +3.5385117615E-004 -6.2722231575E+001  +4.8210952902E-004 -1.3385104169E+002  +2.4869632255E-001 -1.6614821637E+002 
885016.270 +1.1961160180E-001 +1.6879863030E+002  +4.2128244824E-004 +1.6843919357E+002  +6.1052370409E-004 +1.6364665053E+002  +2.3994172902E-001 -1.6730233441E+002 
1010161.452 +1.1213272205E-001 +1.7090391299E+002  +9.9211339059E-004 -6.3972992171E+001  +1.2321232752E-003 -1.0721289919E+002  +2.1091084908E-001 -1.6720110074E+002 
1135306.633 +1.1636262284E-001 +1.6901203160E+002  +5.5671689539E-004 -1.2514868668E+002  +1.8174296931E-003 -1.3693938083E+002  +1.8935401210E-001 +1.6037098192E+002 
1260451.815 +1.2185085604E-001 +1.7162283914E+002  +3.8066019004E-004 -1.1428671067E+002  +3.8123383517E-004 -2.2284512191E+001  +2.2710869351E-001 -1.5874632929E+002 
1385596.996 +1.2422923570E-001 +1.7278818892E+002  +6.2632141461E-004 -1.2112836386E+002  +1.5692734250E-003 -1.6635283670E+002  +2.5339304181E-001 -1.5762822606E+002 
1510742.178 +1.2722642086E-001 +1.7207109099E+002  +1.4542065283E-003 -5.6008998035E+001  +9.8071474819E-004 -1.4479855726E+002  +2.5646959770E-001 -1.5730794861E+002 
1635887.359 +1.2762410068E-001 +1.7062900702E+002  +1.0395048453E-003 -1.7955556607E+002  +1.3056490289E-003 +1.0538481109E+001  +2.4577199268E-001 -1.5789854365E+002 
1761032.541 +1.3103642094E-001 +1.7025355598E+002  +4.5062297326E-004 +3.6227669013E+001  +1.5450075711E-004 +4.6520168379E+001  +2.2190401893E-001 -1.5955583735E+002 
1886177.722 +1.2791299598E-001 +1.7011484572E+002  +1.1418183479E-003 -1.7021538207E+001  +1.4882269200E-003 -6.7927496488E+000  +2.1266452464E-001 -1.5547581629E+002 
2011322.904 +1.2553261426E-001 +1.6776016590E+002  +1.8851592730E-003 +2.2044993219E+001  +1.9378655867E-003 -3.7122548513E+001  +1.9447172411E-001 -1.6883954512E+002 
2136468.085 +1.2311864969E-001 +1.6612126291E+002  +9.7117477036E-004 -9.2068842403E+001  +3.3197464173E-003 -4.0821167205E+001  +2.1847243823E-001 -1.7680087473E+002 
2261613.267 +1.2550887958E-001 +1.6851522867E+002  +2.4671317086E-003 +7.1469426746E+001  +3.6911488401E-003 -1.4336964618E+002  +1.7907043151E-001 -1.7388176149E+002 
2386758.448 +1.2843280183E-001 +1.6815011121E+002  +6.0405446088E-003 +8.3577793148E+001  +4.8304646570E-003 -6.5915766025E+001  +1.8806090680E-001 +1.7121100227E+002 
2511903.630 +1.3339269884E-001 +1.6760123319E+002  +1.8203654879E-003 -5.4192744886E+001  +2.0263678469E-003 +2.2936663673E+001  +2.4027132191E-001 +1.6531545703E+002 
2637048.811 +1.3772446930E-001 +1.6388193137E+002  +2.4568600990E-003 +8.7211586300E+001  +1.3202006233E-002 -8.1749492750E+001  +2.2730339175E-001 +1.2743988279E+002 
2762193.992 +1.1776490548E-001 +1.7397486280E+002  +1.0712905703E-002 +2.4057350668E+001  +1.6593597910E-002 +1.7177094979E+002  +5.2186170853E-001 -8.7863802721E+001 
2887339.174 +1.1989414111E-001 +1.7268062786E+002  +5.5523571256E-003 -3.5814228814E+001  +9.6016956096E-003 -6.1836180739E+001  +4.1870304366E-001 -9.8692541444E+001 
3012484.355 +1.1295078168E-001 +1.6419132450E+002  +5.2269296769E-004 +4.7055005383E+001  +1.2490409307E-003 +1.2774445249E+001  +1.2422496501E-001 +1.6858787014E+002 
3137629.537 +1.3056670393E-001 +1.7100475969E+002  +7.9190066660E-003 +4.4645164537E+001  +1.1748707268E-003 +1.0868622758E+002  +1.6301211040E-001 +1.0570481404E+002 
3262774.718 +1.2499653149E-001 +1.6245103377E+002  +8.9250560734E-003 +2.4218617843E+001  +7.7961271156E-003 -1.4963873519E+002  +1.6881838072E-001 +1.3070157368E+002 
3387919.900 +1.2953571588E-001 +1.6306688494E+002  +1.3649951963E-002 -2.6734124139E+001  +8.4326472045E-003 -1.0594496087E+002  +3.7820252342E-001 +1.2206089882E+002 
3513065.081 +1.2779292293E-001 +1.4721118732E+002  +2.4572919544E-002 +2.0910421131E+001  +5.3230816724E-002 -2.0758476125E+001  +7.1724112173E-001 +5.2267306900E+001 
3638210.263 +1.6948389450E-001 +1.4672927503E+002  +3.3012983097E-002 +1.2771714924E+002  +1.1643070648E-002 +5.5938529604E+001  +7.1921874925E-001 +1.4808351574E+002 
3763355.444 +1.7099654408E-001 +1.4711809260E+002  +1.9474946367E-002 +1.0368599741E+002  +8.8095541634E-003 +3.0054808579E+001  +3.3402332238E-001 +7.5247611541E+001 
3888500.626 +1.4712134042E-001 +1.4415939940E+002  +1.0584152892E-002 +1.1686258687E+002  +1.1385105276E-002 -3.5696000096E+001  +3.4767974902E-001 +7.8278447348E+001 
4013645.807 +1.6740699209E-001 +1.5653611889E+002  +1.1258203553E-002 +1.0457300086E+002  +1.9363428426E-002 -9.7923906542E+001  +7.6772149202E-001 +5.8339096568E+001 
4138790.989 +1.5326125334E-001 +1.5267182479E+002  +6.6671398844E-003 +1.3743988398E+002  +1.0832152119E-002 -3.0050385589E+001  +2.2485512171E-001 +1.4321953604E+002 
4263936.170 +1.7873457596E-001 +1.4092156123E+002  +1.9457144049E-002 +1.5824711287E+002  +1.2100593657E-002 -7.8494230020E+001  +5.2450520869E-001 +1.0688900078E+002 
4389081.352 +2.0011929943E-001 +1.4560515189E+002  +2.5733187271E-002 +9.9681211886E+001  +7.8725812364E-003 +6.3586477756E+001  +7.5495919679E-001 +1.0281192708E+002 
4514226.533 +2.2088044635E-001 +1.3639548002E+002  +1.1974148114E-002 +9.6976464351E+001  +1.8213077982E-002 -1.0280157066E+002  +1.2279291116E+000 +1.3699405366E+002 
4639371.715 +3.5256931366E-001 +1.2644125519E+002  +5.8001087110E-002 +6.8442766995E+001  +2.1351954435E-002 -9.6393541336E-001  +1.0577399261E+000 +4.7014500346E+001 
4764516.896 +3.1454627810E-001 +1.2747577538E+002  +8.8445287927E-002 -1.3749898260E+002  +9.3865919302E-002 +1.0734767727E+002  +4.5146606027E+000 +1.4931439047E+002 
4889662.078 +4.9777288576E-001 +1.1955355604E+002  +2.5285432903E-002 -6.8825830886E+001  +3.1851533212E-002 +1.6819422391E+002  +2.7194738865E+000 -1.2888879168E+002 
5014807.259 +3.4134219850E-001 +1.3333793442E+002  +1.3024997999E-002 +1.1714253324E+002  +3.0205653135E-002 +5.8288306208E+001  +1.3237308702E+000 +1.1246144652E+002 
5139952.441 +3.1142782736E-001 +1.3694366755E+002  +4.0834372911E-002 +1.1933197841E+002  +4.9712553158E-002 +8.3613450058E+001  +1.9008718951E+000 +1.0772065668E+002 
5265097.622 +4.1836060903E-001 +1.3581685493E+002  +1.8602132075E-002 +1.3289176210E+002  +1.8335241246E-002 +1.3661977192E+001  +1.3380610980E+000 +9.3084569392E+001 
5390242.804 +5.0311768128E-001 +1.3824877522E+002  +1.1674855846E-002 -1.5814481846E+002  +5.3724174161E-002 +7.4139253137E+001  +3.2052504517E+000 +7.8097106872E+001 
5515387.985 +4.3997101664E-001 +1.2722689011E+002  +1.5357367638E-002 +1.0264721953E+002  +5.6824142232E-002 +8.0033240065E+001  +9.9846372304E-001 +9.4449869185E+001 
5640533.166 +4.4543289957E-001 +1.3207437665E+002  +1.0440346408E-001 +4.2176958291E+001  +7.3508394017E-002 +2.3843705678E+001  +4.1557203456E+000 -5.5954964185E+000 
5765678.348 +5.2868583569E-001 +1.2526677054E+002  +3.7252656773E-002 +8.3109028996E+001  +2.1297604293E-002 +1.0550587744E+002  +1.7096778941E+000 +8.2399560819E+001 
5890823.529 +5.7027369563E-001 +1.2677093793E+002  +4.2282756284E-002 +1.2293553810E+002  +3.8890410215E-002 +1.2056954245E+002  +2.5792727455E+000 +7.2153080893E+001 
6015968.711 +6.0768955841E-001 +1.1018682109E+002  +3.1942771566E-002 +9.7454701069E+001  +3.2830661517E-002 -3.0049404221E+000  +1.7941740410E+000 +3.9271893189E+001 
6141113.892 +6.1926660466E-001 +1.1180227354E+002  +7.8142433301E-004 -1.8604720819E+001  +3.5621694613E-002 +2.3324481174E+001  +1.3835653901E+000 +5.5550808741E+001 
6266259.074 +8.8550832983E-001 +1.0596408805E+002  +3.9761295735E-002 +9.3257594793E+001  +3.9519797397E-002 +1.0670329770E+001  +1.7844588366E+000 +2.2145274894E+001 
6391404.255 +1.1557484856E+000 +9.7032754673E+001  +3.7324836053E-002 +7.0080241029E+001  +3.2282917109E-002 +2.6735071570E+001  +1.2258657670E+000 +1.8602443422E+001 
6516549.437 +1.1735766416E+000 +8.4382034288E+001  +4.7004734771E-002 +5.7390088648E+001  +1.8094155155E-002 +9.6471340078E+001  +1.2867324175E+000 -2.9015449316E+000 
6641694.618 +1.4387736874E+000 +8.4147428782E+001  +3.6254460409E-002 +5.3585433964E+001  +4.3324539465E-002 +9.2598423159E+000  +1.3169896003E+000 -7.0290287504E+000 
6766839.800 +1.8444263208E+000 +5.9041794747E+001  +5.2067653772E-002 +2.0592367422E+001  +5.8484776899E-002 +5.1389518780E+001  +1.0755274364E+000 -5.9587659948E+000 
6891984.981 +1.9042505263E+000 +4.8962174235E+001  +3.1587206787E-002 +8.0286431059E+000  +4.6542964243E-002 +2.5133179598E+001  +1.1665146532E+000 +1.3162793354E+000 
7017130.163 +1.5409566630E+000 +1.3920291384E+001  +5.0649300770E-002 +1.4039084850E+001  +4.7662801751E-002 +1.7438475390E+001  +1.3859052581E+000 -5.1232371355E+000 
7142275.344 +1.8090328983E+000 +7.8013865378E+000  +3.9741419933E-002 +9.0071120105E-002  +1.9755559065E-002 +4.3330886033E+000  +1.3061281812E+000 -1.1274830696E+001 
7267420.526 +1.5854136746E+000 +2.4923574960E+000  +2.6711828349E-002 +3.3042163165E+001  +2.0300131878E-002 -1.2379613498E+001  +1.4700907719E+000 -9.7448219380E+000 
7392565.707 +1.4781923280E+000 +5.0255385404E-001  +2.2118777018E-002 +2.3413422099E+001  +2.5339068024E-002 +9.7363605127E+000  +1.2608621629E+000 -7.4451327888E+000 
7517710.889 +1.2252810594E+000 -9.9296328537E-001  +2.1763031711E-002 +7.7219264255E+000  +2.1823807413E-002 +1.7030449911E+001  +1.1138892127E+000 -1.2260309283E+001 
7642856.070 +1.0465495745E+000 +9.4621312519E-001  +2.4179088164E-002 +7.1975225997E+000  +1.8576793018E-002 -5.3585609009E+000  +1.1172567786E+000 -3.6474143951E+000 
7768001.252 +9.0723857050E-001 +5.0353002425E+000  +1.6242507218E-002 +1.8543761220E+001  +1.9681712001E-002 +2.9560047112E+001  +9.8686047429E-001 -4.7572304352E+000 
7893146.433 +7.5300893873E-001 +4.9954050708E+000  +1.5099011381E-002 +1.7931342949E+001  +1.2541017186E-002 +1.2371571380E+001  +9.8426734262E-001 -5.4963575234E-001 
8018291.615 +7.8462363692E-001 +9.9585707812E+000  +1.1051065120E-002 +2.1192530267E+001  +1.1334573738E-002 +4.4793250691E+001  +8.6192088229E-001 -3.1993810344E+000 
8143436.796 +8.0567767938E-001 +6.2372476572E+000  +1.8896585226E-002 +1.4654113780E+001  +2.0937963970E-002 +1.7506250251E+001  +7.7405580802E-001 -3.3715382145E+000 
8268581.977 +7.7331113447E-001 +9.8937362027E+000  +2.0210458842E-002 +1.3568567663E+001  +1.5334455585E-002 +2.8164827607E+000  +7.5784158542E-001 +7.2700806922E+000 
8393727.159 +5.9775901211E-001 +5.4718390451E+000  +1.4765716889E-002 -1.8732376150E+000  +1.5666204412E-002 +1.9266684755E+001  +7.0457397321E-001 +2.4375441182E+000 
8518872.340 +7.8642501678E-001 +9.3881920858E+000  +1.4726151144E-002 +1.1170685996E+001  +1.5266425693E-002 +1.5837487047E+001  +7.1397747669E-001 -1.7505384081E+000 
8644017.522 +6.3749753805E-001 +4.1219664328E+000  +1.3571389885E-002 +9.7351152421E+000  +1.6090240002E-002 +7.0994728027E+000  +6.7939335930E-001 -2.7332558040E+000 
8769162.703 +6.4217181931E-001 +9.1550634916E+000  +1.2730062069E-002 -2.2781093065E+000  +1.5309509755E-002 +1.9060205015E+001  +6.7949938901E-001 -5.1994299564E+000 
8894307.885 +5.3092727854E-001 +3.2704116638E+000  +1.5047558974E-002 +6.7299111129E+000  +1.4087593087E-002 +5.5156583005E+000  +6.3173735637E-001 +7.4213619790E-001 
9019453.066 +5.9756087424E-001 +1.0001263333E+001  +1.0746143475E-002 +2.0820019241E+001  +1.7057733711E-002 +3.8445708784E+001  +6.3508320369E-001 +1.0532104370E+000 
9144598.248 +5.8608137579E-001 +3.9244922021E+000  +1.1317353361E-002 +1.2991651757E+001  +1.8711850471E-002 +3.1018008029E+001  +5.7210584812E-001 +3.3105165335E+000 
9269743.429 +5.3251766490E-001 +3.0400388798E+000  +1.2975960221E-002 +1.2547892757E+001  +1.5108246313E-002 +2.8735556700E+001  +6.1434847974E-001 -2.8498467090E+000 
9394888.611 +5.5906444081E-001 +5.9221079341E+000  +1.3884682165E-002 +2.5937286082E+001  +1.1739850910E-002 +2.7546240946E+001  +5.6801851490E-001 -2.1218825219E+000 
9520033.792 +5.6855702741E-001 +4.1905890992E+000  +1.4246237063E-002 +1.2462474411E+001  +1.2585415390E-002 +3.4058591228E+001  +5.5355336744E-001 -7.6883707648E+000 
9645178.974 +5.4053844641E-001 +8.7186271562E+000  +1.4802441373E-002 +3.3547900312E+001  +1.4021682029E-002 +2.2409821648E+001  +6.0055602934E-001 -7.7602879001E+000 
9770324.155 +5.3855342074E-001 +4.4023488508E+000  +1.7287547759E-002 +1.9339408390E+001  +1.3998063342E-002 +2.3965138150E+001  +5.7312190086E-001 -1.0305739856E+001 
9895469.337 +5.1259169591E-001 -1.5281509531E+000  +1.2748383207E-002 +7.0236054580E+000  +1.5037744945E-002 +2.9468831149E+001  +5.4589721115E-001 -5.8988105864E+000 
10020614.518 +5.3686665318E-001 +1.7962150182E+000  +1.4951802280E-002 +1.6762925291E+001  +1.6359368019E-002 +3.1087601693E+001  +5.6909812171E-001 -6.0303398468E+000 
10145759.700 +5.6203697468E-001 +2.0803194240E+000  +1.2081721272E-002 +1.3865367956E+001  +1.6418318556E-002 +2.7395329856E+001  +5.5462922215E-001 -6.1375529392E+000 
10270904.881 +5.7131607070E-001 +4.5382725315E+000  +1.6595746381E-002 +2.2348047087E+001  +1.2659506722E-002 +3.3939744193E+001  +5.8288216749E-001 -2.3214925773E+000 
10396050.063 +5.7604853162E-001 +4.7527177881E+000  +1.6853934719E-002 +5.1442101712E+000  +1.3342965033E-002 +2.8192400053E+001  +5.8122255635E-001 -1.4392534992E+000 
10521195.244 +5.4978313035E-001 +7.6644475090E+000  +1.5322157134E-002 +8.6275882782E+000  +1.3486433331E-002 +8.0901273782E+000  +5.7752002587E-001 -3.9265818664E+000 
10646340.426 +5.7234638433E-001 +8.0656386451E+000  +1.5030035343E-002 +9.0971447818E+000  +1.5745372138E-002 +3.4730397613E+001  +5.8679391672E-001 -1.0072707944E+000 
10771485.607 +5.7304022369E-001 +3.6032765911E+000  +1.5721512434E-002 +2.0548853354E+001  +1.6421915221E-002 +3.2906315216E+001  +6.0334400856E-001 -6.1480851162E-001 
10896630.788 +5.9143283032E-001 +6.1563643819E+000  +1.6255138033E-002 +1.3162144973E+001  +1.9213684241E-002 +3.4705466151E+001  +5.8305957004E-001 +2.8064577313E-001 
11021775.970 +5.6624408257E-001 +9.7453282956E+000  +1.5766918777E-002 +1.1315465963E+001  +1.5153344138E-002 +2.9439842433E+001  +5.9407920682E-001 +2.1095912149E+000 
11146921.151 +5.8663999414E-001 +6.7685162355E+000  +1.7476245495E-002 +2.6558267406E+001  +1.3433495968E-002 +2.8695902382E+001  +6.1529341052E-001 +1.0665504971E+000 
11272066.333 +5.5945755704E-001 +7.6369779393E+000  +1.6103732683E-002 +1.3486887593E+001  +1.5880159698E-002 +3.2523626928E+001  +6.3312234957E-001 +7.8754823265E-001 
11397211.514 +6.2320039429E-001 +9.4766572487E+000  +1.6086438102E-002 +2.0458475541E+001  +1.5566388508E-002 +3.1489091047E+001  +6.3536556399E-001 +1.8884207185E+000 
11522356.696 +6.1871162511E-001 +8.8037923125E+000  +1.4249489408E-002 +2.0348317434E+001  +1.8512020178E-002 +2.2967436861E+001  +6.1433471658E-001 +2.6058850827E+000 
11647501.877 +6.2855664946E-001 +7.1827609753E+000  +1.5387914088E-002 +2.3759404064E+001  +1.7357287587E-002 +3.0994594838E+001  +6.5244334928E-001 +1.9540086425E+000 
11772647.059 +6.1495910719E-001 +5.3039780961E+000  +1.6150893586E-002 +1.3016768328E+001  +1.7153153173E-002 +2.2307920009E+001  +6.4058322789E-001 +8.5270792001E-001 
11897792.240 +6.4715182533E-001 +5.1954682910E+000  +1.6582153504E-002 +1.7750688825E+001  +1.6061785930E-002 +2.8734876089E+001  +6.7372312661E-001 +1.4461888907E+000 
12022937.422 +6.5432747398E-001 +5.0112185723E+000  +1.6810579403E-002 +1.8021737737E+001  +1.5878149045E-002 +3.1126622964E+001  +6.5495004425E-001 +9.9244230934E-001 
12148082.603 +6.5247684175E-001 +4.7545702538E+000  +1.7029739982E-002 +1.8978656821E+001  +1.7030281038E-002 +2.7643545683E+001  +6.6404058457E-001 +1.6626347424E+000 
12273227.785 +6.8149611695E-001 +3.3969940180E+000  +1.8203707604E-002 +2.1136859313E+001  +1.6951128625E-002 +3.2757030187E+001  +6.9913848059E-001 +1.0919794545E-001 
12398372.966 +7.2801443556E-001 +2.4550038236E+000  +1.6172441215E-002 +1.7365725860E+001  +1.6904017482E-002 +2.6807175582E+001  +6.9238847470E-001 +7.2149693574E-001 
12523518.148 +7.2367640914E-001 +3.6121096048E+000  +1.6170003674E-002 +2.2238623919E+001  +1.6034674710E-002 +2.7517075715E+001  +7.4206855225E-001 +7.1573928629E-001 
12648663.329 +7.3313507372E-001 +2.9133773340E+000  +1.7884199645E-002 +2.4993139264E+001  +1.5744185951E-002 +2.4315754138E+001  +7.3455000929E-001 -2.6835241996E-001 
12773808.511 +7.3718253575E-001 +4.0871875416E+000  +1.8648939647E-002 +2.0309691846E+001  +1.6620133763E-002 +3.2096945178E+001  +7.5644129428E-001 +1.3832671379E-001 
12898953.692 +7.5091726693E-001 +1.6949597275E+000  +1.8729757215E-002 +2.2586519953E+001  +1.6520546463E-002 +2.5077287260E+001  +7.8223215808E-001 -1.7426757072E+000 
13024098.874 +7.5050814267E-001 +1.0489863555E+000  +1.7715241061E-002 +2.2700063534E+001  +1.7050714915E-002 +3.0095950331E+001  +7.7427303419E-001 -6.5773967007E-001 
13149244.055 +8.0075503593E-001 -1.1298952079E+000  +1.8511584918E-002 +2.1458248133E+001  +1.8888262146E-002 +2.8207259665E+001  +8.0445085442E-001 -3.2115846778E+000 
13274389.237 +8.1400259025E-001 -7.3846202531E-001  +1.9390598587E-002 +2.6086787064E+001  +1.9119667275E-002 +2.9201288374E+001  +8.0273684575E-001 -2.5939350462E+000 
13399534.418 +8.0797992403E-001 -1.3896176253E+000  +2.0873534161E-002 +2.4415073819E+001  +1.8487482968E-002 +2.7415595108E+001  +8.3772028841E-001 -1.4567138188E+000 
13524679.599 +8.4981726935E-001 -1.2855583357E-001  +2.0376748133E-002 +2.6317060210E+001  +1.8694130802E-002 +2.8327571953E+001  +8.4112901709E-001 -3.1521157364E+000 
13649824.781 +8.3772753748E-001 -3.0264697291E+000  +1.8381613957E-002 +2.2316181318E+001  +1.8852335865E-002 +2.7159585463E+001  +8.7416178390E-001 -2.5976256695E+000 
13774969.962 +8.8220755718E-001 -3.7159722568E+000  +1.9324705266E-002 +2.2723897156E+001  +1.9769538185E-002 +2.3332517021E+001  +8.8111071499E-001 -2.5823515912E+000 
13900115.144 +8.8729948794E-001 -4.7241716095E+000  +1.8863974980E-002 +1.8975687748E+001  +2.0707086803E-002 +2.4417596675E+001  +9.2371464261E-001 -3.7290852755E+000 
14025260.325 +9.2145881275E-001 -2.4037069443E+000  +1.8324015404E-002 +2.2413851984E+001  +1.8822633993E-002 +2.3030952539E+001  +9.2912865669E-001 -3.1461800258E+000 
14150405.507 +9.1398148242E-001 -3.7881600499E+000  +2.0646691427E-002 +2.4995775128E+001  +2.0583631427E-002 +2.4947237070E+001  +9.2728234922E-001 -5.4916526218E+000 
14275550.688 +9.4932044540E-001 -4.5116622551E+000  +1.9572946167E-002 +2.2839914156E+001  +2.0804667160E-002 +2.1293492085E+001  +9.6960189454E-001 -3.7982680602E+000 
14400695.870 +9.5444491814E-001 -5.4509973546E+000  +2.0222099365E-002 +2.3716270894E+001  +1.9046375198E-002 +2.5804247135E+001  +9.5608425457E-001 -5.3874999249E+000 
