!  2-Port S-parameters saved by WinCal
! VAR MeasName=S-Parameters (CALIBRATED_DATA) read from VNA (P5004A)
! VAR MeasDate=27/08/2024 16:37:47
! VAR NAME=S2_r2c9_SET1_9k-100M_1
! VAR FILENAME=S2_r2c9_SET1_9k-100M_1.S2P
! VAR DATE=27/08/2024 16:37:47
! VAR PHYS_PORTS=1,2
! VAR ObjTypeName=DATASET
! VAR IndexType=Frequency
!
# Hz S MA R 50
9000.000 +1.2211626708E-001 -1.2400748236E+002  +2.0058697352E-002 +2.7664978343E+001  +2.1465061759E-002 +1.2720937958E+002  +2.6247792275E-001 -1.3252352813E+002 
134145.181 +1.0981452088E-001 +1.6989346277E+002  +2.2036000612E-004 -1.4942517378E+002  +1.3670054013E-004 -2.9691528273E+001  +2.4071709880E-001 -1.7082301014E+002 
259290.363 +1.1202077268E-001 +1.6991443443E+002  +3.3131954489E-004 -2.9854680230E+001  +8.6008511680E-004 +1.5591774925E+000  +2.4114721222E-001 -1.6929970734E+002 
384435.544 +1.1286405556E-001 +1.6978564546E+002  +3.2535426109E-004 +1.1076157484E+001  +1.3703264790E-003 +2.9021263196E+001  +2.4346085829E-001 -1.6620016940E+002 
509580.726 +1.1433262613E-001 +1.7017719678E+002  +6.1693259458E-004 +4.0061666015E+001  +2.4679093869E-004 -8.1170936637E+001  +2.3846973601E-001 -1.6726260179E+002 
634725.907 +1.1655428206E-001 +1.6997407517E+002  +1.3475787999E-004 +9.2628617110E+001  +1.0221289982E-003 -1.4504215370E+002  +2.4767392089E-001 -1.6542932349E+002 
759871.089 +1.1910737028E-001 +1.7076474153E+002  +3.6913195048E-004 +8.2925463102E+000  +1.0647630395E-003 -1.7535812045E+001  +2.5178298343E-001 -1.6483442389E+002 
885016.270 +1.1729322111E-001 +1.6960278038E+002  +9.3778934736E-004 -4.1322315106E+001  +6.6763658218E-004 +5.7904799439E+001  +2.3885776607E-001 -1.6645178106E+002 
1010161.452 +1.1749596923E-001 +1.7361243477E+002  +2.2434261719E-003 +1.4392918548E+001  +1.5374620310E-003 +8.1433306452E+001  +1.8989168103E-001 -1.6258018695E+002 
1135306.633 +1.1507255425E-001 +1.7150564270E+002  +1.9592778243E-003 -1.4322556093E+002  +1.0836301671E-003 -3.2107219874E+001  +1.8900660736E-001 -1.6822737177E+002 
1260451.815 +1.2274455582E-001 +1.7034986694E+002  +1.7803915751E-003 -7.4663909047E+001  +8.3231939266E-004 -1.6005266057E+002  +2.2218509418E-001 -1.5955236634E+002 
1385596.996 +1.2680404553E-001 +1.7222476672E+002  +1.0805972929E-003 -5.2035498533E+001  +1.1678421804E-003 -1.1173179890E+002  +2.5603554282E-001 -1.5959691401E+002 
1510742.178 +1.2580081014E-001 +1.6950802719E+002  +9.3496711521E-004 -1.0326345629E+002  +6.5109159193E-004 -3.2540389631E+001  +2.5177967756E-001 -1.5531785068E+002 
1635887.359 +1.2789076354E-001 +1.7218549080E+002  +7.7759742984E-004 +1.2528207255E+002  +1.7647078602E-003 +1.3196284701E+002  +2.4387414037E-001 -1.5012879140E+002 
1761032.541 +1.2470170385E-001 +1.6899551135E+002  +1.0543699047E-003 -1.3561033956E+002  +5.3003314393E-004 -6.6864956548E+001  +2.2298419353E-001 -1.5800606803E+002 
1886177.722 +1.2899242135E-001 +1.6670414832E+002  +2.5742624382E-003 +4.2091509407E+001  +1.7989220104E-003 -4.7444179209E+001  +2.1058864743E-001 -1.5630854573E+002 
2011322.904 +1.2706705563E-001 +1.6808439001E+002  +2.6543729508E-003 -1.2329785668E+002  +3.2249655076E-003 +1.5066659290E+002  +1.4515581115E-001 -1.7715972671E+002 
2136468.085 +1.2827205960E-001 +1.6480402515E+002  +5.2264251489E-003 -1.1697849876E+002  +1.9633065828E-003 +8.8830824626E+001  +1.2599220043E-001 -1.7820252236E+002 
2261613.267 +1.3046051353E-001 +1.5903337584E+002  +2.0752347003E-003 -5.4643471740E+001  +3.0273860595E-003 +4.0619662870E+001  +1.8362336993E-001 +1.6914816643E+002 
2386758.448 +1.3359040557E-001 +1.6269872376E+002  +2.0290443672E-003 +6.9661400815E+001  +2.1775461519E-003 -3.5549810205E+001  +2.3988979745E-001 +1.5963413625E+002 
2511903.630 +1.3753673576E-001 +1.6342228190E+002  +3.9854509865E-003 +1.1358676615E+002  +2.3555332989E-003 -2.1804437210E+001  +2.1623360492E-001 +1.7314527293E+002 
2637048.811 +1.3623817559E-001 +1.5929990107E+002  +3.9376818793E-003 -9.8646781359E+000  +6.8167274536E-003 -9.8275745857E+001  +1.3135727340E-001 +1.0905683949E+002 
2762193.992 +1.0836692645E-001 +1.7353542239E+002  +1.9579859912E-002 -1.2181249967E+002  +1.8281515967E-002 +7.8441769163E+000  +9.8203831505E-001 -1.4543967424E+002 
2887339.174 +1.1665241675E-001 +1.5369642581E+002  +1.4379543292E-002 +8.4315734544E+001  +3.0032437505E-002 -1.8675543044E+001  +1.7686695580E-001 +4.3022787107E+001 
3012484.355 +1.3473071703E-001 +1.6635987045E+002  +1.3457211118E-002 -4.8655483152E+001  +2.2358058697E-002 -1.0854045338E+002  +1.1707441397E+000 -8.8245212967E+001 
3137629.537 +9.8422791085E-002 +1.7013924567E+002  +1.9191305930E-002 +4.3941012373E+000  +5.6750606836E-003 -1.9059915557E+001  +4.9462513621E-001 -8.6415793129E+001 
3262774.718 +1.3866020492E-001 +1.6188533084E+002  +4.2992974721E-002 -7.9977310647E+001  +4.6217788203E-002 +1.5450515967E+002  +1.3792756763E+000 -2.3843722360E+001 
3387919.900 +9.6753190701E-002 +1.5106705424E+002  +9.2398930169E-002 -1.5993798169E+002  +5.4800613546E-002 +1.5074174751E+002  +2.5241840787E+000 -1.1244043269E+002 
3513065.081 +1.2085758097E-001 +1.4914142983E+002  +2.8689775369E-002 -2.3778417555E+001  +1.3492924443E-002 -3.1104216142E+001  +7.1833116944E-001 +1.1623966834E+002 
3638210.263 +1.3858552463E-001 +1.2491569644E+002  +3.2660950777E-002 -9.4592700526E+001  +2.4214887122E-002 -3.7347646678E+001  +1.4516490837E+000 +1.6488692059E+002 
3763355.444 +1.9405262807E-001 +1.4455495441E+002  +7.9786902787E-003 -3.7721575599E+001  +1.2711319718E-002 +8.8911135552E+001  +1.2417123767E+000 +1.1927595356E+002 
3888500.626 +1.8170997813E-001 +1.4639969174E+002  +1.1913244971E-002 +8.3188172464E+001  +6.6122860745E-003 -4.4839170010E+001  +2.6207557769E-001 +1.2194511423E+002 
4013645.807 +1.6150565957E-001 +1.4325666693E+002  +1.7362438689E-002 +6.0083915981E+001  +1.2431168071E-002 +2.8010141316E+001  +3.1417058657E-001 +8.5147290472E+001 
4138790.989 +1.9129482004E-001 +1.3811276227E+002  +1.0436457128E-002 +7.3648031081E+001  +1.4153103792E-002 +4.3578428263E+001  +4.0369514233E-001 +7.0173853772E+001 
4263936.170 +2.0193643372E-001 +1.3982165038E+002  +9.4898348583E-003 +5.0201666153E+001  +8.8760212913E-003 -1.7586712592E+002  +5.2811078317E-001 +5.5766989326E+001 
4389081.352 +2.2313972232E-001 +1.3994024481E+002  +4.5810715557E-003 +1.2628570946E+002  +6.4533189192E-003 -4.7994320714E+000  +5.9746653165E-001 +8.8508070436E+001 
4514226.533 +3.1307941276E-001 +1.3623030751E+002  +1.7019868311E-002 +1.4178129091E+002  +6.4542447270E-003 -6.7907455715E+001  +8.5448129728E-001 +1.3952806408E+002 
4639371.715 +2.8582137496E-001 +1.3254336780E+002  +9.1697998846E-002 -1.6179858053E+002  +1.6620851480E-001 +1.0039116767E+002  +4.9644664864E+000 +9.0274886209E+001 
4764516.896 +3.1355380350E-001 +1.2051254726E+002  +6.8937722204E-002 +1.6810846253E+002  +2.7640759390E-002 -8.2460478899E+001  +1.8174443997E+000 +5.8586281929E+001 
4889662.078 +4.9337196279E-001 +1.3319006674E+002  +3.4547116710E-002 -1.7832849667E+002  +4.5875026807E-002 +1.6101433736E+002  +4.2844882643E+000 -9.0314234180E+001 
5014807.259 +3.8674740433E-001 +1.2853124624E+002  +1.0177525382E-001 -1.1484022530E+002  +5.5982469936E-002 -8.9604596852E+001  +6.1636174344E+000 -1.1656530888E+002 
5139952.441 +3.9424194396E-001 +1.1535853983E+002  +9.0430288243E-002 -1.2801260837E+002  +2.7535770436E-002 -8.0878226896E+001  +5.1893196736E+000 +1.7182843556E+002 
5265097.622 +3.7426876760E-001 +1.3378630261E+002  +6.8243853836E-002 -1.6926715674E+002  +7.8769044460E-002 +1.0264284134E+002  +4.3532882032E+000 +1.0600797714E+002 
5390242.804 +3.6251764185E-001 +1.2716829214E+002  +3.4889145054E-002 +1.1116216129E+002  +1.5895355921E-002 -1.2935603320E+001  +1.3676611048E+000 +9.7277155356E+001 
5515387.985 +4.1814799476E-001 +1.1343155446E+002  +2.7379939915E-002 +1.1719168499E+002  +2.8566058284E-002 +7.9218578260E+001  +1.5247560140E+000 +1.0946730882E+002 
5640533.166 +4.3040487357E-001 +1.2755574279E+002  +8.5830969660E-003 +9.0460908560E+001  +6.0632771957E-003 +1.0462184982E+002  +1.7870723628E+000 +6.7641183794E+001 
5765678.348 +4.7849873439E-001 +1.2921685357E+002  +1.4635549973E-002 +2.0641745262E+001  +3.2381308162E-002 +7.7018814806E+001  +2.6632815412E+000 +3.6070686100E+001 
5890823.529 +5.6320097651E-001 +1.2326215126E+002  +8.1195014736E-003 -1.6285864768E+002  +1.3615137741E-002 +8.6993581312E+001  +1.4925073580E+000 +5.6868522215E+001 
6015968.711 +6.5528560482E-001 +1.1194724081E+002  +1.5024591244E-002 +1.3783863861E+002  +3.1791294769E-002 +1.1481561670E+002  +2.1057499770E+000 +3.1303362561E+001 
6141113.892 +7.3503046807E-001 +1.1259341452E+002  +1.6961474174E-002 +1.5209037058E+002  +2.6838265562E-002 +6.1515086187E+001  +1.5978486127E+000 +1.6012635109E+001 
6266259.074 +9.3435761158E-001 +1.1185566840E+002  +1.5759616433E-002 +9.9329305716E+001  +2.2592204173E-002 +5.5697765598E+001  +1.5583414752E+000 +2.9570688992E+001 
6391404.255 +1.1525051380E+000 +9.0609947658E+001  +2.5087467674E-002 +3.3029277031E+001  +3.3716938357E-002 +1.3274946954E+002  +1.6090585925E+000 +2.1603707099E+001 
6516549.437 +1.1664802055E+000 +8.2072573263E+001  +2.0154185845E-002 -5.4443342899E+001  +2.5581561091E-002 +5.2362459232E+001  +1.5834890037E+000 +1.5139592124E+001 
6641694.618 +1.9894674897E+000 +6.9599304444E+001  +1.8586909676E-002 +3.5359368070E+001  +5.5146757418E-002 +3.6680387885E+001  +1.1610453349E+000 +4.9588765618E+000 
6766839.800 +1.7433877627E+000 +5.2552575145E+001  +3.3454211576E-002 -1.2717646930E+001  +4.2425001803E-002 +3.0686663049E+001  +1.2634426939E+000 -6.7971799843E+000 
6891984.981 +1.7669714464E+000 +4.6923031102E+001  +4.7767824510E-002 +3.3885729454E+001  +1.6771739328E-002 -4.9581622844E+001  +1.5006991980E+000 -5.4816429054E+000 
7017130.163 +1.3904657988E+000 +1.3118069747E+001  +3.1556585035E-002 +4.1288060214E+001  +2.7891571151E-002 -2.0642085166E+001  +1.2673372509E+000 -1.3397149591E+001 
7142275.344 +1.5585675289E+000 +6.8606744145E+000  +9.1075046781E-003 +1.4021788895E+001  +2.7902722929E-002 +1.6772782516E+000  +1.3316709459E+000 -1.0398455925E+001 
7267420.526 +1.5643469812E+000 +4.0608902341E-001  +1.8658855483E-002 +9.5955234862E+000  +1.4016089405E-002 +7.3194359468E+001  +1.4814471678E+000 -1.4198428389E+001 
7392565.707 +1.3611590682E+000 -5.0358005632E+000  +6.6773479487E-003 +3.7526900391E+001  +1.6913074371E-002 +3.5990034266E+000  +1.4547489456E+000 -4.1586627410E+000 
7517710.889 +1.2467322152E+000 -3.2908485312E+000  +5.9289466178E-003 +3.8471373087E+000  +9.9389149309E-003 +2.0112352973E+001  +1.3367215995E+000 -8.4971930194E+000 
7642856.070 +1.0723287071E+000 +2.6521445566E+000  +4.1915161105E-003 +1.1819197045E+002  +7.3733592990E-003 -4.9320625884E+000  +1.0227390200E+000 -1.6524221417E+000 
7768001.252 +9.7650208515E-001 +4.6565959651E+000  +7.2262253482E-003 +3.2324892527E+001  +1.7992380351E-002 +5.1238464320E+001  +1.0117340628E+000 -3.5707680886E+000 
7893146.433 +8.5680804770E-001 +5.9754593944E+000  +1.0997347159E-002 +2.9462566719E+001  +8.7551431931E-003 +7.9537460843E+000  +9.7319814514E-001 +2.6782994469E+000 
8018291.615 +8.1930197912E-001 +1.0002967150E+001  +4.1738905795E-003 +1.4698987186E+001  +1.5505809652E-002 -4.6271305347E+000  +8.8602289766E-001 -1.5467822358E+000 
8143436.796 +8.0041752157E-001 +1.1501261973E+001  +9.3339229899E-003 +1.9720039662E+001  +8.3407831183E-003 +9.8077788767E+000  +7.9121444271E-001 +4.1527621056E+000 
8268581.977 +6.8906754067E-001 +7.9564245474E+000  +1.0807356448E-002 +1.7158490068E+001  +9.4849759435E-003 +1.8550906502E+001  +6.9502420101E-001 +1.1166608988E-001 
8393727.159 +7.3557487841E-001 +4.7337035423E+000  +1.5302995516E-002 +2.0324664594E+001  +1.0867389534E-002 +2.7710489065E+001  +7.4404695851E-001 +1.5812252619E-001 
8518872.340 +6.7446176108E-001 +2.8792508706E+000  +7.8810777355E-003 +3.7063446840E+001  +9.1708300728E-003 +2.6771546311E+001  +7.0562305180E-001 +5.9920500356E+000 
8644017.522 +7.0131883647E-001 +6.5441106879E+000  +5.3271810977E-003 +4.7778325144E+000  +9.1229297770E-003 +6.5059688009E+001  +6.6291283014E-001 +2.3437351921E+000 
8769162.703 +6.2375509703E-001 +5.5469721545E+000  +4.9491166902E-003 +1.0169932289E+001  +8.1990246355E-003 +4.2743703666E+001  +6.8362122334E-001 -1.9410386745E+000 
8894307.885 +5.5151950718E-001 +4.4067849933E+000  +7.9284606166E-003 +1.5935728879E+001  +3.7837408767E-003 +4.8326260194E+001  +6.2258976614E-001 -4.6998262853E+000 
9019453.066 +6.2791567813E-001 +9.3905387701E+000  +6.7140331645E-003 +1.6026762690E+001  +6.9450239550E-003 +2.8434091085E+001  +5.9242697737E-001 +4.0564403833E+000 
9144598.248 +6.0016953859E-001 +7.5247561638E+000  +9.6515065755E-003 +2.6957799312E+001  +1.0059472835E-002 +3.7332666303E+001  +6.2899457116E-001 -1.5201107797E+000 
9269743.429 +5.9668473750E-001 +4.7283150039E+000  +7.9049861881E-003 +6.3625385144E+001  +1.1426800645E-002 +3.4670120471E+001  +5.9368212988E-001 -2.9590325263E-002 
9394888.611 +5.5108307429E-001 +1.7933995925E+000  +1.1806854297E-002 +1.8540475642E+001  +1.0009482349E-002 +2.8453092366E+001  +6.2792762635E-001 -3.9416448736E+000 
9520033.792 +5.2219946061E-001 +3.9208086294E+000  +7.8739757320E-003 +4.1915357036E+001  +8.2111859474E-003 +3.5717405625E+001  +6.0265347091E-001 -4.1064624910E+000 
9645178.974 +5.4883018763E-001 +3.3376532598E+000  +1.0623146316E-002 +6.6370370645E+000  +9.3366456014E-003 +4.7639848975E+001  +6.0414351853E-001 -9.6647045763E+000 
9770324.155 +4.8929244968E-001 -2.6074606726E+000  +8.7259774079E-003 +3.2976108841E+001  +7.6663467222E-003 +6.0892589993E+001  +6.3005239134E-001 -5.3939891178E+000 
9895469.337 +5.7731888008E-001 +7.7565752532E-001  +9.4758028414E-003 +2.2559054096E+001  +8.1740626110E-003 +3.7251925744E+001  +5.8216613332E-001 -4.4739184920E+000 
10020614.518 +5.3936574868E-001 -8.3575362703E-001  +1.3843328557E-002 +3.0419631125E+001  +1.1350632512E-002 +3.0891703027E+001  +5.8577122359E-001 -5.3014732029E+000 
10145759.700 +4.9690512545E-001 +2.0377764021E+000  +1.0662175467E-002 +1.6170429392E+001  +8.2129892433E-003 +3.9990432540E+001  +5.8038539319E-001 -3.0076962150E+000 
10270904.881 +5.0750079228E-001 +6.4779862483E+000  +9.5706723657E-003 +1.0514840715E+001  +7.4749673861E-003 +3.4846960168E+001  +5.9524191058E-001 -6.0759793550E+000 
10396050.063 +5.5433395773E-001 +9.6278200554E+000  +1.1595493369E-002 +1.3247789140E+001  +8.2562660810E-003 +4.3849349430E+001  +5.9744230495E-001 -4.1156932256E-001 
10521195.244 +5.6967528562E-001 +4.9141737906E+000  +6.1857878797E-003 -2.1380032598E+000  +1.0252432370E-002 +5.1121846306E+001  +5.7580944628E-001 -3.5312130367E+000 
10646340.426 +5.3769032355E-001 +5.0160266720E+000  +8.6929538036E-003 +5.3573877719E+001  +8.2882455862E-003 +4.0259111117E+001  +5.7458877909E-001 -1.2867847436E+000 
10771485.607 +5.3666489076E-001 +7.1076430355E+000  +1.0437102274E-002 +2.5580642244E+001  +8.7954134677E-003 +3.8031110529E+001  +6.2484359730E-001 -1.2193837622E+000 
10896630.788 +5.5682723705E-001 +3.1978494138E+000  +9.5130788307E-003 +3.6199304135E+001  +9.9227510538E-003 +4.7817668229E+001  +6.1322117813E-001 -1.9480870890E+000 
11021775.970 +5.4607180698E-001 +3.4731074697E+000  +8.7486032542E-003 +3.1463876088E+001  +9.7335398005E-003 +3.8662199965E+001  +6.3398028271E-001 -3.9216130427E-001 
11146921.151 +5.7020986071E-001 +6.5366111494E+000  +9.4759609211E-003 +3.8995003614E+001  +1.1610568806E-002 +4.3627849755E+001  +6.1710580275E-001 -2.1566250333E+000 
11272066.333 +5.8457023968E-001 +6.6991281084E+000  +7.8591920389E-003 +1.7529947065E+001  +9.0371690550E-003 +4.5134781245E+001  +6.4136066305E-001 +3.1079250174E+000 
11397211.514 +6.1305046994E-001 +5.7687604070E+000  +1.1214169858E-002 +3.5022274017E+001  +1.1936398056E-002 +5.1943664223E+001  +6.4170881615E-001 +2.0397123915E+000 
11522356.696 +6.0958843071E-001 +4.7255474006E+000  +8.6664901619E-003 +3.0729697366E+001  +9.5191896515E-003 +4.6587904776E+001  +6.1698078958E-001 +1.1167030191E+000 
11647501.877 +6.3658010785E-001 +5.1730079985E+000  +8.8797267771E-003 +2.8453212014E+001  +1.0107082236E-002 +4.3122992779E+001  +6.5697042423E-001 +1.3695618248E+000 
11772647.059 +6.5142796905E-001 +5.3289986475E+000  +9.7574262807E-003 +2.6748331951E+001  +9.7719724776E-003 +3.7827602970E+001  +6.5781415366E-001 +1.2102939496E+000 
11897792.240 +6.1676122933E-001 +3.6402401673E+000  +1.0138568326E-002 +3.7018971406E+001  +1.1076694895E-002 +3.6817464110E+001  +6.8390872742E-001 +2.5812959317E-001 
12022937.422 +6.5865758677E-001 +5.4072323170E+000  +1.1526066014E-002 +2.8879251257E+001  +9.6093121895E-003 +3.3287545319E+001  +6.7464619099E-001 +5.4490528597E-001 
12148082.603 +6.6097383490E-001 +2.2154318526E+000  +9.2347209501E-003 +3.7232545257E+001  +1.0874036125E-002 +4.3804952567E+001  +6.9268654765E-001 +1.1436051167E+000 
12273227.785 +6.8579946724E-001 +2.1608724601E+000  +9.4066595902E-003 +3.0000125024E+001  +1.0150024082E-002 +3.9164557510E+001  +6.9382907494E-001 -1.7493655082E-001 
12398372.966 +7.0086173806E-001 +2.7452741566E+000  +9.9151226199E-003 +3.5067064330E+001  +1.0528505214E-002 +4.6937791816E+001  +7.1606817738E-001 +6.6389658730E-001 
12523518.148 +6.8198963055E-001 +2.6941913113E+000  +1.1531865344E-002 +3.1308643342E+001  +9.5631179338E-003 +4.0227938906E+001  +7.3050406358E-001 -1.3006033320E+000 
12648663.329 +7.5439759443E-001 +2.9746213611E+000  +1.0684672799E-002 +2.7806221430E+001  +1.0392444882E-002 +4.2974894652E+001  +7.4511987969E-001 -6.4011907354E-001 
12773808.511 +7.3922814672E-001 +2.8255858175E+000  +1.0100319025E-002 +2.9724622470E+001  +1.2570280306E-002 +4.5607741312E+001  +7.4471612389E-001 -1.1712038969E+000 
12898953.692 +7.6904012235E-001 +8.1748500886E-001  +1.1453067422E-002 +4.3262103297E+001  +1.2658972833E-002 +4.2568470141E+001  +7.6742469363E-001 -1.7689451532E+000 
13024098.874 +7.7733168763E-001 +3.5567293859E+000  +9.7563033579E-003 +3.5884051572E+001  +1.1063236343E-002 +4.6614260628E+001  +8.0248807209E-001 -1.3011885969E+000 
13149244.055 +7.8527901864E-001 +1.6474344377E+000  +1.1823047533E-002 +3.1132188051E+001  +7.8399119364E-003 +3.6736713739E+001  +8.0964609687E-001 -1.3632723647E-001 
13274389.237 +8.0876501139E-001 -4.0158562128E-001  +1.1092739382E-002 +3.9314353280E+001  +1.2930682724E-002 +4.8234367229E+001  +8.2175362839E-001 -3.3186590808E+000 
13399534.418 +8.2565980629E-001 -1.2491363997E+000  +1.2694909043E-002 +4.4005029497E+001  +1.0632547979E-002 +4.3140547441E+001  +8.3642915644E-001 -2.6176426728E+000 
13524679.599 +8.3877961607E-001 -1.4852352111E+000  +1.1842748178E-002 +3.9148342611E+001  +1.1108556571E-002 +4.2783423418E+001  +8.5320446930E-001 -3.3949258659E+000 
13649824.781 +8.7306886262E-001 -2.3534415870E+000  +1.3967978949E-002 +3.7657168859E+001  +1.2187035199E-002 +4.6025476794E+001  +8.6347999964E-001 -3.6165337810E+000 
13774969.962 +8.5679257615E-001 -1.4221995566E+000  +1.2628911837E-002 +3.4374402778E+001  +1.0738756256E-002 +3.8075783478E+001  +8.9726098769E-001 -3.2122074432E+000 
13900115.144 +8.7028826253E-001 -3.0441366764E+000  +1.1689297100E-002 +3.9931481569E+001  +1.1317791654E-002 +3.6164623834E+001  +8.9830270334E-001 -3.4604824580E+000 
14025260.325 +9.2313949569E-001 -4.5985660509E+000  +1.3019760728E-002 +4.3555488641E+001  +1.2088775692E-002 +3.7636049819E+001  +9.2212223043E-001 -2.9285888370E+000 
14150405.507 +9.1601238336E-001 -2.9890177861E+000  +1.2880324786E-002 +4.2411649164E+001  +1.3535109661E-002 +4.1745464590E+001  +9.4022137483E-001 -3.9409177647E+000 
14275550.688 +9.3914269940E-001 -3.5393564240E+000  +1.2467281558E-002 +3.5722035878E+001  +1.2756975179E-002 +3.8144828193E+001  +9.4959086143E-001 -3.6411660235E+000 
14400695.870 +9.7861123644E-001 -5.5176366467E+000  +1.3889396254E-002 +4.0449762603E+001  +1.3555743694E-002 +3.8875396808E+001  +9.7117304851E-001 -4.5990092453E+000 
