!  2-Port S-parameters saved by WinCal
! VAR NAME=S2_r6c8_pristine_9k-100M_2
! VAR DATE=27/08/2024 12:11:23
! VAR FILENAME=S2_r6c8_pristine_9k-100M_2.S2P
! VAR MeasName=S-Parameters (CALIBRATED_DATA) read from VNA (P5004A)
! VAR MeasDate=27/08/2024 12:11:07
! VAR PHYS_PORTS=1,2
! VAR ObjTypeName=DATASET
! VAR IndexType=Frequency
!
# Hz S MA R 50
9000.000 +1.9235562894E-002 -1.7702412097E+002  +9.2259733271E-003 -7.1476220911E+001  +2.2608239151E-002 -1.2006569779E+002  +2.7440161023E-001 -1.1969578932E+002 
134145.181 +1.1031754417E-001 +1.6946585193E+002  +1.6376666349E-004 -1.2941511938E+002  +3.2910393360E-004 +1.5230993430E+002  +2.4077928380E-001 -1.7146839525E+002 
259290.363 +1.1331824511E-001 +1.6998686856E+002  +8.5917077886E-004 +4.9009889733E+001  +8.7610345944E-004 -1.5353192626E+002  +2.4070706697E-001 -1.6855138717E+002 
384435.544 +1.1415259163E-001 +1.6991519349E+002  +4.6691515480E-004 -3.6875631218E+000  +7.4973568663E-004 +2.8184215617E+001  +2.4042860937E-001 -1.6858435523E+002 
509580.726 +1.1423172430E-001 +1.6936512259E+002  +3.1493364054E-004 +9.3276759730E+001  +1.0094570744E-003 +3.4238726724E+001  +2.4351234404E-001 -1.6875445841E+002 
634725.907 +1.1671726568E-001 +1.7099458691E+002  +6.1438946425E-005 +8.9100963487E+001  +6.8739304728E-004 +2.3772367471E+001  +2.4447444980E-001 -1.6540724412E+002 
759871.089 +1.1588258029E-001 +1.6965859626E+002  +1.1110690282E-003 +1.4983208248E+002  +4.3576028382E-004 -4.2341919452E+001  +2.4263272506E-001 -1.6595503019E+002 
885016.270 +1.1400926211E-001 +1.6966210382E+002  +5.3847751871E-004 -1.0623451289E+002  +2.6509663329E-004 -1.2225756166E+002  +2.2607409143E-001 -1.6140891831E+002 
1010161.452 +1.1432158718E-001 +1.7113874784E+002  +7.9099996394E-004 +6.7124796832E+001  +4.7490869647E-003 +9.3162807887E+001  +1.3654680894E-001 -1.7998714776E+002 
1135306.633 +1.1727029359E-001 +1.7152948629E+002  +2.0254422016E-003 +6.8205660961E+001  +2.7592783717E-003 +1.2786862279E+002  +1.4466223414E-001 -1.6247717130E+002 
1260451.815 +1.2085115678E-001 +1.7147711360E+002  +4.1335163745E-004 +1.2540036313E+002  +2.0583181600E-003 +9.3285688396E+001  +2.6190822515E-001 -1.5444650323E+002 
1385596.996 +1.2381298211E-001 +1.7246448313E+002  +6.6260226506E-004 +1.5992276487E+002  +8.0639754113E-004 -1.3029130789E+002  +2.5324766642E-001 -1.5978007162E+002 
1510742.178 +1.2406919616E-001 +1.7039489227E+002  +1.1320209368E-003 -1.6209343573E+002  +4.1314696735E-004 +9.1401348647E+001  +2.5330068038E-001 -1.5897597182E+002 
1635887.359 +1.2593143036E-001 +1.6939410829E+002  +1.6101178242E-003 -1.5829661573E+002  +2.1944078805E-003 +1.3778507654E+002  +2.3539365500E-001 -1.5519186843E+002 
1761032.541 +1.2335462839E-001 +1.6884187001E+002  +1.4769763493E-003 +1.4379260976E+002  +1.1584983700E-003 -1.7175005564E+001  +2.3267656836E-001 -1.5926529711E+002 
1886177.722 +1.2378422014E-001 +1.6844668723E+002  +4.9476996190E-003 +8.9219021766E+001  +2.3342286116E-003 +9.0398553058E+001  +1.7817361166E-001 -1.6062407189E+002 
2011322.904 +1.2810521281E-001 +1.6729709331E+002  +1.4463422810E-003 -1.6382246422E+002  +3.6661820207E-003 +2.6695254280E+000  +1.6081242124E-001 +1.7428574959E+002 
2136468.085 +1.2983634782E-001 +1.6093455840E+002  +2.7130102045E-003 -3.1465921542E+001  +2.8214188931E-003 -3.4002493872E+001  +2.0571327922E-001 +1.7901584905E+002 
2261613.267 +1.2711464458E-001 +1.6497246504E+002  +7.9094884828E-003 -8.8172517646E+001  +7.2472383773E-004 +1.7002209371E+002  +2.1982407901E-001 +1.3916427057E+002 
2386758.448 +1.3341091294E-001 +1.6138552881E+002  +5.0561165256E-003 +5.2096135993E+001  +6.7209708469E-003 -3.6345551974E+001  +1.1897401882E-001 +1.6301566177E+002 
2511903.630 +1.3162601200E-001 +1.5819271804E+002  +2.2498037590E-003 -7.2564117152E+001  +3.9658329201E-003 +2.6481793959E+001  +7.4901221151E-002 +1.4723757546E+002 
2637048.811 +1.1380262892E-001 +1.4026087678E+002  +1.2565306118E-002 -1.7128484004E+002  +6.4881990135E-003 -1.6760743018E+002  +3.8606560291E-001 +1.5655858348E+002 
2762193.992 +1.1912663760E-001 +1.7363156672E+002  +5.6988781391E-003 -4.1565423026E+001  +1.0072851585E-002 -1.4933291498E+002  +6.0097289022E-001 +1.6891629230E+002 
2887339.174 +1.0461721505E-001 +1.6842793419E+002  +1.2142241299E-002 -1.7253572061E+002  +9.4892491794E-003 +1.5033955789E+002  +6.2363600142E-001 -1.2896896621E+002 
3012484.355 +1.3162511882E-001 +1.7733852291E+002  +2.3747093722E-003 -7.1187384649E+001  +6.1264836491E-003 -5.4079582196E+001  +6.5207158427E-001 -1.0748352964E+002 
3137629.537 +9.4662373688E-002 +1.6565921200E+002  +5.5040702316E-003 -1.6698956318E+002  +6.9767633178E-003 +6.8667041447E+001  +2.3032822076E-001 -7.3017263584E+001 
3262774.718 +9.2141287836E-002 -1.7918754632E+002  +9.2076034625E-003 -1.3376362146E+002  +1.3887138822E-002 -5.8143770416E+001  +1.2377814033E-001 -1.1051727482E+002 
3387919.900 +1.0710598140E-001 +1.7455850999E+002  +5.9217483481E-003 -2.6526675007E+001  +4.2175923321E-003 -2.5863418060E+001  +1.4604624852E-001 -1.3878433450E+002 
3513065.081 +8.9098874103E-002 +9.9256750755E+001  +4.5672539443E-002 -1.6440614836E+002  +7.4534017210E-002 -2.0435590607E+001  +9.2004067359E-001 +6.8771060847E+001 
3638210.263 +1.3273033377E-001 +1.4676416064E+002  +1.4694215974E-002 -1.5304240391E+002  +1.4387401886E-002 +6.1196367920E+001  +3.4097951770E-001 +1.3802486098E+002 
3763355.444 +1.8789248363E-001 +1.4914955172E+002  +2.2462576809E-002 +6.9184898983E+001  +3.7795062251E-003 +3.6038091398E+000  +1.1912105688E+000 +1.2482822502E+002 
3888500.626 +2.2788857246E-001 +1.3893079839E+002  +1.0223930906E-002 -1.4607170798E+002  +1.1190165374E-002 -1.4549291668E+002  +4.4364137506E-001 +1.3179144073E+002 
4013645.807 +1.7348355578E-001 +1.4653684437E+002  +7.7007151088E-003 +3.7304333843E+001  +5.9414699083E-003 -1.7142436503E+002  +4.2264804589E-001 +8.7113253986E+001 
4138790.989 +1.9035647428E-001 +1.4725198449E+002  +1.3684300638E-002 +8.4901197919E+001  +1.3806094805E-002 -1.2647314229E+002  +1.0045575114E+000 +8.7644179265E+001 
4263936.170 +1.7945383871E-001 +1.3612486984E+002  +5.9624976447E-003 +6.0780414935E+001  +9.4833402938E-003 +1.4459353652E+002  +6.6396591752E-001 +1.2351851033E+002 
4389081.352 +1.6486279882E-001 +1.2833224661E+002  +1.5801526116E-002 +1.3116487341E+002  +1.1040618173E-002 -1.7910772522E+002  +6.5422350944E-001 +9.4268346741E+001 
4514226.533 +2.2007249234E-001 +1.2196993788E+002  +1.4691095967E-002 -1.4240834240E+002  +1.0315609366E-002 -1.3463296519E+002  +9.3486684156E-001 +1.1632480748E+002 
4639371.715 +3.3038302281E-001 +1.1967726168E+002  +3.2077415866E-002 +1.5866916780E+002  +3.3970758487E-002 -1.5474816876E+001  +6.6660965250E-001 +5.7355385883E+001 
4764516.896 +2.5744837822E-001 +1.2543464068E+002  +3.2532714716E-002 +2.5960275861E+001  +4.2648004748E-002 -7.3041232149E+001  +2.0355043129E+000 +1.5846085349E+002 
4889662.078 +4.9071083139E-001 +1.3791598124E+002  +2.6170201768E-002 +8.4698851661E+001  +6.1685889847E-002 -1.0698160386E+002  +3.0937334797E+000 -1.0458147319E+002 
5014807.259 +4.6221361630E-001 +1.3816885281E+002  +7.7755816148E-002 -9.9199016359E+001  +8.1208170976E-003 -9.4973089628E+001  +4.0746496887E+000 +1.2114666749E+002 
5139952.441 +4.0876693878E-001 +1.2756234334E+002  +9.1220067490E-003 -2.7306065036E+001  +1.1840400647E-002 +1.4612587414E+002  +1.3400806256E+000 +9.0413717412E+001 
5265097.622 +3.9052139264E-001 +1.3352618459E+002  +4.6214498060E-002 -1.1258148205E+002  +5.2251018483E-002 +1.1306908022E+002  +4.2097537807E+000 +6.0220335975E+001 
5390242.804 +4.5298130496E-001 +1.2374819272E+002  +1.9643650207E-002 -1.0242474006E+002  +4.6147824000E-002 -6.2449549323E+001  +4.3277191631E+000 +1.0245667640E+002 
5515387.985 +3.8974432870E-001 +1.3328521610E+002  +1.1225096302E-002 +1.3459800247E+002  +1.8393025912E-002 +1.2382499014E+002  +1.5848582303E+000 +1.0529599827E+002 
5640533.166 +4.8363026387E-001 +1.2812632143E+002  +2.0703784743E-002 -1.2543903845E+002  +7.0470300918E-003 +1.3571831782E+002  +1.6695286164E+000 +1.2185652940E+002 
5765678.348 +4.6038048928E-001 +1.1647472933E+002  +1.5466035806E-002 -9.3599467223E+001  +1.3700952165E-002 +3.7120190187E+001  +2.2332763944E+000 +8.7231207788E+001 
5890823.529 +5.8634930399E-001 +1.2028393543E+002  +8.3760268400E-004 -1.6509454209E+002  +3.1960872962E-003 -1.0508660095E+002  +2.2879947071E+000 +7.7917067857E+001 
6015968.711 +6.4879497388E-001 +1.2199455606E+002  +5.4379815980E-003 -1.6262255405E+002  +1.6163495910E-002 +1.1993546877E+002  +1.6956949925E+000 +4.6917715716E+001 
6141113.892 +7.9513285996E-001 +1.2353361272E+002  +5.9523819607E-003 +9.0557131869E+000  +1.6504640858E-002 -1.3401955730E+002  +2.6434432041E+000 +3.5910074155E+001 
6266259.074 +8.3856332131E-001 +1.0570862411E+002  +1.1300151018E-002 -2.4109458820E+001  +3.7433095753E-002 +9.4481309729E+001  +1.3432169245E+000 +2.4283834216E+001 
6391404.255 +9.6323153361E-001 +1.0290621956E+002  +2.0895574951E-002 +1.7371967124E+002  +3.4095596442E-002 +1.2066260593E+002  +1.8913197722E+000 +2.5021931539E+001 
6516549.437 +1.2619871868E+000 +7.3018499857E+001  +1.8597489809E-002 +1.7368543871E+002  +4.3000925942E-002 +1.0255740124E+002  +1.8784242513E+000 +1.2682018862E+001 
6641694.618 +1.8721502652E+000 +6.8367743978E+001  +1.7503641146E-002 +1.5080652864E+002  +3.2397428529E-003 -1.3548200681E+002  +1.3409506001E+000 +1.9407008782E+001 
6766839.800 +2.3808179726E+000 +4.3196773907E+001  +5.6476825642E-003 +1.0563578445E+002  +2.1363356055E-003 +1.9893537195E+001  +1.2618298587E+000 -4.3480789756E+000 
6891984.981 +2.0435481369E+000 +4.4357913961E+001  +2.2395026864E-002 +1.1712165513E+002  +1.8800221905E-002 +1.1228976683E+002  +1.4437751284E+000 -1.2256386743E+001 
7017130.163 +2.4697623447E+000 +2.5742012356E+001  +2.8009426056E-002 -2.5136272344E+001  +3.5817591033E-002 +9.7431581199E+001  +1.2987126180E+000 -5.8725371090E+000 
7142275.344 +1.8414542989E+000 +1.3243741038E+001  +2.7902500939E-002 +6.2825365979E+001  +2.2113978841E-002 +8.7530037278E+001  +1.5602586294E+000 -4.9987298188E+000 
7267420.526 +1.6785272578E+000 -8.4994760377E+000  +1.4192456431E-002 +7.6593386631E+001  +1.4616065268E-002 +5.8031563681E+001  +1.3787926471E+000 -1.2821262504E+001 
7392565.707 +1.5619488957E+000 -3.2231816787E+000  +5.5058414169E-003 +7.8355351602E+001  +1.2817203213E-003 +9.2235803653E+000  +1.3806574225E+000 -1.2272997503E+001 
7517710.889 +1.2408982789E+000 -1.3834369627E+000  +1.7323383930E-003 +1.6038510272E+002  +3.9552636091E-003 +8.2505390006E+001  +1.2917825986E+000 -4.5571407375E+000 
7642856.070 +1.1354331612E+000 +3.8348166292E+000  +7.2151204499E-003 +9.9109890816E+001  +6.2574252310E-003 +8.1868556439E+001  +1.0985212228E+000 +7.2214184043E-001 
7768001.252 +9.6894008479E-001 +6.5872615697E+000  +9.5301292701E-003 +8.3605772331E+001  +1.4832934621E-003 +1.3697074210E+002  +1.0827398516E+000 +2.4521310687E-001 
7893146.433 +8.9877494238E-001 +7.0490662691E+000  +8.3608487346E-003 +6.6042212066E+001  +6.7806865804E-003 +9.2518273609E+001  +9.9261134266E-001 -3.9848991839E+000 
8018291.615 +8.8777682528E-001 +3.2010775271E+000  +1.9184160923E-003 -1.1119349014E+002  +6.6992550269E-003 +1.0012089446E+002  +8.5406618628E-001 -4.0356406620E+000 
8143436.796 +7.6739785337E-001 +7.0867661519E+000  +7.4357123779E-003 +1.0092833534E+002  +5.2821051745E-003 +3.7007451277E+001  +7.9971182770E-001 -2.2095093037E+000 
8268581.977 +6.9337051299E-001 +1.0072439616E+001  +2.0973290914E-003 +1.2139613367E+002  +7.2517113538E-003 +9.6924033697E+001  +8.0568098412E-001 +3.4584981089E+000 
8393727.159 +7.8998496393E-001 +2.6775198438E+000  +2.1288346331E-003 +6.6352628409E+000  +5.0090557772E-003 +9.1579926600E+001  +7.2122117735E-001 +6.0950574970E+000 
8518872.340 +7.6238261692E-001 +6.4954337226E+000  +3.5657120588E-003 +1.2310348711E+002  +5.8715431707E-003 +7.8346329584E+001  +7.2423553675E-001 +6.5692734857E+000 
8644017.522 +6.6187176084E-001 +7.8051359963E+000  +4.6677068549E-003 +1.1880440225E+002  +1.6284679284E-003 +1.7734082045E+002  +7.2269185884E-001 +2.4285993367E+000 
8769162.703 +6.4262345687E-001 +3.0897386670E+000  +3.1165413372E-003 +9.4534471582E+001  +1.6778373301E-003 -1.5925816697E+002  +7.0325803882E-001 -4.8632528912E-001 
8894307.885 +6.4210644212E-001 +5.2995785427E+000  +6.2142464359E-003 +1.1269492600E+002  +6.8158950079E-003 +8.8653446922E+001  +6.6386482320E-001 +3.8122092061E-001 
9019453.066 +5.6820335747E-001 +3.8437458247E+000  +5.1221750956E-003 +8.7849749926E+001  +3.4055752710E-003 +1.2403962329E+002  +6.5509246728E-001 -4.1639880370E+000 
9144598.248 +6.1788049296E-001 -2.9499274547E+000  +5.6137642030E-003 +9.2166055679E+001  +2.7702259885E-003 +8.6890994145E+001  +5.7678957089E-001 -5.2891208697E+000 
9269743.429 +6.1608001302E-001 +1.1267120632E+000  +7.1111100094E-003 +1.4939652857E+002  +5.6458305557E-003 +1.0637697103E+002  +6.6266571078E-001 -1.3543311737E+000 
9394888.611 +5.7148677723E-001 +2.0363771195E+000  +5.4855928978E-003 +5.7028152551E+001  +8.1841623438E-004 +9.5601032773E+001  +5.5562216862E-001 -2.5414861229E+000 
9520033.792 +5.5101396072E-001 +1.3120367065E-001  +3.0966605224E-003 +7.7096176996E+001  +4.0103330659E-003 +4.3288243689E+001  +6.2041212425E-001 -6.5046189857E+000 
9645178.974 +5.5328886365E-001 +2.2446784107E+000  +1.5389221607E-003 -2.3355665785E+001  +1.9775644333E-003 +7.1701448288E+001  +6.0865024164E-001 -2.0700029545E+000 
9770324.155 +5.3144223006E-001 -9.9893780509E-001  +1.3426013351E-003 +9.0492263757E+001  +4.1685842294E-003 +8.0334994999E+001  +5.4720453089E-001 -6.8996307201E+000 
9895469.337 +5.4896378772E-001 +2.6554846123E+000  +4.8736112637E-003 +6.6404256037E+001  +1.7863580415E-003 +1.5884951529E+002  +5.4066674599E-001 -7.6087815313E+000 
10020614.518 +5.4046674586E-001 +3.1491013212E+000  +4.4966511055E-003 +7.7749685483E+001  +5.6553007431E-003 +9.1909641080E+001  +6.2373451341E-001 -6.7100692710E+000 
10145759.700 +5.1352639729E-001 +6.0813301774E-001  +3.8820243898E-003 +4.5636514879E+001  +6.2321380188E-003 +7.0891406616E+001  +5.6143568122E-001 -3.6920944339E+000 
10270904.881 +5.6646972288E-001 +8.2696737919E-001  +5.0404754037E-003 +1.0169089137E+002  +4.2630298194E-003 +1.1454458839E+002  +6.1384538940E-001 -2.7783405854E+000 
10396050.063 +5.7447977149E-001 -1.9568713762E-001  +3.7538673253E-003 +7.3691889932E+001  +6.7583229900E-003 +1.0426324707E+002  +5.9635976768E-001 -5.7552201811E+000 
10521195.244 +5.7361958551E-001 +4.8058220250E+000  +4.4670690422E-003 +8.1509243716E+001  +3.0341618710E-004 -1.1484768267E+001  +5.9376026026E-001 -3.5574393642E+000 
10646340.426 +5.9746847376E-001 +4.6789752890E+000  +5.8863075704E-003 +1.1922684018E+002  +4.4481778460E-003 +1.0940451246E+002  +5.8744340537E-001 -5.3328467339E-001 
10771485.607 +5.6409107766E-001 +5.9985368185E+000  +4.1300578104E-003 +6.3664231302E+001  +4.6053026573E-003 +7.7269168298E+001  +5.8929570007E-001 +3.1411651545E+000 
10896630.788 +6.0101682938E-001 +4.6030699576E+000  +5.7065308724E-003 +1.1144907026E+002  +3.5019071880E-003 +9.4155134538E+001  +5.8389099485E-001 -8.9208022555E-001 
11021775.970 +6.0615414687E-001 +5.9526535610E+000  +3.3203353345E-003 +1.0649149549E+002  +3.7903070947E-003 +8.5235995293E+001  +6.3482173258E-001 +1.7081100216E-001 
11146921.151 +6.0037460547E-001 +7.0501694599E+000  +3.8318571030E-003 +1.0116291950E+002  +4.8039157903E-003 +8.1464354902E+001  +5.9980076751E-001 +2.0279631495E-001 
11272066.333 +5.8942138344E-001 +3.7615941677E+000  +4.6460127392E-003 +9.1317434123E+001  +4.7758455295E-003 +1.0880071618E+002  +6.5073034694E-001 +4.2728809935E-001 
11397211.514 +6.0786942125E-001 +3.2143537191E+000  +5.9514569756E-003 +8.7555268241E+001  +5.9474491262E-003 +1.0267368552E+002  +6.5649492076E-001 +1.2552393109E+000 
11522356.696 +6.3000064680E-001 +4.8860798062E+000  +4.5352466002E-003 +8.8610486279E+001  +6.1652810049E-003 +1.1276109230E+002  +6.4438598599E-001 +1.2422377982E+000 
11647501.877 +6.3561030358E-001 +4.1564581040E+000  +5.0388529991E-003 +9.8358210038E+001  +4.3058377759E-003 +9.7215857240E+001  +6.3866685140E-001 +5.6756896318E-001 
11772647.059 +6.5071825328E-001 +6.5934935840E+000  +4.8029903074E-003 +8.5190364331E+001  +4.8361450701E-003 +9.8332120731E+001  +6.5553884286E-001 -8.3799036670E-002 
11897792.240 +6.7329428538E-001 +4.4503909225E+000  +4.3668292901E-003 +9.7644106666E+001  +3.9044239557E-003 +9.5597397514E+001  +6.8658973672E-001 +1.3400346070E+000 
12022937.422 +6.6972206301E-001 +2.6782916554E+000  +5.0674775284E-003 +8.9011012214E+001  +6.0309867097E-003 +1.0445659944E+002  +6.7753418714E-001 +2.9960219860E-001 
12148082.603 +6.8128358491E-001 +4.9286981072E+000  +5.0866966820E-003 +8.8805467020E+001  +6.8066785644E-003 +9.7385693662E+001  +7.2906850826E-001 +3.9984092232E-001 
12273227.785 +6.8010764001E-001 +5.5771019860E+000  +4.1756971809E-003 +9.0158738209E+001  +6.5507776278E-003 +1.0832732679E+002  +7.2275151005E-001 -1.8932447652E-001 
12398372.966 +7.2032310718E-001 +8.4599929064E-001  +6.4874414296E-003 +7.9277064525E+001  +5.1535749479E-003 +8.4195257131E+001  +7.0695588750E-001 -1.0203251669E+000 
12523518.148 +7.0784469889E-001 +2.5360644375E+000  +5.7132572874E-003 +7.3874068923E+001  +6.1958841948E-003 +1.0337302704E+002  +7.2217247757E-001 -9.6618506271E-001 
12648663.329 +7.1550009806E-001 +3.0534677777E+000  +5.5655572142E-003 +8.3486957607E+001  +5.9056979636E-003 +9.3010945744E+001  +7.5247722252E-001 -1.3551384676E+000 
12773808.511 +7.6219199854E-001 +9.4405946114E-001  +5.1425035909E-003 +8.1697160238E+001  +5.6765780437E-003 +1.1290738330E+002  +7.7759746656E-001 -2.7052210530E+000 
12898953.692 +7.4927113965E-001 +1.4409211103E-001  +6.2620738115E-003 +1.0073196949E+002  +7.2583686253E-003 +9.4499049413E+001  +7.7804170183E-001 -2.0310665075E+000 
13024098.874 +8.0563629426E-001 +3.0554132060E+000  +8.0926526446E-003 +8.9894927035E+001  +6.7118835291E-003 +1.1441722599E+002  +8.1607176653E-001 -1.7129512912E+000 
13149244.055 +8.2753859976E-001 -1.0113489780E+000  +6.2633599718E-003 +9.2278496828E+001  +6.0679551331E-003 +9.1389810733E+001  +8.3809887759E-001 -2.5233365801E+000 
13274389.237 +8.2462661900E-001 +5.6342144729E-001  +6.5494248536E-003 +9.7367460978E+001  +6.1035813068E-003 +9.5213028180E+001  +8.3557600522E-001 -1.8500216286E+000 
13399534.418 +8.4071274277E-001 -9.3804077322E-001  +5.9100879370E-003 +8.3871034752E+001  +7.3698311873E-003 +9.9008312384E+001  +8.3818477769E-001 -9.6174971878E-001 
13524679.599 +8.6410295222E-001 -9.4117511324E-001  +5.4289514787E-003 +8.4600923598E+001  +4.5866597292E-003 +9.2619178088E+001  +8.7284385867E-001 -3.0119384468E+000 
13649824.781 +8.6995624963E-001 -1.6894971358E+000  +7.2280053041E-003 +8.4064012758E+001  +6.7237462718E-003 +9.7204376610E+001  +8.7924406975E-001 -3.2373539634E+000 
13774969.962 +8.8513237682E-001 -2.7848056493E+000  +6.8575199074E-003 +9.4570521705E+001  +5.1829285132E-003 +8.6528272360E+001  +8.9470561851E-001 -3.2615810932E+000 
13900115.144 +8.8661515918E-001 -2.9443184911E+000  +6.3575561632E-003 +8.5142280062E+001  +6.9423707449E-003 +9.5235990106E+001  +9.1758191023E-001 -2.4595514026E+000 
14025260.325 +9.2391196724E-001 -3.1501100756E+000  +7.2575817589E-003 +8.1964004182E+001  +7.2841624969E-003 +1.0047691575E+002  +9.3083075023E-001 -4.2651413484E+000 
14150405.507 +9.4213777663E-001 -4.0359674146E+000  +8.2850900923E-003 +8.1959331145E+001  +7.3052472528E-003 +9.6716004082E+001  +9.1684313471E-001 -4.1365267088E+000 
14275550.688 +9.7747682149E-001 -4.2612817573E+000  +6.5588974687E-003 +8.7630008160E+001  +6.1046513750E-003 +9.6432916334E+001  +9.8782476181E-001 -5.0706767643E+000 
14400695.870 +1.0009825945E+000 -5.2210762310E+000  +9.0252320154E-003 +9.7284955203E+001  +8.1903837506E-003 +9.4156824627E+001  +9.8961807347E-001 -4.6099625606E+000 
