!  2-Port S-parameters saved by WinCal
! VAR MeasName=S-Parameters (CALIBRATED_DATA) read from VNA (P5004A)
! VAR MeasDate=28/08/2024 10:20:27
! VAR NAME=S2_r4c9_SET1_9k-100M_2
! VAR FILENAME=S2_r4c9_SET1_9k-100M_2.S2P
! VAR DATE=28/08/2024 10:20:27
! VAR PHYS_PORTS=1,2
! VAR ObjTypeName=DATASET
! VAR IndexType=Frequency
!
# Hz S MA R 50
9000.000 +8.3883852692E-002 -1.7252169385E+002  +3.2061144002E-003 +1.5135669115E+002  +8.2086510610E-003 -2.6194369329E+001  +2.5695531224E-001 -1.3665518371E+002 
134145.181 +1.1113835651E-001 +1.6950717816E+002  +6.7182846658E-004 -1.2596085026E+002  +1.6789951657E-004 -1.3738577775E+002  +2.3931048540E-001 -1.7089780357E+002 
259290.363 +1.1155209378E-001 +1.6988996634E+002  +5.4561042961E-004 -6.0674035609E+001  +1.0271875655E-003 -1.8442122532E+001  +2.4313018130E-001 -1.6869259464E+002 
384435.544 +1.1300849317E-001 +1.7016152649E+002  +7.1413102769E-004 -1.1780849840E+002  +2.6128189625E-004 -3.6229709483E+001  +2.4511790805E-001 -1.7039173301E+002 
509580.726 +1.1522775322E-001 +1.7113997734E+002  +2.6677324793E-003 -1.4955667985E+002  +2.3800583427E-003 -5.6756510560E+001  +2.5836280886E-001 -1.5941367891E+002 
634725.907 +1.1669226392E-001 +1.7143512657E+002  +3.6985681381E-005 +1.4466844340E+002  +1.1611415472E-003 +8.4252449369E+001  +2.6053901601E-001 -1.6386461839E+002 
759871.089 +1.1936929957E-001 +1.7086727656E+002  +9.3474225816E-004 -1.4022222920E+002  +6.3451110078E-004 -6.6821934144E+001  +2.5265961213E-001 -1.6490815020E+002 
885016.270 +1.2098367038E-001 +1.6897357372E+002  +3.0886918169E-004 -1.7807756370E+002  +1.4845871731E-004 -3.0858152436E+001  +2.4587058944E-001 -1.6539758719E+002 
1010161.452 +1.1783888809E-001 +1.7079460606E+002  +5.6610066346E-004 -3.4925271233E+001  +1.0726555348E-003 -1.7554916305E+002  +2.0983492998E-001 -1.6695398290E+002 
1135306.633 +1.1352344484E-001 +1.6926117386E+002  +7.6364498151E-004 +1.3995395644E+001  +1.3235603594E-003 -1.2543096695E+002  +1.9918805357E-001 -1.6746065206E+002 
1260451.815 +1.1876796031E-001 +1.7013142781E+002  +4.9717323606E-004 -4.6582124839E+000  +1.6182799678E-003 +1.1444715923E+002  +2.1209068482E-001 -1.5293228352E+002 
1385596.996 +1.2592178264E-001 +1.7170390852E+002  +1.4238763740E-004 -7.9197245474E+001  +9.3910129739E-004 +1.3228576097E+002  +2.7912409222E-001 -1.5792338558E+002 
1510742.178 +1.2653272865E-001 +1.7107598942E+002  +5.5869956972E-004 -1.7064149202E+001  +5.2694609428E-004 -1.4296091786E+002  +2.5033247709E-001 -1.5853407412E+002 
1635887.359 +1.2925570299E-001 +1.7064619297E+002  +2.8683190736E-003 -9.3654417143E+001  +1.0707647398E-003 -1.7187701268E+002  +2.4674220405E-001 -1.5308133912E+002 
1761032.541 +1.2892278594E-001 +1.6897491304E+002  +8.1961589324E-004 -3.7392723371E+001  +1.7550525809E-003 +2.5087850408E+001  +2.3532273710E-001 -1.5806724047E+002 
1886177.722 +1.2980199237E-001 +1.6763362735E+002  +1.3964268043E-003 +3.4747356890E+001  +1.6801261788E-003 -4.4070074384E+001  +2.1357437454E-001 -1.6346354404E+002 
2011322.904 +1.2668597499E-001 +1.6697234636E+002  +8.1256740284E-004 +6.4473570520E+001  +7.3625152284E-004 +1.2641563080E+002  +1.9950644914E-001 -1.6019546003E+002 
2136468.085 +1.2670174915E-001 +1.6880504026E+002  +3.9983576109E-003 +6.2715218436E+001  +1.7049373272E-003 +1.3654135508E+002  +1.8450389350E-001 -1.6438310706E+002 
2261613.267 +1.2946205444E-001 +1.6683682761E+002  +7.7068337627E-004 +8.7581916866E+001  +5.8819830686E-003 -2.2781812462E+001  +1.5959493923E-001 -1.6724991448E+002 
2386758.448 +1.3540826668E-001 +1.6625688235E+002  +3.6436072234E-003 +9.8791566124E+001  +4.8147132355E-003 -1.0713847939E+002  +2.2178124666E-001 +1.7073697836E+002 
2511903.630 +1.3914673871E-001 +1.6491117552E+002  +6.9423796678E-003 +1.4473158234E+002  +4.3214452990E-003 -1.3196886127E+002  +2.5799613957E-001 +1.3749830579E+002 
2637048.811 +1.2395271021E-001 +1.4940503511E+002  +2.4100639769E-003 +1.4935501933E+002  +6.7265733324E-003 +1.3406611398E+002  +2.8948324655E-001 +1.5547043666E+002 
2762193.992 +9.0547566754E-002 +1.6821586753E+002  +7.5560630064E-003 -1.7056679383E+002  +2.6641459567E-002 -1.2682153821E+002  +1.4355643388E-001 +1.4486850650E+002 
2887339.174 +1.3676962781E-001 +1.7785149025E+002  +2.6091489009E-003 -2.3242130343E+001  +6.2864244905E-003 -1.6143363203E+002  +1.0706432101E-001 -1.3323406934E+002 
3012484.355 +1.0605515440E-001 -1.7451483889E+002  +3.7993746286E-003 -8.9198205651E+001  +4.9083090756E-003 +2.6073419726E+001  +1.8702322307E-001 -6.7847300797E+001 
3137629.537 +1.1451348879E-001 +1.7074513521E+002  +8.2919714336E-003 +1.5981463881E+001  +4.8053206805E-003 -1.1760409552E+002  +1.9975205687E-001 -1.2539319668E+002 
3262774.718 +1.3428375100E-001 +1.6789270043E+002  +1.3974442596E-002 +3.1988423933E+001  +5.6193837526E-003 +1.3930933782E+001  +3.5621554544E-002 -8.4829271367E+001 
3387919.900 +1.3679152864E-001 +1.5331424816E+002  +1.1584928670E-002 +5.3414501807E+001  +4.2279626056E-003 +9.1294261075E-001  +1.2658055482E-001 +9.5930262470E+001 
3513065.081 +1.3852318865E-001 +1.4725455504E+002  +1.8654532338E-002 +9.7935481809E+001  +3.0085978806E-002 -2.8678693265E+001  +4.9715028236E-001 +6.5211830406E+001 
3638210.263 +1.7279386928E-001 +1.4968853360E+002  +2.6656965779E-002 +1.3369275906E+002  +3.1403248779E-002 +1.3418142101E+001  +4.7893684028E-001 +9.8001846550E+001 
3763355.444 +1.8150480831E-001 +1.4871108042E+002  +3.6180414832E-003 +1.5355142821E+002  +1.1810716932E-002 +1.2249426638E+002  +6.0965241542E-001 +1.4311117082E+002 
3888500.626 +1.7816201416E-001 +1.4314792233E+002  +9.4844192201E-003 +5.4793948165E+001  +1.3302669011E-002 +1.0433256939E+001  +1.7669892923E-001 +1.4874339682E+002 
4013645.807 +1.8034120318E-001 +1.4773228456E+002  +9.6172697093E-003 +3.7072436136E+001  +2.0447806693E-002 +2.5431370769E+001  +4.6057859438E-001 +1.1817360338E+002 
4138790.989 +2.0789897854E-001 +1.4961472744E+002  +1.4554675426E-002 +1.2812985888E+002  +1.6013216274E-002 +7.5371359223E+001  +4.4349235265E-001 +1.2493802323E+002 
4263936.170 +1.9192927245E-001 +1.4754080649E+002  +5.2214185265E-003 -6.8867960831E+001  +7.5656623856E-003 +4.7408141861E+000  +3.3323800767E-001 +1.2582160464E+002 
4389081.352 +2.2148429413E-001 +1.4783404175E+002  +3.8331646454E-002 +1.0059536833E+002  +1.3419641035E-002 +7.0557821262E+001  +8.6368759667E-001 +1.1390301302E+002 
4514226.533 +2.4945887206E-001 +1.3281687407E+002  +4.0881612984E-002 +1.2546830654E+002  +5.4382364903E-002 +6.7385942946E+001  +9.8028758167E-001 +7.9947707470E+001 
4639371.715 +2.3059369573E-001 +1.3863414968E+002  +2.1694181814E-001 -5.5707480881E+001  +2.4103917636E-001 -6.3614910378E+001  +9.9874138522E+000 -6.2797432400E+001 
4764516.896 +2.4354991927E-001 +1.3660322543E+002  +2.9464777234E-002 -1.6666237158E+002  +4.4849747144E-002 +1.1764714694E+002  +4.4677489490E+000 +1.6499877108E+002 
4889662.078 +4.7261398798E-001 +1.2667144826E+002  +9.0513702414E-002 -1.7079207276E+002  +1.0442475501E-001 +1.7141590617E+002  +2.3654663915E+000 +1.4340829519E+002 
5014807.259 +4.5483574455E-001 +1.2225366431E+002  +1.6633416745E-001 -4.1754719077E+001  +1.2724454156E-001 -1.1607083131E+002  +4.6910060984E+000 -1.1428986683E+002 
5139952.441 +4.4874627723E-001 +1.2315231941E+002  +6.4469471902E-002 +1.6628649958E+002  +7.2886676621E-002 +1.3370216787E+002  +2.6320879157E+000 +1.5597905656E+002 
5265097.622 +4.0968744644E-001 +1.2954655011E+002  +5.3896601607E-002 +1.1324197920E+002  +5.4120497117E-002 +9.7837289222E+001  +1.9682550200E+000 +1.2534279061E+002 
5390242.804 +4.1395236655E-001 +1.1688186082E+002  +5.7122132232E-002 +1.0808047373E+002  +4.2803076713E-002 +9.9287815617E+001  +1.8656205196E+000 +1.1433243546E+002 
5515387.985 +4.7617357786E-001 +1.3274255959E+002  +1.1311958257E-001 +1.2339514415E+002  +8.2603538525E-002 +6.6548492955E+001  +3.3973030258E+000 +9.3543062119E+001 
5640533.166 +4.2362292694E-001 +1.2705162178E+002  +2.9505647968E-002 +1.0228935675E+002  +3.2845167547E-002 +4.0891121626E+001  +1.7265117919E+000 +8.8683051158E+001 
5765678.348 +5.3554832164E-001 +1.2519929727E+002  +7.6674232039E-002 +1.1526892106E+002  +8.1083228206E-002 +7.7991615331E+001  +2.6580554886E+000 +9.7538728720E+001 
5890823.529 +6.2153767631E-001 +1.2509556376E+002  +6.0052370083E-002 +1.0928475897E+002  +5.5445986873E-002 +5.2065463818E+001  +2.2048458395E+000 +8.0915596292E+001 
6015968.711 +5.4785289243E-001 +1.2400589478E+002  +5.0526248236E-002 +8.2271729566E+001  +5.4269686980E-002 +6.1653849011E+001  +1.9067409547E+000 +7.0774333505E+001 
6141113.892 +6.7024468840E-001 +1.0320662329E+002  +4.4767699027E-002 +9.3110168194E+001  +2.9699028705E-002 +5.7494459138E+001  +1.6126850314E+000 +4.9796797276E+001 
6266259.074 +8.3121563489E-001 +9.5949335267E+001  +4.6730132984E-002 +3.2245878818E+001  +5.1242974361E-002 +1.6077116568E+001  +1.1488602139E+000 +1.5971069046E+001 
6391404.255 +9.3881207419E-001 +8.7231992095E+001  +6.5404771810E-002 +5.8170677238E+001  +8.3547484834E-002 +4.2951001991E+001  +1.3540681517E+000 +2.2667989716E+001 
6516549.437 +1.1544267221E+000 +7.0348199513E+001  +8.7807336721E-002 +4.3296924653E+001  +5.1400963781E-002 +1.1234312780E+001  +1.5477766450E+000 +1.1104497833E+001 
6641694.618 +1.4972901050E+000 +6.6851234499E+001  +5.9814942184E-002 +1.9171129346E+001  +6.6542560377E-002 +6.0455875963E+001  +1.3132359264E+000 +8.0734832223E+000 
6766839.800 +1.3640829693E+000 +3.4087632336E+001  +3.8230511212E-002 +2.8955308315E+001  +8.4359385977E-002 +1.8734931190E+001  +1.3339707359E+000 +2.7680261311E-001 
6891984.981 +1.7444520002E+000 +2.6468537194E+001  +7.3553573406E-002 +1.5885255400E+001  +4.9228965232E-002 -1.7829778180E+001  +1.1319156958E+000 -1.4896590642E+000 
7017130.163 +1.6714680006E+000 +2.9433939241E+001  +4.6853475473E-002 +2.2350364898E+001  +4.5541638044E-002 +1.0762572688E+001  +1.2620732969E+000 -6.4180295815E+000 
7142275.344 +1.4468510159E+000 +5.9363412278E+000  +3.7519759045E-002 -1.9556463286E+001  +3.6619971347E-002 +2.2060350609E+001  +1.3063170070E+000 -1.4374999089E+001 
7267420.526 +1.6300320020E+000 -2.4327312188E+000  +4.0197460216E-002 -1.0714215933E+000  +4.0087227355E-002 -1.4575242808E+001  +1.3649386960E+000 -1.2458535777E+001 
7392565.707 +1.3610966486E+000 +5.8698785574E+000  +3.3508050991E-002 +1.6657450522E+001  +3.5140736050E-002 +2.0111580526E+001  +1.1973672622E+000 -1.1482086999E+001 
7517710.889 +1.1789900285E+000 +2.6337557195E+000  +2.2153554965E-002 +2.8129864992E+001  +3.5422258056E-002 +1.5830144313E+001  +1.2101687863E+000 -3.2750305420E+000 
7642856.070 +1.0898987720E+000 +1.3244382808E+000  +1.7184651956E-002 +2.4730140867E+001  +2.3902640027E-002 +2.6403318879E+001  +1.1994991561E+000 -5.5659181920E+000 
7768001.252 +8.8908593330E-001 +5.4533407831E+000  +2.7076597708E-002 +2.0528840572E+001  +2.1969939999E-002 +9.2393439705E+000  +9.0747652588E-001 -9.5347984904E+000 
7893146.433 +8.6364804443E-001 +6.1690039217E+000  +2.4880379567E-002 +8.3993451252E+000  +1.7953257006E-002 +2.3020028287E+001  +8.2950722655E-001 +1.8258711449E+000 
8018291.615 +7.4496128654E-001 -1.5820837112E+000  +1.8938069886E-002 +4.4372527814E+000  +2.3074979890E-002 -4.6870272588E+000  +8.2883302448E-001 -1.3942106784E+000 
8143436.796 +7.8248375485E-001 +6.2002189315E+000  +2.4639450399E-002 +1.4895200480E+001  +1.4980632372E-002 +2.3796862709E+001  +8.3924370243E-001 -3.2597177814E-001 
8268581.977 +6.9348570277E-001 +6.5022841169E+000  +1.8095997698E-002 -9.1287128770E+000  +1.4447885680E-002 +5.2099161152E+000  +7.9901906873E-001 +1.0610307315E+000 
8393727.159 +6.5670003866E-001 +7.7183333509E+000  +1.9786221542E-002 +1.4363470520E+001  +2.0041953144E-002 +1.5505786590E+001  +6.8144315588E-001 -2.4558106886E-001 
8518872.340 +6.1688171490E-001 +9.4628578153E+000  +2.0828893721E-002 +1.4948684667E+001  +2.6293014881E-002 +2.5854430077E+001  +6.4537883323E-001 +8.5021404854E-001 
8644017.522 +6.2135416742E-001 +7.1115366742E+000  +2.6220509855E-002 +5.0272775916E+000  +2.4503140033E-002 +9.6755398009E+000  +6.5480019165E-001 +4.2122903792E+000 
8769162.703 +6.6261155426E-001 +5.8248432426E+000  +2.3375310447E-002 +9.3587134304E+000  +2.0363759750E-002 +2.3372793649E+001  +7.0212678484E-001 +3.2273605075E+000 
8894307.885 +5.2500628743E-001 +1.0718898853E+001  +2.6097789423E-002 +6.2511458400E+000  +2.0413358603E-002 +2.2832037498E+001  +5.9681622167E-001 +5.9831083399E+000 
9019453.066 +5.2946590220E-001 +6.8387672452E+000  +1.7769239804E-002 +1.4944988030E+001  +1.8756036215E-002 +2.0253165720E+001  +6.4933333977E-001 -1.2964440517E+000 
9144598.248 +5.8159605089E-001 +2.9831422297E+000  +2.1901882509E-002 +1.2359976343E+001  +2.3856961316E-002 +1.3724129711E+001  +5.6849724579E-001 +5.4221780839E-001 
9269743.429 +5.4303765042E-001 +9.8898660167E+000  +1.5046157976E-002 -3.4894980588E+000  +1.9765192038E-002 +1.2795602884E+001  +5.9469122779E-001 -4.8549534043E-001 
9394888.611 +5.8071083765E-001 +6.7859361482E+000  +1.9680464106E-002 +1.8146312421E+000  +2.1704791340E-002 +1.8601303826E+001  +5.9205884962E-001 +4.6077339279E-001 
9520033.792 +5.4245048988E-001 +2.3607530014E+000  +2.4354847788E-002 +4.3231867764E+000  +1.8904289263E-002 +3.2400260822E+001  +5.8726710853E-001 +6.6974827289E-001 
9645178.974 +5.4550218346E-001 +3.9542944221E-001  +2.1248928535E-002 +1.3140098156E+001  +2.0027360309E-002 +1.9027512546E+001  +5.7975454099E-001 -1.7152343328E+000 
9770324.155 +5.1555592281E-001 -6.7918581098E-002  +1.7631376839E-002 +5.3121956960E+000  +2.1728225016E-002 +1.7749242579E+001  +5.6530205581E-001 -2.6819925129E+000 
9895469.337 +5.0401816288E-001 -1.4267501040E+000  +2.0157966425E-002 -3.7258551476E-001  +1.7466097323E-002 +3.4862739195E+001  +5.8408000949E-001 -3.7913926752E+000 
10020614.518 +5.8404469914E-001 +1.7053718654E+000  +1.7693537779E-002 +1.1727101803E+001  +1.9205488856E-002 +1.5437051966E+001  +6.1079574713E-001 -4.4866380339E-001 
10145759.700 +5.0915245750E-001 +3.3927119451E-001  +2.0329372245E-002 +8.9193068667E+000  +2.1518343362E-002 +2.5351701843E+001  +6.0150537407E-001 -2.0425074731E+000 
10270904.881 +5.4842031895E-001 +6.8568278864E+000  +2.2335304630E-002 +8.0334415771E+000  +2.0558217291E-002 +2.7579559526E+001  +5.5929849806E-001 -2.0149128165E+000 
10396050.063 +5.2274421946E-001 +6.0943635692E+000  +1.8031890250E-002 +8.5051302691E+000  +1.9913142139E-002 +1.6046246109E+001  +5.4293869587E-001 -3.9800885580E-001 
10521195.244 +5.2944328555E-001 +7.3433800924E+000  +2.0393520254E-002 +1.3997944823E+001  +2.1826371438E-002 +2.1556747650E+001  +5.4982706337E-001 +2.7224514734E+000 
10646340.426 +5.7280669433E-001 +5.3234780647E+000  +2.1105163399E-002 +7.8520807704E+000  +2.2031496692E-002 +2.2796945124E+001  +5.6313424372E-001 -1.9305890415E+000 
10771485.607 +5.4747921447E-001 +9.0002099560E+000  +2.2078523112E-002 +1.4295957990E+001  +2.0613067847E-002 +1.4145694056E+001  +6.0001913465E-001 +3.6194714773E+000 
10896630.788 +5.4655996104E-001 +4.1929076140E+000  +2.2234088042E-002 +8.0993926345E+000  +2.0153726279E-002 +2.3336646363E+001  +6.0340264384E-001 +2.7251419678E+000 
11021775.970 +5.7988230398E-001 +9.6293638456E+000  +2.3638785176E-002 +1.5202364385E+001  +2.0627907054E-002 +2.2364981133E+001  +6.2147062022E-001 -1.2846835246E+000 
11146921.151 +5.8548916390E-001 +7.0758789528E+000  +2.0673992841E-002 +9.1468119991E+000  +1.9544439365E-002 +2.9836665603E+001  +6.3162504104E-001 +3.1548026088E+000 
11272066.333 +5.6579210820E-001 +7.4273942081E+000  +2.0363441007E-002 +1.2706949225E+001  +2.2997687891E-002 +2.0361645167E+001  +6.0627882257E-001 +2.5725039395E+000 
11397211.514 +5.8738109029E-001 +7.7612156880E+000  +2.0495724249E-002 +1.8900454592E+001  +2.2096701025E-002 +2.7526858436E+001  +6.0551881434E-001 +9.7866597382E-001 
11522356.696 +6.0901921040E-001 +5.7453491076E+000  +2.0933300582E-002 +1.4322812335E+001  +2.4545403736E-002 +2.2838502160E+001  +6.2507798986E-001 +7.6159730639E-001 
11647501.877 +6.0422638206E-001 +5.0130359173E+000  +2.3134686206E-002 +1.3005403922E+001  +2.1689443072E-002 +2.6802161229E+001  +6.4128072286E-001 +7.2284489951E-001 
11772647.059 +6.3533099626E-001 +5.1260399877E+000  +2.1080879025E-002 +1.3794499467E+001  +2.0434868631E-002 +2.4620970609E+001  +6.4039089783E-001 +9.8957411915E-001 
11897792.240 +6.2461688448E-001 +5.5166104381E+000  +2.5099406166E-002 +1.0838808061E+001  +2.2141515218E-002 +2.6752641407E+001  +6.5082257000E-001 -3.1862342997E-001 
12022937.422 +6.4764099100E-001 +6.1012448997E+000  +2.1512276779E-002 +5.3500261397E+000  +2.2540974594E-002 +2.1649220345E+001  +6.7140576589E-001 +6.4807000980E-001 
12148082.603 +6.7304357259E-001 +1.3980626077E+000  +2.3089131687E-002 +1.5913743457E+001  +2.3760825933E-002 +2.4480362432E+001  +6.9328030864E-001 +7.6490642673E-001 
12273227.785 +6.7568852468E-001 +4.4978537750E+000  +2.5321559442E-002 +1.5569905299E+001  +2.3815217311E-002 +2.2296344929E+001  +6.9289245115E-001 -5.7151790829E-001 
12398372.966 +6.7714789349E-001 +1.8424771777E+000  +2.4871418975E-002 +1.2011592196E+001  +2.3997723257E-002 +1.9568029781E+001  +7.0018623176E-001 +2.3985298315E+000 
12523518.148 +7.2096106554E-001 -6.5464649310E-001  +2.6007089966E-002 +1.5581056190E+001  +2.3753282018E-002 +1.9806675452E+001  +7.5041877318E-001 -1.6942397914E+000 
12648663.329 +7.0897074784E-001 +2.8235578806E+000  +2.4508656456E-002 +1.6448736686E+001  +2.5128452106E-002 +1.7087794798E+001  +7.2009834294E-001 -2.4265957949E+000 
12773808.511 +7.2270697802E-001 +1.4760043106E+000  +2.2861805127E-002 +1.2080547947E+001  +2.4701710345E-002 +1.8623686474E+001  +7.3872396221E-001 -1.1130382841E+000 
12898953.692 +7.4727710146E-001 -1.3402817664E-002  +2.4544687950E-002 +1.3963035979E+001  +2.4742338571E-002 +2.3144324608E+001  +7.7020992789E-001 -1.4792399290E+000 
13024098.874 +7.8334737605E-001 +9.1453390540E-001  +2.4477713642E-002 +1.6914087484E+001  +2.3715257781E-002 +2.2360568740E+001  +7.8570954565E-001 -2.1223744810E+000 
13149244.055 +7.8471414640E-001 +1.7827985170E-001  +2.4672909275E-002 +1.9530414180E+001  +2.4859045099E-002 +1.7496788794E+001  +8.0833452081E-001 -2.1582019402E+000 
13274389.237 +7.9681783751E-001 -6.8664166209E-001  +2.4363346007E-002 +1.3878835827E+001  +2.4483386501E-002 +2.3068785763E+001  +8.1910581977E-001 -2.6977489114E+000 
13399534.418 +8.1144510519E-001 +4.2345267557E-001  +2.4173677414E-002 +1.8673042079E+001  +2.5142090839E-002 +2.4399015407E+001  +8.3931826410E-001 -3.3581720898E+000 
13524679.599 +8.2596465645E-001 +1.9764762876E-001  +2.6173634388E-002 +1.4532907653E+001  +2.6124542646E-002 +2.0373358111E+001  +8.3749369944E-001 -1.7239370623E+000 
13649824.781 +8.4895278704E-001 -4.6062662634E-001  +2.7002643793E-002 +1.5568402377E+001  +2.8201469216E-002 +2.2979297823E+001  +8.6855103924E-001 -1.6878600570E+000 
13774969.962 +8.8037013905E-001 -3.8069775388E+000  +2.7119103616E-002 +1.3708562933E+001  +2.5301471138E-002 +1.7092981394E+001  +8.7669882504E-001 -2.7954148415E+000 
13900115.144 +8.8030157056E-001 -2.1951032526E+000  +2.5496880277E-002 +1.6164272127E+001  +2.6153574580E-002 +1.7894594918E+001  +9.0561528974E-001 -2.4930126193E+000 
14025260.325 +8.9544366227E-001 -4.3858631996E+000  +2.6035836096E-002 +1.7473249339E+001  +2.8202818596E-002 +1.9042480784E+001  +9.2457582630E-001 -4.3962528527E+000 
14150405.507 +9.0795801596E-001 -4.7620227380E+000  +2.6600678862E-002 +1.6127128425E+001  +2.5798828053E-002 +1.7904855918E+001  +9.4311605183E-001 -4.1697839742E+000 
14275550.688 +9.3513267047E-001 -5.7868176627E+000  +2.6524295970E-002 +1.6568300643E+001  +2.5717018118E-002 +2.1027121650E+001  +9.4510755457E-001 -4.3143997581E+000 
14400695.870 +9.8307050734E-001 -4.8380155765E+000  +2.6582656740E-002 +1.8519683955E+001  +2.8150000684E-002 +1.7403732514E+001  +9.7332359564E-001 -6.1192115842E+000 
