!  2-Port S-parameters saved by WinCal
! VAR MeasName=S-Parameters (CALIBRATED_DATA) read from VNA (P5004A)
! VAR MeasDate=28/08/2024 11:21:09
! VAR NAME=S2_r6c9_RESET2_9k-100M_2
! VAR FILENAME=S2_r6c9_RESET2_9k-100M_2.S2P
! VAR DATE=28/08/2024 11:21:09
! VAR PHYS_PORTS=1,2
! VAR ObjTypeName=DATASET
! VAR IndexType=Frequency
!
# Hz S MA R 50
9000.000 +8.9791477399E-002 -1.6275646071E+002  +4.6110680606E-003 +3.2846391501E+001  +1.5578567901E-002 +1.5458353430E+002  +1.9050815515E-001 -1.3121287444E+002 
134145.181 +1.1083375720E-001 +1.6967011720E+002  +5.1889664381E-004 -1.3189928002E+002  +6.3067299203E-004 +1.0865789908E+002  +2.3568413795E-001 -1.7048122945E+002 
259290.363 +1.1289872599E-001 +1.7029732952E+002  +6.4785778247E-004 +3.5252041914E+001  +2.4468758490E-004 -1.7752206162E+002  +2.3444895192E-001 -1.6735471114E+002 
384435.544 +1.1349713349E-001 +1.7008179600E+002  +6.3466182847E-004 +5.1657827479E+001  +1.8973569952E-004 -1.3813192707E+002  +2.4804383535E-001 -1.6770281136E+002 
509580.726 +1.1257785885E-001 +1.7127744937E+002  +6.2570612825E-004 +1.6321700626E+002  +1.3105602392E-003 +1.4454337500E+002  +2.4916369223E-001 -1.6474949291E+002 
634725.907 +1.1817544383E-001 +1.7111008953E+002  +5.2235576417E-004 -2.7170489762E+001  +8.2746366790E-004 +7.7016928627E+000  +2.4666611120E-001 -1.6535282733E+002 
759871.089 +1.1976974559E-001 +1.7104713839E+002  +2.0521284388E-004 -9.0024135776E+001  +5.3047293539E-004 +7.7887075634E+001  +2.4561168376E-001 -1.6659588361E+002 
885016.270 +1.2063490772E-001 +1.6953104262E+002  +2.2407489600E-004 +2.8681020197E+001  +7.5646501512E-004 +1.3559949268E+002  +2.4455677608E-001 -1.6668989642E+002 
1010161.452 +1.1659529785E-001 +1.7076467814E+002  +6.6427427862E-004 +6.0313115276E+001  +1.6087986971E-003 -1.1897118161E+002  +2.0536145256E-001 -1.6654086441E+002 
1135306.633 +1.1682502103E-001 +1.6769371066E+002  +1.5571148876E-003 +1.2054382411E+002  +2.0983559016E-003 -6.9526896480E+000  +1.6446579358E-001 -1.6080811029E+002 
1260451.815 +1.2270353707E-001 +1.6964686506E+002  +1.7902950421E-003 -9.6361485771E+001  +9.2344720449E-004 +1.2435354990E+002  +2.2844067860E-001 -1.5851609430E+002 
1385596.996 +1.2610799678E-001 +1.7443528158E+002  +5.9854272191E-004 -9.5788054833E+001  +1.5100201096E-003 +5.7177863430E+001  +2.6342618719E-001 -1.5757282969E+002 
1510742.178 +1.3169300974E-001 +1.7210136254E+002  +4.8004285666E-004 -5.1067270206E+001  +5.7620468463E-004 -1.6305338186E+002  +2.6119255123E-001 -1.5951364759E+002 
1635887.359 +1.2985273729E-001 +1.7141973122E+002  +3.6821945949E-004 +5.1984514388E+000  +1.3791709310E-003 +9.5040715742E+001  +2.4599226862E-001 -1.5916482419E+002 
1761032.541 +1.2709799033E-001 +1.6990409395E+002  +8.0617525276E-004 -6.3972959115E+000  +2.0091195095E-003 +1.2488798309E+002  +2.1237355509E-001 -1.5648427791E+002 
1886177.722 +1.3060182731E-001 +1.6789221990E+002  +3.4727053513E-003 -9.8585025211E+001  +1.8546912609E-003 +1.7600248287E+002  +1.7140223356E-001 -1.5675081758E+002 
2011322.904 +1.2776143473E-001 +1.6925079615E+002  +2.4935171387E-003 +6.2039145684E+001  +3.5876970673E-003 +1.0402612318E+002  +1.3963122619E-001 -1.7707452475E+002 
2136468.085 +1.3156886249E-001 +1.6795561989E+002  +3.9784760234E-003 +1.6469108237E+002  +1.7247865541E-003 -3.2512270632E+000  +1.3074258544E-001 +1.7020616015E+002 
2261613.267 +1.2666153737E-001 +1.6795227183E+002  +3.1839631060E-005 +1.7654227108E+001  +1.0718973920E-003 +5.0981112079E+001  +1.7777129858E-001 +1.7517335058E+002 
2386758.448 +1.3172455167E-001 +1.6252262056E+002  +3.7484326724E-003 -7.2812732984E+001  +8.1384812329E-004 -8.2560963852E+001  +1.8294546195E-001 -1.6892603392E+002 
2511903.630 +1.3762400470E-001 +1.6408439724E+002  +2.7505618701E-003 -1.6625292545E+001  +2.1194707178E-003 +5.4883760704E+001  +1.4652184550E-001 +1.5164575139E+002 
2637048.811 +1.2208135875E-001 +1.6517213047E+002  +1.6863234151E-002 +5.5190012880E+001  +6.7699192912E-003 -5.0227033422E+001  +7.4368056102E-002 -1.0782730830E+000 
2762193.992 +1.1444621808E-001 +1.6068603334E+002  +1.5558825758E-002 +1.6041984211E+001  +4.7056469881E-003 +4.8557262332E+001  +2.9665616300E-001 -8.2118069310E+001 
2887339.174 +1.2853621162E-001 +1.6277012980E+002  +3.4048598903E-003 -3.0807643134E+001  +3.3083884843E-003 -2.3295500868E+001  +2.0164102805E-001 -1.2007866502E+002 
3012484.355 +1.2599594634E-001 +1.7636456796E+002  +7.9914803281E-003 -1.1943889563E+001  +6.2333367256E-003 -1.6828315848E+002  +3.3475042331E-001 -1.1710377308E+002 
3137629.537 +9.9691919385E-002 +1.6654091468E+002  +6.8393647547E-003 +1.2845219137E+002  +2.2939607117E-002 +8.9070724803E+001  +7.5710119998E-001 -3.1377293989E+001 
3262774.718 +1.3617822718E-001 +1.5977451868E+002  +3.8733255330E-002 +1.4077297838E+002  +4.4154176399E-002 +3.2095341606E+001  +2.0595625207E+000 +8.8341372818E+001 
3387919.900 +8.2365557224E-002 +1.4973552135E+002  +2.4760235017E-002 +6.4361474061E+001  +1.0387376034E-002 +7.8485499938E+001  +4.7539788875E-001 +1.1565540223E+002 
3513065.081 +1.3721227866E-001 +1.4396322947E+002  +6.3564938273E-003 -1.6000308436E+002  +2.0642930572E-002 +6.7475248368E+001  +1.2742557802E+000 +1.2201588760E+002 
3638210.263 +1.9186865309E-001 +1.3658638901E+002  +1.7046050439E-002 +1.4890914327E+002  +1.2829270616E-002 -4.5528780073E+001  +4.5713610705E-001 +1.2707763315E+002 
3763355.444 +1.6337845191E-001 +1.4631685897E+002  +1.3885629766E-002 -4.5584262980E+001  +1.1415365950E-002 -2.2284617535E+001  +4.9867447878E-001 +1.3038689398E+002 
3888500.626 +1.5737307393E-001 +1.4292905864E+002  +1.4131718312E-002 -9.8539345653E+001  +1.7058004968E-002 -1.3983914335E+002  +6.7992778898E-001 +1.1003230202E+002 
4013645.807 +1.7089910803E-001 +1.4646307723E+002  +2.8413935127E-003 +8.7636775487E+001  +1.3837621760E-002 -2.0693262296E+001  +4.2312016478E-001 +1.0742290374E+002 
4138790.989 +1.5287251029E-001 +1.4587353905E+002  +1.3446501294E-002 -1.0742088136E+002  +2.2776831015E-002 +1.7539656128E+001  +1.1681678168E+000 +1.1063676069E+002 
4263936.170 +1.8217846684E-001 +1.4812974386E+002  +1.4055001422E-002 -1.2328630578E+002  +2.4323185431E-002 -1.7193286998E+002  +7.6416046706E-001 +1.0106903926E+002 
4389081.352 +1.6334692876E-001 +1.4100660427E+002  +2.2566089577E-003 -1.6562124923E+002  +6.5636600515E-003 -8.4116752134E+001  +5.5142641358E-001 +1.1886298267E+002 
4514226.533 +2.2022065933E-001 +1.2745198864E+002  +1.9287005820E-001 -1.1512962460E+001  +2.0820351113E-001 +1.4444725936E+001  +1.4164846127E+001 +7.3411422707E+001 
4639371.715 +2.9823876368E-001 +1.2639800006E+002  +3.8214901955E-002 +6.9673537553E+001  +4.6563360456E-003 +6.8859708490E+001  +1.2356697857E+000 +1.3347104326E+002 
4764516.896 +3.8480521028E-001 +1.3046238011E+002  +4.1119870453E-002 -4.2192119060E+001  +7.9075682931E-002 -4.3941039598E+001  +3.8570642920E+000 +1.5183872715E+002 
4889662.078 +3.5002578840E-001 +1.2438544043E+002  +5.5907234965E-002 -7.9658827435E+001  +3.5034541121E-002 +1.4336616655E+002  +3.1545804846E+000 -1.4965571338E+002 
5014807.259 +3.2261680442E-001 +1.2484220053E+002  +5.9025751084E-002 +2.5639152382E+001  +3.0245087462E-002 +4.5398865278E+001  +3.6206433048E+000 +1.3890286989E+002 
5139952.441 +3.5980574539E-001 +1.3644522494E+002  +6.3334049784E-002 +5.1345714995E+001  +8.8220182916E-002 -8.3807273339E+001  +8.3186036375E+000 +9.2637483746E+001 
5265097.622 +3.7666093309E-001 +1.3380532690E+002  +3.6788161607E-002 -1.3270718698E+002  +1.8363757962E-002 +2.6430282533E+001  +2.7286075116E+000 +4.0113674722E+001 
5390242.804 +3.7500816248E-001 +1.2599416038E+002  +2.3398178211E-002 +1.6712612777E+002  +1.3767466945E-002 -1.4399161573E+002  +1.5849401868E+000 +9.7417690847E+001 
5515387.985 +4.1429204547E-001 +1.3100915979E+002  +1.1372930343E-002 +8.4767439301E+001  +2.2172475887E-002 -2.6974187978E+001  +3.2512857432E+000 +1.0879331216E+002 
5640533.166 +4.7801503113E-001 +1.3061899128E+002  +1.1534263605E-002 +1.2286257328E+002  +8.5429372022E-003 +1.6055162487E+002  +1.6003182704E+000 +9.0340203679E+001 
5765678.348 +4.9937364995E-001 +1.2582054128E+002  +3.7995187518E-002 +1.4134139237E+002  +2.4946147805E-002 +1.2197780325E+002  +3.0135387814E+000 +7.8331753796E+001 
5890823.529 +6.1838541558E-001 +1.2400934300E+002  +3.3101287878E-002 -1.3064380305E+002  +7.9472088593E-003 -9.6029069546E+000  +4.0111067592E+000 +5.8179843915E+001 
6015968.711 +6.8815021910E-001 +1.1960793500E+002  +4.2829424794E-002 +1.4074502380E+002  +1.3519215007E-002 -1.2405486119E+002  +4.2624017609E+000 +7.2147162001E+001 
6141113.892 +7.4381463030E-001 +1.0440320515E+002  +2.1458306091E-002 +1.1150175130E+002  +1.7604489487E-002 -4.7490071671E+001  +2.3985246427E+000 +2.5872925616E+001 
6266259.074 +6.8797952128E-001 +1.1335027393E+002  +6.3817649085E-003 -1.4285831719E+002  +1.2155997986E-002 +3.5811809936E+000  +1.7595779302E+000 +2.4639631118E+001 
6391404.255 +1.1519012293E+000 +9.1911658228E+001  +1.1122531005E-002 +6.7349999820E+001  +2.8573438652E-002 +9.5452668396E+001  +1.9537397672E+000 -7.7752283360E-001 
6516549.437 +1.3726573444E+000 +1.0011690804E+002  +1.7501523191E-002 +1.2508539217E+002  +2.0706180566E-002 +1.7957462510E+001  +1.7431288600E+000 -1.8222439899E+000 
6641694.618 +1.8614997659E+000 +7.1909963605E+001  +1.4057896297E-002 +1.5061901544E+002  +2.4122704940E-002 -1.0206976535E+002  +1.4645505789E+000 +1.6216926647E+000 
6766839.800 +1.8414368425E+000 +7.1245250279E+001  +1.6815375227E-002 -3.0783047048E+001  +9.2059490825E-003 -1.7835483802E+002  +1.3245171579E+000 -1.7040655073E+001 
6891984.981 +2.1649819380E+000 +3.6237964341E+001  +2.5265112026E-002 +7.3275268434E+001  +4.3146305620E-002 +3.2034090786E+001  +1.4656385271E+000 -1.0912745134E+001 
7017130.163 +1.7708442571E+000 +1.6237937181E+001  +1.7416642990E-002 +1.3061039407E+002  +1.9316821705E-002 +3.7467548923E+001  +1.4972589748E+000 -8.0287391270E+000 
7142275.344 +1.5845050613E+000 +1.4568275733E+001  +5.7952493074E-003 +1.0943628917E+002  +1.5315283173E-002 +1.2427304401E+002  +1.2450671370E+000 -9.7498615385E-001 
7267420.526 +1.5894392873E+000 -5.4769871572E+000  +1.7114719868E-002 +1.4977837522E+002  +1.4352485230E-002 -4.0527222843E+001  +1.3185829452E+000 -1.2962454072E+001 
7392565.707 +1.2379438288E+000 +6.1205498875E-001  +7.4851803076E-004 +1.2348708364E+002  +6.0412691873E-003 +8.6319211282E+001  +1.2559846964E+000 -9.6113748304E+000 
7517710.889 +9.9377673110E-001 +9.0762304364E-001  +1.0100366413E-002 +1.5691124514E+002  +7.6311813384E-003 +8.2993614386E+001  +1.0466183386E+000 -6.4423262486E+000 
7642856.070 +1.0771575516E+000 +7.5079863939E+000  +6.5625311397E-003 +8.9626578101E+001  +6.9929134648E-003 +1.2498156550E+002  +1.0503252887E+000 -1.2471658726E+001 
7768001.252 +9.7876900053E-001 -3.7885479485E+000  +4.9494456516E-003 +2.1618123501E+001  +7.3147076725E-003 +3.6124606183E+001  +1.0079732404E+000 -6.0917632742E+000 
7893146.433 +8.5717129699E-001 +8.8015094107E+000  +9.9572247535E-003 +6.3830061371E+001  +1.7131027691E-003 -1.2658702852E+002  +9.9892004631E-001 -1.3213358790E+000 
8018291.615 +8.6889567277E-001 -6.2503107487E-001  +3.2706014066E-003 +7.1230114468E+001  +5.9506023547E-003 +6.0961588317E+001  +9.4045842592E-001 -3.9475512298E+000 
8143436.796 +8.0799623069E-001 +7.3304045453E+000  +1.4161077007E-003 +5.5732111191E+001  +3.2174698595E-003 +1.3902829423E+002  +8.0501750224E-001 +3.0316951330E+000 
8268581.977 +7.3194300513E-001 +6.4393575145E+000  +1.0113595200E-002 +8.2718553402E+001  +1.6283152127E-003 +1.6880228588E+002  +7.5444244358E-001 +1.7493013676E+000 
8393727.159 +7.1205480458E-001 +7.3770441348E+000  +8.7513088137E-003 +7.4322643098E+001  +5.1456519182E-003 +8.4863423693E+001  +7.6040329388E-001 +9.5398097893E-001 
8518872.340 +6.6909143824E-001 +6.1378868099E+000  +2.2365323351E-003 +5.4105051689E+001  +4.1178006550E-003 +1.0030975845E+002  +8.0601506030E-001 +2.1970636251E+000 
8644017.522 +7.0988606854E-001 +4.1496167897E+000  +4.2340294600E-003 +6.3050882000E+001  +6.3394764729E-003 +8.6235702498E+001  +6.6794947943E-001 +4.8879459718E+000 
8769162.703 +6.8153328935E-001 +5.2029000901E+000  +3.2291592186E-003 +1.0959791037E+002  +3.6721726167E-003 +4.6677767806E+001  +6.9445335461E-001 +7.0947288024E-002 
8894307.885 +6.5465032431E-001 +8.6430423284E+000  +4.2841790989E-003 +2.7245512044E+001  +2.1340412277E-003 +3.8204601515E+001  +6.3062701905E-001 -2.0427678463E+000 
9019453.066 +6.4123658983E-001 +1.3058554699E+001  +4.5908327440E-003 +7.4212291891E+001  +5.9744150427E-004 +5.7054917799E-001  +6.6247313288E-001 -7.5882728359E+000 
9144598.248 +5.9210808068E-001 +5.3823850379E+000  +6.3835872805E-003 +4.9947694696E+001  +5.3526189113E-003 +1.1930256831E+002  +6.2190165865E-001 -1.1458529336E+000 
9269743.429 +5.1738300238E-001 +2.1954073729E+000  +3.6779288568E-003 +9.7659981222E+001  +2.1371108017E-003 +7.2204752948E+001  +6.1513802534E-001 -3.6071228855E-001 
9394888.611 +5.5333096910E-001 +1.3029183231E+000  +2.1545997822E-003 -1.6220692642E+002  +3.9026343086E-003 +1.4078040007E+002  +5.9020197546E-001 -1.5039462961E+000 
9520033.792 +5.4833038352E-001 +4.8997806787E+000  +3.2634347188E-003 +8.0069931447E+001  +5.3631437931E-003 +1.0070162339E+002  +6.0808265278E-001 -4.4440962504E+000 
9645178.974 +5.4304621078E-001 +2.3063953216E+000  +3.6823788156E-003 +8.8034227452E+001  +3.4203601465E-003 +8.1575873418E+001  +5.6964995846E-001 -4.2063374591E+000 
9770324.155 +5.5879378893E-001 +9.1639680986E-001  +3.7940418262E-003 +1.1597575576E+002  +3.6508862247E-003 +1.0389462321E+002  +6.2537297805E-001 -4.8056450901E+000 
9895469.337 +5.5281527133E-001 +1.9409105758E-001  +1.4612066404E-003 +9.9473574792E+001  +4.4873513147E-003 +1.1699649598E+002  +6.2051385460E-001 -5.8998219097E+000 
10020614.518 +5.4700790539E-001 +3.1413330439E+000  +4.4307739053E-003 +1.1738699442E+002  +4.6984006923E-003 +9.3016126095E+001  +5.6258139900E-001 -1.9819926223E+000 
10145759.700 +5.5050864765E-001 +1.0434193679E+000  +4.1071841130E-003 +1.0809929944E+002  +3.1061987611E-003 +9.0769477849E+001  +5.8009336953E-001 -3.7198186704E+000 
10270904.881 +5.8165156258E-001 +2.1738550934E+000  +3.8196659562E-003 +6.3570887092E+001  +1.6511328272E-003 +1.1238107078E+002  +5.7866925865E-001 -1.3415493942E+000 
10396050.063 +5.8806168109E-001 +3.2317156373E+000  +5.1393105635E-003 +7.1741737843E+001  +5.8436931178E-003 +1.0292971634E+002  +6.0915514828E-001 +4.8589654252E-001 
10521195.244 +5.4613135595E-001 +6.6339312470E+000  +6.2355623414E-003 +9.3700708846E+001  +4.3652944263E-003 +1.1915226783E+002  +6.0284666372E-001 -1.6705435597E+000 
10646340.426 +5.7505246864E-001 +4.9393130581E+000  +6.2991493729E-003 +1.1413627185E+002  +3.4719874874E-003 +9.6720910507E+001  +5.7869086650E-001 +3.1944260718E+000 
10771485.607 +5.4635597566E-001 +9.7876225707E+000  +3.2076146374E-003 +1.0803501542E+002  +7.7582069844E-003 +1.2993074833E+002  +5.7689077612E-001 -4.6743329042E+000 
10896630.788 +5.7523903032E-001 +6.3607455374E+000  +3.5760012804E-003 +8.7569788513E+001  +4.3516637156E-003 +1.2585304956E+002  +6.1533736935E-001 +2.7221084938E+000 
11021775.970 +5.8047279259E-001 +9.1780846433E+000  +5.2290335325E-003 +7.6478934232E+001  +3.3177117620E-003 +7.3212201302E+001  +5.9945128468E-001 +3.8042511521E-001 
11146921.151 +5.8982673293E-001 +3.5130750677E+000  +2.6336814744E-003 +5.4984483097E+001  +6.4927726088E-003 +8.8908712385E+001  +6.1117880000E-001 +2.5087368690E+000 
11272066.333 +6.1047234943E-001 +4.3820020556E+000  +4.7872008834E-003 +1.0382305244E+002  +3.2915831717E-003 +1.2318822713E+002  +6.2306289955E-001 -1.0286733828E-001 
11397211.514 +6.1125265846E-001 +4.7705141421E+000  +4.6820083954E-003 +7.2697139667E+001  +4.7058965345E-003 +1.0969054206E+002  +6.3141500965E-001 +1.8426805894E+000 
11522356.696 +6.3860783257E-001 +5.5282232795E+000  +6.4018484541E-003 +5.8613961053E+001  +4.0110872780E-003 +1.0451575229E+002  +6.3672048595E-001 +1.2663667744E+000 
11647501.877 +6.6224297679E-001 +8.0859478397E+000  +4.6436376335E-003 +7.2495471656E+001  +3.0026458093E-003 +1.0251123482E+002  +6.5398819389E-001 +2.0478012281E+000 
11772647.059 +6.3871782055E-001 +3.0887016682E+000  +3.5933250289E-003 +1.1039104137E+002  +4.1915086517E-003 +8.1206341552E+001  +6.5560974503E-001 +9.7370419923E-001 
11897792.240 +6.6333380509E-001 +4.9540521547E+000  +5.7241740695E-003 +9.9910447064E+001  +4.9881629445E-003 +1.0676589517E+002  +6.6809924626E-001 -1.4601450072E-002 
12022937.422 +6.6367812705E-001 +5.2398981173E+000  +7.3839214596E-003 +8.7078891583E+001  +4.7560022294E-003 +1.1694245993E+002  +6.9241432379E-001 -1.3424851937E+000 
12148082.603 +6.9118589369E-001 +4.0534282237E+000  +4.8312302160E-003 +8.6281522615E+001  +6.5328097118E-003 +9.7429302887E+001  +6.9914346223E-001 +2.1259870441E+000 
12273227.785 +6.8511638325E-001 +3.4823413131E+000  +4.3989849652E-003 +9.0209716069E+001  +6.2077867597E-003 +1.0161473361E+002  +7.1568190726E-001 +1.3518465861E+000 
12398372.966 +7.1366641301E-001 +1.9393998279E+000  +6.5684988614E-003 +7.6555476458E+001  +5.9007043463E-003 +1.0219104988E+002  +7.2437549240E-001 -7.3900357384E-003 
12523518.148 +7.3525859383E-001 +1.1475885113E+000  +5.4321840057E-003 +8.6543654897E+001  +8.6739817415E-003 +1.0063720249E+002  +7.3565684406E-001 +4.7142464717E-001 
12648663.329 +7.2161259436E-001 +2.5657019970E+000  +8.3314109568E-003 +1.0293213464E+002  +6.6929880421E-003 +1.2089081252E+002  +7.8918422261E-001 +3.0301922366E-001 
12773808.511 +7.5062010908E-001 +5.6195240942E-001  +6.1394084999E-003 +8.9054964038E+001  +3.4651567161E-003 +1.1433689168E+002  +8.0710371102E-001 -4.9055069956E-001 
12898953.692 +7.8824152842E-001 +1.4250863614E+000  +8.2376476371E-003 +1.0057776178E+002  +6.1571435080E-003 +9.8095236774E+001  +7.7544543075E-001 -9.6036073433E-001 
13024098.874 +7.7581713520E-001 +1.8025232784E+000  +7.3426300185E-003 +8.2476264777E+001  +4.8820642275E-003 +9.5108109860E+001  +8.0378588010E-001 -1.5797271888E+000 
13149244.055 +8.0407147179E-001 -1.6135087654E+000  +5.6290459669E-003 +9.6956967495E+001  +7.0554167624E-003 +1.0073009768E+002  +8.0799466979E-001 -1.5755724355E+000 
13274389.237 +8.0225046272E-001 +4.3967859952E-001  +6.4028981479E-003 +8.0620593574E+001  +5.8943307452E-003 +9.6358623709E+001  +8.3962260026E-001 -2.3365555683E+000 
13399534.418 +8.2767606768E-001 -1.1066696395E+000  +7.1349017815E-003 +8.7833447332E+001  +5.3339258537E-003 +7.9497321991E+001  +8.4063975480E-001 -2.8791340957E+000 
13524679.599 +8.6554135136E-001 -2.4362373458E+000  +7.1441481904E-003 +1.0054378952E+002  +5.7184698609E-003 +1.1069028999E+002  +8.6133973808E-001 -2.7304278636E+000 
13649824.781 +8.6578707281E-001 -4.0078156452E+000  +7.4909710648E-003 +9.6636597716E+001  +6.0762528004E-003 +9.2261433869E+001  +8.9312029817E-001 -3.0045268962E+000 
13774969.962 +8.9582847451E-001 -3.3008035930E+000  +6.8918436541E-003 +8.6934908969E+001  +5.7514215394E-003 +9.0250143787E+001  +9.0221588453E-001 -2.2264429858E+000 
13900115.144 +9.1809625479E-001 -4.2200549163E+000  +7.3730092168E-003 +8.7395908395E+001  +6.9170616462E-003 +9.9000689901E+001  +9.1452394085E-001 -3.2351342004E+000 
14025260.325 +9.2326768395E-001 -4.6213342529E+000  +6.6139529726E-003 +8.8453006702E+001  +7.1196746523E-003 +8.6969131260E+001  +9.5069137534E-001 -4.3537814450E+000 
14150405.507 +9.4155464399E-001 -4.2279544498E+000  +7.5325627635E-003 +8.0733205091E+001  +7.3495549416E-003 +8.6407882094E+001  +9.5418471492E-001 -3.4873059786E+000 
14275550.688 +9.6328841103E-001 -4.3939604249E+000  +6.9054638143E-003 +8.7586498435E+001  +7.2400588793E-003 +8.7949459054E+001  +9.6482017727E-001 -4.4603693048E+000 
14400695.870 +9.5621694689E-001 -4.9038910291E+000  +7.0463591843E-003 +9.0778594736E+001  +7.5687902283E-003 +9.2975443840E+001  +9.9418374836E-001 -5.7543255909E+000 
