!  2-Port S-parameters saved by WinCal
! VAR MeasName=S-Parameters (CALIBRATED_DATA) read from VNA (P5004A)
! VAR MeasDate=28/08/2024 10:31:26
! VAR NAME=S2_r4c9_RESET3_9k-100M_1
! VAR FILENAME=S2_r4c9_RESET3_9k-100M_1.S2P
! VAR DATE=28/08/2024 10:31:26
! VAR PHYS_PORTS=1,2
! VAR ObjTypeName=DATASET
! VAR IndexType=Frequency
!
# Hz S MA R 50
9000.000 +1.1747409013E-001 -1.6820678353E+002  +1.3539797484E-002 -1.1464561142E+002  +9.9269784633E-003 -1.5760812312E+002  +2.7175775803E-001 -1.4308510293E+002 
134145.181 +1.1017318608E-001 +1.6988156249E+002  +2.6099292505E-004 +1.7971285059E+002  +4.6670540411E-004 +1.2813712003E+002  +2.3796969428E-001 -1.7104579696E+002 
259290.363 +1.1106867374E-001 +1.6938591175E+002  +7.8671250711E-004 -8.3423210931E+001  +1.0124033815E-003 +8.5750967304E+001  +2.4122144079E-001 -1.6744407690E+002 
384435.544 +1.1411329750E-001 +1.6955014006E+002  +2.5992737698E-004 +5.8056355038E+001  +3.0029474924E-004 +7.3034480334E+001  +2.4081528529E-001 -1.7026323971E+002 
509580.726 +1.1185859593E-001 +1.7221609629E+002  +8.8579443257E-004 -1.4082711010E+002  +6.3538166390E-004 -4.8939709314E+000  +2.6479517642E-001 -1.6656731576E+002 
634725.907 +1.1529100814E-001 +1.7117187247E+002  +1.8633202849E-003 +1.3214973656E+002  +5.0468109003E-004 -5.7788168351E+001  +2.5182132183E-001 -1.6177784297E+002 
759871.089 +1.1897072214E-001 +1.7097737331E+002  +3.5596025230E-004 +1.3213627179E+001  +1.0539477610E-003 +8.5751510578E+001  +2.5970751569E-001 -1.6319378312E+002 
885016.270 +1.2216274303E-001 +1.6939935651E+002  +2.1558488006E-004 +1.1357831326E+002  +2.3526732160E-004 -6.6076475575E+001  +2.4729833909E-001 -1.6622428287E+002 
1010161.452 +1.1776202813E-001 +1.7029693592E+002  +5.7069993987E-004 +6.3944500133E+001  +1.0271384840E-003 -6.3834580711E+000  +2.2557506663E-001 -1.6757027570E+002 
1135306.633 +1.1619582765E-001 +1.6883090395E+002  +9.8826560023E-004 -1.0486022918E+002  +2.0146974376E-003 +1.0922931435E+002  +1.8247886013E-001 -1.5507778712E+002 
1260451.815 +1.2104113221E-001 +1.7020612605E+002  +1.0821715328E-003 -1.1491589404E+002  +3.0165146351E-003 +1.1822320239E+002  +2.1473001181E-001 -1.6197035933E+002 
1385596.996 +1.2509010766E-001 +1.7202461645E+002  +2.3587325500E-003 +4.1208740849E+000  +1.2452442730E-003 -7.9028282464E+001  +2.4907055134E-001 -1.5686832479E+002 
1510742.178 +1.2755749862E-001 +1.7182604268E+002  +7.5895276009E-004 +1.2324499815E+002  +4.8046229074E-004 -1.5511969803E+002  +2.6059130137E-001 -1.5860446074E+002 
1635887.359 +1.2877756933E-001 +1.7069532603E+002  +1.2886820918E-003 -1.3848806565E+001  +1.4702000964E-003 +1.3541818606E+002  +2.3056254508E-001 -1.5611796745E+002 
1761032.541 +1.2989035812E-001 +1.7074740868E+002  +1.0369883802E-003 -1.7212874771E+001  +1.0299235029E-003 +1.0531684907E+002  +1.9770682136E-001 -1.5830932623E+002 
1886177.722 +1.2900418593E-001 +1.6950506113E+002  +1.5427691740E-003 -1.6843512871E+002  +1.8079211596E-003 +9.0535984216E+001  +1.9236967462E-001 -1.6026135446E+002 
2011322.904 +1.3031547291E-001 +1.6854545769E+002  +2.2964827390E-003 -8.2248763843E+001  +2.1466216819E-003 -1.2431448628E+001  +1.7524656434E-001 -1.5436052385E+002 
2136468.085 +1.2813946100E-001 +1.6807598019E+002  +1.9254917625E-003 +7.7880640401E+001  +5.4604485664E-003 -5.2726307805E+001  +1.7741848418E-001 -1.7664931011E+002 
2261613.267 +1.3440731950E-001 +1.6534622580E+002  +6.1322750079E-003 +1.7079574788E+002  +9.2936894550E-003 -1.6787675421E+002  +2.6129254145E-001 +1.1872538275E+002 
2386758.448 +1.3585210899E-001 +1.6419989243E+002  +3.0700628203E-003 +1.6243099510E+002  +5.2824290848E-003 -7.0289004721E+001  +1.9301111665E-001 +1.7599211205E+002 
2511903.630 +1.3402870871E-001 +1.6247407204E+002  +6.2656155958E-003 +7.2142555792E+001  +6.8787039205E-004 -3.3540905480E+001  +1.7192719375E-001 +1.6518967548E+002 
2637048.811 +1.1966660601E-001 +1.5832400441E+002  +1.9123783754E-002 +2.9104362766E+001  +5.7751789198E-002 -1.3692631045E+002  +1.5781006914E+000 -1.3144241437E+002 
2762193.992 +1.0151801735E-001 +1.6709216967E+002  +2.8222492143E-002 -1.5750154822E+002  +6.2851366274E-003 -1.3073440568E+002  +6.8228559874E-001 -1.2324611612E+002 
2887339.174 +1.1118505725E-001 +1.7835023744E+002  +2.0763190407E-002 -3.0120903562E+001  +1.4876660122E-002 -2.5989348082E+001  +1.5523387687E-001 -4.3575118823E+001 
3012484.355 +1.0950071099E-001 +1.7129136951E+002  +1.5199674253E-002 -7.8674282157E+000  +2.1882888279E-003 +3.4317924943E+001  +3.6329461657E-001 -8.1856236634E+001 
3137629.537 +1.2730844642E-001 +1.6809249968E+002  +1.3624079409E-002 -6.3617059409E+001  +9.8244655233E-003 -1.5420563780E+002  +1.6321907055E-001 -2.0099643251E+001 
3262774.718 +1.1067420709E-001 +1.6679459578E+002  +9.3254887718E-003 +1.1386453681E+002  +1.4323806342E-002 -1.4913492299E+002  +4.9047160356E-001 +8.9733466981E+001 
3387919.900 +1.3767812848E-001 +1.4543588596E+002  +1.3775644920E-002 -1.5604770086E+002  +1.0446597877E-002 -5.1772282339E+001  +1.1683594604E-001 -4.0220822430E+001 
3513065.081 +1.2428817346E-001 +1.3860558342E+002  +4.5381000023E-003 +6.9622318441E+001  +3.5521851634E-002 -1.4445396840E+002  +3.3211736589E-001 +4.5229539875E+001 
3638210.263 +1.7659240915E-001 +1.5471526190E+002  +2.5167263774E-002 +1.2553256518E+002  +1.2459738181E-002 +6.0714570571E+001  +1.0482514338E+000 +1.2092205109E+002 
3763355.444 +1.7934854310E-001 +1.4439279823E+002  +1.3397007149E-002 +1.3972563606E+002  +1.3084178921E-002 +3.7910124015E+001  +3.5767939068E-001 +1.1755045710E+002 
3888500.626 +1.5799166772E-001 +1.4731324603E+002  +1.6173439640E-002 +6.7484710138E+001  +1.4876482347E-002 +2.1818870658E+001  +5.5700390563E-001 +9.6388945726E+001 
4013645.807 +1.9265154242E-001 +1.4797554833E+002  +1.2748294000E-002 -1.7216373937E+002  +1.2136747068E-002 +9.7838797617E-001  +4.5154382466E-001 +7.2051685308E+001 
4138790.989 +2.0414319958E-001 +1.4660836594E+002  +1.0009193561E-002 -1.4438097853E+002  +2.0666690944E-003 -1.0135624367E+002  +1.7181656652E-001 +1.5318755397E+002 
4263936.170 +1.9712654790E-001 +1.4396131699E+002  +7.5645757108E-003 +9.8721335309E+001  +3.9822904758E-003 +9.7174958869E+001  +6.0861543557E-001 +1.3033391100E+002 
4389081.352 +1.9947529303E-001 +1.3960537926E+002  +6.4865230744E-003 +1.2074140242E+002  +1.9684763175E-002 +1.6556259334E+002  +6.5885063529E-001 +9.6917426284E+001 
4514226.533 +2.7447315195E-001 +1.3838068767E+002  +1.0873532584E-002 -2.8404783634E+001  +8.7403737751E-003 +7.6810313305E+001  +4.7822349019E-001 +7.2067299532E+001 
4639371.715 +2.5575734112E-001 +1.3611804208E+002  +1.8803288927E-002 -1.2737936256E+002  +1.4629103092E-002 +6.4351460696E+001  +1.1236385415E+000 +1.1128289035E+002 
4764516.896 +3.5899273266E-001 +1.3012438538E+002  +3.4159477420E-002 -1.7631358836E+002  +5.7225201229E-002 +1.0858559091E+002  +3.3023430289E+000 +1.3997600849E+002 
4889662.078 +4.6260962393E-001 +1.4095103716E+002  +3.4256363777E-001 -5.6585728531E+001  +2.4051429019E-001 +5.2582867227E+001  +2.1491611807E+001 +1.7788401247E+002 
5014807.259 +4.3834172732E-001 +1.2271390305E+002  +9.1880020433E-002 -1.6996709282E+002  +1.7924342423E-001 +7.2651959829E+001  +6.3921157541E+000 +8.4754654836E+001 
5139952.441 +3.6416668247E-001 +1.3654310788E+002  +6.2503688102E-003 -1.5668775356E+002  +1.7848817484E-002 +3.9727592809E+001  +1.4321854957E+000 +7.6818861429E+001 
5265097.622 +4.0576668580E-001 +1.3200692972E+002  +1.9777690539E-002 +1.4464156332E+002  +4.9800006775E-002 +4.5326356211E+001  +2.4991594604E+000 +7.3583899406E+001 
5390242.804 +4.5881355433E-001 +1.2858373571E+002  +2.9713033382E-002 +6.4621798614E+001  +1.8443127311E-001 +8.7243472259E+001  +4.4618137400E+000 +9.7075921102E+001 
5515387.985 +4.4722167073E-001 +1.1403756820E+002  +2.1232423679E-002 -1.7128221796E+002  +2.4467114007E-002 +8.3018333547E+001  +1.8033696402E+000 +1.0574186019E+002 
5640533.166 +4.7641956969E-001 +1.2508737958E+002  +4.5771998498E-002 +9.1127582560E+001  +2.7247770810E-002 +1.3879943360E+002  +3.5218612734E+000 +1.0227752334E+002 
5765678.348 +5.1594843660E-001 +1.2678789406E+002  +1.9122092334E-002 +1.4473508262E+002  +1.6408514708E-002 +6.9914236358E+001  +2.1939877803E+000 +9.2509718653E+001 
5890823.529 +5.7383064630E-001 +1.2384909762E+002  +1.4903552634E-002 +6.4973539872E+001  +2.0012525818E-002 +9.4574448504E+001  +1.3986648977E+000 +7.4751105664E+001 
6015968.711 +6.4570448370E-001 +1.2267947748E+002  +2.1005327916E-002 +1.2682912810E+002  +1.0458607310E-002 +5.5239224246E+001  +1.2654812605E+000 +2.4322176070E+001 
6141113.892 +7.5834303756E-001 +1.1467557886E+002  +5.4284442562E-002 +6.9495357667E+001  +6.2057448140E-002 +8.0087638530E+001  +2.7293080690E+000 +4.1892774549E+001 
6266259.074 +9.7938080792E-001 +1.0841032202E+002  +3.6525240118E-002 +4.1414349564E+001  +5.2750941027E-002 -4.0640661641E+000  +1.9968473813E+000 -6.3079831253E+000 
6391404.255 +9.3748164356E-001 +6.5737637623E+001  +5.4369024702E-002 +6.2222260411E+001  +2.6198290252E-002 +3.5244593907E+001  +1.6335259397E+000 -1.1750778633E+000 
6516549.437 +1.0314643229E+000 +7.9327882377E+001  +1.3251843747E-002 -7.0014349092E+001  +4.9087706096E-002 +1.5933685788E+001  +1.8882491892E+000 +1.1574691918E+001 
6641694.618 +1.2872318477E+000 +5.6893339592E+001  +3.9698933292E-002 +4.2767590301E+001  +1.0524728460E-002 +7.5504389475E+000  +1.4487130523E+000 -6.9338543836E-001 
6766839.800 +1.7710735257E+000 +4.9856862937E+001  +3.1237049426E-002 +3.2853577460E+001  +2.3063909845E-002 +1.2156089966E+001  +1.3979730946E+000 -5.6382605574E+000 
6891984.981 +1.8121242672E+000 +3.8390782176E+001  +4.1663693590E-002 +4.1333354592E+001  +2.0277456627E-002 +9.4923924542E+000  +1.1414979726E+000 -6.9138014349E+000 
7017130.163 +1.9971703323E+000 +1.9863892484E+001  +2.7064797093E-002 +3.1527062509E+001  +3.1962471487E-002 +5.9276442873E+000  +1.1871269327E+000 -7.7421865999E+000 
7142275.344 +1.7140590387E+000 +9.7686453998E+000  +2.3078823295E-002 +4.4104015933E+001  +2.1701445775E-002 -2.0184568763E+000  +1.3373617719E+000 -3.4299216381E+000 
7267420.526 +1.5520218878E+000 +6.4045731353E+000  +1.2239782067E-002 +5.7662231847E+000  +2.6049405449E-002 +2.8836006703E+000  +1.3549443131E+000 -8.1130705514E+000 
7392565.707 +1.4524565629E+000 +2.9887359371E+000  +2.0618991324E-002 +2.4889725691E+001  +1.7660296267E-002 +4.3787834690E+001  +1.3131132957E+000 -6.3211745394E+000 
7517710.889 +1.1665019801E+000 +5.0950159627E+000  +1.4518174761E-002 +1.1818910901E+001  +1.3980358267E-002 +1.4681155821E+001  +1.2073744664E+000 -1.8288471762E+000 
7642856.070 +1.0067885773E+000 +7.4862047160E+000  +1.1582220193E-002 +1.4368650049E+001  +1.5361445025E-002 +3.0063672082E+001  +1.0611793333E+000 -7.4099880129E-001 
7768001.252 +8.7042109017E-001 +9.9158594361E+000  +1.8917078390E-002 -1.5764792197E+000  +8.1179414160E-003 +9.3353251474E+000  +9.5837680913E-001 -4.5757054098E+000 
7893146.433 +9.0462494732E-001 +4.9737576963E+000  +9.3934355862E-003 -8.3001362648E+000  +8.7071871375E-003 +6.4848674285E+001  +8.7653596267E-001 -1.1643770876E+001 
8018291.615 +8.0719371751E-001 +3.8052832705E+000  +7.7823843576E-003 +4.0909333995E+000  +5.8502497169E-003 -4.2201934555E+001  +8.3651565226E-001 -3.3167778495E+000 
8143436.796 +6.9035506109E-001 +2.7997344138E+000  +7.8464385826E-003 +8.3768617322E+000  +6.8148015265E-003 +5.2615423435E+001  +8.1391395745E-001 -5.2219842258E+000 
8268581.977 +7.3453041249E-001 +6.4400467531E+000  +5.4509684870E-003 -5.2589220068E+001  +6.8841453612E-003 +5.7436773588E+001  +7.1438906175E-001 -4.7017576591E+000 
8393727.159 +6.5533095073E-001 +7.1861816506E+000  +7.1848603558E-003 +3.9459749097E+001  +7.0735926563E-003 +8.8758266578E+000  +7.2200056711E-001 -5.3480230489E+000 
8518872.340 +7.1675844874E-001 +6.2463456120E+000  +5.8688578788E-003 +2.6490890548E+001  +9.7636503377E-003 +5.0870598370E+001  +7.5381419650E-001 +1.3903931073E+000 
8644017.522 +6.7427478834E-001 +6.9987303399E+000  +1.0905847809E-002 +1.9792074774E+000  +6.7513381343E-003 +3.1962868865E+001  +6.4090274949E-001 -2.7918921519E+000 
8769162.703 +6.0150697668E-001 +4.4599791265E+000  +8.0820548971E-003 +4.8226486252E+001  +9.9611211594E-003 +2.9880539463E+001  +7.0108692110E-001 -7.8810879643E-001 
8894307.885 +5.8428980287E-001 +8.9268485022E+000  +9.6841553507E-003 +4.0837692914E+001  +6.8377771704E-003 +6.8480767929E+001  +6.3769187109E-001 -1.2811008457E+000 
9019453.066 +5.9466414709E-001 -2.7129831080E-001  +8.8029265142E-003 +3.7983850829E+001  +8.7338936912E-003 +4.6199398661E+001  +6.2629815570E-001 -1.3385791408E+000 
9144598.248 +5.3474196557E-001 +8.7252365042E+000  +6.4980857343E-003 -1.5229762879E+001  +9.2703429256E-003 +3.4645794633E+001  +6.2875488841E-001 -1.0080429413E+000 
9269743.429 +5.7559689752E-001 +8.1993936807E+000  +9.4257809238E-003 +3.5311821789E+001  +1.1903346252E-002 +4.6393448054E+001  +5.9141258536E-001 -2.5653253902E+000 
9394888.611 +5.5386946464E-001 -1.4202378084E+000  +1.1409820336E-002 +6.4703862320E+000  +8.0258267739E-003 +4.5534077786E+001  +6.0532808835E-001 -5.7049875512E+000 
9520033.792 +5.5208272587E-001 +3.4866885624E+000  +9.5977362982E-003 +4.1218510876E+001  +8.7446881562E-003 +2.5261376200E+001  +6.0835439352E-001 -6.6833963753E+000 
9645178.974 +5.8200933783E-001 +6.0501165411E-001  +5.9883799891E-003 +1.8877823478E+001  +9.7736963328E-003 +5.0575872828E+001  +5.8349670378E-001 -4.6189519490E+000 
9770324.155 +5.5544612839E-001 +9.3833872829E-001  +1.0369739610E-002 +1.9581572728E+001  +8.8616904360E-003 +2.4457973837E+001  +5.7288144051E-001 -7.8859673893E+000 
9895469.337 +5.4252240649E-001 +2.1768641287E+000  +5.3895848432E-003 +1.8033934446E+001  +8.7174797378E-003 +2.7848945112E+001  +6.2048676916E-001 -7.3238442629E+000 
10020614.518 +5.3736612142E-001 +2.7457725409E+000  +9.4106429465E-003 +3.9980799866E+001  +8.9657723472E-003 +3.9581994965E+001  +5.8558910691E-001 -6.9464002526E+000 
10145759.700 +5.1621399185E-001 +1.5945394076E+000  +1.2529541231E-002 +1.6066965737E+001  +1.0550163375E-002 +3.2819499148E+001  +5.6368835128E-001 -4.0267612365E+000 
10270904.881 +5.3399304273E-001 +3.4035982741E+000  +8.7779350562E-003 +2.0344783356E+001  +9.5259501443E-003 +3.5778095074E+001  +5.9281604698E-001 +9.7461590989E-001 
10396050.063 +5.5674855156E-001 +4.9318710438E+000  +9.3020638206E-003 +3.0783463762E+001  +1.0846907268E-002 +3.6376411353E+001  +5.7970764725E-001 -3.0647494955E+000 
10521195.244 +5.3390949046E-001 +8.7127895689E+000  +8.6537252783E-003 +2.7362368711E+001  +1.1668977175E-002 +3.3899688931E+001  +6.1666437032E-001 -3.0012302215E+000 
10646340.426 +5.7407993104E-001 +7.5747611106E+000  +7.7643963215E-003 +2.2451776714E+001  +1.3584399323E-002 +3.8293967247E+001  +6.2874201015E-001 +7.0145291649E-001 
10771485.607 +5.6351129227E-001 +6.4446249047E+000  +8.9392179484E-003 +2.4857551121E+001  +9.1839263085E-003 +4.2764309722E+001  +6.0813710795E-001 -3.1243579995E+000 
10896630.788 +5.7196674291E-001 +7.2568103432E+000  +1.2979792838E-002 +2.4863865969E+001  +1.0662118927E-002 +4.3257561357E+001  +6.2658475428E-001 -4.6738745545E-001 
11021775.970 +5.9301886271E-001 +3.8814102263E+000  +1.0006757783E-002 +1.8423531029E+001  +8.9510838211E-003 +6.7470644499E+001  +6.3446632090E-001 +4.9578636347E-001 
11146921.151 +5.8238989434E-001 +8.3971613446E+000  +1.1154949446E-002 +3.0336938749E+001  +1.0641086165E-002 +4.5931083230E+001  +6.2938584260E-001 +1.7154113410E+000 
11272066.333 +5.6758570462E-001 +9.3712681891E+000  +8.5209524497E-003 +4.0562338699E+001  +7.0676136520E-003 +4.9876203223E+001  +6.2545874801E-001 +2.3258326744E+000 
11397211.514 +6.1481662926E-001 +9.2056648775E+000  +1.0051420132E-002 +3.3285403527E+001  +9.9333024232E-003 +3.6697891903E+001  +6.4602563031E-001 +1.5366012494E+000 
11522356.696 +6.3856942235E-001 +7.2365886678E+000  +1.0567454753E-002 +2.1937043686E+001  +9.0287972155E-003 +4.5688490455E+001  +6.1719585120E-001 -1.2600901601E+000 
11647501.877 +6.2536531339E-001 +6.7642932973E+000  +1.0969644714E-002 +2.6264657666E+001  +9.3403719656E-003 +4.4608169206E+001  +6.5674130713E-001 -3.2546574218E-001 
11772647.059 +6.7461190708E-001 +7.1489683097E+000  +8.9281471626E-003 +1.8088277542E+001  +1.0610847218E-002 +4.3918530707E+001  +6.5801434249E-001 +2.0410255477E+000 
11897792.240 +6.5674489210E-001 +4.8204022086E+000  +9.5681367687E-003 +2.8937429518E+001  +1.0636940380E-002 +4.8090647809E+001  +6.9191398898E-001 +1.3376476797E+000 
12022937.422 +6.3799072766E-001 +3.7109025431E+000  +1.1589321111E-002 +2.2077538997E+001  +9.3459330097E-003 +4.7272943298E+001  +6.8041450109E-001 +1.4265413571E+000 
12148082.603 +6.6436966989E-001 +2.9399654710E+000  +9.9794242426E-003 +3.1592856756E+001  +9.9350016956E-003 +3.7075887597E+001  +6.7540443371E-001 +3.5276962966E+000 
12273227.785 +6.7961633621E-001 +4.8875642272E+000  +1.1887362656E-002 +4.0457135903E+001  +1.1096180324E-002 +3.8373259796E+001  +7.0947703728E-001 +1.5069025274E+000 
12398372.966 +6.9388450268E-001 +3.1269945113E+000  +1.0697005301E-002 +3.3804157713E+001  +1.2949510125E-002 +4.1673827048E+001  +7.3244561564E-001 +1.2194902604E+000 
12523518.148 +7.0356605203E-001 +2.2439660428E+000  +1.2094018194E-002 +3.1545097466E+001  +1.0538707874E-002 +3.6717145195E+001  +7.1982612342E-001 +1.4332652969E+000 
12648663.329 +7.2001581111E-001 +1.6086452444E+000  +1.1098731434E-002 +2.7548583310E+001  +1.1240050834E-002 +3.7845674929E+001  +7.6848048359E-001 -1.8342021387E-001 
12773808.511 +7.6413128131E-001 +2.0718287025E+000  +1.1538005354E-002 +3.1721255432E+001  +1.3200330820E-002 +3.6630722624E+001  +7.5847577858E-001 -6.7534795729E-001 
12898953.692 +7.5169819115E-001 +3.6037746944E+000  +1.1796683058E-002 +2.9192412724E+001  +1.0939024222E-002 +4.6127475277E+001  +7.7413162321E-001 -2.2426112389E+000 
13024098.874 +7.8067544689E-001 -1.5861619012E+000  +1.0508205427E-002 +4.2207401116E+001  +1.2100330512E-002 +3.2856369151E+001  +7.7224267603E-001 -2.7260022560E+000 
13149244.055 +7.8599099980E-001 +1.3993597976E+000  +1.2710655210E-002 +3.3484671278E+001  +1.2748612617E-002 +3.6308041097E+001  +8.0183335310E-001 -1.8767834445E+000 
13274389.237 +7.8934071677E-001 +2.0249106611E-001  +1.2679149677E-002 +2.7869522932E+001  +1.1409827129E-002 +3.8642254184E+001  +8.2161888521E-001 -1.0710820475E+000 
13399534.418 +8.2290014284E-001 -1.9448013262E+000  +1.2617940815E-002 +3.6781333742E+001  +1.2389260652E-002 +3.4744772317E+001  +8.3618508658E-001 -3.4501506589E+000 
13524679.599 +8.5893188006E-001 -1.2726458476E+000  +1.1789726842E-002 +3.2099952578E+001  +1.4170340297E-002 +3.6336133793E+001  +8.6755939896E-001 -3.2246843920E+000 
13649824.781 +8.5680940325E-001 -2.1078358010E+000  +1.2071375040E-002 +3.0364031156E+001  +1.4552637270E-002 +3.5934913890E+001  +8.7289835755E-001 -3.8170944740E+000 
13774969.962 +8.7808439000E-001 -2.7439236132E+000  +1.3694947489E-002 +3.4865358080E+001  +1.2404664164E-002 +3.3632896179E+001  +8.9000551105E-001 -4.0562387430E+000 
13900115.144 +9.1626594895E-001 -5.2527057333E+000  +1.2078596938E-002 +3.9348804426E+001  +1.4249704369E-002 +3.8481167126E+001  +9.2626390949E-001 -4.1419228737E+000 
14025260.325 +9.2114626314E-001 -4.2671967858E+000  +1.2634166333E-002 +3.7763778511E+001  +1.1170788542E-002 +3.5681296436E+001  +9.0445227401E-001 -4.1451752480E+000 
14150405.507 +9.4741759129E-001 -3.8158404604E+000  +1.1882717979E-002 +3.8889980069E+001  +1.3670313847E-002 +3.2089391563E+001  +9.2248531099E-001 -5.2318550125E+000 
14275550.688 +9.5853977904E-001 -3.8791668853E+000  +1.2277250396E-002 +3.6013183547E+001  +1.3493967648E-002 +3.3456678643E+001  +9.7797275127E-001 -5.4745644931E+000 
14400695.870 +9.7739666894E-001 -4.7093685741E+000  +1.1782255034E-002 +3.8711610765E+001  +1.2286600801E-002 +3.3306709432E+001  +9.8665530421E-001 -4.6969877187E+000 
