!  2-Port S-parameters saved by WinCal
! VAR NAME=S2_r2c8_formed(0)_9k-100M_2
! VAR DATE=30/08/2024 11:23:45
! VAR FILENAME=S2_r2c8_formed(0)_9k-100M_2.S2P
! VAR MeasName=S-Parameters (CALIBRATED_DATA) read from VNA (P5004A)
! VAR MeasDate=27/08/2024 13:44:37
! VAR PHYS_PORTS=1,2
! VAR ObjTypeName=DATASET
! VAR IndexType=Frequency
!
# Hz S MA R 50
9000.000 +8.1028701100E-002 -1.6136115537E+002  +7.9788793694E-003 +3.5982993317E+001  +1.6871149912E-002 +8.0289720056E+001  +1.6896302057E-001 -9.5650018976E+001 
134145.181 +1.1070465011E-001 +1.6948449653E+002  +6.5638306432E-004 +7.2958502420E+000  +3.0838885276E-004 +1.2038703703E+002  +2.4026133356E-001 -1.7062703516E+002 
259290.363 +1.1191743591E-001 +1.6980014228E+002  +3.8018717175E-004 -1.7032125753E+002  +7.8832623765E-004 -4.3152115050E+001  +2.3946075511E-001 -1.6652448071E+002 
384435.544 +1.1357529171E-001 +1.6984655946E+002  +4.8722734597E-004 -7.4064307017E+001  +5.3779573543E-004 -3.7084788166E+001  +2.4007418814E-001 -1.6844165879E+002 
509580.726 +1.1307383723E-001 +1.7153471426E+002  +6.5356267338E-004 -3.0893936623E+000  +5.9810919968E-004 +1.2238524174E+002  +2.4413374938E-001 -1.6656170711E+002 
634725.907 +1.1685336220E-001 +1.7090204357E+002  +1.1919139495E-003 -1.2120403152E+002  +7.2004550456E-004 -5.1170547616E+001  +2.5178939684E-001 -1.6532975050E+002 
759871.089 +1.1855460181E-001 +1.7151567116E+002  +6.1082225147E-004 -1.7072428021E+002  +7.8211117478E-004 +1.2177395972E+001  +2.4029146294E-001 -1.6465143760E+002 
885016.270 +1.1756683702E-001 +1.7028626318E+002  +5.9322494156E-004 -4.0408258336E+001  +5.7979868265E-004 -1.4129721406E+002  +2.2734917487E-001 -1.6560071585E+002 
1010161.452 +1.1797037281E-001 +1.7028836206E+002  +2.2988907969E-003 +9.1578490334E+001  +9.6785643836E-004 -7.4452594234E+001  +1.7715936654E-001 -1.6273184690E+002 
1135306.633 +1.1768260092E-001 +1.6993166321E+002  +8.2997294669E-004 -6.1285802777E+001  +1.6744359456E-003 -7.3713191920E+001  +1.8012922948E-001 -1.6296509664E+002 
1260451.815 +1.2144757371E-001 +1.7129163912E+002  +1.6978350294E-003 -4.4585650518E+001  +1.0337519010E-003 +7.8153312864E+001  +2.3074951025E-001 -1.6143159357E+002 
1385596.996 +1.2683530387E-001 +1.7249532096E+002  +2.8160128205E-004 +1.2916723229E+002  +7.0426446805E-004 +1.0010042529E+002  +2.5263257077E-001 -1.5859634109E+002 
1510742.178 +1.2614695894E-001 +1.7157882117E+002  +1.1127837983E-003 +1.7250911207E+002  +3.2897383746E-004 +1.5779662658E+002  +2.5179015938E-001 -1.5780353814E+002 
1635887.359 +1.2667244770E-001 +1.7021304096E+002  +1.2433974922E-003 +1.2812708495E+002  +8.7482963792E-004 +1.3124102210E+002  +2.5327087499E-001 -1.5934493667E+002 
1761032.541 +1.3049236495E-001 +1.6851336071E+002  +1.1654270274E-003 -7.6067580121E+001  +7.8651165459E-004 +1.5522288496E+002  +2.2534481847E-001 -1.6380460858E+002 
1886177.722 +1.2908692887E-001 +1.6653281433E+002  +2.6988133398E-003 -3.7102151690E+001  +1.1274309974E-003 +3.5162085264E+001  +2.0634274512E-001 -1.6448375786E+002 
2011322.904 +1.2961543872E-001 +1.6766346413E+002  +2.3965547607E-004 -5.0804205951E+001  +3.3030123220E-003 -4.4310629112E+001  +2.1097199398E-001 -1.6911313385E+002 
2136468.085 +1.3049363581E-001 +1.6618099177E+002  +2.8797274294E-003 -1.7703089475E+002  +3.5423322795E-003 -1.2437920963E+002  +1.7153323077E-001 +1.7621398897E+002 
2261613.267 +1.2827384452E-001 +1.6396494961E+002  +4.4670745351E-003 -1.7067155502E+002  +3.8244927772E-003 +1.2928217305E+002  +2.0107631718E-001 +1.5057693188E+002 
2386758.448 +1.2861478440E-001 +1.6704717616E+002  +3.1489948936E-003 +1.0664596570E+002  +2.4636279394E-003 +6.8526126063E+001  +2.2668298995E-001 +1.6042069724E+002 
2511903.630 +1.3290246035E-001 +1.6283703872E+002  +1.0030657154E-003 -4.0515983212E+001  +2.6614094536E-003 +1.6429731226E+001  +1.8634425787E-001 -1.7483935614E+002 
2637048.811 +1.2422236259E-001 +1.5735842553E+002  +4.5031426396E-003 -5.0516417100E+001  +6.1636499721E-003 -9.0817655772E+000  +1.4676224368E-001 -1.7052097042E+002 
2762193.992 +1.0292240332E-001 +1.6431637049E+002  +1.0547705317E-002 -5.6627532665E+000  +4.8034556037E-003 -6.8074316961E+001  +4.8355620865E-002 +5.9276157022E+001 
2887339.174 +9.3435317346E-002 +1.5670154205E+002  +1.2333281762E-002 -1.7857534463E+001  +8.0585090925E-003 -1.0997619389E+002  +3.4901556078E-001 -1.1942593580E+002 
3012484.355 +1.3124865922E-001 +1.7175524352E+002  +1.3247984943E-002 -1.7405800478E+002  +2.1982062378E-002 -8.6394803763E+001  +4.8402678313E-001 +2.8417899281E+001 
3137629.537 +8.0710972261E-002 -1.7777566331E+002  +1.1861532406E-002 -1.3679840099E+002  +5.2682740451E-003 +1.1804970179E+002  +2.0695203982E-001 -9.8122738604E+001 
3262774.718 +1.0920643548E-001 +1.6172538067E+002  +2.6711485203E-003 -8.5241547179E+001  +4.0383483129E-003 -1.1152829570E+002  +1.8614542422E-001 -1.1460380877E+002 
3387919.900 +1.2620993799E-001 +1.6173506990E+002  +8.1406271339E-003 -1.2790618455E+001  +6.4645181942E-003 +6.8752984196E+001  +2.3308375414E-001 -6.9660512419E+001 
3513065.081 +1.1308343024E-001 +1.5853623606E+002  +6.6262035068E-003 +5.2054080269E+001  +1.9507651677E-002 +5.3304915332E+001  +3.4081506388E-001 -1.6964515291E+001 
3638210.263 +1.6254271780E-001 +1.4822435918E+002  +3.8831175770E-002 -1.6691668132E+002  +3.9906173105E-002 +1.2872961813E+002  +1.7518696392E+000 +4.1261405726E+001 
3763355.444 +1.9318189157E-001 +1.4196107611E+002  +1.0167344268E-002 -1.5764663403E+001  +1.2592757924E-002 -2.9803986015E+001  +7.9158969029E-001 +1.4825903340E+002 
3888500.626 +1.9042047391E-001 +1.5032658245E+002  +4.1581608613E-003 -9.9329671565E+001  +4.7401762685E-003 -1.4156237684E+002  +3.1112045744E-001 +1.4309434501E+002 
4013645.807 +1.8404862076E-001 +1.4384281299E+002  +6.6921625363E-003 +1.0859136426E+002  +1.4086124896E-002 -1.5749595249E+002  +5.3409988792E-001 +1.2277294075E+002 
4138790.989 +1.6898986534E-001 +1.4671321211E+002  +9.2092793048E-003 +8.8846361050E+001  +1.1213290039E-002 +6.7659526202E+000  +5.3597383279E-001 +8.2936777922E+001 
4263936.170 +1.7119264059E-001 +1.4830603146E+002  +4.7147299069E-003 -5.4553855380E+001  +1.0770273744E-003 +8.0976111167E+001  +1.8758341874E-001 +1.2395019520E+002 
4389081.352 +2.0284022113E-001 +1.4485488776E+002  +3.9433030038E-002 -4.8377117628E+001  +3.8337947481E-002 -1.3964712160E+002  +1.7410568241E+000 +7.2622614753E+001 
4514226.533 +2.3587795842E-001 +1.4188122455E+002  +1.5244292849E-002 -1.6081677044E+002  +4.4538147987E-003 +7.3285748196E+001  +1.2685891606E+000 +1.3478855580E+002 
4639371.715 +2.9439838629E-001 +1.3719546259E+002  +5.3821477686E-003 +1.3181186865E+002  +1.3294842587E-002 +9.4240690347E+001  +7.6081982364E-001 +1.0213897550E+002 
4764516.896 +3.4268417384E-001 +1.3192218127E+002  +3.0558460726E-002 -5.0555938017E+000  +6.3849583929E-002 -7.2304255584E+001  +3.0297136691E+000 -1.3843813103E+002 
4889662.078 +3.9297589411E-001 +1.3865679633E+002  +3.3809789670E-002 -8.1121158073E+001  +3.9398104849E-002 -1.3392437305E+002  +2.9525860064E+000 -1.1183139414E+002 
5014807.259 +4.0961504149E-001 +1.3675492828E+002  +5.2025282930E-002 -1.2262325949E+002  +1.8864586560E-002 -7.3940052436E+001  +5.3725142417E+000 +8.2884050708E+001 
5139952.441 +4.4451288545E-001 +1.2745057285E+002  +9.0442395930E-002 -4.4327044231E+001  +7.2961026688E-003 +1.7279631720E+002  +2.7932563027E+000 +6.3196760758E+001 
5265097.622 +5.0559427797E-001 +1.3153801622E+002  +9.6179292486E-003 +1.7951375174E+002  +1.7984624510E-002 -1.1701959692E+002  +2.7943800613E+000 +1.2636555344E+002 
5390242.804 +3.8131046130E-001 +1.3150870895E+002  +2.7268100058E-002 -1.7701507732E+002  +2.5499393333E-002 +1.0605605042E+002  +5.0322100667E+000 +2.4587685125E+001 
5515387.985 +4.8412826483E-001 +1.2785182931E+002  +9.2368268530E-003 +1.7347096683E+002  +5.7586970715E-003 -1.7344425755E+002  +2.3198725689E+000 +4.9131740874E+001 
5640533.166 +4.2419032938E-001 +1.2371757022E+002  +1.0646480642E-002 -1.4623925368E+002  +1.9910648344E-002 -1.5760053886E+002  +2.1277618061E+000 +6.1229714529E+001 
5765678.348 +5.1257504516E-001 +1.3380810403E+002  +8.7314013115E-003 -1.8610754991E+001  +1.0104054166E-002 -1.0480257711E+002  +4.0362013859E+000 +1.0069817120E+002 
5890823.529 +5.8308802030E-001 +1.2656155030E+002  +3.4535490833E-002 +7.1486018458E+001  +1.6285973542E-002 +1.2864018365E+001  +2.3904971581E+000 +5.0605461713E+001 
6015968.711 +5.8207277484E-001 +1.2353878616E+002  +1.0394956215E-002 +1.1986681821E+002  +1.2955463572E-002 +1.1726717794E+002  +2.5025392869E+000 -2.2808207631E+000 
6141113.892 +7.6969825228E-001 +1.0182187437E+002  +2.9334419201E-002 -1.5064447519E+002  +2.7725747045E-002 -1.0284648957E+002  +2.1618046202E+000 +3.6146910579E+001 
6266259.074 +7.4824408386E-001 +1.1024929423E+002  +9.2641820208E-003 -1.4708568702E+002  +1.0353398825E-002 +8.7923311909E+001  +1.3314888194E+000 +1.5862649264E+001 
6391404.255 +8.9564667952E-001 +9.1011340258E+001  +1.1513979921E-002 -1.6378291598E+002  +1.7534688518E-002 +4.7517473503E+001  +2.0543105768E+000 +2.3082125971E+000 
6516549.437 +1.4851243612E+000 +8.3770598252E+001  +4.5603960334E-002 -1.7928248753E+002  +1.1682404142E-002 -7.5053683919E+001  +1.6034860087E+000 -6.1638494528E+000 
6641694.618 +1.4922942694E+000 +8.8132821029E+001  +1.4863086614E-002 +1.0679804436E+002  +4.0226682205E-002 -1.5903985789E+002  +1.4360928257E+000 +2.0211707610E+000 
6766839.800 +1.6219419689E+000 +5.9942895350E+001  +1.2790556716E-002 +1.3521564957E+002  +2.6314680590E-002 +1.1439225544E+002  +1.3354640553E+000 +2.5632190880E+000 
6891984.981 +2.0730967363E+000 +4.6940494985E+001  +2.6745952955E-002 +7.8943459374E+001  +2.5617689539E-002 +1.5558990045E+002  +1.4036534530E+000 -9.6261708347E+000 
7017130.163 +2.0279435142E+000 +2.9324029613E+001  +1.6704660434E-002 +1.0072019891E+002  +1.4623511853E-002 +8.8156002490E+001  +1.1134827931E+000 -8.9678576926E+000 
7142275.344 +1.7068177377E+000 +1.3109625730E+001  +1.4892240618E-002 +1.2164508134E+002  +2.0642745469E-002 +1.0841971830E+002  +1.4084348345E+000 -1.0855887853E+001 
7267420.526 +1.4539485225E+000 +4.4719603637E+000  +3.9770496629E-003 -1.8565779503E+001  +1.0699512198E-002 +1.5817825234E+002  +1.1533851822E+000 -1.1018783163E+001 
7392565.707 +1.1746186435E+000 +4.1161786782E+000  +2.9458077714E-003 +2.5282194578E+001  +7.3472481877E-003 +7.5716672672E+001  +1.4291002936E+000 -8.1138325842E+000 
7517710.889 +1.1491117906E+000 +1.9976599024E+000  +1.8029616927E-003 -4.2575565087E+001  +7.7356097994E-003 +1.0563874508E+002  +1.2015428186E+000 -6.9819411867E+000 
7642856.070 +9.7456717960E-001 +2.1633986993E+000  +8.6854235741E-003 +8.0474743047E+001  +4.9428900616E-003 +1.0682337729E+002  +1.0492416225E+000 -5.7380449051E+000 
7768001.252 +1.0659773667E+000 +4.3793040667E+000  +8.7154929705E-003 +1.3444360136E+001  +6.9163970558E-003 +1.1492083837E+002  +9.7993539287E-001 -1.1154940756E+000 
7893146.433 +8.8686249227E-001 -1.8386515212E+000  +5.5071585375E-003 +1.7670350753E+002  +1.6537815203E-003 -4.9268548785E+001  +8.9642552525E-001 -7.5873653798E-001 
8018291.615 +8.7770784474E-001 +7.7826492915E+000  +9.2459523323E-003 -6.4487049931E+001  +8.6201013684E-003 +6.0775429166E+001  +8.7739112004E-001 -3.6455484727E+000 
8143436.796 +8.1381560439E-001 +4.9401438961E+000  +9.9618617547E-003 +1.1708284444E+002  +2.6271936725E-003 +1.5113380127E+002  +7.4825361722E-001 -6.3248123592E+000 
8268581.977 +7.1681260688E-001 +6.1612678024E+000  +3.1872130768E-003 +6.8455736271E+001  +5.7413417523E-003 +4.7665291175E+001  +7.5881272687E-001 -7.4774009784E+000 
8393727.159 +6.4230750815E-001 +3.9358174353E+000  +9.2633084707E-003 +1.3560328267E+002  +5.5319319715E-003 +7.7095287715E+001  +7.8699685828E-001 +2.2573683923E+000 
8518872.340 +6.9899451562E-001 +9.6048897938E+000  +8.1552351579E-004 +2.8168265116E+000  +3.6374604188E-003 +1.2642568035E+002  +6.8621587655E-001 -1.6131921204E+000 
8644017.522 +6.6847850643E-001 +2.5935749601E+000  +3.9538630379E-003 +6.8510860138E+001  +2.6027374774E-003 +1.2635457030E+002  +7.4432127273E-001 -2.9554755656E+000 
8769162.703 +5.9045774202E-001 -4.4223367595E-001  +4.2026064498E-003 +7.8870216681E+001  +5.7650736811E-003 +1.3995962074E+002  +6.1077899282E-001 -3.5856918047E+000 
8894307.885 +6.6042184568E-001 +4.0180867201E+000  +2.6232234469E-003 +1.7872108981E+001  +7.3513720214E-003 +9.0197937654E+001  +6.8656098949E-001 +6.8667081602E+000 
9019453.066 +6.0434279481E-001 +1.7371097822E+000  +5.9601669624E-003 +1.0302525438E+002  +2.1735710991E-003 +9.9025517435E+001  +6.3323613408E-001 -1.1587031626E+000 
9144598.248 +6.1160913339E-001 +3.4245078692E+000  +4.8343980181E-003 +6.7929983668E+001  +3.2984841188E-003 +1.7067436030E+002  +5.8384440530E-001 +1.0854448536E+000 
9269743.429 +5.5282346883E-001 +2.4032634655E+000  +3.0214287194E-003 +8.7676439042E+001  +4.5680386772E-003 +7.3836638391E+001  +5.9087929766E-001 -3.7350755537E+000 
9394888.611 +5.7956188336E-001 +4.8776410548E+000  +3.8814614028E-003 +7.4964138144E+001  +2.5191623874E-003 +8.4993831751E+000  +5.9961193036E-001 -4.3950301234E+000 
9520033.792 +5.3360572633E-001 -1.2270313825E-001  +6.1996936659E-003 +1.0013801842E+002  +3.0657989519E-003 +4.5133962409E+001  +6.1551161499E-001 -3.9095209368E+000 
9645178.974 +6.0105768449E-001 +1.4492273079E+000  +4.2790305718E-003 +1.2404310639E+002  +5.1320182160E-003 +8.1514825641E+001  +5.7233458510E-001 +2.7014356685E+000 
9770324.155 +5.4596621067E-001 +9.0991077846E-001  +5.7971756795E-004 +1.3026830609E+002  +6.4924975602E-003 +9.5846838719E+001  +6.0949730850E-001 -8.3052458091E+000 
9895469.337 +5.4130580585E-001 -2.3776459667E+000  +2.6728949777E-003 +1.5124353514E+002  +5.2467333330E-003 +1.1512645350E+002  +6.0283218279E-001 -2.2142674497E+000 
10020614.518 +5.7129401053E-001 -2.7451913027E-001  +5.1914165775E-003 +4.4050422523E+001  +4.3080715100E-003 +7.4604121806E+001  +5.8733824476E-001 -6.4578123804E+000 
10145759.700 +5.8388015788E-001 +1.3056999610E+000  +6.0430684644E-003 +5.7205100502E+001  +2.5300589839E-003 +1.2230356312E+002  +6.2787709744E-001 -2.3835193832E+000 
10270904.881 +5.9780159363E-001 +2.9196175678E+000  +4.0974419031E-003 +6.5837503399E+001  +3.0696501346E-003 +1.2341238792E+002  +5.6247305336E-001 -4.1339352696E+000 
10396050.063 +5.8094309047E-001 +1.7882365939E+000  +2.9693910202E-003 +6.0124826367E+001  +4.2924532153E-003 +1.1467046354E+002  +5.8626099141E-001 +1.1038352847E+000 
10521195.244 +5.5689576474E-001 +8.2904491026E+000  +4.0413562961E-003 +6.3391729571E+001  +4.4665751346E-003 +1.2146313656E+002  +5.6976650514E-001 -2.1562957865E+000 
10646340.426 +5.3118864298E-001 +3.8166084055E+000  +4.9052637787E-003 +1.1313397662E+002  +2.6504428469E-003 +1.0513294165E+002  +6.2173640748E-001 +7.5279305170E-002 
10771485.607 +5.8185802509E-001 +6.5884484730E+000  +5.8091405523E-003 +7.8632097490E+001  +3.4357101770E-003 +1.1955760802E+002  +5.7093891134E-001 +8.3919835570E-001 
10896630.788 +5.9262915942E-001 +6.0616743329E+000  +5.5887910740E-003 +9.9246255636E+001  +4.6145453543E-003 +9.4779303809E+001  +6.0038376223E-001 +8.2416411162E-001 
11021775.970 +5.7303827323E-001 +5.9738568940E+000  +5.3689497462E-003 +1.0181302895E+002  +5.0362266883E-003 +1.3979561850E+002  +6.0653088116E-001 +9.9280063154E-001 
11146921.151 +5.9795579510E-001 +7.4643024489E+000  +4.5063672068E-003 +6.0168517331E+001  +4.7395479649E-003 +1.0261081072E+002  +6.0486490029E-001 -2.1833459181E+000 
11272066.333 +6.0711517340E-001 +8.4624798039E+000  +4.9832006329E-003 +8.5703355676E+001  +4.9979603133E-003 +1.3047953822E+002  +6.2646388289E-001 +1.7278624096E+000 
11397211.514 +6.2286052074E-001 +5.2590733923E+000  +4.7552195560E-003 +7.3149168846E+001  +5.9773478322E-003 +9.5857935323E+001  +6.5744786853E-001 +2.3842676705E+000 
11522356.696 +6.1839229533E-001 +4.7285130955E+000  +6.6563159056E-003 +9.9889558532E+001  +4.0887145637E-003 +9.9571417777E+001  +6.5680509663E-001 +3.1730189951E-001 
11647501.877 +6.2653763293E-001 +4.9994715831E+000  +6.9524940215E-003 +7.7284543980E+001  +3.2563103114E-003 +8.7097446614E+001  +6.3027023831E-001 +6.9410826123E-001 
11772647.059 +6.5986228705E-001 +3.7675266802E+000  +5.4341090520E-003 +9.1392911962E+001  +6.4680292913E-003 +1.1544716398E+002  +6.5701101017E-001 +1.4142263599E+000 
11897792.240 +6.4098850226E-001 +5.5765833145E+000  +5.1412852759E-003 +9.6776267742E+001  +4.6531972640E-003 +1.0076102209E+002  +6.8628378583E-001 +1.4561644561E+000 
12022937.422 +6.7883499280E-001 +4.9284253116E+000  +4.2830824765E-003 +9.6516403741E+001  +6.7792315703E-003 +1.1353090856E+002  +6.7502007869E-001 +3.5503836325E+000 
12148082.603 +6.6348449672E-001 +3.8373239647E+000  +6.9046740060E-003 +7.7675540738E+001  +6.1777507655E-003 +1.0453348790E+002  +6.9950623499E-001 +8.9074758948E-001 
12273227.785 +7.2671424904E-001 +2.4794038138E+000  +2.5590411631E-003 +8.8516467052E+001  +5.9647507486E-003 +9.2725976323E+001  +7.0883330703E-001 -2.0416415673E-001 
12398372.966 +7.0065599651E-001 +1.3752411472E+000  +4.7459412785E-003 +1.0026265381E+002  +6.1262666320E-003 +9.5675224621E+001  +7.3921684087E-001 +1.0445559012E-001 
12523518.148 +7.5669807647E-001 +2.8610184868E+000  +5.8336673216E-003 +8.8063431549E+001  +5.7188332034E-003 +1.1246605568E+002  +7.4679947431E-001 -9.6745862344E-001 
12648663.329 +7.3737615147E-001 +3.6484582036E+000  +5.6825734844E-003 +8.1858983613E+001  +5.5028361470E-003 +8.0430857809E+001  +7.3736306861E-001 -8.4126517468E-001 
12773808.511 +7.5990917068E-001 +3.5385493855E+000  +6.6926924110E-003 +1.0010989018E+002  +4.4084228156E-003 +1.0684658842E+002  +7.6710577084E-001 -1.6168808748E+000 
12898953.692 +7.5682150925E-001 +1.0455208435E+000  +4.7062921352E-003 +8.7802965759E+001  +5.1443114064E-003 +9.3588770098E+001  +7.9414950392E-001 -2.1541696386E+000 
13024098.874 +7.9119137520E-001 +1.1199125411E+000  +6.8301105549E-003 +9.6213754502E+001  +4.8269669523E-003 +9.6065346873E+001  +8.3564242209E-001 -2.2182023256E+000 
13149244.055 +8.0941028318E-001 +1.0707287599E+000  +4.7241162932E-003 +8.8148492725E+001  +5.7126881925E-003 +9.0753011916E+001  +8.1756440414E-001 -1.4760832552E+000 
13274389.237 +8.2569298576E-001 -1.2314666982E+000  +6.0668246305E-003 +1.0718147479E+002  +6.7183763033E-003 +9.2391334808E+001  +8.3714662505E-001 -2.3170185147E+000 
13399534.418 +8.1596049005E-001 -5.8779862565E-001  +7.4758057718E-003 +9.7985589887E+001  +6.7772775990E-003 +9.2767432884E+001  +8.4477573087E-001 -1.6382119547E+000 
13524679.599 +8.5250577090E-001 -7.2798313097E-001  +6.5717900335E-003 +1.0047839732E+002  +7.7675445754E-003 +9.5637809675E+001  +8.6633459640E-001 -3.6524651083E+000 
13649824.781 +8.6782759416E-001 -1.2682978591E+000  +7.9363837142E-003 +8.8139121409E+001  +8.6174560596E-003 +8.3546448680E+001  +8.7542966317E-001 -3.8493666967E+000 
13774969.962 +8.8993571654E-001 -3.0815156748E+000  +7.8197692404E-003 +9.5707299406E+001  +5.8914059367E-003 +9.2077879250E+001  +8.8549747611E-001 -3.2212185257E+000 
13900115.144 +9.1152354547E-001 -3.8688349354E+000  +7.5043919190E-003 +9.3393926476E+001  +7.2759916903E-003 +9.9921311938E+001  +9.0475819782E-001 -3.2525529523E+000 
14025260.325 +9.1064928725E-001 -3.8061218495E+000  +8.0094082212E-003 +9.4106725231E+001  +6.9878497717E-003 +1.0326818655E+002  +9.4707589369E-001 -4.8394338899E+000 
14150405.507 +9.3265149833E-001 -3.8167354734E+000  +7.1393145788E-003 +9.3810720917E+001  +8.3159395188E-003 +9.3530283372E+001  +9.2034067662E-001 -3.4366515681E+000 
14275550.688 +9.2793879942E-001 -3.6105539861E+000  +7.4471976087E-003 +9.4098907870E+001  +7.7742704307E-003 +7.8368450555E+001  +9.7730677853E-001 -4.6691456170E+000 
14400695.870 +9.6586530511E-001 -5.8437507319E+000  +8.4848942434E-003 +9.2365250463E+001  +6.6653110077E-003 +1.0319479546E+002  +9.7555862063E-001 -5.5973734995E+000 
