!  2-Port S-parameters saved by WinCal
! VAR MeasName=S-Parameters (CALIBRATED_DATA) read from VNA (P5004A)
! VAR MeasDate=28/08/2024 12:29:40
! VAR NAME=S2_r7c9_RESET4_9k-100M_3
! VAR FILENAME=S2_r7c9_RESET4_9k-100M_3.S2P
! VAR DATE=28/08/2024 12:29:40
! VAR PHYS_PORTS=1,2
! VAR ObjTypeName=DATASET
! VAR IndexType=Frequency
!
# Hz S MA R 50
9000.000 +9.9523916079E-002 -1.6545157930E+002  +1.5433176008E-003 +2.0461221807E+001  +1.0168255469E-002 -5.8399190736E+001  +2.5402736944E-001 -1.4458320414E+002 
134145.181 +1.1127822256E-001 +1.6935943256E+002  +2.8413606157E-004 -3.2020726062E+001  +4.4921657111E-004 +1.1374921282E+002  +2.4128804667E-001 -1.7133306470E+002 
259290.363 +1.1186579613E-001 +1.6958534091E+002  +3.5737200413E-004 +8.3265193866E+001  +6.5188359534E-004 -1.7863868803E+002  +2.4722630422E-001 -1.6818657092E+002 
384435.544 +1.1344719188E-001 +1.7014088717E+002  +4.4811969924E-004 -1.3904199375E+002  +1.4288191674E-004 +2.2063010262E+001  +2.3819805040E-001 -1.7016407888E+002 
509580.726 +1.1181364337E-001 +1.7278282323E+002  +8.4682751346E-004 +1.7841207613E+002  +6.2859046831E-004 -1.8164635666E+001  +2.6747210871E-001 -1.6622884158E+002 
634725.907 +1.1581134608E-001 +1.7188671800E+002  +4.4214760927E-004 -1.6995132816E+002  +5.2439557575E-004 -1.1475495011E+002  +2.5871617343E-001 -1.6557225698E+002 
759871.089 +1.1888704817E-001 +1.7040700514E+002  +5.7794243361E-004 +8.7957956901E+001  +2.3023369643E-004 +1.3341284772E+001  +2.4576406818E-001 -1.6696714295E+002 
885016.270 +1.2061440499E-001 +1.6940610586E+002  +2.2505504069E-004 +1.3640756366E+002  +4.1018175957E-004 -9.1386426033E+001  +2.4705966596E-001 -1.6579141379E+002 
1010161.452 +1.1790146467E-001 +1.7150179790E+002  +5.5683062128E-004 +1.3618143795E+002  +1.2226240647E-003 -3.7534275574E+001  +2.1254166738E-001 -1.7167256113E+002 
1135306.633 +1.1517373183E-001 +1.7148181642E+002  +2.0594439414E-003 -9.1402114193E+001  +4.8123487077E-003 -2.2055892045E+001  +8.0189949200E-002 +1.6163942475E+002 
1260451.815 +1.2172396440E-001 +1.7094822588E+002  +5.7908195267E-004 -9.9877046166E+001  +1.0500642993E-003 -5.3105247247E+001  +1.9940269004E-001 -1.6359743267E+002 
1385596.996 +1.2433043404E-001 +1.7164080532E+002  +1.2468518198E-003 +7.9722394959E+001  +1.4488018312E-003 +1.4710819654E+002  +2.6521953412E-001 -1.5616168831E+002 
1510742.178 +1.2641255550E-001 +1.7110392175E+002  +7.9864325372E-004 +9.8362806422E+001  +8.7527310073E-004 +2.3481438836E+001  +2.5821195300E-001 -1.6054951039E+002 
1635887.359 +1.2802291363E-001 +1.7179476155E+002  +1.0626201096E-003 +2.9346934642E+001  +2.7722933220E-004 +2.3471395155E+001  +2.3941318735E-001 -1.5598564472E+002 
1761032.541 +1.3094722489E-001 +1.7032465752E+002  +1.0176461672E-003 +5.9670466946E+001  +5.2709556261E-004 +6.2554744727E+001  +2.2700163365E-001 -1.5952653060E+002 
1886177.722 +1.3280436207E-001 +1.6874164720E+002  +7.6575285081E-004 +1.6294650642E+002  +8.0296318072E-004 +1.5026092415E+002  +2.2903285959E-001 -1.6634595400E+002 
2011322.904 +1.3233091829E-001 +1.6868080123E+002  +1.5257316299E-003 +1.7407498700E+002  +8.3268128814E-004 -2.9152035329E+000  +2.0306528598E-001 -1.6661745554E+002 
2136468.085 +1.2469774870E-001 +1.6659418169E+002  +5.0017179085E-003 +1.1611639616E+002  +2.9171957063E-003 -1.5571667683E+002  +1.1681366916E-001 +1.7471064893E+002 
2261613.267 +1.2494691675E-001 +1.6761561366E+002  +4.5838181307E-003 +1.5372844776E+002  +2.5137138324E-003 +1.1580778308E+002  +1.7286365680E-001 +1.7607274165E+002 
2386758.448 +1.3482569902E-001 +1.6572335253E+002  +2.9568194966E-003 +6.2827120477E+001  +6.2161852572E-004 +4.2605357828E+001  +1.7748510797E-001 +1.6935735717E+002 
2511903.630 +1.3381520006E-001 +1.5634456480E+002  +9.6227696199E-004 +9.7456288805E+001  +1.0440026411E-003 +6.9054427505E+001  +3.1919682085E-001 +1.6210523212E+002 
2637048.811 +1.2193086719E-001 +1.5753682556E+002  +6.6484426108E-003 +1.3602731607E+002  +8.1074986783E-003 -1.3238596118E+002  +1.7222325183E-001 +1.3670884728E+002 
2762193.992 +7.6407513246E-002 +1.6550843380E+002  +2.5825742834E-002 -1.0521113360E+002  +1.4071584386E-002 -4.9941848812E+001  +6.2338239899E-001 -9.0571988255E+001 
2887339.174 +1.0808154402E-001 +1.7740131596E+002  +1.4026731964E-002 +1.7502332886E+002  +1.2027592168E-002 -1.7299142066E+002  +7.4382907982E-001 -1.0883500022E+002 
3012484.355 +1.1893059785E-001 +1.6933264840E+002  +8.5609048870E-003 +4.0588888408E+000  +1.4602853350E-003 -1.4881936715E+002  +1.7505007724E-001 -7.5650365904E+001 
3137629.537 +1.2207909753E-001 +1.6512303892E+002  +8.1855184004E-003 -3.4405776427E+001  +7.1186460829E-003 -1.5118546674E+002  +7.3333949995E-001 -1.1082793782E+002 
3262774.718 +1.3339499243E-001 +1.7141350665E+002  +1.3315407327E-002 +8.5255971922E+001  +1.5090751232E-002 -1.3347030041E+002  +3.3590017447E-001 -1.0493097548E+001 
3387919.900 +1.2980521388E-001 +1.6783951366E+002  +9.0128335131E-003 +6.3998728350E+000  +6.5578593914E-003 -8.9068826540E+001  +2.5252700018E-002 -1.6350422478E+002 
3513065.081 +2.0037992932E-001 +1.4109556755E+002  +2.5373223953E-002 -1.7862229326E+002  +6.3617486420E-003 -7.2920131541E+001  +3.9682658708E-001 -5.0001409345E+001 
3638210.263 +1.7697548210E-001 +1.4644794187E+002  +9.7898822795E-003 +1.5840079816E+002  +7.0626815903E-003 +1.2894957057E+002  +8.2574542896E-001 +1.2424817162E+002 
3763355.444 +1.4465362252E-001 +1.4084128649E+002  +3.2873944270E-002 +1.4636349561E+002  +1.0810072491E-002 -1.3842050098E+002  +6.9764134156E-001 +1.0218547383E+002 
3888500.626 +1.6268437447E-001 +1.4826051864E+002  +6.8438527141E-003 -3.7063079139E+000  +6.5150839898E-003 +1.5274795972E+002  +2.5323668319E-001 +7.2546495976E+001 
4013645.807 +1.6775104693E-001 +1.4818905058E+002  +1.1786633837E-002 -1.7136897178E+002  +1.1151539182E-002 +1.2158388748E+002  +4.0041998150E-001 +6.0375736050E+001 
4138790.989 +1.8335343359E-001 +1.4454735421E+002  +1.1503168678E-002 -1.5184954634E+002  +1.0511881747E-002 -1.6152417633E+002  +4.2164153671E-001 +1.3504377892E+002 
4263936.170 +1.8399919736E-001 +1.2771680418E+002  +1.1872693429E-002 -1.4322115841E+002  +1.4525377341E-003 -1.1422787702E+002  +3.3756928070E-001 +1.3523818168E+002 
4389081.352 +2.2568579508E-001 +1.3574959070E+002  +1.6357284250E-002 +6.3975829273E+001  +2.3638870657E-002 -1.6708076620E+002  +1.0491820574E+000 +1.1221655853E+002 
4514226.533 +2.5324613841E-001 +1.3413827252E+002  +3.4309230187E-003 -1.7731144065E+002  +7.2387416407E-003 -6.2551491932E+001  +4.6941246436E-001 +1.1864363010E+002 
4639371.715 +2.7371041285E-001 +1.3555692194E+002  +6.8617010386E-002 +7.1876826057E+001  +8.3487361426E-003 +3.4332163397E+001  +2.4864377503E+000 -5.9342925316E+001 
4764516.896 +2.4508744665E-001 +1.1104305433E+002  +3.0131982495E-002 +7.5632604525E+001  +1.0641014905E-002 -1.0690578821E+002  +2.8208514542E+000 -1.2441907999E+001 
4889662.078 +4.3502660610E-001 +1.1849594840E+002  +4.9909852488E-002 +1.1639100174E+002  +6.9584817128E-002 +2.4596392718E+001  +2.4453865740E+000 -9.6019658098E+001 
5014807.259 +4.5711034230E-001 +1.2948076265E+002  +1.2197498145E-001 +1.3336309304E+002  +2.2106255171E-001 -1.3039207759E+001  +1.2025366094E+001 -1.3065832531E+002 
5139952.441 +3.6037187838E-001 +1.2964078427E+002  +3.3658365923E-002 +1.6830882667E+002  +2.6660475715E-002 -7.6931441911E+001  +6.3865597842E+000 +1.0601023671E+002 
5265097.622 +3.8987198030E-001 +1.2414375192E+002  +1.9896887462E-002 +1.7610177911E+002  +2.6854915433E-002 -3.5169178515E+001  +1.5007755538E+000 +9.0617785975E+001 
5390242.804 +4.2158851658E-001 +1.3036665623E+002  +3.0245343917E-002 -8.3796125358E+001  +1.5058196538E-002 -1.2238860009E+002  +1.6189414140E+000 +9.0828823673E+001 
5515387.985 +4.3352306842E-001 +1.3015149198E+002  +3.3972811043E-002 -1.5681625397E+002  +2.4070633097E-003 +5.1699425532E+001  +2.0343272555E+000 +7.8932380196E+001 
5640533.166 +4.8181202287E-001 +1.2372462840E+002  +2.3931052626E-002 -1.5855033521E+002  +1.1559125702E-002 +1.2618643971E+002  +1.7727924040E+000 +8.6533759741E+001 
5765678.348 +5.2089491850E-001 +1.1987178409E+002  +2.0224845756E-002 -1.2326894442E+002  +1.9041421477E-002 +6.4041972768E+001  +1.4386778741E+000 +7.5955863349E+001 
5890823.529 +5.8878925576E-001 +1.2145899193E+002  +2.2744671133E-002 -1.2379844584E+002  +2.5287539856E-002 +6.1293882734E+001  +1.6267392978E+000 +6.8637031232E+001 
6015968.711 +7.2530516581E-001 +1.2755615248E+002  +1.2454445224E-002 +1.3527835649E+002  +1.2788943381E-002 +4.5176094689E+001  +1.6747499421E+000 +4.8315494671E+001 
6141113.892 +7.2315426989E-001 +1.0595833652E+002  +2.4858456031E-002 +1.2458876729E+002  +2.5987669455E-002 +7.8975108829E+001  +2.2941412020E+000 +2.0563170501E+001 
6266259.074 +7.2519720843E-001 +1.0940363192E+002  +1.5063593876E-002 +5.9439430495E+001  +2.3747227975E-002 +4.1860281748E+000  +2.0440414335E+000 +3.8419696151E+001 
6391404.255 +1.0884646938E+000 +9.6812484099E+001  +3.2749173338E-002 +8.7101404847E+001  +1.9478074529E-002 +8.7145661666E+001  +1.7607449749E+000 +7.3983369673E+000 
6516549.437 +1.0640176811E+000 +9.1151731670E+001  +2.5037022696E-002 +1.0410418831E+002  +2.2203921992E-002 +7.2673066561E+001  +1.8915548855E+000 -5.8714540261E+000 
6641694.618 +1.6186348074E+000 +5.8671929297E+001  +2.3090149756E-002 +1.2003427797E+002  +2.5154283456E-002 +4.7581176059E+001  +1.3155044734E+000 +9.6620709793E+000 
6766839.800 +1.9073134530E+000 +4.5430146535E+001  +1.4739275601E-002 -1.6479920565E+002  +4.1526150755E-002 +4.0201250222E+001  +1.5216424196E+000 +3.0211165084E-002 
6891984.981 +1.3290490537E+000 +3.0267124282E+001  +1.2693260372E-002 +5.3076587886E+001  +1.9594321865E-002 -1.4862903955E+002  +1.2854215367E+000 -1.0812940972E+001 
7017130.163 +1.8580760117E+000 +1.9527292684E+001  +6.8019273408E-003 -1.0994049851E+002  +2.0917809598E-002 +1.0753751330E+002  +1.2961152539E+000 -1.0881598166E+000 
7142275.344 +1.5492366249E+000 +8.3442142324E+000  +1.5081321483E-002 -1.3529929256E+002  +1.4064714691E-002 +1.0961321089E+002  +1.3009380296E+000 -8.2969982040E+000 
7267420.526 +1.6535862639E+000 +6.3354580874E+000  +1.5689288050E-002 -3.4180740096E+001  +1.8486345244E-002 +9.3496718358E+001  +1.4617486170E+000 -1.6791790002E+001 
7392565.707 +1.2786235049E+000 +2.5991565507E-001  +1.0054996030E-002 +9.9185711211E+001  +8.2845926516E-003 +1.5783900318E+002  +1.2451574206E+000 -6.3658835234E+000 
7517710.889 +1.1036115820E+000 -3.3654591034E+000  +2.8914029643E-003 -6.3510398712E+001  +8.5872048190E-003 -1.4191683220E+002  +1.1426932880E+000 -8.1473650396E+000 
7642856.070 +9.9121343116E-001 +6.3188956758E+000  +5.5987678721E-003 +1.0942064151E+001  +5.5711906118E-003 +1.4678251785E+002  +1.0663380755E+000 -6.0173754064E+000 
7768001.252 +9.7212947494E-001 +4.7116992890E+000  +4.1320448440E-003 +6.9853011901E+001  +9.4539332939E-003 +4.9004521033E+001  +1.0320699364E+000 -1.0355730571E+001 
7893146.433 +8.4860491838E-001 +5.5340162220E+000  +4.4268313580E-003 +1.3571165715E+002  +6.7191959298E-003 +1.3395324138E+002  +8.9979991960E-001 -2.0067799472E+000 
8018291.615 +8.1167325397E-001 +9.2122837040E+000  +1.7258651376E-003 -1.2446170790E+000  +2.9824700142E-003 -2.2141650995E+001  +8.1457035875E-001 -3.2200648585E+000 
8143436.796 +8.2422407795E-001 +6.7082647772E+000  +1.8461100113E-003 -9.3145137203E+000  +5.7492938168E-003 +8.5066775579E+001  +7.0631913716E-001 -1.4177697273E+000 
8268581.977 +8.4618990855E-001 +8.2322506128E+000  +7.5740111852E-003 +1.3311618595E+002  +6.3037821969E-003 -1.6763176260E+002  +8.1679358533E-001 +1.6272624728E+000 
8393727.159 +6.7521882121E-001 +1.1794968778E+001  +1.4811688223E-003 +5.0477745452E+001  +5.2032387126E-003 +7.3545175289E+001  +6.7082391892E-001 -4.4061245411E-001 
8518872.340 +6.6128478701E-001 +9.2177413335E+000  +9.6874100420E-004 -1.7755035389E+002  +2.6642594682E-004 +1.3967941799E+002  +7.4444068571E-001 -7.6084403213E-001 
8644017.522 +6.9981710305E-001 +8.0287291738E-001  +2.5987176545E-003 +7.7674708285E+001  +3.0876174580E-003 +1.1604970842E+002  +7.2653563410E-001 +3.6216127973E+000 
8769162.703 +6.5905134556E-001 -3.1487417130E+000  +5.2765581964E-003 +7.1783872419E+001  +5.6585280202E-003 +1.1539576632E+002  +7.0042482529E-001 -1.6537503918E+000 
8894307.885 +6.1506069001E-001 +4.9244546910E+000  +3.0834508458E-003 +1.1200802512E+002  +1.4844762158E-003 +7.5840897885E+001  +6.1952678747E-001 -3.2880735185E+000 
9019453.066 +5.7055533099E-001 +4.3525428801E+000  +2.8562528335E-003 +1.3303755305E+001  +4.4195290685E-003 +8.0366945987E+001  +6.0031953702E-001 -2.6462942667E+000 
9144598.248 +5.7384044416E-001 +4.1434170884E+000  +3.1682772145E-003 +6.2778056597E+001  +5.7075691784E-003 +1.2614189713E+002  +6.1522551406E-001 +9.4649626110E-001 
9269743.429 +5.8804637552E-001 +1.7769057392E+000  +4.3950044322E-003 +5.9510533567E+001  +1.2104922813E-003 -5.5707882229E+001  +6.6360760521E-001 +1.1187037282E+000 
9394888.611 +5.2551456745E-001 -2.9218059689E+000  +4.2380023888E-003 +6.9730389456E+001  +4.0223876473E-003 +8.5983494816E+001  +6.2109694967E-001 -2.9961157926E+000 
9520033.792 +5.5579310190E-001 +7.6426613391E+000  +2.0727228504E-003 +3.6768081357E+001  +7.4301318835E-003 +9.6402547609E+001  +6.1028505130E-001 -9.6472699918E+000 
9645178.974 +5.1284593477E-001 +4.6467660252E+000  +1.9190086479E-003 +5.1078785580E+001  +3.5431892774E-003 +6.0206248193E+001  +5.8008996290E-001 -4.5635711065E+000 
9770324.155 +5.3058220565E-001 -4.0404134368E+000  +3.4264456443E-003 +1.0499529638E+002  +4.9567492811E-003 +8.3204405952E+001  +5.6673134495E-001 -7.0353983114E+000 
9895469.337 +5.0270247867E-001 -7.2944892380E-003  +2.4619891094E-003 +1.1380510717E+002  +3.0399653324E-003 +1.1762361196E+002  +5.4404708336E-001 -6.6582207586E+000 
10020614.518 +5.1666490196E-001 +5.5698997295E+000  +4.0803638469E-003 +4.5081520772E+001  +4.2579527248E-003 +6.2273274823E+001  +5.5898390026E-001 -4.8271560349E+000 
10145759.700 +5.4431401825E-001 +1.1100611026E+000  +4.7484823888E-003 +1.1057502420E+002  +5.0430128493E-003 +1.2229460505E+002  +5.9875661561E-001 -4.9422769170E+000 
10270904.881 +5.2924334984E-001 +3.7317906246E+000  +3.5121607499E-003 +7.7480326358E+001  +2.7290604390E-003 +1.1368329196E+002  +5.5818706596E-001 -2.8664265835E+000 
10396050.063 +5.6997302370E-001 +4.9385140791E+000  +5.4428781402E-003 +8.7121294761E+001  +3.2630917976E-003 +5.5817191810E+001  +5.7317339420E-001 -1.4349942518E+000 
10521195.244 +5.6022197732E-001 +8.2305995457E+000  +3.8869000387E-003 +8.5997120814E+001  +3.4310317800E-003 +6.1175373035E+001  +5.8066829765E-001 -2.5529983110E+000 
10646340.426 +5.7548690032E-001 +5.8170004033E+000  +3.9019075977E-003 +3.7728472488E+001  +6.1742939831E-003 +1.1657112697E+002  +6.0763430815E-001 -1.0543570320E+000 
10771485.607 +5.6785545997E-001 +5.9241879668E+000  +3.9842400154E-003 +1.1135767757E+002  +4.8097301857E-003 +9.1038297054E+001  +6.0614778530E-001 +1.7907028683E+000 
10896630.788 +5.7375013732E-001 +4.9941515622E+000  +4.8659271554E-003 +8.1354146892E+001  +6.1602176502E-003 +7.9959800515E+001  +6.0004812323E-001 +3.6473092502E-001 
11021775.970 +5.7538505545E-001 +1.0340744644E+001  +3.0889805650E-003 +8.6615606166E+001  +3.4955307519E-003 +1.1499016640E+002  +6.3911646206E-001 +3.0044879393E+000 
11146921.151 +5.7882984104E-001 +8.9708693035E+000  +5.5425507797E-003 +6.9037915770E+001  +4.5915671969E-003 +1.1179457249E+002  +6.1798420660E-001 -2.2540957992E+000 
11272066.333 +6.1190971487E-001 +7.8892429870E+000  +3.1916842837E-003 +1.0386548903E+002  +5.5710948635E-003 +1.1059059172E+002  +6.1406854772E-001 -1.1457099040E+000 
11397211.514 +5.9443147348E-001 +6.3597900712E+000  +3.0956871213E-003 +1.0114919273E+002  +5.3225607457E-003 +1.0191033817E+002  +6.2468265136E-001 +2.1078993735E+000 
11522356.696 +6.0673926714E-001 +8.0760205928E+000  +5.7266999448E-003 +8.8037614731E+001  +4.1728930827E-003 +1.2922601964E+002  +6.7380879114E-001 +2.0384287611E+000 
11647501.877 +6.4709021428E-001 +5.4066880367E+000  +5.0724280091E-003 +8.9772054064E+001  +4.5129291989E-003 +1.1019247170E+002  +6.7653698235E-001 +1.5486890357E+000 
11772647.059 +6.4758838602E-001 +7.5706542550E+000  +5.4094690478E-003 +6.3289707705E+001  +4.9166800247E-003 +1.1000160396E+002  +6.5724420331E-001 +3.7389320281E+000 
11897792.240 +6.5855989041E-001 +4.6977011295E+000  +4.4992175000E-003 +7.3214302745E+001  +5.6349761232E-003 +7.9060406028E+001  +6.6039080296E-001 +2.1181368854E+000 
12022937.422 +6.7861382455E-001 +3.8004464955E+000  +5.5396965640E-003 +8.8384626338E+001  +5.9451471638E-003 +1.0065159901E+002  +7.0547448168E-001 -4.7501605134E-001 
12148082.603 +6.8390991696E-001 +5.3965987717E+000  +7.8770499116E-003 +9.0810362355E+001  +6.1573844867E-003 +9.9562610250E+001  +7.0788138389E-001 -8.5162512358E-001 
12273227.785 +6.9205999162E-001 +4.1104296374E+000  +5.6923740502E-003 +8.9063697194E+001  +5.5560293952E-003 +1.2085334671E+002  +7.0358305596E-001 -1.4710128295E-001 
12398372.966 +7.2801027437E-001 +4.1594967454E+000  +5.0514069239E-003 +7.3866126095E+001  +3.1885206879E-003 +9.4392015550E+001  +7.2441042035E-001 +3.3849407160E-001 
12523518.148 +7.2441346269E-001 +2.1877944531E+000  +6.9285652311E-003 +8.9422212403E+001  +5.3113322300E-003 +9.6512045562E+001  +7.0977148046E-001 -8.4579617940E-001 
12648663.329 +7.3740081680E-001 +4.2750706651E+000  +5.8495386458E-003 +8.4776386682E+001  +7.9113222608E-003 +1.1181169150E+002  +7.6969159527E-001 +4.4194605185E-001 
12773808.511 +7.5512573367E-001 +3.4860058646E+000  +6.1871496870E-003 +9.3370696451E+001  +5.8924367943E-003 +7.5635478103E+001  +7.7237177767E-001 -4.5139594720E-001 
12898953.692 +7.9941510692E-001 +1.9062056123E+000  +6.2976720248E-003 +1.0926080847E+002  +6.1164634550E-003 +1.0267373017E+002  +7.8161304435E-001 -2.4456108242E+000 
13024098.874 +7.8636335941E-001 +1.1260747800E+000  +5.8200510616E-003 +8.9360505603E+001  +6.4889529626E-003 +1.0211126470E+002  +7.9689531607E-001 -2.4678501340E+000 
13149244.055 +8.2843876445E-001 +2.2804973273E-001  +6.4418343195E-003 +8.9867727086E+001  +6.4423356063E-003 +1.0682888686E+002  +8.1233456155E-001 -2.6256003971E+000 
13274389.237 +8.3472667891E-001 -5.7970131540E-001  +6.3530823249E-003 +9.1931983146E+001  +5.9826272280E-003 +1.0218124015E+002  +8.5449717524E-001 -1.2855994846E+000 
13399534.418 +8.6253317146E-001 -1.2745590072E+000  +6.4314093732E-003 +8.3244795306E+001  +7.3590377323E-003 +8.9990997804E+001  +8.5857280722E-001 -2.1320288692E+000 
13524679.599 +8.7361285421E-001 -4.0742318742E-001  +7.5776782671E-003 +8.5570324851E+001  +5.0869863222E-003 +8.9738308482E+001  +8.8110212796E-001 -4.9713259648E+000 
13649824.781 +8.6519667229E-001 -1.8849413074E+000  +6.5246489968E-003 +9.7022741516E+001  +6.6425537700E-003 +9.3714310599E+001  +9.0459819291E-001 -2.5098023188E+000 
13774969.962 +9.0108343075E-001 -3.6682290544E+000  +8.0337116563E-003 +8.7631835121E+001  +5.8453713593E-003 +9.0132193203E+001  +9.0630643819E-001 -2.7563737477E+000 
13900115.144 +9.1829594527E-001 -2.1020651441E+000  +9.2586339040E-003 +9.6143386747E+001  +6.7389745569E-003 +9.7458546215E+001  +9.2192680171E-001 -4.1776926240E+000 
14025260.325 +9.2981310083E-001 -5.0235338709E+000  +8.5030310587E-003 +9.0909824943E+001  +7.3841767921E-003 +8.4012649969E+001  +9.3809234051E-001 -2.1966951328E+000 
14150405.507 +9.4273252848E-001 -5.3724996486E+000  +8.2236432838E-003 +9.3219073877E+001  +7.5939532885E-003 +9.3098745255E+001  +9.7211989673E-001 -4.1982269587E+000 
14275550.688 +9.5748517464E-001 -4.9582669263E+000  +7.6310272468E-003 +1.0292689584E+002  +7.5192120814E-003 +8.4718815851E+001  +9.9115639168E-001 -5.1760772289E+000 
14400695.870 +9.6440308557E-001 -5.1708670928E+000  +6.5276576849E-003 +9.4230992069E+001  +7.5697274098E-003 +8.9537839525E+001  +9.7125445159E-001 -4.5328129614E+000 
