!  2-Port S-parameters saved by WinCal
! VAR MeasName=S-Parameters (CALIBRATED_DATA) read from VNA (P5004A)
! VAR MeasDate=28/08/2024 10:59:33
! VAR NAME=S2_r5c9_SET3_9k-100M_2
! VAR FILENAME=S2_r5c9_SET3_9k-100M_2.S2P
! VAR DATE=28/08/2024 10:59:33
! VAR PHYS_PORTS=1,2
! VAR ObjTypeName=DATASET
! VAR IndexType=Frequency
!
# Hz S MA R 50
9000.000 +9.1431176126E-002 -1.7311255996E+002  +1.2398700848E-002 -1.4636880720E+002  +9.2945342810E-003 +7.9530434053E+001  +1.2978418335E-001 -1.1947391384E+002 
134145.181 +1.1120423711E-001 +1.6956830485E+002  +3.3069332302E-004 +1.7337618218E+002  +5.5054947553E-004 -1.3001012774E+001  +2.3783798213E-001 -1.7026955209E+002 
259290.363 +1.1137843559E-001 +1.6942996656E+002  +3.6244392599E-004 +6.8739086677E+001  +2.7329851796E-004 +3.2470586045E+001  +2.4602769062E-001 -1.6954565453E+002 
384435.544 +1.1378026304E-001 +1.7057725174E+002  +1.2272335039E-003 +1.1323031950E+002  +5.1891141423E-004 -9.9005087341E+001  +2.4796214083E-001 -1.6878103650E+002 
509580.726 +1.1414384663E-001 +1.7049398753E+002  +3.5112510403E-004 -4.2252164161E+000  +7.4355839077E-004 +1.3949274777E+002  +2.3441574796E-001 -1.6056940994E+002 
634725.907 +1.1576869554E-001 +1.7270599724E+002  +8.8608573614E-004 -1.9003851516E+001  +1.3485346655E-003 -4.8325779334E+001  +2.5846609307E-001 -1.6519342686E+002 
759871.089 +1.1931490459E-001 +1.7080162695E+002  +4.2664900114E-004 -2.2187276693E+001  +1.0821170264E-003 +1.0757811354E+002  +2.3967320525E-001 -1.6491909379E+002 
885016.270 +1.1889815195E-001 +1.6930393293E+002  +3.4867998955E-004 +1.2432123252E+002  +6.5659054568E-004 +1.0628221455E+002  +2.4787238960E-001 -1.6612088137E+002 
1010161.452 +1.2023365812E-001 +1.7045233049E+002  +1.4503099301E-004 +1.2952515845E+002  +7.3643820646E-004 +2.2773089106E+001  +1.9086034510E-001 -1.6284827094E+002 
1135306.633 +1.1666481094E-001 +1.7073824653E+002  +7.0321284438E-004 +1.4978564591E+001  +7.3579093838E-004 -1.7309818422E+002  +2.0038515652E-001 -1.6394026927E+002 
1260451.815 +1.1981478175E-001 +1.7312124724E+002  +1.1007791318E-003 +7.0820115839E+001  +5.0890133415E-004 -1.7468667932E+002  +2.4425756098E-001 -1.5514299604E+002 
1385596.996 +1.2371992848E-001 +1.7414448123E+002  +8.9764369810E-004 +7.3390600027E+001  +1.2694320266E-003 +2.9398971741E+001  +2.5524708014E-001 -1.5908003235E+002 
1510742.178 +1.2838578191E-001 +1.7151528396E+002  +1.1822786579E-003 -6.4659451226E+001  +9.8420733863E-004 +1.3337848610E+002  +2.5162588633E-001 -1.5890262201E+002 
1635887.359 +1.2985320140E-001 +1.7129604098E+002  +8.9095837590E-004 +1.7725491036E+002  +8.3143149190E-004 +1.0004133247E+002  +2.4238011183E-001 -1.5731155089E+002 
1761032.541 +1.2871220984E-001 +1.7115920177E+002  +5.7334657991E-004 +1.6199824979E+002  +1.1093630617E-003 -6.0855676162E+001  +2.0303948977E-001 -1.5519456176E+002 
1886177.722 +1.2557073813E-001 +1.6840397164E+002  +2.7071602154E-003 -1.0333632159E+002  +9.8572320171E-004 +1.4749454651E+002  +2.1968014568E-001 -1.6739239049E+002 
2011322.904 +1.3123337937E-001 +1.6708465773E+002  +2.4423226387E-003 +1.1179073108E+002  +1.5980679615E-003 -2.5037436294E+001  +1.4399206941E-001 -1.5570349734E+002 
2136468.085 +1.3192373967E-001 +1.6425975344E+002  +1.6200509941E-003 +1.0606688241E+002  +2.9962689604E-003 +6.6431719633E+000  +1.8473529198E-001 -1.7161555849E+002 
2261613.267 +1.3265758114E-001 +1.7030188290E+002  +2.5115658129E-003 +9.9734396281E+001  +3.4282855404E-003 -5.3615723862E+001  +2.1718426559E-001 +1.4933127811E+002 
2386758.448 +1.3993328565E-001 +1.6118191580E+002  +2.3640487966E-003 +2.0138863526E+001  +3.9467360438E-003 +1.0423827182E+002  +2.2333207368E-001 -1.7360459508E+002 
2511903.630 +1.3426598126E-001 +1.6329633365E+002  +2.3924636831E-004 +8.3760053806E+001  +4.2175528146E-003 +1.6162740560E+001  +1.7801246576E-001 +1.7268575995E+002 
2637048.811 +1.2675816619E-001 +1.6264433661E+002  +1.0333968205E-002 +4.1898107500E+001  +1.8410723822E-002 -1.0569791161E+002  +1.6177004606E-001 -1.0012351881E+002 
2762193.992 +1.3075940036E-001 +1.6661211977E+002  +2.2037422849E-002 +5.2198794916E+001  +5.1450735342E-003 -4.8436631770E+001  +4.1840501351E-001 +5.6670353497E+001 
2887339.174 +8.4274039999E-002 -1.7487882390E+002  +1.8698144137E-002 -8.4213358959E+001  +3.2098536972E-002 +1.1714924748E+002  +5.9222904069E-001 -1.0477537928E+002 
3012484.355 +1.2024547832E-001 +1.7475845268E+002  +8.6841572781E-003 +5.4242792288E+001  +5.4631369556E-003 -2.9035378745E+001  +2.7553330164E-001 -1.0365837781E+002 
3137629.537 +1.0462139577E-001 +1.7312864641E+002  +1.5181137141E-002 -1.4983309240E+001  +1.1386242438E-002 -1.2042893492E+002  +3.9789248968E-001 -7.0506766101E+001 
3262774.718 +1.4358329085E-001 +1.6984624100E+002  +1.6046498125E-002 +6.1546604717E+001  +2.0678442745E-002 -1.0326793770E+002  +3.2208687158E-001 +5.6830028081E+001 
3387919.900 +1.2911917780E-001 +1.4741658018E+002  +1.8329516848E-002 -4.5333590544E+000  +6.8386174251E-003 +1.2824704043E+002  +1.1505794807E+000 +6.1926617031E+001 
3513065.081 +1.2941525653E-001 +1.4633455782E+002  +3.2739131804E-003 +4.0745888818E+001  +1.5476091643E-002 -5.1533635114E+001  +1.1190318555E-001 +7.4240139660E+001 
3638210.263 +1.5036530194E-001 +1.5282466264E+002  +8.7065497881E-003 -1.4104051780E+002  +8.5770414294E-003 +5.8158040119E+001  +4.4049049630E-001 +1.4204307088E+002 
3763355.444 +1.7216185686E-001 +1.4660436843E+002  +1.7865052143E-002 +6.0366793278E+001  +9.1639883442E-003 +4.3839237420E+001  +5.2186236990E-001 +1.3120849630E+002 
3888500.626 +1.6478954663E-001 +1.5097619086E+002  +6.6009302999E-003 -1.3459548564E+002  +3.5988870532E-003 -6.9380477385E+001  +2.4783824394E-001 +1.0223647652E+002 
4013645.807 +1.7747190982E-001 +1.5586701303E+002  +6.6330667580E-003 +3.1425413813E+001  +7.7387905032E-003 +1.0321716746E+002  +9.9986610592E-002 +1.3667976698E+002 
4138790.989 +1.9679670345E-001 +1.4854302927E+002  +1.8794472705E-002 +1.3764954542E+002  +1.5121422775E-002 +7.5086746610E+001  +7.7234616177E-001 +1.3939273239E+002 
4263936.170 +1.7398349762E-001 +1.4024504822E+002  +4.5463062446E-003 +1.5062523998E+002  +1.6368507888E-002 -4.0904989542E+000  +3.4813283640E-001 +1.2970633941E+002 
4389081.352 +2.1014291850E-001 +1.3964885185E+002  +5.9191239789E-003 +1.0679303716E+002  +1.1009892004E-002 -2.4066318799E+001  +3.2850626388E-001 +9.0934493813E+001 
4514226.533 +2.1181924550E-001 +1.3865048205E+002  +1.5848617633E-002 +8.1155913945E+001  +2.2068393104E-002 +1.1861043882E+002  +1.2094089192E+000 +1.1212702514E+002 
4639371.715 +2.9664319570E-001 +1.3339016280E+002  +3.3370012699E-002 +2.6282247069E+001  +3.1127974331E-003 -2.3874347583E+001  +9.6388525428E-001 +5.8411069114E+001 
4764516.896 +3.1559841098E-001 +1.1666482558E+002  +8.8295185016E-002 -1.0140660667E+002  +1.0292170533E-001 -7.4943779524E+001  +3.1642690698E+000 -1.2141980039E+002 
4889662.078 +4.6066201651E-001 +1.3355819946E+002  +1.8438098717E-001 +6.2774511485E+001  +2.9494894582E-001 -4.2168716059E+001  +1.4041844589E+001 -7.8259194838E+001 
5014807.259 +3.7254978852E-001 +1.3364978910E+002  +3.0715832806E-001 -3.0396321427E+001  +3.2887805754E-001 -7.6362972282E+001  +1.7244666597E+001 -1.0070235718E+002 
5139952.441 +3.6055374584E-001 +1.3363224493E+002  +2.8169822839E-002 +1.0417991578E+002  +1.2728347499E-002 -5.8374765530E+001  +1.1414511710E+000 +6.3841215850E+001 
5265097.622 +4.0591773030E-001 +1.1979479005E+002  +2.9257921341E-002 +1.4236378438E+002  +3.0648352045E-002 +8.3064598381E+001  +1.6974666325E+000 +5.3084184067E+001 
5390242.804 +4.1946216258E-001 +1.3200077657E+002  +3.0757079895E-002 +1.0639487723E+002  +1.6342167988E-002 +5.3134981906E+001  +2.0033076626E+000 +9.1085291308E+001 
5515387.985 +4.5053129654E-001 +1.3481834478E+002  +2.1060090693E-002 +1.1540378903E+002  +5.0773549064E-002 +9.6600015704E+001  +2.8682667931E+000 +1.0439793700E+002 
5640533.166 +4.3024201900E-001 +1.2997653759E+002  +2.3648972485E-003 +1.0709451401E+002  +2.8017762934E-002 +4.9470553330E+001  +1.1943994924E+000 +6.6360705715E+001 
5765678.348 +4.6420215491E-001 +1.1803626929E+002  +3.8123201586E-002 +6.5901241454E+000  +1.0216410728E-001 +6.7684110117E+001  +3.5358473816E+000 +4.1425092955E+001 
5890823.529 +5.5403072227E-001 +1.2127925827E+002  +1.4222908081E-002 +1.1655309157E+002  +1.1323497157E-002 +5.8147519038E+001  +1.3687231094E+000 +8.1601299283E+001 
6015968.711 +7.1049243844E-001 +1.1718387374E+002  +1.1970019342E-002 +1.7313099339E+002  +3.2306360409E-002 +8.5194787136E+001  +1.4718443319E+000 +4.6549903640E+001 
6141113.892 +6.3706210393E-001 +1.0022993028E+002  +2.9627519847E-002 +4.3267821574E+001  +2.6152413498E-002 +1.1621269383E+001  +2.0254972298E+000 +2.8643859615E+001 
6266259.074 +7.1714352110E-001 +1.0089599282E+002  +2.5620118095E-002 +4.5625692097E+001  +3.8348128327E-002 +4.1079451113E+001  +1.9544133566E+000 +2.7304026612E+001 
6391404.255 +1.0396071847E+000 +1.0095467896E+002  +2.8613890420E-002 +6.0616236757E+001  +3.9339174849E-002 -1.1125682048E+001  +1.5052745540E+000 +7.9209904834E+000 
6516549.437 +1.4081365647E+000 +9.5630894284E+001  +5.2951263750E-002 +7.3979064251E+001  +2.9792925123E-002 +4.3676117974E+001  +1.4789438351E+000 +1.9007435627E+001 
6641694.618 +1.5663083930E+000 +7.6657221080E+001  +3.3418932918E-002 +4.8711365149E+001  +2.5225530839E-002 +6.8119555379E+001  +1.4062752493E+000 -6.5386272272E+000 
6766839.800 +1.2627172944E+000 +4.8255806185E+001  +3.9831366195E-002 +3.1090204434E+001  +1.8836154901E-002 +6.4033650594E+000  +1.3451682792E+000 +1.3541457615E+000 
6891984.981 +1.8263503175E+000 +3.8300026131E+001  +3.6711290135E-002 +1.0005463131E+001  +2.0365578473E-002 +2.9432252193E+001  +1.3347018811E+000 -7.8993322824E+000 
7017130.163 +1.7230664051E+000 +1.9278188507E+001  +3.4220117274E-002 -3.6409712276E+001  +2.1306763122E-002 +1.5328415235E+001  +1.3470007529E+000 -8.3458665059E+000 
7142275.344 +1.8719125454E+000 +1.2744268585E+001  +3.1765337616E-002 +3.2964106212E+001  +2.9245532786E-002 +7.9223826230E+000  +1.3169217397E+000 -1.1967320383E+001 
7267420.526 +1.4863762777E+000 +2.8544171528E+000  +7.0108174186E-003 -2.4057714454E+001  +2.0466898487E-002 +1.6735756147E+001  +1.3951161661E+000 -8.8325628536E+000 
7392565.707 +1.2937743097E+000 +6.5792753380E-001  +2.4230836253E-002 +2.0417886212E+001  +2.0810414007E-002 +4.8898950896E+001  +1.3677028933E+000 -3.2090342970E+000 
7517710.889 +1.1224888713E+000 +1.6231340492E+000  +1.3564368442E-002 +3.6098000077E+001  +1.4536433330E-002 +3.3266667780E+001  +1.2531228302E+000 -1.2522967604E+001 
7642856.070 +1.1041442171E+000 +1.5740474601E+000  +2.1172050771E-002 +3.9478486871E+001  +1.0416973611E-002 +1.7140577733E+001  +1.0738533228E+000 -1.0194053365E+001 
7768001.252 +9.0887764399E-001 +6.9668395472E+000  +1.4748996071E-002 +2.4051634337E+001  +1.4488320181E-002 +2.4894773086E+001  +1.0382344701E+000 -5.3500400159E+000 
7893146.433 +9.1269280873E-001 +3.1835136258E+000  +1.3266465512E-002 +1.4185846882E+001  +1.2812145301E-002 +9.3903903928E+000  +9.2303822538E-001 +7.0380472594E-002 
8018291.615 +7.7245686302E-001 +9.0864789532E+000  +1.2381226996E-002 +2.6247813314E+001  +1.1184116165E-002 +3.6407665724E+001  +7.9750970212E-001 -7.3986798295E-001 
8143436.796 +7.4084944076E-001 +9.5841031524E+000  +1.1162719312E-002 +2.0232417325E+001  +1.4335233547E-002 +9.0522596813E+000  +8.2049670201E-001 +4.6395620892E+000 
8268581.977 +7.0338795947E-001 +7.8744519735E+000  +1.1171247971E-002 +2.4929908416E+001  +1.0417461916E-002 +3.5302023795E+001  +7.4298636778E-001 -1.2471284345E+000 
8393727.159 +6.9366118540E-001 +1.4427845055E+000  +1.3351136005E-002 +1.6241323565E+000  +1.1979319370E-002 +2.3004506179E+001  +7.4756840926E-001 +4.2495177801E+000 
8518872.340 +6.9064139677E-001 +4.8082962170E+000  +8.7463069156E-003 +1.8227800731E+001  +1.4956515970E-002 +2.8174478397E+001  +6.9472249663E-001 -4.6436541670E+000 
8644017.522 +6.1047738687E-001 +1.1213228352E+001  +8.5261842133E-003 +6.5157063374E+000  +1.2795947488E-002 +1.2510187037E+001  +6.9281082209E-001 +1.3819395781E-001 
8769162.703 +5.8900170506E-001 +3.9376948008E+000  +1.6279617136E-002 +1.8321656881E+001  +1.5364869682E-002 +1.8937486215E+001  +6.7045093261E-001 +1.7934620681E+000 
8894307.885 +5.9032090031E-001 +5.4056042019E+000  +1.1797881284E-002 +9.6852207061E+000  +1.1672709281E-002 +2.3838420548E+001  +6.3211643773E-001 +7.7454606375E-001 
9019453.066 +5.6562533841E-001 +4.1860355433E+000  +1.1610866339E-002 +2.4433914531E+001  +1.3321633502E-002 +1.5239353291E+001  +6.1065729254E-001 -3.6257262969E+000 
9144598.248 +5.7796045264E-001 +5.5338823126E+000  +1.2553320876E-002 -3.9335663476E-001  +1.1217792824E-002 +2.5954217190E+001  +5.8028719077E-001 -1.9869584633E-001 
9269743.429 +5.4323958120E-001 +4.9765936140E-001  +1.2350453148E-002 -1.7762521598E+000  +9.1482718446E-003 +4.1363233784E+001  +5.7719260818E-001 -1.6499788898E+000 
9394888.611 +6.2147109937E-001 +1.0294341907E+000  +1.2812899680E-002 +6.3841350114E+000  +1.1707244473E-002 +3.4062702384E+001  +6.0887097673E-001 -5.3353861193E-001 
9520033.792 +5.2838212652E-001 +1.0852387073E+001  +1.2124122166E-002 +9.7537486586E+000  +1.2541217661E-002 +1.5747350970E+001  +5.9625320859E-001 -5.9325992973E+000 
9645178.974 +5.7702101686E-001 +6.0709116142E+000  +8.5405879928E-003 +2.2083564599E+001  +1.2601058123E-002 +3.9880539067E+001  +5.5941340093E-001 -2.8506038656E+000 
9770324.155 +5.6221414268E-001 +1.9834230763E+000  +1.0273534945E-002 +2.5050706437E+001  +1.2526323364E-002 +2.6744615168E+001  +5.3026017041E-001 -1.0318679255E+001 
9895469.337 +5.3172920729E-001 -2.6686403279E-001  +8.6264203227E-003 +1.8103859594E+001  +1.3112760012E-002 +4.1468048641E+001  +5.4549647555E-001 -5.2266349870E+000 
10020614.518 +5.1431800644E-001 +5.8142723852E-001  +1.1684651729E-002 +1.6469604426E+001  +9.5671606241E-003 +3.3509386128E+001  +5.5923991098E-001 -4.7862658413E+000 
10145759.700 +5.4788201064E-001 +8.2114690454E+000  +1.0180361062E-002 +2.3238733672E+001  +1.0215370611E-002 +2.6543426287E+001  +5.7120916931E-001 -1.8266098286E+000 
10270904.881 +5.5897825443E-001 +4.5448910980E+000  +9.7299083891E-003 +9.1165760434E+000  +1.4145298490E-002 +3.2941002575E+001  +5.9030791038E-001 -4.6360873619E+000 
10396050.063 +5.5272099395E-001 +8.6829883214E+000  +1.2486133580E-002 +2.2627331600E+001  +1.1929782659E-002 +3.8788882830E+001  +5.6008380571E-001 -6.7701944871E-001 
10521195.244 +5.7142383398E-001 +7.0312076338E+000  +1.0055816413E-002 +1.4774097350E+001  +1.2411043123E-002 +4.1481366086E+001  +5.6355428031E-001 -2.9093201172E-001 
10646340.426 +5.7620969234E-001 +4.9555931182E+000  +1.5465594259E-002 +1.4516215161E+001  +8.7815808880E-003 +3.0241937381E+001  +5.6817869077E-001 +2.7442206047E+000 
10771485.607 +5.5737968803E-001 +8.0602387085E+000  +1.2659416519E-002 +2.0713914697E+001  +1.1810269678E-002 +3.2977336292E+001  +5.7400860610E-001 +3.6151512370E+000 
10896630.788 +5.7960219139E-001 +7.0532284150E+000  +1.3811346826E-002 +1.2507401653E+001  +1.1692994463E-002 +2.6054728794E+001  +5.7710780410E-001 -2.6873785364E+000 
11021775.970 +5.7778762242E-001 +5.2014652558E+000  +1.2814557576E-002 +2.6416848880E+001  +1.4702180116E-002 +3.2991799161E+001  +5.9479891848E-001 +1.5222845782E+000 
11146921.151 +5.8132884648E-001 +8.1744398058E+000  +1.1763087581E-002 +7.8470729537E+000  +1.2883287999E-002 +4.3647779933E+001  +6.0387008995E-001 -1.5278711249E+000 
11272066.333 +6.1629161598E-001 +5.5091173551E+000  +1.4242770295E-002 +2.4562836956E+001  +1.5151017842E-002 +3.5328989262E+001  +6.2026194313E-001 +2.4074213112E+000 
11397211.514 +5.7850956806E-001 +8.1237959156E+000  +1.3338732108E-002 +2.7087785728E+001  +1.3076348205E-002 +4.3000908601E+001  +6.1515383094E-001 -1.0622616311E+000 
11522356.696 +6.1424917753E-001 +5.7878192813E+000  +1.4335789589E-002 +1.9498337967E+001  +1.2550209082E-002 +2.8499180636E+001  +6.2209347746E-001 +2.6051362013E+000 
11647501.877 +6.3308728380E-001 +6.5814976079E+000  +1.1880441030E-002 +2.1498165207E+001  +1.2867509496E-002 +3.3440183358E+001  +6.2898082578E-001 -6.7078423654E-001 
11772647.059 +6.2477448086E-001 +5.7834860423E+000  +1.5844605372E-002 +1.6997104050E+001  +1.3201238466E-002 +3.0198223557E+001  +6.5009022345E-001 -2.4300877139E-001 
11897792.240 +6.2474996814E-001 +5.8800454373E+000  +1.5227125002E-002 +1.9602112928E+001  +1.3818580129E-002 +3.8556072392E+001  +6.7415953684E-001 -3.7955086183E-001 
12022937.422 +6.5157664700E-001 +4.0374844522E+000  +1.1608416956E-002 +1.8122121061E+001  +1.4346297422E-002 +3.3006518431E+001  +6.9946329888E-001 +9.7637369306E-001 
12148082.603 +6.7834695091E-001 +5.5292582063E+000  +1.3950654226E-002 +2.4731599515E+001  +1.2548217924E-002 +3.2754410928E+001  +6.9817407302E-001 +2.5030988426E+000 
12273227.785 +6.9261440699E-001 +4.6743233187E+000  +1.4761163407E-002 +2.8421183454E+001  +1.5045286185E-002 +3.3536067472E+001  +7.2759445731E-001 +1.9316167107E-001 
12398372.966 +6.8962120266E-001 +5.5430900431E+000  +1.3126388911E-002 +2.9247774546E+001  +1.3510829161E-002 +3.5320117716E+001  +6.9661211032E-001 -1.7072285036E+000 
12523518.148 +7.2689900375E-001 +1.0970942691E+000  +1.6317593514E-002 +2.8402862780E+001  +1.5761394627E-002 +2.9067178174E+001  +7.2616583760E-001 +8.9643525954E-001 
12648663.329 +7.3729170303E-001 +3.9915037975E+000  +1.5245388020E-002 +2.3287685919E+001  +1.5462160572E-002 +3.4384599763E+001  +7.4040020394E-001 -6.7622638075E-001 
12773808.511 +7.4997309914E-001 +2.7353015297E+000  +1.4165555522E-002 +2.0132922584E+001  +1.4434691607E-002 +2.9225106094E+001  +7.5744476578E-001 -2.0891190841E+000 
12898953.692 +7.6092572360E-001 +1.0271148112E+000  +1.5023794770E-002 +2.2873353233E+001  +1.4957851418E-002 +3.1193021536E+001  +7.7845673655E-001 -1.8891788114E+000 
13024098.874 +7.7023730843E-001 +8.3414618060E-002  +1.3911818125E-002 +2.5924893315E+001  +1.3803335922E-002 +3.3817125052E+001  +8.0278698044E-001 -6.9279396388E-001 
13149244.055 +8.0564045364E-001 +2.0546596949E-001  +1.6195857526E-002 +2.7646647329E+001  +1.6241108255E-002 +2.4777314245E+001  +7.9301126395E-001 -1.1282180913E+000 
13274389.237 +7.9843679134E-001 -5.1613449269E-001  +1.3951922067E-002 +2.6317863391E+001  +1.5532374844E-002 +3.0366122137E+001  +8.2863830874E-001 -2.5013258114E+000 
13399534.418 +8.2147228596E-001 -3.2445757800E-001  +1.4475929756E-002 +1.9914896451E+001  +1.5292882192E-002 +3.3522136119E+001  +8.3369746030E-001 -2.4107643083E+000 
13524679.599 +8.5670913368E-001 -3.0397417891E+000  +1.5970831307E-002 +3.0460026117E+001  +1.6476587884E-002 +3.1172472860E+001  +8.6007175940E-001 -2.6673512322E+000 
13649824.781 +8.4753952390E-001 -3.1490908305E+000  +1.6054597310E-002 +2.4182203561E+001  +1.6628611477E-002 +2.8704300182E+001  +8.5949249875E-001 -3.1010466119E+000 
13774969.962 +8.6876670238E-001 -3.0438759632E+000  +1.5561063774E-002 +2.6245204264E+001  +1.5637643638E-002 +3.1534437344E+001  +8.7270499450E-001 -4.9268479403E+000 
13900115.144 +8.9067715501E-001 -3.5983664630E+000  +1.6277333564E-002 +2.2034719867E+001  +1.6162759184E-002 +3.1207243624E+001  +8.9706498708E-001 -3.7436095975E+000 
14025260.325 +9.1101020954E-001 -4.3075947588E+000  +1.6651041429E-002 +2.4556925628E+001  +1.6367360824E-002 +2.7754654645E+001  +9.2674103742E-001 -4.2224160401E+000 
14150405.507 +9.3466796192E-001 -5.8672607099E+000  +1.6806475503E-002 +2.6768556085E+001  +1.7063282333E-002 +2.4769709124E+001  +9.3679231888E-001 -3.3581816859E+000 
14275550.688 +9.5187668127E-001 -5.5567444458E+000  +1.5470423725E-002 +2.4705020446E+001  +1.5619704344E-002 +2.7708947210E+001  +9.6014493901E-001 -4.4248319884E+000 
14400695.870 +9.7967447363E-001 -4.8493690630E+000  +1.5787396604E-002 +2.4820208600E+001  +1.6640561727E-002 +3.1930931374E+001  +9.6358629544E-001 -4.6892788212E+000 
