!  2-Port S-parameters saved by WinCal
! VAR MeasName=S-Parameters (CALIBRATED_DATA) read from VNA (P5004A)
! VAR MeasDate=29/08/2024 14:24:37
! VAR NAME=S2_r9c6_RESET6_9k-100M_1
! VAR FILENAME=S2_r9c6_RESET6_9k-100M_1.S2P
! VAR DATE=29/08/2024 14:24:37
! VAR PHYS_PORTS=1,2
! VAR ObjTypeName=DATASET
! VAR IndexType=Frequency
!
# Hz S MA R 50
9000.000 +1.0315906563E-001 -1.5939715272E+002  +8.1895020431E-003 -1.0821888176E+002  +6.5164971720E-003 +4.3564143605E+001  +2.6736618709E-001 -1.5823840857E+002 
134145.181 +1.1143222364E-001 +1.6938585006E+002  +4.2141083725E-004 -1.5918834532E+002  +5.5379083645E-004 -8.3038361583E+001  +2.4159944906E-001 -1.7123230871E+002 
259290.363 +1.1205960484E-001 +1.6928652169E+002  +5.1043540690E-004 -2.4552897885E-001  +5.4970482549E-004 -1.4123938242E+002  +2.4151727077E-001 -1.6937668261E+002 
384435.544 +1.1419380477E-001 +1.6993921617E+002  +4.3933279607E-004 -2.6275526274E+001  +8.5059623497E-004 -1.7225368770E+002  +2.4361330768E-001 -1.6916710455E+002 
509580.726 +1.1362577637E-001 +1.7048219708E+002  +5.0480514777E-004 +9.1004735966E+001  +2.7319593681E-003 +5.4975950388E+001  +2.4587380459E-001 -1.5917596742E+002 
634725.907 +1.1761358718E-001 +1.7101108079E+002  +8.9453761650E-004 +1.1156541309E+002  +2.6048107770E-004 +1.2074349980E+002  +2.6704851343E-001 -1.6666687732E+002 
759871.089 +1.2013858984E-001 +1.7230490464E+002  +1.3083682248E-004 +7.0958050929E+001  +7.6663617720E-004 -4.9926161893E+001  +2.5011256960E-001 -1.6583459843E+002 
885016.270 +1.2136126219E-001 +1.6845763192E+002  +5.6567844541E-004 -1.0784431711E+002  +2.2515658801E-004 -1.9401854693E+001  +2.4959248859E-001 -1.6557661546E+002 
1010161.452 +1.1610919037E-001 +1.6935580594E+002  +5.6934637826E-004 +5.4508473082E+001  +1.6759697965E-003 +1.0303631289E+002  +2.0642909038E-001 -1.6937257433E+002 
1135306.633 +1.1329155136E-001 +1.6938008617E+002  +2.3604261243E-003 -6.7398282379E+001  +2.6791857332E-003 +8.8611841280E+001  +1.6813593050E-001 -1.6579603422E+002 
1260451.815 +1.1751661178E-001 +1.6974009266E+002  +7.9583992103E-004 -7.9386167980E+001  +6.9811885556E-004 +9.4595294436E+000  +2.2725274100E-001 -1.6230322538E+002 
1385596.996 +1.2738418007E-001 +1.7311100066E+002  +1.1338752838E-003 -2.5175135581E+001  +2.7138624964E-003 -8.4253928148E+001  +2.7512654576E-001 -1.5000563980E+002 
1510742.178 +1.2473278122E-001 +1.7337908089E+002  +6.7094105631E-004 +1.4222519175E+002  +1.4735769596E-003 +1.4089519969E+002  +2.4798425332E-001 -1.6124366190E+002 
1635887.359 +1.2846149411E-001 +1.7146456323E+002  +1.9330115660E-003 -1.5742225136E+000  +2.2883364636E-003 +2.2608118305E+000  +2.4304976482E-001 -1.5502418802E+002 
1761032.541 +1.3040684751E-001 +1.7061675990E+002  +1.8343801075E-003 -7.7502949364E+001  +2.5363191903E-003 -3.7694432671E+001  +2.1540391502E-001 -1.5812302727E+002 
1886177.722 +1.2966643694E-001 +1.6876941415E+002  +4.2862881994E-003 +1.2035598662E+002  +2.1101153663E-003 -1.7646021152E+002  +1.7718478405E-001 -1.7081960597E+002 
2011322.904 +1.2791445671E-001 +1.6646366755E+002  +2.5861905431E-003 +1.2996107330E+002  +3.9480714476E-004 -7.3659866939E+001  +1.9464589667E-001 -1.6952745473E+002 
2136468.085 +1.3231948420E-001 +1.6887945147E+002  +2.0280564435E-003 -1.5324109365E+002  +3.2020148992E-003 +1.4200358858E+002  +1.9317934221E-001 -1.6678135762E+002 
2261613.267 +1.3713940030E-001 +1.6795827503E+002  +9.9348803683E-003 +4.0432882916E+001  +1.9856821701E-003 -2.1595235489E+001  +1.2530297321E-001 +6.9781524543E+001 
2386758.448 +1.2456276560E-001 +1.6793574644E+002  +3.7572745201E-003 +4.4423758417E+001  +2.5296249743E-003 +3.4912961350E+001  +1.7314458426E-001 +1.6685954846E+002 
2511903.630 +1.3601996478E-001 +1.6751672025E+002  +3.2493061933E-003 +6.4171506858E+001  +5.5624606548E-003 -1.2267353638E+001  +2.0552508676E-001 +1.6631276142E+002 
2637048.811 +1.2833499992E-001 +1.6493118780E+002  +4.8008455716E-003 +1.1060721674E+002  +8.7241748826E-003 -4.1381586943E+001  +2.0216727440E-001 +1.6416497753E+002 
2762193.992 +1.2079268431E-001 +1.6822391118E+002  +1.2866825117E-002 +8.7036883138E+001  +4.7261260932E-003 +6.2494486842E+001  +4.8745018845E-001 +1.3707501508E+002 
2887339.174 +1.0688141822E-001 +1.7775781140E+002  +8.6115432782E-003 -1.2526184287E+002  +1.7058991235E-002 -1.2821941051E+002  +4.7434810757E-001 -8.8572123146E+001 
3012484.355 +9.7290593351E-002 +1.6529345321E+002  +2.4048996208E-002 +6.4040323548E+001  +4.0628432954E-002 -1.3881533804E+002  +6.2994523511E-001 -7.8934617398E+001 
3137629.537 +1.3035517879E-001 +1.7270496827E+002  +1.9617244802E-002 -3.5904845669E+001  +1.9728590794E-002 -1.1441445360E+002  +2.2253388117E-001 -4.5758295583E+001 
3262774.718 +1.2214848450E-001 +1.6424309090E+002  +2.0728373289E-002 +2.5731303969E+001  +7.5326348706E-003 +5.8965656004E+001  +2.3310090656E-001 -6.7129804277E+001 
3387919.900 +1.3736986637E-001 +1.5274566966E+002  +5.6012968968E-003 +6.7337739173E+000  +2.2385731245E-002 -2.6839092559E+001  +3.4890880388E-001 -2.3044052818E+001 
3513065.081 +1.5184561251E-001 +1.5390409604E+002  +9.3135186600E-003 +5.3316136799E+001  +2.0115041726E-002 -4.8907931718E+001  +5.5736470499E-002 +1.2882307057E+002 
3638210.263 +1.3174301203E-001 +1.5325686935E+002  +1.1183606892E-002 +1.6004113910E+002  +1.0382540968E-002 +4.6929229771E+001  +5.3463293538E-001 +1.4372176423E+002 
3763355.444 +1.5746789301E-001 +1.4352233364E+002  +9.3730819454E-003 +6.6320748687E+001  +1.8625704626E-002 +7.1375870083E+001  +2.7172094494E-001 +1.4021158156E+002 
3888500.626 +1.7859877493E-001 +1.5283639485E+002  +7.7290059288E-003 +1.0539030569E+002  +1.0574602288E-002 +1.6025076843E+001  +3.8854328607E-001 +1.5082565658E+002 
4013645.807 +1.8225658740E-001 +1.5418030842E+002  +8.0190486158E-003 +2.3650785068E+001  +2.6155816472E-003 -9.4804629175E+001  +7.0557663325E-001 +1.3469202479E+002 
4138790.989 +1.9172654928E-001 +1.5616695932E+002  +1.7880849647E-002 +1.1687187345E+002  +1.3377848838E-002 +2.8334576911E+001  +7.7896945240E-001 +1.2734014263E+002 
4263936.170 +1.9027322136E-001 +1.4401493484E+002  +7.2686846404E-002 +7.7950038023E+001  +4.9246415259E-002 +9.8929551158E+001  +2.9668772248E+000 +9.0850515911E+001 
4389081.352 +2.3977395118E-001 +1.3498063036E+002  +2.8666436231E-002 +9.7917390350E+001  +4.7201296008E-002 +2.6108450640E+000  +7.3803500180E-001 +8.2796696019E+001 
4514226.533 +2.3215185286E-001 +1.3501108590E+002  +4.5340656436E-002 +1.1311360326E+002  +1.3610744448E-002 +1.5612425586E+001  +1.2761632400E+000 +7.5837695818E+001 
4639371.715 +2.8145489343E-001 +1.3064254903E+002  +2.7906468103E-002 -1.5413039301E+002  +3.3502081818E-002 +1.2594970274E+002  +2.8951380497E+000 +1.3002201596E+002 
4764516.896 +2.9078492847E-001 +1.2001316849E+002  +5.0217030276E-002 +1.7872443745E+002  +1.3029540764E-001 +1.0821380088E+002  +3.2682889596E+000 +1.4195042758E+002 
4889662.078 +4.0729779365E-001 +1.2903156493E+002  +3.2841994452E-002 -4.6198317015E+001  +4.9124195063E-002 -8.6692628037E+001  +2.0651228492E+000 -1.0456610505E+002 
5014807.259 +4.4703941188E-001 +1.3844498563E+002  +6.1622616491E-002 -8.3703469148E+001  +8.4909826349E-002 -5.3158272620E+001  +3.6463044360E+000 -9.8517852502E+001 
5139952.441 +4.1807086530E-001 +1.2983562592E+002  +4.2463937332E-002 -1.4297497144E+002  +4.2639823363E-002 +1.7891653543E+002  +2.3377456592E+000 +1.7583373815E+002 
5265097.622 +3.6690123073E-001 +1.2476352602E+002  +2.8966444076E-002 +5.4865711418E+001  +1.5067435325E-002 +4.1461090598E+000  +9.3430405359E-001 +2.3245336694E+001 
5390242.804 +4.2888671034E-001 +1.3523694239E+002  +5.4438468848E-002 +1.5006442220E+002  +3.7486875752E-002 +7.7815661379E+001  +2.2000065064E+000 +1.1095081993E+002 
5515387.985 +3.8840852856E-001 +1.2990927300E+002  +4.9941248867E-002 +9.7244316817E+001  +3.6752513526E-002 +5.3712762605E+001  +1.9187353030E+000 +1.1343523087E+002 
5640533.166 +4.1322115693E-001 +1.2611482315E+002  +6.4375438673E-002 +6.0613753222E+001  +4.2353128758E-002 +4.5978919606E+001  +2.0975507176E+000 +4.1786440579E+001 
5765678.348 +5.4729417100E-001 +1.3437665056E+002  +2.2732476342E-002 +8.6027418847E+001  +2.2437973248E-002 +9.6465448940E+001  +1.6601126018E+000 +1.0032978668E+002 
5890823.529 +5.6271941063E-001 +1.1962034451E+002  +3.8130681275E-002 +1.0188423963E+002  +3.4489315094E-002 +6.9160544118E+001  +2.0519881613E+000 +6.3955537067E+001 
6015968.711 +6.7769157359E-001 +1.2030101538E+002  +7.6402471329E-002 +8.1128910915E+001  +7.0396068382E-002 +3.7136856644E+001  +2.8634829344E+000 +2.5796455867E+001 
6141113.892 +7.2014866293E-001 +1.0926649432E+002  +1.1067360359E-001 +6.7979339716E+001  +9.8389812424E-002 +2.1325055037E+001  +3.3733487813E+000 +4.1447937372E+001 
6266259.074 +7.7166764239E-001 +9.7493289517E+001  +5.5724924231E-002 +3.3543854449E+001  +5.1110343672E-002 +3.4321098120E+000  +1.5377107107E+000 +1.7418391322E+001 
6391404.255 +1.0401921774E+000 +1.0047780603E+002  +8.8405382186E-002 +4.2929463559E+001  +6.9977177614E-002 +4.7148651247E+001  +1.7462888646E+000 +1.9217236768E+001 
6516549.437 +1.1415913154E+000 +7.9618626676E+001  +6.4774884541E-002 +1.8722254252E+001  +7.8361751893E-002 +1.7173725925E+001  +1.5816043169E+000 +4.6368208815E+000 
6641694.618 +1.5836593736E+000 +6.9525275239E+001  +7.7577671008E-002 +3.4598534553E+001  +6.1887953121E-002 +3.2754428604E+000  +1.4983935250E+000 +2.9405274287E+000 
6766839.800 +1.5030660192E+000 +4.6849863526E+001  +6.1542160587E-002 -1.3171342353E+000  +7.2415649271E-002 +2.4962321290E+000  +1.3373783242E+000 +1.8512572616E+000 
6891984.981 +1.5353688066E+000 +3.7309071480E+001  +6.3615560289E-002 +1.8120967834E+000  +7.4115211044E-002 +7.6113217002E+000  +1.3633383942E+000 -8.6733822254E+000 
7017130.163 +1.7778846346E+000 +2.4794253772E+001  +3.9003410887E-002 +1.1700197686E+001  +4.2823267542E-002 -2.0004064588E+001  +1.2314285740E+000 -1.8773906990E+001 
7142275.344 +1.4504541396E+000 +1.3157969299E+001  +3.2965676906E-002 -9.6763101675E+000  +3.5875317378E-002 -1.3375106800E+001  +1.4019731112E+000 -1.3703277620E+001 
7267420.526 +1.4219179107E+000 -8.4464854801E-002  +4.6001209625E-002 -1.2844096165E+001  +4.5260122862E-002 +4.0158787243E+000  +1.2267471870E+000 -5.9481483912E+000 
7392565.707 +1.3531828434E+000 +5.6976422496E+000  +2.9996139604E-002 +1.7558260543E+001  +2.2275049025E-002 -1.8798538169E+001  +1.2864411366E+000 -8.6025721514E+000 
7517710.889 +1.1770029656E+000 +2.1199298663E+000  +2.2916703034E-002 +1.5978509571E+001  +2.8270720420E-002 +6.6561584047E+000  +1.1114932924E+000 -2.4081885259E+000 
7642856.070 +1.0542393105E+000 +2.0487915258E+000  +2.9367592789E-002 +5.0165453142E-001  +2.6800379487E-002 +7.3157975923E+000  +1.0972569375E+000 -9.1240646942E+000 
7768001.252 +8.3945587611E-001 +2.7513173111E+000  +2.1501821887E-002 -3.2521572742E+000  +2.2848231691E-002 -8.0878472019E+000  +8.9964038454E-001 -8.1886007372E+000 
7893146.433 +8.8399260667E-001 +1.7856429425E+000  +1.8592681535E-002 +6.6471606203E+000  +2.3444506531E-002 +6.6340035469E+000  +8.9002749986E-001 -6.0976620177E-001 
8018291.615 +7.8392985798E-001 +1.0665200924E+001  +1.7303147099E-002 +1.2604827323E+001  +2.3875931251E-002 +2.0261399782E+000  +8.8171456081E-001 -7.8788598545E+000 
8143436.796 +7.3833379911E-001 +3.1931221561E+000  +2.2120637085E-002 -6.4521103885E+000  +2.1579821996E-002 -1.6928903809E+000  +8.2595216455E-001 -7.1509055785E+000 
8268581.977 +7.3727484363E-001 +8.4212271941E+000  +2.2731812487E-002 +8.9289355440E-001  +9.6021514120E-003 +8.9129935603E+000  +8.1789626550E-001 +3.1087487254E+000 
8393727.159 +6.6055877368E-001 +9.9327461037E+000  +1.6950644333E-002 -7.7294642653E+000  +1.9924833936E-002 +1.1426370972E+001  +7.4212691783E-001 +3.0558576770E+000 
8518872.340 +6.7448981117E-001 +8.4427426035E+000  +1.5239881508E-002 -1.5231280017E+001  +1.9033893253E-002 +1.7532284778E+001  +7.5087546764E-001 +4.4847438463E-001 
8644017.522 +5.9898054801E-001 +6.5935708573E+000  +1.9063106737E-002 +4.0406405992E-001  +1.8408277342E-002 +5.2602096549E+000  +6.6026100568E-001 +1.8225027491E+000 
8769162.703 +6.1092832231E-001 +3.9239280440E+000  +1.7455797044E-002 -1.0480632062E-001  +2.3383946139E-002 +1.2484085954E+001  +6.2632681421E-001 -1.2763723207E+000 
8894307.885 +5.4057453551E-001 +2.1729907251E+000  +1.6842620601E-002 -3.8515920633E+000  +2.0401383276E-002 +1.1890892032E+001  +6.2393752127E-001 +2.3762780838E+000 
9019453.066 +5.3048349946E-001 +8.6502090880E+000  +2.3597035391E-002 +1.1412208106E+000  +1.6631676460E-002 +5.9951463111E+000  +6.5101966391E-001 -2.7284039921E+000 
9144598.248 +5.7371978979E-001 +1.3655925480E+001  +1.8545314679E-002 +6.3006865866E-001  +2.2957738676E-002 +5.8716453637E+000  +6.6246403976E-001 -3.4242697912E+000 
9269743.429 +5.6276158531E-001 +1.3339485762E+001  +1.9347906820E-002 -3.0346756298E+000  +2.0043979694E-002 +1.5566285109E+001  +6.0855776490E-001 +2.2570791734E+000 
9394888.611 +5.1589343086E-001 +1.8512570889E+000  +1.6994087561E-002 -1.0536302019E+001  +2.1071698937E-002 +8.5281224149E+000  +5.8092701154E-001 -4.4227056878E+000 
9520033.792 +4.9137953362E-001 +4.1624601899E+000  +2.2080357314E-002 -4.7806030763E+000  +2.2928055627E-002 +1.3750607712E+001  +5.1403333863E-001 -1.6782647642E+000 
9645178.974 +5.3559708656E-001 +3.2595278333E+000  +1.8427041556E-002 -1.8560529761E+001  +2.0812795902E-002 +1.0210125141E+001  +5.5679294378E-001 -1.9071481954E+000 
9770324.155 +5.4510586453E-001 +3.6114118654E+000  +1.9754231419E-002 -3.4015283581E+000  +2.2460864701E-002 +1.7541537894E+001  +5.9621697882E-001 -3.5714872564E+000 
9895469.337 +5.3466390842E-001 +3.0090871965E+000  +2.2441479402E-002 -1.6536221502E+000  +2.1018144186E-002 +5.0674237948E+000  +5.4550869187E-001 -5.2856184389E+000 
10020614.518 +5.6044919652E-001 +4.2552861958E+000  +1.9858491884E-002 +2.6279780934E+000  +1.9900631804E-002 +1.3087211159E+001  +5.7950525750E-001 -1.3977349956E+000 
10145759.700 +5.3728413291E-001 +6.3395659782E+000  +1.9493334820E-002 -1.0316027435E+001  +1.9429083958E-002 +1.8425030105E+001  +5.6736647000E-001 -9.4511447340E+000 
10270904.881 +5.4431222612E-001 +6.7866602206E+000  +1.8028799887E-002 -5.8338705198E+000  +2.0808303571E-002 +1.5750309130E+001  +5.7139710692E-001 -4.8103916172E+000 
10396050.063 +5.3455569984E-001 +6.8561328531E+000  +2.0025553003E-002 +6.2317256260E-001  +1.8118364728E-002 +1.0174194378E+001  +5.7330737898E-001 +2.2347048250E-002 
10521195.244 +5.5765398692E-001 +7.3551107553E+000  +2.0963283669E-002 -4.8219030750E+000  +1.9389472239E-002 +9.4769498747E+000  +5.5583399232E-001 +2.0723175930E+000 
10646340.426 +5.0508920606E-001 +8.0438194343E+000  +2.1046477180E-002 +1.6385793934E+000  +1.8105686996E-002 +2.0382583872E+001  +5.5528978460E-001 +1.2964036291E+000 
10771485.607 +5.6136395323E-001 +8.3813558488E+000  +2.2756089469E-002 -3.0600140513E+000  +2.1802989700E-002 +2.0953373082E+001  +5.8226055590E-001 +1.0702240857E+000 
10896630.788 +5.8613495371E-001 +1.1285475470E+001  +1.8762813555E-002 +4.2081462639E+000  +1.8837877273E-002 +1.5391483938E+001  +5.7865130944E-001 +1.7045813305E+000 
11021775.970 +5.6745763406E-001 +8.8706171324E+000  +1.9315239357E-002 -1.6827800645E+000  +1.7938206817E-002 +1.7745064644E+001  +5.9932338014E-001 +1.0163162782E+000 
11146921.151 +5.6530027514E-001 +6.9630365508E+000  +2.0879930480E-002 -3.4925181560E+000  +1.9607595805E-002 +1.5722758359E+001  +5.5186076622E-001 +3.0511069010E-001 
11272066.333 +6.1854915587E-001 +6.7858156538E+000  +2.1023306118E-002 +6.0880947572E+000  +2.0898446959E-002 +1.3828030014E+001  +6.0234784029E-001 +3.3442895128E+000 
11397211.514 +6.3841963722E-001 +8.4831228586E+000  +2.4162605693E-002 +2.8093992331E+000  +2.0726603122E-002 +1.1776383181E+001  +6.2965717415E-001 +1.8984544499E+000 
11522356.696 +5.9919178325E-001 +7.0007552514E+000  +2.2859820210E-002 -4.5000168523E-001  +2.0695596044E-002 +2.1978009370E+001  +6.3183584080E-001 +4.1672373466E-001 
11647501.877 +6.0238512664E-001 +5.5374788909E+000  +2.1786192765E-002 -4.7778998365E+000  +2.1679852788E-002 +1.3377063477E+001  +6.4604486303E-001 +2.9596265533E+000 
11772647.059 +6.0643379041E-001 +6.8892069103E+000  +2.4233165023E-002 +1.4897320882E+000  +2.0573569513E-002 +1.5167121349E+001  +6.4098114352E-001 +8.6591544221E-001 
11897792.240 +6.6493518709E-001 +3.1059493740E+000  +2.2439396780E-002 +2.8997587759E+000  +2.1412927388E-002 +9.9087217309E+000  +6.7244626737E-001 +2.5112132804E+000 
12022937.422 +6.5722400630E-001 +8.6394754601E+000  +2.3147628339E-002 -1.6314156065E+000  +2.3000022931E-002 +1.0092638564E+001  +6.5519947607E-001 +2.7227169679E+000 
12148082.603 +6.8066109435E-001 +2.7570225712E+000  +2.3451932685E-002 -1.4789890293E+000  +2.2549177628E-002 +8.8786130622E+000  +6.7249345385E-001 -6.0737599026E-001 
12273227.785 +7.1023820505E-001 +1.8568209664E+000  +2.4992441528E-002 +5.6060132478E+000  +2.2101171554E-002 +1.1839454628E+001  +7.1116639368E-001 -1.1132744599E+000 
12398372.966 +6.9373058711E-001 +3.1033121796E+000  +2.3107417041E-002 +9.9164219437E+000  +2.3058855485E-002 +7.8819457615E+000  +7.2545751764E-001 -3.2555393830E-001 
12523518.148 +7.0925389364E-001 +5.4345912943E+000  +2.4234379676E-002 +2.4351710073E+000  +2.4579021919E-002 +1.0822885918E+001  +7.2593724801E-001 +2.5756555281E-003 
12648663.329 +7.1856468775E-001 +2.0810324362E+000  +2.3343297150E-002 +3.3581270325E+000  +2.4342815499E-002 +1.3518944310E+001  +7.7263495092E-001 -6.1365118500E-001 
12773808.511 +7.6587594943E-001 +2.5011833549E+000  +2.4534218145E-002 +6.8499571280E+000  +2.6316522608E-002 +7.0685878407E+000  +7.4428538368E-001 -1.4295744877E+000 
12898953.692 +7.4798474554E-001 +1.3765577553E+000  +2.5901586338E-002 +4.0583714075E+000  +2.3725369568E-002 +8.6105713858E+000  +7.5960990683E-001 -6.4258665284E-001 
13024098.874 +7.7417148144E-001 +2.7336312689E+000  +2.5567705109E-002 +3.0834134435E+000  +2.4485260730E-002 +7.6021684555E+000  +8.0391214191E-001 -1.1258269921E+000 
13149244.055 +8.0485896959E-001 +1.1411498379E-001  +2.5706642731E-002 +4.2470368239E+000  +2.2668025860E-002 +1.1028539555E+001  +8.0454179498E-001 -2.4086472912E+000 
13274389.237 +7.8926841156E-001 -2.2776056861E-001  +2.3920239445E-002 +1.8846506326E+000  +2.5009913205E-002 +1.0145877220E+001  +8.1551796262E-001 -1.5393947280E+000 
13399534.418 +8.3432703623E-001 -2.0844119397E+000  +2.4608852473E-002 +2.9854462336E+000  +2.5365204521E-002 +6.9059204201E+000  +8.4239503917E-001 -2.4595223351E+000 
13524679.599 +8.3536961712E-001 -3.3566194063E-001  +2.4433345435E-002 +1.0589725868E+000  +2.5820353624E-002 +6.6320990209E+000  +8.3656959760E-001 -3.5379207580E+000 
13649824.781 +8.5911714348E-001 -8.7033577541E-001  +2.5792264626E-002 +6.4677318870E+000  +2.5679692445E-002 +8.4798484600E+000  +8.4917187136E-001 -1.8336155838E+000 
13774969.962 +8.7575815664E-001 -1.6517139579E+000  +2.6329485281E-002 +1.9697825703E+000  +2.5212042464E-002 +6.9649997245E+000  +8.8403608166E-001 -4.1941685911E+000 
13900115.144 +8.8495650083E-001 -3.5562827842E+000  +2.5764914672E-002 +2.1496352754E+000  +2.3566176728E-002 +1.5756435418E+000  +8.8686958448E-001 -3.2607089410E+000 
14025260.325 +9.1016085867E-001 -4.5369649543E+000  +2.5348452788E-002 +5.3660910365E+000  +2.5527335221E-002 +5.5007490935E+000  +9.1192859134E-001 -3.7829673616E+000 
14150405.507 +9.1102498922E-001 -5.0887213928E+000  +2.6051447076E-002 +1.7200752916E+000  +2.3594492792E-002 +6.2865109480E+000  +9.2427131874E-001 -4.1676865799E+000 
14275550.688 +9.5481814099E-001 -5.4970891648E+000  +2.6914397904E-002 +4.8138037420E+000  +2.5790010819E-002 +3.4234647533E+000  +9.5664022006E-001 -4.5321247196E+000 
14400695.870 +9.8072074661E-001 -5.5356329289E+000  +2.6832097424E-002 +8.8324815511E-001  +2.5356373297E-002 +2.0381705382E+000  +9.5855607850E-001 -3.5048047795E+000 
