!  2-Port S-parameters saved by WinCal
! VAR MeasName=S-Parameters (CALIBRATED_DATA) read from VNA (P5004A)
! VAR MeasDate=29/08/2024 11:03:25
! VAR NAME=S2_r9c3_pristine_9k-100M_2
! VAR FILENAME=S2_r9c3_pristine_9k-100M_2.S2P
! VAR DATE=29/08/2024 11:03:25
! VAR PHYS_PORTS=1,2
! VAR ObjTypeName=DATASET
! VAR IndexType=Frequency
!
# Hz S MA R 50
9000.000 +9.6773789578E-002 -1.6375896594E+002  +2.9442830713E-003 -1.1922082445E+002  +8.4330083903E-003 -6.7163418741E+001  +1.8695470717E-001 -1.5446868258E+002 
134145.181 +1.1041997242E-001 +1.6942901534E+002  +3.4996697721E-004 +5.2120120632E+001  +2.4906451106E-004 -1.3161486793E+002  +2.4217199356E-001 -1.7182867714E+002 
259290.363 +1.1156332329E-001 +1.6965524236E+002  +8.8267364864E-004 -9.6728081231E+000  +2.2325536878E-004 -1.5593586119E+002  +2.3631646706E-001 -1.6990802398E+002 
384435.544 +1.1260647178E-001 +1.6994080436E+002  +9.8380614596E-004 -4.5895142814E+001  +5.0374813880E-004 -5.8288339379E+001  +2.4452225226E-001 -1.6964365252E+002 
509580.726 +1.1240904378E-001 +1.7082160193E+002  +1.6007691335E-003 -2.0802105868E+001  +9.9621457517E-004 +7.4152374200E+001  +2.5038485695E-001 -1.6543717762E+002 
634725.907 +1.1650471027E-001 +1.7152289651E+002  +1.9200729542E-003 -1.0545120676E+002  +2.4178340467E-003 +6.8524504722E+001  +2.6191742140E-001 -1.6416996623E+002 
759871.089 +1.2022441493E-001 +1.7108382882E+002  +8.4574909988E-004 -1.0013390421E+002  +1.0332313506E-003 +1.0347918871E+002  +2.5020710009E-001 -1.6847418987E+002 
885016.270 +1.2059891467E-001 +1.6833133719E+002  +7.0016614122E-004 -4.2654826902E+001  +2.7455201393E-004 -1.7372379885E+002  +2.4016912642E-001 -1.6719979902E+002 
1010161.452 +1.1666481456E-001 +1.7010379041E+002  +1.3346557241E-003 +7.9419775890E-001  +1.0886508023E-003 -1.4764061829E+002  +2.2024045512E-001 -1.6806919509E+002 
1135306.633 +1.1983109019E-001 +1.6864632291E+002  +2.7216572165E-003 -1.9812088918E+001  +2.0526853797E-003 +1.7213098652E+002  +2.2075569714E-001 -1.6020952991E+002 
1260451.815 +1.1653895035E-001 +1.7011694635E+002  +4.4384500565E-003 -3.5394507119E+001  +2.6844605114E-003 +1.5878991766E+002  +2.3183253210E-001 -1.5723540355E+002 
1385596.996 +1.2237349372E-001 +1.7302554674E+002  +4.2092357642E-003 -6.6572567802E+001  +5.1451801119E-003 +1.1857099664E+002  +2.7418385091E-001 -1.5618689752E+002 
1510742.178 +1.2775033674E-001 +1.7038032427E+002  +1.1456720018E-003 -9.3404441186E+001  +1.4669118267E-003 +1.6078698985E+002  +2.6076382840E-001 -1.5915006555E+002 
1635887.359 +1.2888184416E-001 +1.7100185480E+002  +9.9391254026E-004 +1.6522321197E+001  +1.2846692058E-003 -1.5796429702E+002  +2.4186317637E-001 -1.5942505755E+002 
1761032.541 +1.3036130404E-001 +1.7017331326E+002  +3.1669050933E-003 +2.6201540287E+001  +3.4294147034E-003 -9.6066019457E+001  +2.2295398078E-001 -1.6168462930E+002 
1886177.722 +1.3246067274E-001 +1.6686457868E+002  +4.5298744108E-003 +8.5172042232E+001  +4.0299753275E-003 -4.5529726232E+001  +2.2560508721E-001 -1.6610468445E+002 
2011322.904 +1.3354928071E-001 +1.6723919990E+002  +6.1522270694E-003 +5.9752367401E+001  +5.8740720171E-003 -5.7126804979E+001  +2.1263065513E-001 -1.6081476918E+002 
2136468.085 +1.3101885774E-001 +1.6815789475E+002  +1.0853156393E-002 +6.6690408041E+001  +1.5497146692E-002 -5.4993376614E+001  +1.7411201730E-001 -1.7029911382E+002 
2261613.267 +1.3399528315E-001 +1.6833350661E+002  +1.1194781843E-002 +7.3591071263E+001  +1.2418672607E-002 -5.2221190527E+001  +2.1105509233E-001 -1.6803112428E+002 
2386758.448 +1.3875253510E-001 +1.6675710792E+002  +1.0404522489E-002 +7.0038742381E+001  +1.1759582662E-002 -5.3571408464E+001  +2.2834906785E-001 -1.6539856268E+002 
2511903.630 +1.3526019617E-001 +1.6431728951E+002  +2.1679888101E-002 +7.1973331029E+001  +2.3061306584E-002 -4.2031299360E+001  +1.8368875640E-001 -1.6728948462E+002 
2637048.811 +1.2690867380E-001 +1.6161550274E+002  +4.6590913878E-002 +7.9154303172E+001  +4.7467130596E-002 -2.6340397523E+001  +1.3105651993E-001 +1.6205215321E+002 
2762193.992 +1.2990004246E-001 +1.7079743556E+002  +3.7735322095E-002 +3.9711979897E+001  +4.0970538867E-002 -6.6947404067E+001  +1.6891568633E-001 -1.6957512982E+002 
2887339.174 +1.2017960312E-001 +1.7356886693E+002  +6.9184236473E-002 +2.8636969831E+001  +6.8595773272E-002 -7.4299623473E+001  +4.9644728896E-002 -1.5301788357E+002 
3012484.355 +1.1656039441E-001 +1.7378163932E+002  +7.3665326231E-002 +3.7468955059E+001  +6.8311752415E-002 -6.7013227341E+001  +5.8721747712E-002 +1.7298646863E+002 
3137629.537 +1.4411033974E-001 +1.7375421591E+002  +3.6418707125E-002 +1.8320298454E+001  +4.1285311919E-002 -7.0270570386E+001  +1.3144972200E-001 -1.6262844810E+002 
3262774.718 +1.4319970462E-001 +1.6153098317E+002  +6.7105557068E-002 +2.5176517195E+001  +6.3913053438E-002 -6.2441289098E+001  +1.6476967001E-001 -8.7201354496E+001 
3387919.900 +1.2590455712E-001 +1.6600610824E+002  +7.8398794464E-002 +6.0270921190E+001  +6.8730687261E-002 -3.4403564783E+001  +1.5688135919E-001 +1.3496395401E+002 
3513065.081 +1.5361175122E-001 +1.3859225521E+002  +1.1879117432E-001 +1.1223022414E+002  +1.0053329797E-001 +2.4561749419E+001  +3.7568671769E-001 +1.4083261760E+002 
3638210.263 +1.7378451245E-001 +1.5829026059E+002  +5.2054781514E-002 +7.9232948059E+001  +4.9949932177E-002 -8.8287996418E-001  +1.8618531498E-001 +1.4537899623E+002 
3763355.444 +1.6979538442E-001 +1.5806928803E+002  +6.4779376867E-002 +7.3304948471E+001  +6.0268712492E-002 -1.9244924291E+000  +1.9224865791E-001 +1.4097181089E+002 
3888500.626 +1.6700540163E-001 +1.4985824672E+002  +7.6555605653E-002 +8.7788578234E+001  +7.0851405110E-002 +2.0074923105E+001  +2.8474620371E-001 +1.5126129422E+002 
4013645.807 +1.7274358727E-001 +1.5043894260E+002  +7.3222865588E-002 +8.1605540354E+001  +6.4465357158E-002 +1.1518366966E+001  +2.4225641806E-001 +1.5590756153E+002 
4138790.989 +2.0989568130E-001 +1.5278314018E+002  +5.3629374077E-002 +1.1635341909E+002  +5.1466779457E-002 +4.8279592617E+001  +3.8299668471E-001 +1.6524762234E+002 
4263936.170 +1.9308483873E-001 +1.5330252753E+002  +7.6769579944E-002 +8.5132453913E+001  +7.3298196963E-002 +2.4231399557E+001  +3.0620829641E-001 +1.4441816627E+002 
4389081.352 +2.0984814433E-001 +1.4561731887E+002  +1.0797889587E-001 +9.3898957404E+001  +1.0772952883E-001 +3.4797875254E+001  +3.7204143226E-001 +1.3198598266E+002 
4514226.533 +2.4003725862E-001 +1.3004216179E+002  +2.1897975049E-001 +9.2851086422E+001  +2.0481711207E-001 +3.8493539944E+001  +5.2042180883E-001 +1.0115678113E+002 
4639371.715 +2.1391058571E-001 +1.3325184166E+002  +1.7902922932E-001 +8.7601539012E+001  +1.6883550217E-001 +3.3142077203E+001  +4.5211551928E-001 +1.1220701273E+002 
4764516.896 +3.3697065235E-001 +1.3013374807E+002  +3.7107413468E-001 +1.1089641071E+002  +3.4551778246E-001 +6.1882097721E+001  +1.1706016380E+000 +9.4255732429E+001 
4889662.078 +4.9711663156E-001 +1.4885641619E+002  +6.7761121147E-001 +1.7902895286E+002  +6.0948024617E-001 +1.3231305546E+002  +2.1943537875E+000 +1.4434558629E+002 
5014807.259 +4.6642489894E-001 +1.3763587324E+002  +7.0105349581E-001 +1.5124308534E+002  +6.9626403586E-001 +1.0540231191E+002  +2.9581452467E+000 +1.2794281909E+002 
5139952.441 +4.2720215620E-001 +1.3197603834E+002  +4.6032005958E-001 +1.4506753815E+002  +4.5827847199E-001 +1.0777353641E+002  +1.7952621009E+000 +1.3923556340E+002 
5265097.622 +3.3790503996E-001 +1.2539325184E+002  +3.6678879354E-001 +9.2899103731E+001  +3.5643194780E-001 +5.5388837935E+001  +1.2353148490E+000 +9.3112669037E+001 
5390242.804 +3.8492817589E-001 +1.3533480462E+002  +3.5620412801E-001 +1.2045496876E+002  +3.4054611939E-001 +8.7243391227E+001  +1.6732787476E+000 +1.2115837703E+002 
5515387.985 +3.6467310893E-001 +1.3407124152E+002  +2.4081870808E-001 +9.0082931597E+001  +2.4257928336E-001 +5.4594156609E+001  +8.5950338812E-001 +1.0151624630E+002 
5640533.166 +4.5250573165E-001 +1.2805939981E+002  +3.2760407020E-001 +1.2165250897E+002  +3.1430461832E-001 +9.0434278720E+001  +1.4345198182E+000 +1.3176860369E+002 
5765678.348 +4.4179017669E-001 +1.3197912965E+002  +2.5042495202E-001 +8.6154381092E+001  +2.3699511404E-001 +5.7386607381E+001  +7.6320919729E-001 +9.9557525395E+001 
5890823.529 +4.2261947641E-001 +1.2243278406E+002  +3.4294050305E-001 +9.2767170964E+001  +3.3695262160E-001 +6.9275087972E+001  +1.4669490462E+000 +1.1763067031E+002 
6015968.711 +5.3733492723E-001 +1.1897529584E+002  +3.8174374054E-001 +8.8751612249E+001  +3.6664152174E-001 +6.5738582278E+001  +1.2398329190E+000 +1.0086929261E+002 
6141113.892 +5.2480667804E-001 +1.1295541776E+002  +4.0433583502E-001 +6.7169163534E+001  +3.9549480166E-001 +5.0095298777E+001  +1.2191141174E+000 +7.9289587264E+001 
6266259.074 +5.1891855687E-001 +1.0165644272E+002  +4.9577216665E-001 +5.8905190703E+001  +4.8639371563E-001 +4.0422427789E+001  +1.4550256038E+000 +7.3240836251E+001 
6391404.255 +6.4957577794E-001 +9.0857023439E+001  +4.8309911389E-001 +5.2857132897E+001  +5.0003162104E-001 +3.5266766309E+001  +1.0168914486E+000 +6.3688169722E+001 
6516549.437 +6.4912989421E-001 +9.3314577050E+001  +4.3142493340E-001 +3.6976786207E+001  +4.3083087405E-001 +2.3091017282E+001  +8.7311392184E-001 +3.0405187833E+001 
6641694.618 +7.8548822791E-001 +6.0959331027E+001  +5.5222729061E-001 +2.3955934826E+001  +5.6579403593E-001 +1.0233226053E+001  +8.4717481194E-001 +1.4983506007E+001 
6766839.800 +7.5096537806E-001 +4.3639365732E+001  +5.6904630045E-001 +1.0360640885E+001  +5.6098949186E-001 +1.7508189699E+000  +1.0199647055E+000 +8.5652123981E+000 
6891984.981 +7.5420087930E-001 +2.4724048140E+001  +5.3882623011E-001 +5.7444577727E+000  +5.3383064844E-001 -2.4560232452E+000  +8.0017201599E-001 +1.3668110389E+001 
7017130.163 +1.0799580201E+000 +2.0173527550E+001  +5.8623288080E-001 +6.4262825098E+000  +5.8746594230E-001 +1.3554831138E+000  +1.0112460201E+000 +8.8562202065E+000 
7142275.344 +8.8873071844E-001 +6.6276358459E+000  +4.6705939886E-001 -1.3404678348E+000  +4.7856470439E-001 -4.8006515554E+000  +8.8383833907E-001 -8.5769836307E+000 
7267420.526 +7.3978178535E-001 +8.6120890290E+000  +4.0871363849E-001 +5.9601082749E-001  +4.1671450955E-001 -1.3207278812E+000  +8.3291257843E-001 -1.9554942355E+001 
7392565.707 +7.5317178222E-001 -1.2610957716E+000  +3.8761847966E-001 +4.4071760646E+000  +3.8347738445E-001 +3.4129675107E+000  +1.1012162312E+000 -1.0097621461E+001 
7517710.889 +7.5990652302E-001 +1.1310183358E+000  +3.6489337829E-001 +6.1618838811E-001  +3.5907165652E-001 +4.4471497295E+000  +7.3263724652E-001 -1.0485003621E+001 
7642856.070 +5.6301009994E-001 +4.2137510545E+000  +3.3723186235E-001 +5.6969838218E-002  +3.2863731491E-001 +4.3323948185E+000  +6.9546145737E-001 -4.3763742836E+000 
7768001.252 +5.0205682374E-001 +2.1767057026E+000  +3.1708713419E-001 -8.2115285446E-001  +3.1851261603E-001 +3.3860559483E+000  +5.9830239185E-001 +3.1507530701E+000 
7893146.433 +4.3921654394E-001 +7.8363666758E+000  +3.0562878016E-001 -2.4588592528E+000  +3.0824530185E-001 +3.5598537580E+000  +5.2393040523E-001 -2.0031520701E+000 
8018291.615 +4.7252660784E-001 +1.7136611942E+001  +3.0188090559E-001 -7.7277510148E-001  +3.0272174626E-001 +6.2716500847E+000  +5.1835903491E-001 -2.6336123026E+000 
8143436.796 +4.2134717852E-001 +1.8267076908E+001  +2.9010011583E-001 -2.3986095952E+000  +2.9734943117E-001 +6.1518067890E+000  +4.7609416175E-001 +4.3241599581E+000 
8268581.977 +3.8990693218E-001 +2.1301467851E+001  +2.7807652119E-001 -4.2161436988E+000  +2.8034011198E-001 +6.9283874074E+000  +4.8242457030E-001 +1.3450482733E+001 
8393727.159 +3.9375611289E-001 +2.0048983009E+001  +2.7965998559E-001 -3.2044118514E+000  +2.7729428929E-001 +7.8085752800E+000  +4.2348864388E-001 +1.7568873463E+000 
8518872.340 +3.9859405682E-001 +1.2147177933E+001  +2.7944113948E-001 -4.1052308166E+000  +2.8182184287E-001 +7.1038625211E+000  +4.2762174778E-001 +8.5938723616E+000 
8644017.522 +3.2451120669E-001 +2.9477035901E+001  +2.6887177281E-001 -5.2607710213E+000  +2.6825390532E-001 +7.8474040325E+000  +3.7742366332E-001 +3.2170649627E+000 
8769162.703 +3.1680358680E-001 +1.5796861515E+001  +2.7066912113E-001 -5.0568819024E+000  +2.6740478473E-001 +7.5864731055E+000  +3.2279544528E-001 +7.4972942648E+000 
8894307.885 +3.4503036721E-001 +1.7888128946E+001  +2.7021594040E-001 -4.5177678414E+000  +2.6617802456E-001 +7.6507344747E+000  +3.3166109235E-001 +9.3314804158E+000 
9019453.066 +3.2910815685E-001 +1.6937209916E+001  +2.6214894061E-001 -3.8630620018E+000  +2.6263191277E-001 +9.0763432991E+000  +3.6571535612E-001 +1.9127288078E+001 
9144598.248 +2.8134945045E-001 +1.3931528152E+001  +2.6561613363E-001 -5.1104103446E+000  +2.6537938994E-001 +9.8489869518E+000  +3.5993364814E-001 +9.1089948808E+000 
9269743.429 +2.6982064942E-001 +2.6078357934E+001  +2.6457418244E-001 -5.6639883278E+000  +2.5898314839E-001 +1.0231627341E+001  +3.6504024176E-001 +1.0059690752E+001 
9394888.611 +2.4569574670E-001 +5.8716228128E+000  +2.7156936740E-001 -6.4142515677E+000  +2.6781481841E-001 +9.1705538580E+000  +3.2308175041E-001 -2.6698703197E+000 
9520033.792 +2.5425746227E-001 +1.2000508885E+001  +2.6511316159E-001 -5.7140731483E+000  +2.6239659067E-001 +1.0045742836E+001  +3.2897900759E-001 +1.1758278685E+001 
9645178.974 +2.8305021239E-001 +1.2551690440E+001  +2.6748277172E-001 -5.5963536878E+000  +2.6259711464E-001 +1.0472025658E+001  +2.9669405890E-001 +6.9187088519E+000 
9770324.155 +2.6363474867E-001 +1.0979213709E+001  +2.6642821095E-001 -6.0881898604E+000  +2.6738221548E-001 +1.0727407735E+001  +3.1155542471E-001 +1.9121662499E+000 
9895469.337 +2.6115034103E-001 +5.0807071077E+000  +2.6920394582E-001 -6.7003300208E+000  +2.6853042171E-001 +9.7074515159E+000  +2.2279948527E-001 -1.7469468922E+000 
10020614.518 +2.5078516707E-001 +1.0547109043E+001  +2.6859689789E-001 -5.0376873089E+000  +2.6919110561E-001 +1.0182957355E+001  +3.5148473471E-001 +2.3214991693E+000 
10145759.700 +2.8437132380E-001 +8.1960786788E+000  +2.7184434412E-001 -4.8982992917E+000  +2.6898045660E-001 +1.0356054632E+001  +2.5369472169E-001 +7.5287688002E+000 
10270904.881 +2.9546088198E-001 +4.2502610299E+000  +2.7456557626E-001 -4.7089147636E+000  +2.7077015268E-001 +1.1430164143E+001  +3.1156232069E-001 +7.0172460010E+000 
10396050.063 +2.9128915318E-001 +1.1186017025E+001  +2.7254949668E-001 -4.0129302192E+000  +2.6882108334E-001 +1.1502096596E+001  +2.7631192656E-001 +3.3875076964E+000 
10521195.244 +2.8026195215E-001 +2.2211112737E+001  +2.6658433014E-001 -3.8183887158E+000  +2.6442405231E-001 +1.1496204491E+001  +3.0738689306E-001 +1.0614440392E+001 
10646340.426 +2.9652895730E-001 +1.9835390570E+001  +2.7207743634E-001 -3.4732367031E+000  +2.6981474938E-001 +1.1585468539E+001  +3.0772112797E-001 +1.4248968910E+001 
10771485.607 +2.9365056520E-001 +2.1086758415E+001  +2.7401754057E-001 -3.9761293438E+000  +2.7027457870E-001 +1.1039086607E+001  +2.7818738883E-001 +1.3399667317E+001 
10896630.788 +3.1651309366E-001 +1.9835981162E+001  +2.7532636585E-001 -2.4370591798E+000  +2.7256437436E-001 +1.1549551826E+001  +3.6305696295E-001 +1.2638149689E+001 
11021775.970 +2.9945989017E-001 +1.9552857663E+001  +2.7761823175E-001 -2.8269243169E+000  +2.7457791681E-001 +1.1260799318E+001  +3.1998648015E-001 +1.4447176396E+001 
11146921.151 +3.1388173491E-001 +1.9983317299E+001  +2.7973176175E-001 -2.1540312386E+000  +2.7784377448E-001 +1.1537125206E+001  +3.4718987392E-001 +1.2166432482E+001 
11272066.333 +3.1577944366E-001 +2.4402850959E+001  +2.8083967263E-001 -1.9643522433E+000  +2.7746523317E-001 +1.0346189254E+001  +3.4674422150E-001 +1.0525303998E+001 
11397211.514 +3.0797417753E-001 +1.7440887650E+001  +2.8695858652E-001 -2.0004798201E+000  +2.8506810486E-001 +9.9746823672E+000  +3.2729588111E-001 +6.9112326906E+000 
11522356.696 +3.4279567396E-001 +1.3422329938E+001  +2.8954130314E-001 -1.2314706586E+000  +2.8631341706E-001 +1.1093589897E+001  +3.8702968426E-001 +1.1914195162E+001 
11647501.877 +3.3942312976E-001 +1.3352435933E+001  +2.9263446113E-001 -1.3800350290E+000  +2.8713800699E-001 +9.9063197430E+000  +3.4469884750E-001 +8.6985042396E+000 
11772647.059 +3.5290580733E-001 +1.3708236566E+001  +2.9411563006E-001 -1.3169707810E+000  +2.9146142345E-001 +1.0135562656E+001  +3.5869570948E-001 +9.9277098180E+000 
11897792.240 +3.6006004013E-001 +1.0696492924E+001  +2.9649379063E-001 -8.3510679076E-001  +2.9395618135E-001 +9.7034607140E+000  +3.6098058278E-001 +1.0196707069E+001 
12022937.422 +3.7759482022E-001 +1.2930117823E+001  +2.9907042584E-001 -3.3376590186E-001  +2.9555722721E-001 +9.2838509938E+000  +3.8934736086E-001 +7.0183297623E+000 
12148082.603 +3.6724307345E-001 +9.5851293593E+000  +3.0439670953E-001 -5.0497535333E-001  +2.9991624879E-001 +8.5080198232E+000  +3.7868576140E-001 +7.8438101559E+000 
12273227.785 +3.8625741877E-001 +1.3136150752E+001  +3.0373847816E-001 -2.0947035756E-001  +3.0286838209E-001 +8.1777032862E+000  +3.9562432087E-001 +9.2200075825E+000 
12398372.966 +3.9332694908E-001 +1.1004650967E+001  +3.0986489863E-001 +3.0015375006E-001  +3.0646591784E-001 +8.0703747851E+000  +4.0558905344E-001 +5.1762003417E+000 
12523518.148 +3.8946437060E-001 +3.1563669260E+000  +3.1507901386E-001 +2.0901145298E-001  +3.1245393252E-001 +7.5123965783E+000  +4.4251855117E-001 +7.0601700035E+000 
12648663.329 +4.1598303451E-001 +8.6948765647E+000  +3.1676484829E-001 +6.3636065725E-001  +3.1530998455E-001 +7.1166287732E+000  +4.2071159427E-001 +3.4303661283E+000 
12773808.511 +4.4655093779E-001 +6.2847699043E+000  +3.1966961137E-001 +1.0973546455E+000  +3.1828121633E-001 +7.5721886122E+000  +4.4362481525E-001 +2.7294871014E+000 
12898953.692 +4.4426552650E-001 +5.4381448934E+000  +3.2219045673E-001 +1.1928316177E+000  +3.1898526013E-001 +6.4686403257E+000  +4.6348465119E-001 +5.1824720697E+000 
13024098.874 +4.5861442347E-001 +4.0574870379E+000  +3.2953729228E-001 +1.3146678698E+000  +3.2487610765E-001 +6.3338894632E+000  +4.6455717835E-001 -1.6199825524E+000 
13149244.055 +4.6423700110E-001 +2.8734915727E+000  +3.3042932923E-001 +1.2364153154E+000  +3.2578014005E-001 +5.6220064395E+000  +4.8670816793E-001 +2.9177445047E+000 
13274389.237 +4.7923437454E-001 +2.4674588043E+000  +3.3320583489E-001 +1.5179501621E+000  +3.2970416714E-001 +5.2801281589E+000  +4.9411711775E-001 +1.2669429831E+000 
13399534.418 +4.7871687624E-001 +2.8341663771E+000  +3.3728167397E-001 +1.5256653344E+000  +3.3309203008E-001 +4.9997707533E+000  +5.2958360888E-001 -2.2410517504E+000 
13524679.599 +5.2297078521E-001 -7.3188927310E-001  +3.4170204975E-001 +1.5716358811E+000  +3.3795573020E-001 +4.3574502189E+000  +5.2273096924E-001 -2.0573871341E+000 
13649824.781 +5.2234209469E-001 -1.7559410161E+000  +3.4513805440E-001 +1.4609137689E+000  +3.4020189848E-001 +4.0478807482E+000  +5.4344886204E-001 -3.0753775646E+000 
13774969.962 +5.4825253182E-001 -1.0399704036E+000  +3.4515739891E-001 +1.5937857041E+000  +3.4059940521E-001 +3.5808516844E+000  +5.4271580099E-001 -1.7364391633E+000 
13900115.144 +5.6496967201E-001 -3.3926761860E+000  +3.4795480606E-001 +1.7394189621E+000  +3.4308570568E-001 +3.2022270508E+000  +5.7099853048E-001 -4.7027129474E-001 
14025260.325 +5.6607036106E-001 -2.9852425476E+000  +3.5160662613E-001 +1.6268692594E+000  +3.4443378990E-001 +2.7328623482E+000  +5.7825497742E-001 -3.7159822556E+000 
14150405.507 +5.7574954665E-001 -4.1532329665E+000  +3.5237258280E-001 +1.0780501819E+000  +3.4714158603E-001 +2.3103881630E+000  +5.9579760796E-001 -3.6654685388E+000 
14275550.688 +5.9721893888E-001 -5.1174616907E+000  +3.5694382746E-001 +1.2596495645E+000  +3.5309556420E-001 +2.2195890036E+000  +6.1807568526E-001 -5.9466170100E+000 
14400695.870 +6.0761307052E-001 -6.8138812939E+000  +3.5738196497E-001 +9.0286972322E-001  +3.5241616772E-001 +1.8816544311E+000  +6.4273299985E-001 -2.8408848297E+000 
