!  2-Port S-parameters saved by WinCal
! VAR MeasName=S-Parameters (CALIBRATED_DATA) read from VNA (P5004A)
! VAR MeasDate=29/08/2024 11:45:30
! VAR NAME=S2_r9c4_SET1_9k-100M_1
! VAR FILENAME=S2_r9c4_SET1_9k-100M_1.S2P
! VAR DATE=29/08/2024 11:45:30
! VAR PHYS_PORTS=1,2
! VAR ObjTypeName=DATASET
! VAR IndexType=Frequency
!
# Hz S MA R 50
9000.000 +8.9811313204E-002 -1.7040043178E+002  +3.0696174629E-003 -5.8835836426E+001  +1.0974472725E-002 -1.5619700824E+002  +2.3465887362E-001 -1.4529003198E+002 
134145.181 +1.1146134201E-001 +1.6959559137E+002  +3.6185325596E-004 +3.7785877747E+001  +1.0508760615E-003 +1.4311635794E+001  +2.4202971566E-001 -1.7097790283E+002 
259290.363 +1.1246052086E-001 +1.6954885561E+002  +2.9654639723E-004 +5.6427401898E+001  +1.8796495237E-004 +1.3854309525E+002  +2.2985620264E-001 -1.6932152203E+002 
384435.544 +1.1298524684E-001 +1.6990515713E+002  +1.2686143581E-003 -6.8365424515E+001  +1.1680095185E-003 +2.5899110587E+001  +2.4364086571E-001 -1.6942812002E+002 
509580.726 +1.1386775404E-001 +1.6947113952E+002  +5.9593077341E-004 -3.2162018800E+001  +1.1258478169E-003 +1.4905870521E+002  +2.4434627843E-001 -1.6725898877E+002 
634725.907 +1.1492491484E-001 +1.7177192855E+002  +4.1870156070E-004 +2.8092465793E+000  +1.0311454490E-003 -1.2571450313E+002  +2.4014092528E-001 -1.6589387760E+002 
759871.089 +1.1966287766E-001 +1.7077033405E+002  +9.1619032390E-004 -9.3294180695E+001  +1.3897467352E-003 +9.8176846419E+001  +2.4485613753E-001 -1.6574558094E+002 
885016.270 +1.2016402870E-001 +1.6875291072E+002  +8.6690303175E-004 -6.8349984913E+001  +1.1059993808E-003 +1.1568421544E+002  +2.4456311042E-001 -1.6693670995E+002 
1010161.452 +1.1837774812E-001 +1.6975588396E+002  +1.4681072737E-003 +1.4663374751E+001  +9.7687190569E-004 +1.6274473544E+002  +2.1618818320E-001 -1.7256309961E+002 
1135306.633 +1.1819363935E-001 +1.6872637303E+002  +1.2059382881E-003 -3.6468807968E+001  +1.1747976552E-003 -1.6901521758E+002  +2.0906494185E-001 -1.7016955341E+002 
1260451.815 +1.1737704603E-001 +1.6936733767E+002  +1.8653651098E-003 -1.0262543065E+001  +3.5026908054E-003 +1.6741475070E+002  +2.1708936992E-001 -1.6322948488E+002 
1385596.996 +1.2354071896E-001 +1.7274392811E+002  +2.3454281866E-003 -1.0850512175E+002  +2.3358709767E-003 +9.6098222808E+001  +2.5589763003E-001 -1.5727375838E+002 
1510742.178 +1.2475932485E-001 +1.7177417899E+002  +1.8398683544E-003 -1.5358752710E+002  +1.4450048769E-003 +1.1518945392E+002  +2.5743549546E-001 -1.5853513382E+002 
1635887.359 +1.2721064585E-001 +1.7038292597E+002  +8.2888528740E-004 +1.4380864965E+002  +3.3507427373E-003 -1.2716514679E+002  +2.3029475289E-001 -1.5967542646E+002 
1761032.541 +1.3087614804E-001 +1.6883243289E+002  +3.2761171990E-003 +3.2443784719E+001  +2.7317964799E-003 -8.0440776796E+001  +2.0127248307E-001 -1.5199489359E+002 
1886177.722 +1.2892958161E-001 +1.6941927751E+002  +4.1403951400E-003 +7.5792848752E+001  +4.4678663757E-003 -6.0337219296E+001  +1.9576602586E-001 -1.6513972683E+002 
2011322.904 +1.2896367557E-001 +1.6786683781E+002  +6.1503623437E-003 +5.6042080453E+001  +7.4722571660E-003 -6.8361139137E+001  +1.9268045470E-001 -1.6868790850E+002 
2136468.085 +1.1815131115E-001 +1.6380716586E+002  +1.0292056043E-002 +7.7864007342E+001  +1.3967280967E-002 -4.6620328392E+001  +2.0551385846E-001 -1.7739708202E+002 
2261613.267 +1.3237791276E-001 +1.6562230488E+002  +1.5740558039E-002 +5.7813930136E+001  +1.3672558535E-002 -7.2326749204E+001  +1.5722183010E-001 -1.5181644088E+002 
2386758.448 +1.3436236740E-001 +1.6468908510E+002  +1.6635965315E-002 +9.5424223849E+001  +1.1664792206E-002 -1.5524845602E+001  +2.0932168732E-001 +1.7160453966E+002 
2511903.630 +1.4064441728E-001 +1.6533827207E+002  +1.2331388347E-002 +6.2377470520E+001  +1.3878267555E-002 -5.0977207043E+001  +1.7965981249E-001 -1.6303166524E+002 
2637048.811 +1.3697051781E-001 +1.5014001564E+002  +4.6254959140E-002 +8.9694025034E+001  +4.8846837052E-002 -2.6410320178E+001  +7.9525321009E-002 -1.7925104157E+002 
2762193.992 +1.1667585128E-001 +1.6739051143E+002  +7.2797449316E-002 +7.5496320192E+001  +7.9644353638E-002 -3.5859873673E+001  +3.1272652102E-001 +1.0444534705E+002 
2887339.174 +1.0288778974E-001 +1.7736108979E+002  +8.4546040459E-002 +1.4591239390E+001  +8.3136018302E-002 -8.7264764933E+001  +4.4469797191E-002 +2.1823648808E+000 
3012484.355 +1.2012153737E-001 -1.7900360986E+002  +8.3520419006E-002 +1.6951905540E+001  +7.9598108583E-002 -9.7771696558E+001  +8.7631308725E-002 -2.4344393316E+000 
3137629.537 +1.3363590437E-001 +1.6916065426E+002  +4.0112449761E-002 +5.3317255213E+001  +4.3312877307E-002 -4.1979948210E+001  +1.7626435444E-001 +1.2858022101E+002 
3262774.718 +1.1715604692E-001 +1.6234610621E+002  +8.1552932180E-002 +2.5104300971E+001  +8.9032570144E-002 -6.6662305884E+001  +1.1127264846E-001 -2.1792032847E+001 
3387919.900 +1.4771770962E-001 +1.5990661410E+002  +7.1515648583E-002 +5.0102442873E+001  +7.0148208148E-002 -4.7339949667E+001  +1.5670588400E-001 +3.0956809506E+001 
3513065.081 +1.6972812173E-001 +1.5274085369E+002  +8.6703143919E-002 +8.5828649098E+001  +8.5104920393E-002 +2.0233734723E+001  +4.5155266393E-001 +8.2180958955E+001 
3638210.263 +1.6422532925E-001 +1.4773848197E+002  +6.9594790844E-002 +1.2282426922E+002  +7.2828173532E-002 +3.2536339125E+001  +5.0765750927E-001 +1.3531114527E+002 
3763355.444 +1.7104984269E-001 +1.5244472239E+002  +5.1096113421E-002 +7.0667167599E+001  +4.2061755341E-002 -5.7524148104E+000  +1.8946215236E-001 +1.4686503828E+002 
3888500.626 +1.6647603453E-001 +1.5179440433E+002  +9.2364919251E-002 +1.0307798816E+002  +9.2796151580E-002 +2.5268791760E+001  +6.3439135100E-001 +1.2166538197E+002 
4013645.807 +1.5418826620E-001 +1.5204638348E+002  +6.9135784185E-002 +7.2824306987E+001  +7.5903553100E-002 -4.8397376851E-001  +2.9066172634E-001 +1.2217410799E+002 
4138790.989 +1.6637262879E-001 +1.4335396184E+002  +9.3365123197E-002 +8.0241471892E+001  +8.0396525290E-002 +8.9823426598E+000  +2.9750605325E-001 +1.1890678072E+002 
4263936.170 +1.8812533042E-001 +1.5318498249E+002  +5.1047969100E-002 +8.9360375787E+001  +5.3187575896E-002 +1.8655069936E+001  +3.4172438306E-001 +1.4840593109E+002 
4389081.352 +2.1957309393E-001 +1.4512543435E+002  +9.1672371603E-002 +1.0054823303E+002  +9.0598879800E-002 +3.6303759772E+001  +4.3214090198E-001 +1.2433896378E+002 
4514226.533 +2.3380415136E-001 +1.2928404473E+002  +2.0424513926E-001 +1.1424936562E+002  +2.3367170817E-001 +5.9805172490E+001  +1.0990212923E+000 +1.1434010590E+002 
4639371.715 +2.7135883242E-001 +1.2351043586E+002  +3.2553462691E-001 +1.4127288191E+002  +3.1256716547E-001 +8.8257530633E+001  +1.6043457929E+000 +1.4182810903E+002 
4764516.896 +3.4620650693E-001 +1.3538001851E+002  +3.5756076098E-001 +1.6836956310E+002  +3.7029928826E-001 +1.1464320349E+002  +2.0774795086E+000 +1.4809173572E+002 
4889662.078 +4.4650636446E-001 +1.1831696074E+002  +7.9276994428E-001 +1.4011075929E+002  +7.4779787247E-001 +8.9933577166E+001  +3.2864523925E+000 +1.2413453131E+002 
5014807.259 +7.9489318230E-001 +1.0754710821E+002  +1.9837188097E+000 +1.1163763668E+002  +2.0180037588E+000 +6.7641528847E+001  +8.2404773339E+000 +8.2195066429E+001 
5139952.441 +4.7461547575E-001 +1.2530146678E+002  +7.4721408055E-001 +1.0855411814E+002  +7.7803181777E-001 +7.4140036707E+001  +3.9651486667E+000 +8.0027693128E+001 
5265097.622 +3.8401394812E-001 +1.3348239502E+002  +1.5888706235E-001 +1.5033832276E+002  +1.6288405088E-001 +1.1342277509E+002  +1.2349731134E+000 +1.5227611767E+002 
5390242.804 +4.0055361478E-001 +1.2515818411E+002  +2.5158886142E-001 +9.7109474895E+001  +2.2760447617E-001 +6.0934614116E+001  +1.0602779430E+000 +9.3211955476E+001 
5515387.985 +3.5543778891E-001 +1.2960377798E+002  +1.8591125849E-001 +9.5760858762E+001  +1.8382556501E-001 +6.4540602046E+001  +9.8301168438E-001 +1.1440972398E+002 
5640533.166 +4.1657754984E-001 +1.2229190934E+002  +1.9815718712E-001 +1.0317961125E+002  +1.9989366649E-001 +7.0115405012E+001  +1.0163565881E+000 +1.2578658160E+002 
5765678.348 +4.2432848462E-001 +1.2687608110E+002  +2.2176385208E-001 +8.4677093388E+001  +2.0636268021E-001 +5.7614240313E+001  +1.1001796130E+000 +9.9463430867E+001 
5890823.529 +4.0382301229E-001 +1.2378028993E+002  +1.9464940582E-001 +6.7755231774E+001  +1.9819080373E-001 +4.4843616045E+001  +7.9114547150E-001 +8.8000893632E+001 
6015968.711 +4.6328337147E-001 +1.1414285157E+002  +3.2667010580E-001 +8.9502713958E+001  +3.4021599030E-001 +6.2943853495E+001  +2.0250450053E+000 +1.0028635069E+002 
6141113.892 +5.3848141760E-001 +1.0965225369E+002  +3.2329328561E-001 +6.2817985542E+001  +3.4571002207E-001 +4.4505457427E+001  +1.5054456770E+000 +6.4943625848E+001 
6266259.074 +7.4798427357E-001 +1.0683437246E+002  +3.4083437784E-001 +6.4159152714E+001  +3.4107224783E-001 +4.1034456574E+001  +1.1799849919E+000 +4.3382239433E+001 
6391404.255 +5.7605165513E-001 +9.7563481156E+001  +2.9905592029E-001 +3.6028012099E+001  +3.1299349652E-001 +1.8517521283E+001  +1.0614097495E+000 +2.7263132830E+001 
6516549.437 +7.3948611259E-001 +8.7022627609E+001  +3.2860764599E-001 +3.3281009058E+001  +3.3635724766E-001 +1.9346997755E+001  +1.0333077246E+000 +2.3374795803E+001 
6641694.618 +8.1577748436E-001 +7.4560532841E+001  +3.1461106436E-001 +2.9093068630E+001  +3.1945200351E-001 +1.7449394937E+001  +7.2110145195E-001 +2.6466906165E+001 
6766839.800 +1.1118176780E+000 +5.2354657509E+001  +4.1970355756E-001 +1.6272273552E+001  +4.1567663649E-001 +5.9080837576E+000  +1.0600079199E+000 -4.8829796341E-001 
6891984.981 +1.1252506902E+000 +3.5626496365E+001  +3.8584127464E-001 +8.8571325581E+000  +3.7511768869E-001 +2.0657534196E+000  +8.9345190895E-001 +2.5594814281E+000 
7017130.163 +1.3191417732E+000 +1.7308459140E+001  +4.0727854876E-001 +3.3560171230E+000  +3.9695750000E-001 -1.7034643913E+000  +1.0723058554E+000 -5.5069146396E-001 
7142275.344 +9.8626625208E-001 +1.4489226418E+001  +3.1291677451E-001 -5.3669409752E-001  +3.1319052259E-001 -2.9590898690E+000  +9.9073822038E-001 -7.8284537622E+000 
7267420.526 +1.1534801729E+000 -1.1473513144E+000  +3.0546944642E-001 +8.7592999213E-001  +3.0122955483E-001 -1.8281368744E+000  +1.0744365686E+000 -7.8185844725E+000 
7392565.707 +8.3371949975E-001 -3.1825120490E+000  +2.5096697922E-001 +2.2856114077E+000  +2.4729097650E-001 +2.9337676996E+000  +1.0700400813E+000 -9.6879463389E+000 
7517710.889 +1.0153040611E+000 +1.3536429030E-001  +2.3559037718E-001 +3.9011486555E+000  +2.3023375345E-001 +7.0259163005E+000  +8.6307759555E-001 -8.4707307789E+000 
7642856.070 +8.2700968061E-001 +5.6138039697E+000  +2.2117245648E-001 +3.1921164732E+000  +2.2101555152E-001 +7.2741170161E+000  +8.6775912333E-001 -1.1039449438E+000 
7768001.252 +6.7945925409E-001 -7.0358724718E+000  +2.1114487108E-001 +6.4233476812E-001  +2.0018130809E-001 +3.9389298825E+000  +7.9475458122E-001 -1.3210965492E+000 
7893146.433 +6.6855260100E-001 +7.0023747966E+000  +1.9831698222E-001 -2.4471316320E-001  +1.9126204836E-001 +6.5933837192E+000  +6.2877878690E-001 +5.8858600068E+000 
8018291.615 +5.4700887075E-001 +6.1326771324E+000  +1.9157957671E-001 -3.1147312701E+000  +1.9305999453E-001 +7.7517098983E+000  +7.0222123106E-001 +8.1240074696E-001 
8143436.796 +5.4246918905E-001 +2.1052832059E+001  +1.8265724808E-001 -3.1129415077E+000  +1.8382546580E-001 +6.8209713758E+000  +6.2351292094E-001 +3.9334878152E+000 
8268581.977 +5.7919796471E-001 +1.6479708391E+001  +1.8551664817E-001 -3.7840021967E-001  +1.8399613363E-001 +8.6242280486E+000  +6.0949157093E-001 +4.6290978896E-001 
8393727.159 +5.3865507923E-001 +2.1544689616E+001  +1.7688971079E-001 -4.6774092984E+000  +1.7741489559E-001 +7.1949625952E+000  +4.5949462955E-001 +1.6201068004E+000 
8518872.340 +5.0409266818E-001 +1.9181418881E+001  +1.7934990247E-001 -2.6289102071E+000  +1.7639306351E-001 +9.2697052395E+000  +5.3876442476E-001 +3.4303250530E+000 
8644017.522 +4.5867874114E-001 +1.1314141999E+000  +1.7669667372E-001 -4.5430305250E+000  +1.7772482349E-001 +8.1448150722E+000  +5.0429815161E-001 +1.1510375244E+001 
8769162.703 +4.7893004737E-001 +1.7372622268E+001  +1.7428635554E-001 -4.8899150758E+000  +1.7569838953E-001 +9.9646723517E+000  +4.6631669185E-001 +8.9265605405E+000 
8894307.885 +3.8274623619E-001 +3.7599502725E+000  +1.7707794847E-001 -6.2559961844E+000  +1.7667124454E-001 +8.2604076564E+000  +4.2259015694E-001 +1.3552735947E+000 
9019453.066 +4.2972825936E-001 +1.7690560596E+001  +1.7362753862E-001 -3.9939556114E+000  +1.7198024577E-001 +1.0501202160E+001  +4.8590950114E-001 +7.9919878507E+000 
9144598.248 +3.7356908252E-001 +8.4330138748E+000  +1.7580774612E-001 -4.9672518748E+000  +1.7040737116E-001 +9.4424653654E+000  +4.2505056443E-001 +4.8076878100E+000 
9269743.429 +3.7648930296E-001 +1.7189466384E+001  +1.7099421554E-001 -4.6233158574E+000  +1.6859336431E-001 +9.9292189032E+000  +3.9274578545E-001 +2.8206256436E+000 
9394888.611 +4.0400739858E-001 +9.4216040968E+000  +1.7108141866E-001 -4.2170655784E+000  +1.7327821395E-001 +1.1410474138E+001  +4.4373999861E-001 +5.3849774866E-001 
9520033.792 +3.6823189597E-001 +6.4648067406E+000  +1.7385972316E-001 -5.4718269073E+000  +1.7045560311E-001 +9.7534439981E+000  +3.2560492413E-001 +1.1205288179E+000 
9645178.974 +3.7435371092E-001 +7.7490734352E+000  +1.7071004237E-001 -3.9497403993E+000  +1.7134081913E-001 +1.1312393375E+001  +4.5025192951E-001 +2.7464592666E+000 
9770324.155 +3.5297741992E-001 -7.0763069368E+000  +1.7842506791E-001 -5.4723794992E+000  +1.7129010275E-001 +1.0334102966E+001  +3.6270752533E-001 +9.0016695209E-001 
9895469.337 +3.3562911539E-001 +1.7065970943E+000  +1.7720666411E-001 -4.8056691800E+000  +1.7469736400E-001 +1.1281900909E+001  +4.3650272932E-001 -6.4732915092E+000 
10020614.518 +3.4421014248E-001 +7.4403469102E-001  +1.7665146063E-001 -4.8999307531E+000  +1.7358016539E-001 +1.1652414659E+001  +3.5650923302E-001 +7.3183703568E-001 
10145759.700 +3.7322698634E-001 +4.6194164675E+000  +1.7414412251E-001 -4.2605854621E+000  +1.7166427707E-001 +1.1613905369E+001  +3.8757192454E-001 +4.5097862104E+000 
10270904.881 +4.0012127637E-001 +1.2569139208E+001  +1.7558732537E-001 -3.3689499073E+000  +1.7535854825E-001 +1.2978967269E+001  +4.2053734197E-001 +5.6462461935E+000 
10396050.063 +3.8049933595E-001 +1.5162922105E+001  +1.7695253486E-001 -2.4262566602E+000  +1.7409693716E-001 +1.1530878929E+001  +4.0629052005E-001 +1.7106298031E+000 
10521195.244 +3.7157966930E-001 +1.0289459012E+001  +1.7971552796E-001 -3.3536534107E+000  +1.7460402588E-001 +1.1093420665E+001  +3.6213444118E-001 -2.0387110693E+000 
10646340.426 +4.0220251726E-001 +1.4647091761E+001  +1.7943693361E-001 -2.3605971782E+000  +1.7889337857E-001 +1.1857539497E+001  +4.3097007949E-001 +3.2477799557E+000 
10771485.607 +3.5791308018E-001 +1.1088372982E+001  +1.7936311742E-001 -2.4531425692E+000  +1.7643271837E-001 +1.1841834307E+001  +3.9749567477E-001 +1.0817810257E+001 
10896630.788 +4.2067874503E-001 +6.5945490843E+000  +1.8115030642E-001 -1.8882600102E+000  +1.8061264504E-001 +1.1378817001E+001  +3.9540469815E-001 +8.0019198617E+000 
11021775.970 +3.8945488671E-001 +1.4391450846E+001  +1.8003647569E-001 -1.3857091774E+000  +1.7976724768E-001 +1.0959068605E+001  +4.4522530343E-001 +7.5875391919E+000 
11146921.151 +4.1705220376E-001 +1.0723881565E+001  +1.8331641994E-001 -1.0266036567E+000  +1.8215418754E-001 +1.1828093910E+001  +4.1896068253E-001 +6.3122046878E+000 
11272066.333 +4.2473466416E-001 +1.1091738024E+001  +1.8575938053E-001 -1.5318256124E+000  +1.8414532472E-001 +1.2234617807E+001  +4.4306303077E-001 +5.3877935327E+000 
11397211.514 +4.2347738270E-001 +1.2371176835E+001  +1.8705697005E-001 -5.3866175058E-001  +1.8378385499E-001 +1.1167849221E+001  +4.4102449720E-001 +5.9255599055E+000 
11522356.696 +4.5173383137E-001 +1.0473281527E+001  +1.8878737893E-001 +1.6685426379E-002  +1.8592151008E-001 +1.1654776225E+001  +4.8070064661E-001 +5.9094445517E+000 
11647501.877 +4.5314958880E-001 +1.1640840437E+001  +1.8853369654E-001 -2.0144592624E-001  +1.8769722466E-001 +1.1115185510E+001  +4.4899972386E-001 +5.9499464519E+000 
11772647.059 +4.3509337105E-001 +6.4174690340E+000  +1.9474435774E-001 -9.3459227487E-001  +1.9239613961E-001 +1.0686887894E+001  +4.9055419120E-001 +6.1834940717E+000 
11897792.240 +4.7075241368E-001 +9.8232120482E+000  +1.9523189833E-001 +7.8348083157E-001  +1.9252032359E-001 +1.0576057840E+001  +4.7947445659E-001 +3.3348559551E+000 
12022937.422 +4.6105093005E-001 +7.6803898758E+000  +1.9687915036E-001 +6.7342092756E-002  +1.9526584453E-001 +1.0975967255E+001  +4.8740210552E-001 +4.2450313249E+000 
12148082.603 +4.8762166831E-001 +8.8467875216E+000  +2.0013765078E-001 +9.0957333983E-001  +1.9675953765E-001 +9.4775716114E+000  +5.0244913564E-001 +3.7077827364E+000 
12273227.785 +4.9484252129E-001 +5.0220396763E+000  +2.0275020954E-001 +6.0727224962E-001  +2.0096979164E-001 +9.5820753456E+000  +4.8407600825E-001 +1.4416583692E+000 
12398372.966 +5.3120623036E-001 +2.2847285343E+000  +2.0529211347E-001 +1.6040327339E+000  +2.0382986372E-001 +8.8902785775E+000  +5.0940398809E-001 +1.0669368350E+000 
12523518.148 +5.3032633930E-001 +6.9894069486E+000  +2.0352080052E-001 +1.3501177468E+000  +2.0242605913E-001 +8.7059964046E+000  +4.9925330082E-001 +4.3348388897E+000 
12648663.329 +5.2993064789E-001 +5.1970210311E+000  +2.0656539296E-001 +1.1456018414E+000  +2.0402356209E-001 +8.3518963035E+000  +5.1720828945E-001 +5.4059575814E+000 
12773808.511 +5.3073241159E-001 +3.2600181248E+000  +2.0972062138E-001 +1.5060238232E+000  +2.0924391867E-001 +7.3766508033E+000  +5.6711923023E-001 +6.7426009754E-001 
12898953.692 +5.3576958580E-001 +2.8955522903E+000  +2.1408875452E-001 +1.1881610273E+000  +2.1035470342E-001 +7.1521428440E+000  +5.5430993586E-001 -2.0404331459E+000 
13024098.874 +5.8654209752E-001 +1.7668387034E+000  +2.1320281186E-001 +2.1138657907E+000  +2.1010778472E-001 +7.3814048673E+000  +6.0071081421E-001 +1.6865788907E+000 
13149244.055 +6.0550296573E-001 +2.3136177857E+000  +2.1532117076E-001 +2.5358322026E+000  +2.1351892324E-001 +6.1569949064E+000  +5.9621175912E-001 -4.5863641025E-001 
13274389.237 +6.0693769045E-001 +4.6803091743E-001  +2.1751262833E-001 +2.5337210511E+000  +2.1645323540E-001 +5.6154711509E+000  +5.9786655089E-001 +6.0395952612E-001 
13399534.418 +6.0200492349E-001 -1.1367188046E+000  +2.1952137226E-001 +2.1692207567E+000  +2.1672798058E-001 +4.7644389495E+000  +6.1793759702E-001 -4.0105165591E-002 
13524679.599 +6.3961248869E-001 -1.0517438977E+000  +2.2319790240E-001 +2.2441222322E+000  +2.1970535225E-001 +4.6020258706E+000  +6.2393281862E-001 -1.5551485745E+000 
13649824.781 +6.3593338812E-001 -3.4992628221E+000  +2.2510926373E-001 +1.9473936758E+000  +2.2228913973E-001 +4.2422752080E+000  +6.5753254300E-001 -3.1662042331E+000 
13774969.962 +6.6333563863E-001 -1.2890175842E+000  +2.2549436932E-001 +2.3086643678E+000  +2.2332815247E-001 +4.4836850412E+000  +6.9634997450E-001 -3.7462587895E+000 
13900115.144 +6.6566675372E-001 -2.7015238709E+000  +2.2576739792E-001 +1.8333415336E+000  +2.2368434375E-001 +3.2471876108E+000  +6.8101164083E-001 -3.8309068394E+000 
14025260.325 +6.9959298314E-001 -4.1345043373E+000  +2.2966075976E-001 +2.1792320947E+000  +2.2599054487E-001 +3.6614581056E+000  +7.1424499410E-001 -3.6166946581E+000 
14150405.507 +7.0146667769E-001 -3.6889380947E+000  +2.2976804232E-001 +1.6104106762E+000  +2.2721625851E-001 +2.6644739196E+000  +7.1423782531E-001 -5.5836878947E+000 
14275550.688 +7.1951835151E-001 -5.5986519202E+000  +2.3196327066E-001 +1.5076062321E+000  +2.2907863967E-001 +2.2166300795E+000  +7.2822491688E-001 -4.6245754914E+000 
14400695.870 +7.4139715148E-001 -6.2106301973E+000  +2.3052614797E-001 +1.6174476596E+000  +2.2948058778E-001 +2.5994376200E+000  +7.7538910447E-001 -3.6277024289E+000 
