!  2-Port S-parameters saved by WinCal
! VAR MeasName=S-Parameters (CALIBRATED_DATA) read from VNA (P5004A)
! VAR MeasDate=29/08/2024 11:00:23
! VAR NAME=S2_r9c2_SET2_9k-100M_3
! VAR FILENAME=S2_r9c2_SET2_9k-100M_3.S2P
! VAR DATE=29/08/2024 11:00:23
! VAR PHYS_PORTS=1,2
! VAR ObjTypeName=DATASET
! VAR IndexType=Frequency
!
# Hz S MA R 50
9000.000 +1.0168239442E-001 -1.6869128401E+002  +5.0891756350E-003 +1.4478740179E+002  +3.6803818246E-003 -5.2565902081E+001  +2.5284264411E-001 -1.4983205038E+002 
134145.181 +1.1056574312E-001 +1.6967078879E+002  +3.1607093133E-004 +1.6282572078E+002  +7.6311052428E-004 -8.9351023244E+001  +2.4149789980E-001 -1.7101866455E+002 
259290.363 +1.1156757599E-001 +1.6969808406E+002  +3.5546868213E-004 +1.2894276751E+002  +1.0790751912E-003 -5.4234829767E+001  +2.3719560401E-001 -1.6834236052E+002 
384435.544 +1.1490735510E-001 +1.6980752894E+002  +3.0037723642E-004 -1.7811024163E+002  +9.2883852495E-004 +7.8689501904E+001  +2.4577429852E-001 -1.6972576091E+002 
509580.726 +1.1234806723E-001 +1.7126031294E+002  +1.7977178280E-003 -7.5387224731E+000  +1.2898928346E-003 -1.5068569135E+002  +2.3885251592E-001 -1.6287774478E+002 
634725.907 +1.1840883657E-001 +1.7068487257E+002  +1.9514453226E-004 -6.5267283556E+001  +8.4385389878E-004 +2.5541566302E+001  +2.5422463510E-001 -1.6674046064E+002 
759871.089 +1.2047846058E-001 +1.7050479517E+002  +3.6000043097E-004 -7.3392870040E+001  +7.1274940956E-004 +7.0842966046E+000  +2.4752216558E-001 -1.6705506593E+002 
885016.270 +1.2128382682E-001 +1.6946585519E+002  +6.5894505650E-004 -1.3751725319E+002  +7.2019987308E-004 +1.2563779710E+002  +2.4565913638E-001 -1.6798267817E+002 
1010161.452 +1.1712509453E-001 +1.6835297387E+002  +2.0427539938E-003 +9.9124263611E+000  +5.5130704893E-004 -3.7683962846E+001  +2.0793994977E-001 -1.6649436031E+002 
1135306.633 +1.1799711846E-001 +1.6870972344E+002  +1.7374904432E-003 -8.6839249274E+001  +1.9126083668E-003 -1.7170241460E+002  +1.8657339339E-001 -1.6987609931E+002 
1260451.815 +1.1945800867E-001 +1.6971435652E+002  +2.3928958550E-003 -4.1307247685E+001  +2.0181903303E-003 -1.1587390081E+002  +2.2008974297E-001 -1.5462346478E+002 
1385596.996 +1.2621641495E-001 +1.7200151028E+002  +1.4366190383E-003 -9.8481234123E+001  +2.1740384685E-003 -1.5402076323E+002  +2.4945508006E-001 -1.5589524988E+002 
1510742.178 +1.2766445927E-001 +1.7109200720E+002  +1.4047233473E-004 -5.2119711466E+001  +7.3794886844E-004 +1.3976065225E+002  +2.5920979605E-001 -1.5531856508E+002 
1635887.359 +1.2913846951E-001 +1.7113853690E+002  +1.7061540319E-003 -7.5093878432E+001  +6.4592662444E-004 +8.5919512338E+001  +2.5692079299E-001 -1.5717534650E+002 
1761032.541 +1.3110065242E-001 +1.7067250697E+002  +7.9305011187E-004 +3.5381784149E+001  +1.2659253009E-003 -1.3022409679E+002  +2.2297190536E-001 -1.6013458525E+002 
1886177.722 +1.2890118988E-001 +1.6943953066E+002  +1.0000296992E-003 +3.8817533156E+001  +2.6910044112E-003 -5.3212458607E+001  +2.1713340873E-001 -1.5957228956E+002 
2011322.904 +1.2422500863E-001 +1.6847501602E+002  +3.5880814274E-003 +4.2911497222E+001  +1.7084676035E-003 -6.9483041919E+001  +2.1275736615E-001 -1.7078104526E+002 
2136468.085 +1.3150408391E-001 +1.6584710300E+002  +4.1703854711E-003 +8.4410303211E+001  +7.2918358833E-003 -3.0660547433E+001  +1.9519385122E-001 +1.7987816493E+002 
2261613.267 +1.3142752414E-001 +1.6977578529E+002  +4.1812491691E-003 +5.4452070167E+001  +8.5707565875E-003 -9.1520844208E+001  +1.7628327253E-001 -1.6132629078E+002 
2386758.448 +1.3345972752E-001 +1.6529087995E+002  +7.4183058366E-003 +1.0057746856E+002  +1.0538554193E-002 -4.3269058576E+001  +1.8713108679E-001 -1.7608236640E+002 
2511903.630 +1.3856084444E-001 +1.6421322588E+002  +5.7470596672E-003 +8.4964294961E+001  +7.1661715679E-003 -2.8812567752E+001  +2.3688030048E-001 -1.7565473503E+002 
2637048.811 +1.3038093897E-001 +1.6260370022E+002  +6.1841880527E-002 +6.0344063843E+001  +6.1241735250E-002 -4.8751616070E+001  +3.4621938954E-001 +2.6055654299E+001 
2762193.992 +1.3018049907E-001 +1.5955991055E+002  +5.9470382858E-002 +1.5630640832E+002  +6.6387006332E-002 +5.0692786291E+001  +7.9360410544E-001 +1.6478440332E+002 
2887339.174 +1.1713194213E-001 +1.7163671519E+002  +3.8419369143E-002 -2.1914971055E+001  +3.3741695967E-002 -1.2796985202E+002  +2.2307701957E-001 -8.6062033574E+001 
3012484.355 +1.2696285383E-001 +1.7129480116E+002  +3.0039358088E-002 -2.4777309627E+001  +3.2773382000E-002 -1.2840225178E+002  +1.6844450654E-001 -8.0583424245E+001 
3137629.537 +1.2743936326E-001 +1.6740778588E+002  +3.6580468433E-002 -8.4255825353E+000  +3.6373072440E-002 -1.2159967435E+002  +2.0270047723E-001 -7.4311933221E+001 
3262774.718 +1.3061400861E-001 +1.6796397209E+002  +2.3590657670E-002 -4.7561526465E+001  +3.2603315071E-002 -1.1397217918E+002  +3.4122778388E-001 -1.0023021627E+002 
3387919.900 +1.2987928511E-001 +1.6692660856E+002  +1.1573169909E-001 -6.3057089868E+001  +1.3307359006E-001 -1.2696365820E+002  +1.1436166523E+000 -6.2084552415E+001 
3513065.081 +1.5210840265E-001 +1.5439093427E+002  +6.0351709371E-002 +3.5950692585E+001  +6.8527216692E-002 -4.1970904069E+001  +3.0845060972E-001 +6.0770548672E+000 
3638210.263 +1.7985587608E-001 +1.5325643877E+002  +3.9160052809E-002 +1.1497513693E+002  +4.2823844153E-002 +2.3910538275E+001  +4.1821841104E-001 +1.1307916530E+002 
3763355.444 +1.7668891910E-001 +1.5395292921E+002  +3.5608291546E-002 +9.7420800158E+001  +3.9940655094E-002 +2.0168677746E+001  +3.8661929538E-001 +1.2609564294E+002 
3888500.626 +1.8473246893E-001 +1.4847314855E+002  +5.2602178783E-002 +7.4765377850E+001  +4.5807649844E-002 +2.0654057919E+001  +2.9099954299E-001 +1.1062305182E+002 
4013645.807 +1.7105797106E-001 +1.5497216898E+002  +3.7558749480E-002 +7.9371198677E+001  +3.4396567050E-002 +1.1455961038E+001  +3.2161040996E-001 +1.4208420222E+002 
4138790.989 +1.8156070109E-001 +1.5277862272E+002  +4.5181229215E-002 +7.2403517711E+001  +4.9288604288E-002 +7.0162033773E+000  +3.6784169562E-001 +1.2280455452E+002 
4263936.170 +1.7627584104E-001 +1.4507818047E+002  +5.7514337951E-002 +8.7856627366E+001  +4.8347223968E-002 +2.2836992552E+001  +4.0138323690E-001 +1.2350543966E+002 
4389081.352 +2.2116588023E-001 +1.5260432453E+002  +4.0220868662E-002 +8.0238530755E+001  +3.7417247586E-002 +3.1800798094E+001  +3.5105411546E-001 +1.2655709441E+002 
4514226.533 +2.5437342067E-001 +1.3594007565E+002  +1.1238506000E-001 +1.1475298349E+002  +9.1464128117E-002 +4.4248158176E+001  +7.7037422962E-001 +1.0762787321E+002 
4639371.715 +2.8876517578E-001 +1.2591300341E+002  +3.9598379405E-001 +1.0329811924E+002  +4.1737242821E-001 +4.3603902713E+001  +3.2793481878E+000 +7.2424119714E+001 
4764516.896 +3.3251614762E-001 +1.3935537762E+002  +1.3424553137E-001 +1.3453060370E+002  +1.0749570730E-001 +8.5273110781E+001  +1.2039521448E+000 +1.0859648792E+002 
4889662.078 +4.5127412026E-001 +1.2902748697E+002  +3.7528008944E-001 -3.0836799018E+000  +4.0345101443E-001 -5.1595000702E+001  +3.0361742911E+000 -8.7434892966E+001 
5014807.259 +3.7419825946E-001 +1.2754366829E+002  +1.6629381768E-001 +1.0674270379E+002  +1.6357383080E-001 +7.8915089735E+001  +1.0611098834E+000 +9.7794411469E+001 
5139952.441 +3.7399710305E-001 +1.3105402324E+002  +1.7363124999E-001 +1.5887336214E+002  +1.6111489581E-001 +1.0956023221E+002  +1.7629940258E+000 +1.4734185145E+002 
5265097.622 +3.4630127771E-001 +1.3405016671E+002  +1.3991642083E-001 +1.3002065684E+002  +1.2830391794E-001 +8.7554123820E+001  +1.3657636549E+000 +1.2933501072E+002 
5390242.804 +3.6956149931E-001 +1.3214480963E+002  +1.4213017432E-001 +1.2735091973E+002  +1.4076902203E-001 +8.6123353875E+001  +1.5447059554E+000 +1.2176100541E+002 
5515387.985 +4.1808592549E-001 +1.2693318073E+002  +1.8563864526E-001 +9.7415515324E+001  +1.5148431470E-001 +7.0994870129E+001  +1.2627450681E+000 +9.7612401099E+001 
5640533.166 +4.2064844107E-001 +1.2470138562E+002  +2.3400385703E-001 +7.1004793984E+001  +2.3489151582E-001 +4.0890850927E+001  +1.9897751804E+000 +5.4288279680E+001 
5765678.348 +4.3429617076E-001 +1.2818339511E+002  +1.6638937972E-001 +6.9420659094E+001  +1.5722273795E-001 +4.2122903588E+001  +1.3527594764E+000 +6.2298432566E+001 
5890823.529 +3.9558373821E-001 +1.2321229927E+002  +1.6426805640E-001 +5.8529934049E+001  +1.6343066598E-001 +2.9916930578E+001  +1.1971152695E+000 +6.0071609968E+001 
6015968.711 +6.1363438573E-001 +1.2306375713E+002  +1.7890734147E-001 +6.9816768488E+001  +1.8517857990E-001 +4.7227475244E+001  +1.5077813007E+000 +4.6578472990E+001 
6141113.892 +6.7574056662E-001 +1.1148564408E+002  +2.1289784691E-001 +6.4103991889E+001  +2.0610327184E-001 +4.0497409969E+001  +1.0855442428E+000 +4.5402193453E+001 
6266259.074 +7.6790734342E-001 +1.1575783293E+002  +1.7687541492E-001 +6.6333660927E+001  +1.7879918941E-001 +5.0924113481E+001  +9.8957455267E-001 +4.5322674722E+001 
6391404.255 +8.0993994366E-001 +1.0046767551E+002  +1.8886279617E-001 +4.1739384450E+001  +2.0232741689E-001 +2.7928610507E+001  +1.0742378658E+000 +1.6407765583E+001 
6516549.437 +1.0019194954E+000 +8.3904238258E+001  +2.5962338735E-001 +3.2478590322E+001  +2.7639705855E-001 +2.6324489393E+001  +1.2830226713E+000 +1.8963387371E+001 
6641694.618 +1.2671695314E+000 +6.1646144298E+001  +3.2271804008E-001 +2.1354276519E+001  +3.4916166444E-001 +1.5602524979E+001  +1.5082243889E+000 +1.0822795298E+001 
6766839.800 +1.0703034665E+000 +5.8059130466E+001  +2.5343418687E-001 +1.4182158813E+001  +2.5042981988E-001 +7.7202740067E+000  +1.1094706821E+000 -1.4775828888E+000 
6891984.981 +1.0227519166E+000 +4.4317961193E+001  +2.3473099833E-001 +1.1623729032E+001  +2.2937325016E-001 +3.4326401764E-001  +1.0283752498E+000 +3.6374915614E-001 
7017130.163 +1.5755683560E+000 +3.3805895300E+001  +2.5250757573E-001 +1.4525588720E+001  +2.5684330311E-001 +3.6483837744E+000  +1.2469590744E+000 -8.0166307507E-001 
7142275.344 +1.1427736226E+000 +1.3446032897E+001  +1.9155348084E-001 +4.2249710517E-001  +1.9486493994E-001 -5.9464739403E+000  +1.1447109313E+000 -1.1056137412E+001 
7267420.526 +1.2637645561E+000 +2.3522082785E+000  +1.7040550241E-001 -5.7135612962E-002  +1.9035696224E-001 +4.2199745820E-001  +1.1787879633E+000 -1.1092886003E+001 
7392565.707 +1.1421831685E+000 -5.9823167889E+000  +1.5720823701E-001 +2.9107499646E+000  +1.5636872378E-001 +1.0366131437E+000  +1.0932700870E+000 -5.4720746372E+000 
7517710.889 +1.0610028174E+000 -3.3827623708E+000  +1.4822653860E-001 +4.0393963544E+000  +1.5723128399E-001 +2.8093968448E+000  +1.0910604592E+000 -1.3607084046E+001 
7642856.070 +9.3305098319E-001 -4.0832209191E+000  +1.3472952271E-001 -7.6987867785E-001  +1.3201417704E-001 +5.4666941326E+000  +9.9965176670E-001 -8.3945470542E+000 
7768001.252 +7.4970919410E-001 +4.0752158794E+000  +1.2292742850E-001 +5.2520299162E-001  +1.2908141028E-001 +3.4248139273E+000  +8.6934992339E-001 -3.2910747195E+000 
7893146.433 +6.4928386503E-001 +1.0760083477E+001  +1.1641558649E-001 -1.5265506779E+000  +1.2447606969E-001 +8.1323211086E+000  +7.2589790086E-001 +8.4174852411E+000 
8018291.615 +7.1633177740E-001 +5.0222486457E+000  +1.1469709748E-001 -2.5180063105E+000  +1.1389675364E-001 +6.6351317495E+000  +6.9267653668E-001 +1.5920252588E+000 
8143436.796 +5.9759179846E-001 +7.6630565970E+000  +1.1157683034E-001 -1.6208167908E+000  +1.1256367098E-001 +1.0529523226E+001  +6.5304581856E-001 -2.4288278391E+000 
8268581.977 +6.1878557885E-001 +1.5610658664E+001  +1.1374057092E-001 -2.2994056383E+000  +1.1311748393E-001 +9.6209392100E+000  +6.7242159003E-001 +2.3908362775E+000 
8393727.159 +5.7354896248E-001 +2.9832806520E+000  +1.1169123148E-001 -7.9672753407E-001  +1.1034860573E-001 +7.9419196439E+000  +6.0713979948E-001 +4.9425748130E+000 
8518872.340 +5.6037187141E-001 +1.0400352433E+001  +1.0407443688E-001 -1.7380539659E+000  +1.0792360138E-001 +7.7479382250E+000  +6.2769579511E-001 +7.1013937904E+000 
8644017.522 +5.4532341434E-001 +6.5175995377E+000  +1.1246935787E-001 -3.9792748686E+000  +1.0461169068E-001 +1.0021174594E+001  +6.2140963746E-001 +7.5399153485E-001 
8769162.703 +5.1635885844E-001 +1.2771350713E+001  +1.0488010229E-001 -5.1763092084E+000  +1.0179854432E-001 +7.2463973037E+000  +5.5479231958E-001 +4.3459896609E+000 
8894307.885 +5.6836215086E-001 +1.4414325918E+001  +1.0943917495E-001 -3.5694723343E+000  +1.0913848138E-001 +1.0409327514E+001  +5.3475623801E-001 -5.6464357935E+000 
9019453.066 +4.8717864055E-001 +1.6136654084E+001  +1.0589461997E-001 -4.7510226285E+000  +1.0085737479E-001 +1.0517635394E+001  +4.9327428851E-001 +4.1346455725E+000 
9144598.248 +4.5634817177E-001 +9.5030129492E+000  +1.0550061559E-001 -7.1723337301E+000  +1.0376874101E-001 +9.1986269404E+000  +4.7015550492E-001 -6.2317884528E+000 
9269743.429 +4.5407473043E-001 +6.6153160660E+000  +1.0452205338E-001 -4.1603367009E+000  +9.9467595543E-002 +8.9841057261E+000  +4.5138103193E-001 +1.6930817059E+000 
9394888.611 +4.8659796238E-001 +6.0815427118E+000  +1.0612935251E-001 -4.2014715138E+000  +1.0460108834E-001 +1.0770109293E+001  +4.9219060266E-001 -2.1261022202E+000 
9520033.792 +4.5767486583E-001 +1.0121447839E+001  +1.0427775874E-001 -5.1131498916E+000  +1.0680529281E-001 +1.2050282340E+001  +4.6265324649E-001 -9.1720353000E+000 
9645178.974 +4.3346270545E-001 +3.1534684773E+000  +1.0473603867E-001 -4.8683761632E+000  +1.0393819134E-001 +1.2283209201E+001  +4.8998524802E-001 +3.2221491317E+000 
9770324.155 +4.2728190809E-001 +3.4052376271E+000  +1.0773399961E-001 -4.2536261412E+000  +1.0560590130E-001 +1.2106374423E+001  +4.7893603312E-001 -6.9084513281E+000 
9895469.337 +4.0841656695E-001 -2.1034089498E-002  +1.0605450515E-001 -5.7309503086E+000  +1.0557317310E-001 +1.1503015148E+001  +4.5920337790E-001 -3.7394183833E+000 
10020614.518 +3.9941645279E-001 -2.7885847051E+000  +1.0530905571E-001 -3.4693079479E+000  +1.0790088639E-001 +1.2479613119E+001  +4.9408297000E-001 -1.0544415167E+000 
10145759.700 +4.2294952923E-001 +8.8790905399E+000  +1.0417434167E-001 -2.1247945643E+000  +1.0537707268E-001 +1.3744061858E+001  +4.7854519119E-001 -9.2113430641E-001 
10270904.881 +4.7119479076E-001 +1.0823550843E+001  +1.0478544155E-001 -2.7972742197E+000  +1.0376409823E-001 +1.1588155827E+001  +4.4202718276E-001 -2.6426185238E+000 
10396050.063 +4.4223219534E-001 +9.1511622716E+000  +1.0659478421E-001 -3.3969011334E+000  +1.0741835349E-001 +1.1750557213E+001  +4.7351080228E-001 +2.2637977258E-001 
10521195.244 +4.5713093054E-001 +7.1177506582E+000  +1.0520476522E-001 -2.7331506680E+000  +1.0641127448E-001 +1.2834550654E+001  +4.4826723557E-001 +5.7172925155E+000 
10646340.426 +4.5900687368E-001 +4.5997743183E+000  +1.1052171396E-001 -2.2847447825E+000  +1.0839857415E-001 +1.1980428460E+001  +4.8559235133E-001 +3.1934225945E+000 
10771485.607 +4.7910811086E-001 +1.3634755773E+001  +1.0967062637E-001 -1.1413226805E+000  +1.0906405249E-001 +1.3830265251E+001  +4.6985445517E-001 +7.2074359155E-001 
10896630.788 +4.8091016190E-001 +9.8986260516E+000  +1.0919163690E-001 -1.5819025993E+000  +1.0899303169E-001 +1.3144781243E+001  +4.7098943013E-001 +4.0479227058E+000 
11021775.970 +4.8298393146E-001 +9.8125629823E+000  +1.1215196181E-001 +3.0516403893E-001  +1.1015935319E-001 +1.3081453062E+001  +5.1488935320E-001 +3.9219524868E+000 
11146921.151 +4.7597449954E-001 +9.5501784463E+000  +1.1340201111E-001 -1.2510320029E-001  +1.1007267027E-001 +1.2135616034E+001  +4.8289092028E-001 +2.9114486314E+000 
11272066.333 +4.9659873315E-001 +9.0687393793E+000  +1.1081728485E-001 -9.8394990967E-001  +1.0981690782E-001 +1.2216475144E+001  +4.9576139684E-001 +3.0626180013E+000 
11397211.514 +4.8719268906E-001 +8.7397656413E+000  +1.1499173105E-001 +1.0079156617E-001  +1.1063344109E-001 +1.1695875243E+001  +5.3375220133E-001 +4.6717407627E+000 
11522356.696 +5.2087294251E-001 +5.9569941437E+000  +1.1512589277E-001 -8.6595110875E-001  +1.1448256826E-001 +1.1705559748E+001  +5.4276835043E-001 +1.8510613542E+000 
11647501.877 +5.0460093316E-001 +8.4790197494E+000  +1.1569510656E-001 +2.8069384787E-001  +1.1503985925E-001 +1.1784090138E+001  +5.3617312134E-001 +5.5009839776E+000 
11772647.059 +5.3143385955E-001 +8.9425594299E+000  +1.1707636303E-001 +7.1087725084E-001  +1.1405175656E-001 +1.1826264357E+001  +5.2872756444E-001 +4.7141863672E+000 
11897792.240 +5.5064106422E-001 +6.8151661426E+000  +1.1885488482E-001 +9.3137208977E-001  +1.1869896310E-001 +1.1691151386E+001  +5.3842073011E-001 +3.1911245575E+000 
12022937.422 +5.6470899610E-001 +8.6159198340E+000  +1.1964439038E-001 +8.5459641945E-001  +1.1745677394E-001 +1.1661197286E+001  +5.9030407768E-001 +3.1800261968E+000 
12148082.603 +5.6000605328E-001 +4.8576461893E+000  +1.2250777993E-001 +6.2039086501E-001  +1.1950145907E-001 +9.6344845335E+000  +5.7134021259E-001 +1.4759325553E+000 
12273227.785 +5.8070669345E-001 +5.4087067748E+000  +1.2131230897E-001 +2.4573133112E+000  +1.2209565880E-001 +9.7828596391E+000  +5.9608018288E-001 +2.4305598421E+000 
12398372.966 +5.7725315650E-001 +3.6010690777E+000  +1.2384068046E-001 +2.4867415743E+000  +1.2349966889E-001 +9.6783508111E+000  +6.1175567262E-001 +4.9888182091E-001 
12523518.148 +5.9186627908E-001 +2.5306827696E+000  +1.2622502953E-001 +1.7648811721E+000  +1.2479813375E-001 +9.0765188421E+000  +6.0586681335E-001 +1.5670185129E+000 
12648663.329 +5.9861636848E-001 +3.5530222459E+000  +1.2596582979E-001 +1.9256224240E+000  +1.2649152333E-001 +8.7691363411E+000  +6.2556562983E-001 -3.5871752549E-001 
12773808.511 +6.3040734647E-001 +2.5709948022E+000  +1.2777136420E-001 +2.0030026439E+000  +1.2680311070E-001 +9.5521362994E+000  +6.5870746998E-001 +1.5052409346E+000 
12898953.692 +6.3320738452E-001 +2.0603700560E+000  +1.2988373393E-001 +1.9692643936E+000  +1.2905828402E-001 +7.6830823557E+000  +6.7458195397E-001 +2.5958109179E-001 
13024098.874 +6.8847223970E-001 +5.8568781445E-001  +1.3145639209E-001 +2.4719478714E+000  +1.2959163705E-001 +8.0018174234E+000  +6.9403522163E-001 -7.0113921713E-001 
13149244.055 +6.8804888218E-001 +8.4579102392E-001  +1.3237615425E-001 +2.3055619391E+000  +1.2885210105E-001 +6.8626155972E+000  +6.7769138555E-001 -8.0305363691E-001 
13274389.237 +6.9979956846E-001 -9.5138092744E-001  +1.3352437314E-001 +2.6342541564E+000  +1.3248213818E-001 +6.4527451428E+000  +6.9578013718E-001 -3.3902794014E+000 
13399534.418 +7.0306990117E-001 -7.7842173120E-001  +1.3323395159E-001 +2.4543526078E+000  +1.3265748503E-001 +5.5794563830E+000  +7.0278427113E-001 -2.6339240009E+000 
13524679.599 +7.5829679260E-001 +3.7126228475E-001  +1.3568040231E-001 +3.0868849644E+000  +1.3273810341E-001 +5.7840776134E+000  +7.1170577892E-001 -1.7053481889E+000 
13649824.781 +7.3826462051E-001 -3.9342911504E-001  +1.3620542639E-001 +2.7846658017E+000  +1.3585864997E-001 +4.9798069917E+000  +7.6418648649E-001 -2.6023144582E+000 
13774969.962 +7.4483958022E-001 -7.9685116463E-001  +1.3695977724E-001 +3.2304307063E+000  +1.3521236655E-001 +4.1311555241E+000  +7.6773069734E-001 -1.7578786226E+000 
13900115.144 +7.5483302312E-001 -2.7044195156E+000  +1.3913365418E-001 +1.7927925217E+000  +1.3788042208E-001 +3.8037805626E+000  +7.6097532623E-001 -3.2741177017E+000 
14025260.325 +7.7520867958E-001 -3.8481342671E+000  +1.4025799303E-001 +2.2005929575E+000  +1.3850609722E-001 +3.2160560319E+000  +8.0180088775E-001 -4.6267001389E+000 
14150405.507 +8.1532536238E-001 -4.4004715644E+000  +1.3892817977E-001 +1.8428896784E+000  +1.3803274269E-001 +3.7871055134E+000  +8.0776205108E-001 -3.6602728103E+000 
14275550.688 +8.1580919741E-001 -3.2918853560E+000  +1.3907349533E-001 +1.7949074338E+000  +1.3634793784E-001 +2.8078323822E+000  +8.5219970382E-001 -3.2840587866E+000 
14400695.870 +8.4640912909E-001 -5.4078811600E+000  +1.4065165287E-001 +1.5177833035E+000  +1.3885044939E-001 +2.8585977587E+000  +8.4683684681E-001 -3.8315063506E+000 
