!  2-Port S-parameters saved by WinCal
! VAR NAME=S2_r9c9_formed(1)_9k-100M_1
! VAR DATE=30/08/2024 12:18:36
! VAR FILENAME=S2_r9c9_formed(1)_9k-100M_1.S2P
! VAR MeasName=S-Parameters (CALIBRATED_DATA) read from VNA (P5004A)
! VAR MeasDate=28/08/2024 17:07:06
! VAR PHYS_PORTS=1,2
! VAR ObjTypeName=DATASET
! VAR IndexType=Frequency
!
# Hz S MA R 50
9000.000 +8.9117729818E-002 -1.7353227974E+002  +6.1045565212E-003 -5.4164490249E+001  +1.5734025916E-002 +1.2611157203E+002  +2.5317810304E-001 -1.3466968682E+002 
134145.181 +1.1143985675E-001 +1.6985959764E+002  +1.1849397552E-004 -1.1766105998E+002  +1.4146937666E-004 -7.2344589060E+001  +2.4333048268E-001 -1.7114640121E+002 
259290.363 +1.1239755927E-001 +1.6943579803E+002  +3.7752402250E-004 +1.0916404886E+002  +5.4238595498E-004 +8.0840318253E+001  +2.4355234002E-001 -1.6982811551E+002 
384435.544 +1.1521269612E-001 +1.7051697491E+002  +4.6679017109E-004 -2.6748627678E+001  +3.7038324482E-004 +2.6958347537E+001  +2.4099454085E-001 -1.7019008286E+002 
509580.726 +1.1363941231E-001 +1.7066261383E+002  +4.1830800179E-004 -6.2090159386E+001  +4.8869521414E-004 -6.2916501231E+001  +2.3599966775E-001 -1.6509036469E+002 
634725.907 +1.1686300641E-001 +1.7176196552E+002  +6.7328456577E-004 -1.4671921107E+002  +9.1253879353E-004 +9.1286707882E+001  +2.4459802061E-001 -1.6583570183E+002 
759871.089 +1.2055818654E-001 +1.7092604974E+002  +3.8687593307E-004 -9.5261383883E+001  +9.4629009976E-004 +8.1940689180E+001  +2.5813101991E-001 -1.6467824340E+002 
885016.270 +1.2018458684E-001 +1.6925357551E+002  +1.9400514957E-004 -1.4130828059E+002  +2.2568409601E-004 +1.2621135876E+002  +2.3912590230E-001 -1.6690937884E+002 
1010161.452 +1.1847579563E-001 +1.7045806937E+002  +1.1158712464E-003 +5.1739720621E+001  +7.7312552240E-004 +1.7289209462E+002  +2.0209463796E-001 -1.7034097717E+002 
1135306.633 +1.1958971237E-001 +1.6896100073E+002  +8.3894400730E-004 +3.8354225668E+001  +8.2606913738E-004 -1.7264171794E+002  +1.9954319704E-001 -1.6711993810E+002 
1260451.815 +1.2068444662E-001 +1.7004462064E+002  +8.9013673602E-004 -1.2986688461E+002  +1.2805241026E-003 -1.5485924978E+002  +2.4871296178E-001 -1.5611238681E+002 
1385596.996 +1.2823899957E-001 +1.7295138594E+002  +9.7040510340E-004 +7.3766507747E+001  +4.8965892911E-004 +3.4065377676E+001  +2.5533233732E-001 -1.5809886367E+002 
1510742.178 +1.2917246748E-001 +1.7190692408E+002  +7.5134819145E-004 -1.7657500184E+002  +4.9381204198E-004 -5.9453102421E+001  +2.6745010091E-001 -1.5985248004E+002 
1635887.359 +1.2869325493E-001 +1.7100767871E+002  +1.3748589285E-003 -5.2650834149E+001  +5.0374557359E-004 -1.4998609352E+002  +2.5659593463E-001 -1.5454381262E+002 
1761032.541 +1.2709593081E-001 +1.6978348490E+002  +1.6884774236E-003 +6.0435939012E+000  +1.8144438818E-003 -1.7928009824E+002  +2.2983714785E-001 -1.5789935403E+002 
1886177.722 +1.2831920406E-001 +1.6862297773E+002  +1.3313180169E-003 +2.8683336625E+001  +1.0576205947E-003 -2.1930008674E+001  +2.2323866360E-001 -1.5761559004E+002 
2011322.904 +1.3132036720E-001 +1.6825036947E+002  +7.1281901413E-004 -4.4341261073E+001  +1.0543561661E-003 -5.4064401121E+001  +2.1132176316E-001 -1.6032861331E+002 
2136468.085 +1.2611974381E-001 +1.6387882001E+002  +5.0715118386E-003 +4.8414458410E+001  +1.7939564959E-003 +1.5015923238E+001  +2.1433972422E-001 -1.7399916847E+002 
2261613.267 +1.3257610984E-001 +1.6517627681E+002  +2.5524916793E-003 +8.3990280668E+001  +2.2048800581E-003 -2.1926813526E+000  +1.9796757271E-001 -1.7024303274E+002 
2386758.448 +1.2272596007E-001 +1.6400571504E+002  +9.1073049139E-003 -1.4890110350E+002  +8.1708292760E-003 -6.7208590610E+001  +1.9431864464E-001 +1.1442781317E+002 
2511903.630 +1.1954685478E-001 +1.5363061153E+002  +5.8837499738E-003 +9.3798346888E+001  +4.3484953388E-003 -5.1668560509E+001  +2.1959062569E-001 -1.6778144500E+002 
2637048.811 +1.2012664381E-001 +1.6423783864E+002  +8.9895027116E-003 +6.6347534965E+001  +1.1035348732E-002 -4.6039124624E+001  +1.5583616187E-001 +1.7014006205E+002 
2762193.992 +1.2031749195E-001 +1.7130250611E+002  +3.0798850685E-002 -4.3587732559E+001  +3.7218183671E-002 +1.6972882082E+002  +7.0754990631E-001 -6.7560946426E+001 
2887339.174 +9.0097748661E-002 +1.7148395263E+002  +5.7825556471E-002 -8.2772556022E+001  +4.6210763972E-002 -1.5511200448E+002  +6.5585607623E-001 -8.1516369425E+001 
3012484.355 +1.3344713654E-001 +1.7348534580E+002  +8.9901808426E-003 -6.2998069838E+001  +1.3459673400E-002 -8.4448489167E+001  +2.8958133928E-001 -8.2302399871E+001 
3137629.537 +1.2603118564E-001 +1.7103036282E+002  +1.4201446012E-002 -1.7781832446E+001  +6.5227313365E-003 -1.4156024363E+002  +3.8289053766E-002 -7.9162297918E+001 
3262774.718 +1.4095965331E-001 +1.6320547196E+002  +8.5521552649E-003 +1.8398024883E+001  +4.2251432072E-003 -1.1121174828E+002  +5.0969552501E-002 -1.3644879068E+002 
3387919.900 +1.1264440005E-001 +1.5559562600E+002  +7.3844805626E-003 -2.4508845895E+001  +1.4493350050E-002 -6.5857463807E+001  +1.4334843361E-001 +1.7746589528E+002 
3513065.081 +8.5039783419E-002 +1.3076112231E+002  +3.1871007138E-002 +9.1122342127E+001  +2.7786546925E-002 -4.6551191278E+001  +3.2187052973E-001 +1.4593005538E+002 
3638210.263 +1.4974844425E-001 +1.5280462067E+002  +2.2656593935E-002 +1.0359012500E+002  +1.2674587455E-002 +3.7177520246E+001  +4.9334002080E-001 +1.4331195606E+002 
3763355.444 +1.5440014744E-001 +1.4896592304E+002  +9.5073799948E-002 -9.7789187619E+001  +6.5094230595E-002 +1.6304777124E+002  +2.3206379685E+000 -1.2061431936E+002 
3888500.626 +1.3643861789E-001 +1.5597470366E+002  +1.6286828281E-002 +7.0906553249E+001  +1.5392378153E-002 -5.1802495777E+001  +1.3168656983E-001 +1.4911044268E+002 
4013645.807 +1.9594941752E-001 +1.4122056154E+002  +1.4944879435E-002 +1.3923756065E+002  +9.2777689386E-003 -9.2254319919E+000  +4.2701338902E-001 +1.5133225531E+002 
4138790.989 +1.8169627964E-001 +1.4933616900E+002  +9.5172142620E-003 +8.8234326500E+001  +8.5040864998E-003 +3.2121785629E+001  +3.2547337099E-001 +1.5493242343E+002 
4263936.170 +2.1308221367E-001 +1.3655111481E+002  +2.8757864700E-002 +8.6453278571E+001  +3.5805866848E-002 +1.9569406226E+001  +5.4166580243E-001 +9.0432716038E+001 
4389081.352 +2.2392583871E-001 +1.4313505969E+002  +2.6417678738E-002 +1.2603197141E+002  +2.4861143481E-002 +3.0702014037E+001  +6.7920572367E-001 +1.2338278423E+002 
4514226.533 +2.4588217891E-001 +1.2771075061E+002  +2.4444798291E-002 +8.0468534565E+001  +2.3706876052E-002 +2.8713711605E+001  +2.8066593127E-001 +1.1422159364E+002 
4639371.715 +2.7575065221E-001 +1.3267554861E+002  +9.0314295747E-002 +6.5386540352E+001  +8.9560061765E-002 -1.9693266667E+001  +1.9569457269E+000 +2.7785373833E+001 
4764516.896 +3.1368805903E-001 +1.2188915466E+002  +3.4872574932E-001 -5.1967738358E+001  +3.7698170484E-001 -7.1386097440E+001  +7.5621094993E+000 -7.7909417761E+001 
4889662.078 +4.4121551446E-001 +1.3234814368E+002  +8.5456242838E-002 +1.6259154780E+002  +1.1999693993E-001 +1.3616903770E+002  +2.2314768141E+000 +1.4891417682E+002 
5014807.259 +4.0026715551E-001 +1.2130224879E+002  +3.3622404660E-001 +2.1176198404E+001  +3.5993980372E-001 +1.1187539743E+001  +6.7850374806E+000 -7.0855245832E+000 
5139952.441 +3.5434531793E-001 +1.2119845367E+002  +9.5073080674E-002 +1.2233033514E+002  +1.0932367523E-001 +7.0454081459E+001  +2.3527558342E+000 +1.0972400314E+002 
5265097.622 +3.3529101915E-001 +1.2704659841E+002  +1.0457617690E-001 +1.0163617221E+002  +8.8050149251E-002 +4.3171108651E+001  +2.3777827976E+000 +8.6937740560E+001 
5390242.804 +3.7529977541E-001 +1.2758870380E+002  +6.0581472686E-002 +9.2865614417E+001  +8.9084461564E-002 +6.8987244774E+001  +2.1621750243E+000 +9.5463646044E+001 
5515387.985 +4.5111170991E-001 +1.2678608576E+002  +8.5151878830E-002 +1.0770146594E+002  +8.1787911035E-002 +8.4844879564E+001  +2.0741214730E+000 +1.1151774583E+002 
5640533.166 +4.6955450360E-001 +1.1760437823E+002  +8.0869506175E-002 +9.9395538631E+001  +5.9139046813E-002 +9.3573883112E+001  +1.7054590864E+000 +1.0413261017E+002 
5765678.348 +4.7945152749E-001 +1.2185559833E+002  +6.3500091993E-002 +7.6346178130E+001  +9.3344529299E-002 +7.9993083325E+001  +2.2005608168E+000 +7.6420287450E+001 
5890823.529 +6.1629337413E-001 +1.2013638693E+002  +7.3465291059E-002 +9.1300894073E+001  +6.3674163433E-002 +5.8210659962E+001  +1.3590222442E+000 +7.0698622615E+001 
6015968.711 +6.2783668883E-001 +1.0699632271E+002  +9.4256575245E-002 +5.7321714129E+001  +1.1974850576E-001 +4.1315795788E+001  +1.5913168391E+000 +3.9349498832E+001 
6141113.892 +7.9771009869E-001 +1.1843527130E+002  +7.0962997005E-002 +8.0266957624E+001  +8.7258186036E-002 +4.5413901654E+001  +1.7004556900E+000 +5.0524570326E+001 
6266259.074 +7.9080765767E-001 +1.0731479897E+002  +9.6086165825E-002 +3.2931000771E+001  +8.4859045207E-002 +2.9123614796E+001  +1.5632565288E+000 +8.9078861934E+000 
6391404.255 +8.0321763051E-001 +1.0134864393E+002  +7.5107930195E-002 +2.9867082551E+001  +9.1920103199E-002 +1.6505277785E+001  +1.2846604468E+000 +2.8411681415E+001 
6516549.437 +9.5754600423E-001 +8.2961347727E+001  +9.1108083140E-002 +5.0555572129E+001  +9.2537455429E-002 +2.0980293867E+001  +1.2729457740E+000 +2.8554162502E+001 
6641694.618 +1.3305268074E+000 +7.7064137890E+001  +7.7621916908E-002 +5.3514143195E+001  +1.0526846461E-001 +2.9144855725E+001  +1.3617645211E+000 +1.2695351780E+001 
6766839.800 +1.2842414848E+000 +4.7394737896E+001  +1.0037635551E-001 +1.0985224812E+001  +8.7449408512E-002 -1.6878032943E-001  +1.2327954705E+000 +1.1194939272E+000 
6891984.981 +1.6327273723E+000 +3.7397415940E+001  +1.1468343805E-001 +1.6715046812E+001  +8.9750590510E-002 +7.6798061455E+000  +1.4537571897E+000 +8.7134470545E-001 
7017130.163 +1.7862626633E+000 +1.4369656190E+000  +9.5262944761E-002 -1.4147623647E+001  +1.1001096703E-001 -1.8797987349E+001  +1.3469809523E+000 -4.4658913570E+000 
7142275.344 +1.4318712189E+000 +1.0018437360E-001  +7.1337137404E-002 -1.0619320394E+001  +6.0127717269E-002 -1.9327524195E+001  +1.1671465370E+000 -1.8489657925E+001 
7267420.526 +1.3991908471E+000 -2.7624601710E+000  +5.3351704785E-002 -1.2167664067E+001  +7.2258004979E-002 +2.2285623249E+000  +1.3965839416E+000 -7.1916772582E+000 
7392565.707 +1.1612177037E+000 -1.1954291788E+000  +4.4090919529E-002 -3.5525271840E+000  +5.1185899450E-002 +7.2063648176E+000  +1.0900000829E+000 -5.5226509393E+000 
7517710.889 +1.0742337681E+000 +2.5498214043E+000  +4.4920407676E-002 +6.1837924053E+000  +4.4273207855E-002 -1.8264288208E+000  +1.1276016294E+000 -4.3427825794E+000 
7642856.070 +9.9270417162E-001 -2.5321780504E+000  +4.0022757393E-002 +1.3771292264E+000  +4.0502303500E-002 +6.5641089217E+000  +1.0321276670E+000 -8.8154456058E+000 
7768001.252 +8.9176506640E-001 -3.4446254952E+000  +4.1160054788E-002 +3.4351660144E+000  +4.0762796437E-002 +7.4826089395E+000  +9.4864548288E-001 -1.6448718944E+000 
7893146.433 +8.3116714822E-001 +6.0775043489E+000  +4.0418120092E-002 -1.0994599332E+000  +3.6155592939E-002 +2.2713314400E+000  +8.7152384884E-001 +6.1775197410E-001 
8018291.615 +7.0540563295E-001 +6.3017262692E+000  +4.0868908848E-002 +4.3015979878E-001  +4.2615395588E-002 +1.8724425742E+000  +7.3974779860E-001 +3.0661250190E+000 
8143436.796 +7.5468586163E-001 +7.1434471123E+000  +3.8829594991E-002 +3.9089380605E+000  +3.5523405445E-002 +1.0925374597E+001  +7.8652924703E-001 -2.9973209241E+000 
8268581.977 +7.1912123403E-001 +5.5270902003E+000  +3.5787163421E-002 +1.0251134549E+000  +3.4428766044E-002 +7.5459735529E-001  +7.1929816094E-001 -2.2597457233E+000 
8393727.159 +6.4083047056E-001 +5.6994054536E+000  +3.5249950708E-002 -1.4900402426E+000  +3.4229667912E-002 +7.5798832126E+000  +6.9224137820E-001 +2.0079374898E+000 
8518872.340 +6.7943036810E-001 +6.4329621304E+000  +3.8589264450E-002 -3.2636842177E+000  +3.6809816802E-002 -3.0611247700E+000  +6.3536202003E-001 +3.3495160799E+000 
8644017.522 +6.1649512605E-001 +7.8379556535E+000  +3.4928889013E-002 -1.2282355268E+000  +3.6310172659E-002 +9.4688697593E+000  +6.5641542734E-001 -1.7895758516E+000 
8769162.703 +5.4915652946E-001 +8.3310234400E+000  +3.0318310027E-002 +8.5014582747E-001  +3.5235446292E-002 +9.3320930833E+000  +6.4954925395E-001 -1.4858316490E+000 
8894307.885 +6.0067163404E-001 +1.3847699735E+001  +3.6949656397E-002 -2.3883245720E+000  +3.1741667074E-002 +6.1270131926E+000  +5.7997868149E-001 +1.0985927371E+000 
9019453.066 +5.0959731559E-001 +3.5965303149E+000  +3.6770477754E-002 -4.8758297225E+000  +3.2967045250E-002 +1.1847090323E+001  +6.3047774067E-001 -5.8851440923E+000 
9144598.248 +4.7207959856E-001 +2.3161410783E+000  +3.3476769067E-002 -4.7136088791E+000  +3.5757192804E-002 +1.1724804438E+001  +6.1489888560E-001 -2.3655723678E+000 
9269743.429 +5.3760943571E-001 +1.3142101123E+001  +3.1753845198E-002 -6.4846210893E-001  +3.7239433807E-002 +1.3410596354E+001  +5.9174723221E-001 -4.9730823175E+000 
9394888.611 +5.3085872565E-001 +6.0953584583E+000  +3.4375428480E-002 -6.1233121635E+000  +3.3944031367E-002 +1.4962931848E+001  +5.9082126080E-001 +1.4520227171E+000 
9520033.792 +5.4097797865E-001 -2.9041335295E+000  +3.5730563580E-002 -2.2815111410E+000  +3.6038244936E-002 +1.9235481282E+001  +5.9929598268E-001 -6.8623391735E-001 
9645178.974 +5.3480681537E-001 +1.7356324447E+000  +3.3830854529E-002 -2.7647671111E+000  +3.3661663464E-002 +9.7492422368E+000  +4.9649334415E-001 -5.0146393730E+000 
9770324.155 +5.2045365021E-001 +5.1806224725E+000  +3.6807816930E-002 -4.4231269286E+000  +3.6856996235E-002 +1.3373551819E+001  +5.2738808365E-001 -3.9645922176E+000 
9895469.337 +5.2370875892E-001 +3.4548039257E+000  +3.8683648988E-002 -3.6722449977E+000  +3.5698326538E-002 +1.2012378306E+001  +5.4264663447E-001 -5.6384078186E+000 
10020614.518 +4.9223820470E-001 +1.4111638247E+000  +3.5114450471E-002 -3.1963199942E+000  +3.5101564402E-002 +1.3692704007E+001  +5.2401872995E-001 -6.6673926284E+000 
10145759.700 +5.0835505365E-001 +5.3627876695E+000  +3.5207452178E-002 -1.9892408331E+000  +3.4859043698E-002 +1.2934829905E+001  +5.4120331618E-001 +6.2991434690E+000 
10270904.881 +5.2082397682E-001 +7.5987086392E+000  +3.4438341241E-002 -5.8498887015E-001  +3.7168432920E-002 +8.6694993420E+000  +5.3697384837E-001 +7.2641092567E-002 
10396050.063 +5.2841657829E-001 +5.0327211742E+000  +3.5639177252E-002 -2.1118424556E+000  +3.5602658382E-002 +1.4110411078E+001  +5.6907234573E-001 +6.4377455501E-001 
10521195.244 +5.6359778522E-001 +7.6544838400E+000  +3.5904264662E-002 -5.6991230947E+000  +3.3919367459E-002 +1.3488257193E+001  +5.4945602937E-001 +3.4744044933E-001 
10646340.426 +5.3107093295E-001 +8.1676585078E+000  +3.6734293218E-002 -1.4849876025E+000  +3.5778733953E-002 +1.5348447839E+001  +5.4827746056E-001 +2.3492894110E+000 
10771485.607 +5.2734992227E-001 +6.0653919405E+000  +3.7407217063E-002 -6.9058405903E-001  +3.6979224393E-002 +1.1489191510E+001  +5.7218237640E-001 -5.1402669123E-001 
10896630.788 +5.4316761563E-001 +6.8293130950E+000  +3.5669610232E-002 -1.3019964525E+000  +3.7360786997E-002 +1.4766056421E+001  +5.4425725070E-001 +2.4053748063E+000 
11021775.970 +5.4350720899E-001 +1.1208301352E+001  +3.8416847851E-002 -1.8417037423E+000  +3.4610806381E-002 +1.4631258441E+001  +5.9996428350E-001 +5.4260787071E-001 
11146921.151 +5.5594418675E-001 +9.1778478512E+000  +3.7514702115E-002 +1.8937590626E+000  +3.5914666437E-002 +1.5997041272E+001  +5.7351630735E-001 +1.9134122142E+000 
11272066.333 +5.5102470993E-001 +9.2176488519E+000  +3.4710315648E-002 -3.6821520573E-001  +3.9306483225E-002 +1.3832544010E+001  +6.0570128492E-001 +9.6801215963E-001 
11397211.514 +5.6081932707E-001 +7.8069758168E+000  +3.8237011764E-002 +4.2898120191E-001  +3.6739315570E-002 +1.4124510790E+001  +6.2386657648E-001 +2.4178680720E+000 
11522356.696 +6.0173808454E-001 +9.9915853012E+000  +3.9789537038E-002 +1.6835412675E+000  +3.7219164550E-002 +1.4583418165E+001  +6.0585023488E-001 +2.8750678394E+000 
11647501.877 +6.1715906376E-001 +6.8965404421E+000  +3.8689481463E-002 -7.2724846547E-001  +3.8257751339E-002 +1.5350765591E+001  +6.0249040940E-001 +4.0651981519E+000 
11772647.059 +6.0475020895E-001 +5.7780211145E+000  +3.8237389834E-002 +1.9811106428E+000  +3.8233248584E-002 +1.2565543098E+001  +6.4612167726E-001 +2.8295261756E+000 
11897792.240 +6.2296898204E-001 +6.1000076148E+000  +3.8625241834E-002 +7.1989482095E-001  +3.9079474390E-002 +1.5335367567E+001  +6.4055373868E-001 +3.0968886130E+000 
12022937.422 +6.5255931587E-001 +5.9287644976E+000  +4.0708140062E-002 +2.5115818481E+000  +3.9558652345E-002 +1.1928617716E+001  +6.2978813856E-001 +2.4040597078E+000 
12148082.603 +6.4983690652E-001 +6.9310065806E+000  +4.0790246290E-002 +9.3961915525E-001  +3.9095019298E-002 +1.3499058799E+001  +6.5250485990E-001 +2.4355337831E+000 
12273227.785 +6.6660664115E-001 +3.7720422217E+000  +3.9957982454E-002 +4.1545303402E+000  +4.0568714547E-002 +1.2868447168E+001  +6.9881456264E-001 +9.6413475971E-001 
12398372.966 +6.5714788506E-001 +3.7787651334E+000  +4.3610720792E-002 +1.3749691781E+000  +4.0902180389E-002 +9.0511742771E+000  +6.7092564324E-001 -4.2208706354E-001 
12523518.148 +6.8415145322E-001 +2.0246673754E+000  +4.2458241772E-002 +1.4612682203E+000  +4.2525070215E-002 +1.2549643881E+001  +6.8352243129E-001 +1.9972374072E+000 
12648663.329 +7.0667393730E-001 +3.2556976884E+000  +4.1544034183E-002 +3.6049918123E+000  +4.3273692312E-002 +8.4372840479E+000  +7.0921285810E-001 -2.0787347534E-001 
12773808.511 +7.2199721268E-001 +4.0603209774E+000  +4.2912898027E-002 +2.7732809719E+000  +4.3628796707E-002 +1.0750301415E+001  +7.3099165955E-001 +3.5842434135E-001 
12898953.692 +7.5011724344E-001 -3.1095267081E-003  +4.4286405306E-002 +2.1852514764E+000  +4.3957676646E-002 +9.9490498727E+000  +7.3880736404E-001 -2.1309624777E-001 
13024098.874 +7.4736284901E-001 +1.9936698714E+000  +4.2541735643E-002 +2.1576278379E+000  +4.3064095543E-002 +7.8906973598E+000  +7.5413340489E-001 -6.8795484508E-001 
13149244.055 +7.6789049137E-001 +1.1985485089E+000  +4.3283211441E-002 +4.2090254287E+000  +4.3866285385E-002 +7.8775846927E+000  +7.5500131960E-001 +1.1283514938E+000 
13274389.237 +7.7550839151E-001 +3.7843121056E-001  +4.4823094046E-002 +4.6625036614E+000  +4.3376179127E-002 +6.4328881778E+000  +8.0282831023E-001 -1.4963237341E+000 
13399534.418 +8.1518084314E-001 -4.3550863406E-001  +4.5942091203E-002 +3.5935464563E+000  +4.4550054665E-002 +6.7703182148E+000  +8.1490935572E-001 -1.6449670790E+000 
13524679.599 +7.8848925636E-001 +4.6495263640E-001  +4.5140651623E-002 +6.1207034788E-001  +4.4473754078E-002 +6.2682703680E+000  +8.3816580114E-001 -4.9259050961E-001 
13649824.781 +8.3263062211E-001 -1.0578368453E+000  +4.3026362210E-002 +2.9206148643E+000  +4.5744336244E-002 +5.0680607578E+000  +8.2587078028E-001 -2.0928580397E+000 
13774969.962 +8.5504674611E-001 -2.2842515663E+000  +4.5860336811E-002 +2.4537464342E+000  +4.5678702324E-002 +3.8992728574E+000  +8.4791585117E-001 -1.9591317240E+000 
13900115.144 +8.6838028339E-001 -2.1481673073E+000  +4.5617448665E-002 +3.2194926778E+000  +4.5794536031E-002 +3.6263277367E+000  +8.6063787692E-001 -3.2596249874E+000 
14025260.325 +8.8552296613E-001 -4.7699881997E+000  +4.7279517549E-002 +2.5146905719E+000  +4.4679673380E-002 +3.8445863562E+000  +8.8013230902E-001 -2.6708116812E+000 
14150405.507 +9.0604015045E-001 -3.0829101622E+000  +4.7204066922E-002 +2.7082963519E+000  +4.5274539555E-002 +2.5298073165E+000  +9.1373897879E-001 -3.1603950607E+000 
14275550.688 +9.3331929058E-001 -4.4729819612E+000  +4.5256261490E-002 +2.9876512161E+000  +4.6292524250E-002 +4.8594821623E+000  +9.1339973196E-001 -5.4768398493E+000 
14400695.870 +9.2143879143E-001 -5.4820534076E+000  +4.6409826931E-002 +3.7324797614E+000  +4.7217244344E-002 +3.6990494135E+000  +9.5235099537E-001 -3.9802234565E+000 
