!  2-Port S-parameters saved by WinCal
! VAR MeasName=S-Parameters (CALIBRATED_DATA) read from VNA (P5004A)
! VAR MeasDate=29/08/2024 14:05:58
! VAR NAME=S2_r9c6_RESET4_9k-100M_3
! VAR FILENAME=S2_r9c6_RESET4_9k-100M_3.S2P
! VAR DATE=29/08/2024 14:05:58
! VAR PHYS_PORTS=1,2
! VAR ObjTypeName=DATASET
! VAR IndexType=Frequency
!
# Hz S MA R 50
9000.000 +9.2157553758E-002 -1.5638154945E+002  +4.5691780086E-003 -8.9738676571E+001  +3.5802282084E-003 +4.9293802502E+001  +2.6761500396E-001 -1.4873016657E+002 
134145.181 +1.1231019359E-001 +1.6974850087E+002  +1.8806800161E-004 -1.5255909540E+002  +4.0237367290E-004 -1.7847336660E+001  +2.3854431824E-001 -1.7096625248E+002 
259290.363 +1.1282429041E-001 +1.6936202387E+002  +5.5234191665E-004 -1.2679423999E+002  +6.4928180766E-004 +1.6921768688E+002  +2.4631338594E-001 -1.6857764943E+002 
384435.544 +1.1527311925E-001 +1.7007719020E+002  +6.6501003570E-004 -1.7433355737E+002  +9.3465891300E-004 +1.0353090032E+002  +2.4512445602E-001 -1.6798695193E+002 
509580.726 +1.1272666899E-001 +1.7087070751E+002  +8.9771783490E-004 -7.6766682964E+000  +1.3028409042E-003 -8.7219112942E+001  +2.4050430259E-001 -1.6589507921E+002 
634725.907 +1.1686311194E-001 +1.7137139127E+002  +4.5213627203E-004 -1.6302479247E+002  +2.7436723837E-004 -1.4272854425E+002  +2.4543630842E-001 -1.6549878910E+002 
759871.089 +1.2052975470E-001 +1.7061252920E+002  +1.7335307220E-004 +1.4908350538E+002  +3.3516425465E-004 +1.0106911448E+002  +2.5464752569E-001 -1.6842569862E+002 
885016.270 +1.2124286442E-001 +1.6912546443E+002  +4.0727608526E-004 -1.7420942451E+001  +2.4087251678E-004 +2.0326698240E+001  +2.4549037721E-001 -1.6806073437E+002 
1010161.452 +1.1806722477E-001 +1.7099779747E+002  +4.7471930098E-004 -2.2096886106E+001  +6.9189230027E-004 +1.0791619818E+002  +2.2061267247E-001 -1.7084762826E+002 
1135306.633 +1.1743532076E-001 +1.6709455694E+002  +2.0404543692E-003 -1.1404396339E+002  +6.3573287069E-004 -3.3332958573E+000  +1.7482063540E-001 -1.6319113174E+002 
1260451.815 +1.2219095651E-001 +1.7222306363E+002  +2.2318249596E-003 +1.4914170559E+002  +1.8682156959E-003 +1.4485250013E+002  +2.4272395669E-001 -1.5671754358E+002 
1385596.996 +1.2242405158E-001 +1.7231952493E+002  +3.1414372886E-004 -1.0534820078E+002  +7.2297797313E-004 -7.4997504331E+001  +2.6189428401E-001 -1.5706561131E+002 
1510742.178 +1.2577042568E-001 +1.7137736509E+002  +6.5741607159E-005 +5.4024190977E+001  +1.2116382268E-003 +8.8434029576E+001  +2.5177472078E-001 -1.5793641462E+002 
1635887.359 +1.2857298929E-001 +1.7032726138E+002  +1.8404131241E-004 -1.3089044461E+002  +7.8011051700E-004 -7.1171651414E+001  +2.4762651568E-001 -1.5647322770E+002 
1761032.541 +1.2785273827E-001 +1.6984415750E+002  +5.1356594729E-004 +2.0952221065E+001  +1.9071071846E-003 +2.7917067738E+001  +2.3898078830E-001 -1.5711615395E+002 
1886177.722 +1.2664238682E-001 +1.6738619478E+002  +1.5339809327E-003 -6.8156190277E+001  +1.9048848776E-003 -1.2129995374E+002  +2.2702216304E-001 -1.6018988626E+002 
2011322.904 +1.3240954173E-001 +1.6884763062E+002  +2.4731083614E-003 -1.5484957998E+001  +1.0028287233E-003 -1.4845827543E+002  +2.2222566588E-001 -1.5749113977E+002 
2136468.085 +1.2912004553E-001 +1.7074700595E+002  +4.1172644490E-003 -5.6464909102E+001  +2.9963448818E-003 -1.0691891180E+002  +1.5771196038E-001 +1.6078221012E+002 
2261613.267 +1.3863236233E-001 +1.6453505084E+002  +5.6779666351E-003 +7.5812010568E+001  +1.8194643014E-003 -8.0901744897E+001  +1.5186993585E-001 +1.7223227119E+002 
2386758.448 +1.3541802229E-001 +1.6465892595E+002  +3.1134431099E-003 +3.0737081238E+001  +1.6919077537E-003 -7.5824212150E+001  +1.7983911212E-001 -1.7836700235E+002 
2511903.630 +1.3520765266E-001 +1.6271308260E+002  +5.0327683986E-003 +7.9423666148E+001  +6.7981672655E-003 -6.8185262417E+001  +1.7351740981E-001 +1.5314589217E+002 
2637048.811 +1.1376298110E-001 +1.6435119802E+002  +9.8801420447E-003 +7.3271806366E+001  +7.7754154880E-003 -6.2188616660E+001  +2.5629383809E-001 +1.5226828498E+002 
2762193.992 +8.7100864091E-002 +1.6848613742E+002  +3.6605250890E-004 -8.9576587131E+001  +2.2195766943E-002 -1.7075643510E+002  +2.4589297011E-001 -8.8574091658E+001 
2887339.174 +1.3277101201E-001 +1.7108762877E+002  +1.5166579348E-002 -2.9759758394E+001  +2.1262740810E-002 -7.6012298870E+001  +2.0537739003E-001 +7.0940646992E+001 
3012484.355 +1.2723966706E-001 +1.7480609186E+002  +1.4832746794E-002 -3.5113722413E+001  +6.1736497916E-003 -9.6428634610E+001  +1.8638744609E-001 -5.5588409782E+001 
3137629.537 +1.2984073747E-001 +1.7682482786E+002  +5.9128341261E-003 -1.4804229255E+001  +7.8227003523E-003 -1.1799937179E+002  +2.8240322447E-001 -1.2372248885E+002 
3262774.718 +9.0169215487E-002 +1.7212992548E+002  +1.5243812552E-002 -5.6290009415E+001  +2.3273368883E-002 +1.6717177684E+002  +7.5939504800E-001 -8.8893268498E+001 
3387919.900 +1.2373342885E-001 +1.5973129225E+002  +3.3359974031E-002 +8.0018355820E+001  +1.8028021847E-002 -6.1742155753E+001  +3.5575557445E-001 +8.4663997809E+001 
3513065.081 +1.6835751175E-001 +1.4970875735E+002  +1.6600124877E-002 +8.5152666737E+001  +1.4230264931E-002 +3.2209252482E+001  +5.3271279521E-001 +7.3076139209E+001 
3638210.263 +1.7644263269E-001 +1.5359222311E+002  +8.8882902464E-003 +1.3730684600E+002  +4.5953499948E-003 +9.3039304675E+001  +5.3221489658E-001 +1.6478513661E+002 
3763355.444 +1.5670789433E-001 +1.4200185628E+002  +1.7737628396E-002 +1.7953503242E+001  +1.7348093732E-002 -3.2500719744E+001  +1.7445818444E-001 +1.9971512526E+001 
3888500.626 +1.9818075726E-001 +1.4650676654E+002  +2.8441595857E-003 +1.4077431864E+002  +2.3146250138E-002 +6.3040045235E+001  +7.8035044646E-001 +1.1861073978E+002 
4013645.807 +1.3665232944E-001 +1.2841922342E+002  +1.3733472216E-002 +1.2294603396E+002  +1.9364921902E-002 -7.0096536041E+000  +3.5398376597E-001 +1.2181624489E+002 
4138790.989 +1.7598203275E-001 +1.4931651920E+002  +1.0807064455E-002 +1.2726742818E+002  +1.2523346105E-002 +5.3087085905E+001  +4.7492385025E-001 +1.4824134401E+002 
4263936.170 +1.8970895531E-001 +1.5143727925E+002  +2.6865023847E-002 +1.4037978156E+002  +3.0718722191E-002 +2.2854593641E+001  +1.6545401368E+000 +1.3458085386E+002 
4389081.352 +2.2404791898E-001 +1.3892754971E+002  +7.2515919025E-001 +5.7917708055E+001  +4.1800807520E-001 -5.4796899184E+001  +2.0672365071E+001 +4.2068163150E+000 
4514226.533 +1.8057040566E-001 +1.4365032821E+002  +3.0690512939E-002 +1.4758089783E+002  +2.0228412096E-002 +4.3018743589E+001  +1.3413065480E+000 +1.5460428540E+002 
4639371.715 +2.7037931963E-001 +1.2445841253E+002  +8.5840147102E-002 -6.4227525547E+001  +6.5417848369E-002 -1.1612010066E+002  +3.0578891042E+000 -1.3177613335E+002 
4764516.896 +2.8791938989E-001 +1.2492383352E+002  +4.2653880268E-002 +7.0188279517E+001  +9.1174216618E-002 +3.4061153266E+001  +1.8368835120E+000 +5.4443670609E+001 
4889662.078 +4.7139940082E-001 +1.2857604168E+002  +1.3418676609E-001 -1.3718748095E+002  +1.3906950989E-001 -1.5243948848E+002  +3.5807977495E+000 -1.7241336898E+002 
5014807.259 +3.4465836786E-001 +1.3079336789E+002  +5.7442314297E-002 -2.6900961013E+001  +5.4365404528E-002 -8.7576387728E+001  +2.5184155203E+000 -9.2799502373E+001 
5139952.441 +3.5206000043E-001 +1.3071719560E+002  +3.4422766422E-001 -4.8381093488E+001  +1.5817054928E-001 -1.2504728836E+002  +1.1084625914E+001 -7.7465576836E+001 
5265097.622 +4.1124887198E-001 +1.3612344822E+002  +6.7841548257E-002 -1.7884798901E+002  +7.3198294342E-002 +1.6390761005E+002  +2.9141770376E+000 +1.4906558095E+002 
5390242.804 +3.4849518834E-001 +1.3051103893E+002  +7.0356158325E-002 +1.1248815035E+002  +5.0986645611E-002 +5.1669151584E+001  +2.1812804333E+000 +8.0410834474E+001 
5515387.985 +4.2232799840E-001 +1.3232838154E+002  +5.8560614992E-002 +1.1658979810E+002  +2.7011649371E-002 +6.4524871427E+001  +1.8172034811E+000 +9.7981884239E+001 
5640533.166 +4.1563950951E-001 +1.2251985145E+002  +9.4421989411E-002 +5.3384063394E+001  +9.4953666425E-002 +2.8261695049E+001  +2.9913607239E+000 +3.2962569648E+001 
5765678.348 +4.4215504309E-001 +1.2153069907E+002  +5.1909790497E-002 +4.7690790956E+001  +7.3176111843E-002 +4.4924635453E+001  +2.1537438893E+000 +5.1199669101E+001 
5890823.529 +5.3350048610E-001 +1.2851924526E+002  +3.6378595987E-002 +6.1181967980E+001  +2.9488465831E-002 +6.8231645966E+001  +1.1582611863E+000 +5.4812733433E+001 
6015968.711 +5.5428739146E-001 +1.2340466282E+002  +6.9162184578E-002 +9.1628061765E+001  +6.5082019331E-002 +4.7081849551E+001  +1.7310690587E+000 +6.6544700986E+001 
6141113.892 +7.0774632986E-001 +1.1284099529E+002  +5.0273456275E-002 +6.2248478758E+001  +7.2384359351E-002 +4.9836874653E+001  +1.5331113128E+000 +3.4365660974E+001 
6266259.074 +8.1511108965E-001 +8.7107907198E+001  +8.7897897345E-002 +6.2339284553E+001  +8.5231049127E-002 +2.3979260776E+001  +1.5179776731E+000 +2.8504872380E+001 
6391404.255 +9.9032584044E-001 +1.0686644539E+002  +8.1066610531E-002 +5.3548772813E+001  +9.5990107767E-002 +3.0321699902E+001  +2.3996771718E+000 +1.4111821973E+001 
6516549.437 +1.0853629010E+000 +6.2417140367E+001  +4.5731283725E-002 +3.3518821531E+001  +7.8116718143E-002 -2.3126215353E+000  +1.1115836403E+000 +1.5818253020E+000 
6641694.618 +1.4390149874E+000 +6.6065911967E+001  +7.5996774117E-002 +2.5876369349E+001  +6.7442738872E-002 +1.4739699893E+000  +1.1636935821E+000 +3.2706561008E+000 
6766839.800 +1.5846626852E+000 +4.2936625203E+001  +5.4839545145E-002 +1.8339858706E+001  +9.5619589798E-002 -1.9964603747E+001  +1.2035085889E+000 -6.0170857094E+000 
6891984.981 +1.9349249796E+000 +4.3202280639E+001  +8.5169009624E-002 +8.5164375465E+000  +7.3803859681E-002 +3.5033216866E+000  +1.3848831925E+000 -6.3640446995E+000 
7017130.163 +1.7549531065E+000 +1.9607874860E+001  +5.6663934630E-002 -1.1107983016E+001  +6.0188574942E-002 +7.6921615697E-002  +1.1512129967E+000 -9.4926849771E+000 
7142275.344 +1.2834867315E+000 +1.8809433442E+001  +6.4202799304E-002 -4.0902877017E+000  +4.9976360195E-002 -4.0386146037E+000  +1.4614444343E+000 -8.8927359490E+000 
7267420.526 +1.4306887900E+000 +4.5461208991E+000  +5.1318060454E-002 -1.0805779378E+001  +4.3735063634E-002 -1.1517137507E+000  +1.2698044049E+000 -9.6369150587E+000 
7392565.707 +1.2316381006E+000 -5.8104771354E+000  +4.1203048782E-002 +1.0167651922E+001  +4.5099097178E-002 +8.7915562245E+000  +1.3222748541E+000 -5.3801779532E+000 
7517710.889 +1.1281260931E+000 -5.2387321203E+000  +2.9624711356E-002 +7.6140987528E+000  +3.0401548437E-002 +7.5193006851E+000  +1.2007749986E+000 -1.3030882866E+001 
7642856.070 +1.0719457806E+000 -1.7291656415E-001  +3.6443384003E-002 +1.8010140233E+001  +3.5627165050E-002 +1.2636857632E+001  +1.0066893932E+000 -9.0227912305E+000 
7768001.252 +9.4172013991E-001 -6.5848250253E+000  +3.4880316968E-002 -9.5045710302E+000  +3.2460806900E-002 +2.3882206432E+000  +1.0296991911E+000 -2.6439233932E+000 
7893146.433 +7.4949266975E-001 -6.6870952945E-001  +3.4686968670E-002 -3.9859147385E+000  +2.5784923517E-002 -3.8307518442E-001  +9.4748165133E-001 -1.7426943876E+000 
8018291.615 +7.9375946684E-001 +3.4249863314E+000  +3.4663157395E-002 +1.9979198300E+000  +2.4398563668E-002 +1.2665754588E+001  +9.1414572059E-001 -1.2667495516E+000 
8143436.796 +7.4566418261E-001 +7.2057580401E+000  +3.1120728501E-002 +3.6505916008E+000  +3.0910385317E-002 +1.2632012582E+001  +7.8986940410E-001 +1.8436403814E-001 
8268581.977 +6.7162108018E-001 +4.5526838556E+000  +2.8630304878E-002 +4.4370042035E-001  +2.9196766131E-002 -1.1975633363E+001  +7.1266078572E-001 +1.1784546851E+000 
8393727.159 +6.6849560893E-001 +9.6532423711E+000  +2.6701081266E-002 -2.5168105285E+000  +2.5026404486E-002 +8.4478035386E+000  +6.4443087609E-001 +1.9672017621E+000 
8518872.340 +5.9874656476E-001 +7.9972238569E+000  +2.0685726328E-002 -5.4044316063E+000  +2.1853782771E-002 +1.0529217399E+001  +7.5324438466E-001 +4.1661168942E+000 
8644017.522 +5.4695911010E-001 +1.0337957764E+001  +2.5974140739E-002 -1.2072786604E+001  +1.9854012515E-002 +2.9253228587E+000  +6.7528986267E-001 -5.7032603182E+000 
8769162.703 +5.7171778377E-001 +5.1579519444E+000  +2.5786473576E-002 +5.1427962767E+000  +2.8799613730E-002 +1.2976573512E+001  +6.4680064458E-001 -4.4113426143E+000 
8894307.885 +5.4744945630E-001 +8.0426540085E+000  +2.6929523587E-002 -4.7496663955E+000  +2.6290114069E-002 +8.9717193651E+000  +5.5489261905E-001 +2.2402593220E+000 
9019453.066 +6.2644666512E-001 +7.2461019185E+000  +2.3160943402E-002 +1.1893319509E+000  +2.7042898455E-002 +1.2421281409E+001  +5.8357671947E-001 -4.6876116771E-001 
9144598.248 +5.6812163101E-001 +6.5694827078E+000  +2.4157814250E-002 -8.8831905314E-001  +2.8684688145E-002 +1.5121029441E+000  +6.2837979548E-001 -2.1924668951E+000 
9269743.429 +5.5645197109E-001 +4.0041839914E+000  +2.1827059388E-002 -3.8577123872E+000  +2.2322685418E-002 +1.0194121360E+001  +5.5765080497E-001 +1.4524566546E+000 
9394888.611 +5.0322844051E-001 -6.9170572736E-001  +2.5211038151E-002 -5.9155579366E+000  +2.2830049085E-002 +1.6037302763E+001  +5.3747124970E-001 -2.4320407276E+000 
9520033.792 +5.4352618947E-001 +4.9770424820E+000  +2.3988047204E-002 -4.8501480006E+000  +2.4248373025E-002 +7.9995402919E+000  +6.2085555055E-001 -4.2815749473E+000 
9645178.974 +5.1229888185E-001 +1.2206709689E+001  +2.4883277282E-002 -2.4674248659E+000  +2.4429828167E-002 +9.8724202092E+000  +5.8726810603E-001 -2.1170248712E+000 
9770324.155 +5.2048028403E-001 +1.3798461251E+000  +2.2539449109E-002 +1.4503342357E+000  +2.5328607560E-002 +1.7462448377E+001  +5.3172152188E-001 -3.6428747216E+000 
9895469.337 +5.2945653684E-001 +3.6405022451E+000  +2.4904468870E-002 +8.9139348712E+000  +2.4586294220E-002 +1.1489631832E+001  +5.2721102165E-001 -5.7037193189E+000 
10020614.518 +5.6208743377E-001 +2.3621738464E+000  +2.4278101969E-002 -1.7615452998E+000  +2.6669228770E-002 +1.5105661252E+001  +5.6878000329E-001 -3.4596600488E+000 
10145759.700 +5.2952406364E-001 +7.4578963102E+000  +2.1832213831E-002 -3.3176878811E+000  +2.3939556794E-002 +8.8668721674E+000  +5.5834728011E-001 -2.9268934326E+000 
10270904.881 +5.4318920286E-001 +5.1564817389E+000  +2.0946475851E-002 +6.3373215504E+000  +2.4586634560E-002 +5.1100285092E+000  +5.6112570655E-001 -2.7067517700E+000 
10396050.063 +5.7133273291E-001 +8.4522944461E+000  +2.4556023959E-002 +5.5251971574E-001  +2.3669967210E-002 +7.2915767858E+000  +5.5170396189E-001 -2.8049472698E+000 
10521195.244 +5.5105107263E-001 +9.6742912665E+000  +2.7869588974E-002 +8.5800950199E-001  +2.4369898878E-002 +1.8888385585E+001  +5.7098267353E-001 -2.7067468256E+000 
10646340.426 +5.5076038051E-001 +2.6103270324E+000  +2.7690082258E-002 -1.8601309812E+000  +2.4060487801E-002 +1.2790644842E+001  +5.9353077881E-001 -7.3399142734E-001 
10771485.607 +5.5321676762E-001 +3.9344269589E+000  +2.5285805968E-002 +2.9957512380E+000  +2.6031604726E-002 +1.3670523128E+001  +5.5379008877E-001 -3.8240715990E-001 
10896630.788 +5.6581422164E-001 +6.7856340408E+000  +2.6859219013E-002 -7.3930437895E-001  +2.6814108455E-002 +1.8085331402E+001  +5.7542665383E-001 -1.9070783513E+000 
11021775.970 +5.7465845451E-001 +6.4877142120E+000  +2.5129475347E-002 -8.5335798816E-001  +2.5776609481E-002 +8.0117258723E+000  +5.7408759586E-001 +2.6877642391E+000 
11146921.151 +5.6796324010E-001 +4.7260631709E+000  +2.7399992423E-002 -8.2554260864E-001  +2.6952084981E-002 +1.0792531077E+001  +5.6925906780E-001 +8.0316816562E-001 
11272066.333 +5.9709775528E-001 +6.8647607345E+000  +2.7577187184E-002 +3.7736621377E+000  +2.6283813959E-002 +1.0325010729E+001  +6.0465768773E-001 +3.6834403116E-001 
11397211.514 +6.0934333012E-001 +6.4964940295E+000  +2.5519882166E-002 +3.8319284153E-001  +2.8433076269E-002 +1.3803925445E+001  +6.1549700820E-001 +2.7950022649E+000 
11522356.696 +5.9115680609E-001 +6.4894438181E+000  +2.8409841482E-002 +9.4636293564E-001  +2.6736402099E-002 +1.0842454457E+001  +6.0848514626E-001 +1.3611760711E+000 
11647501.877 +6.2120830865E-001 +6.5162928396E+000  +2.9976186262E-002 +5.7302475461E+000  +2.8510149345E-002 +1.3597124489E+001  +6.3671238474E-001 +5.0578151813E-001 
11772647.059 +6.3053840157E-001 +6.3441608332E+000  +2.8284637037E-002 +1.7525144712E+000  +2.7831796769E-002 +1.4196279588E+001  +6.4558612220E-001 +3.1635470137E+000 
11897792.240 +6.5767357464E-001 +5.2326899529E+000  +2.7969439321E-002 -6.7422623482E-002  +2.8866590275E-002 +9.5604226386E+000  +6.5786610725E-001 -2.9549047444E-001 
12022937.422 +6.5812655409E-001 +4.7900147651E+000  +2.9351563357E-002 +2.6031101739E+000  +2.8204086375E-002 +1.0827427860E+001  +6.8140049503E-001 -1.0199430074E+000 
12148082.603 +6.6180168389E-001 +5.2514725348E+000  +2.9860219036E-002 +5.1788786885E+000  +2.9661426829E-002 +1.3267446097E+001  +6.7363078705E-001 +2.1574546143E+000 
12273227.785 +7.1606276532E-001 +4.0146934773E+000  +3.0708709778E-002 +1.8081552343E+000  +3.1786404936E-002 +1.0848533124E+001  +6.9194658353E-001 +1.4370639289E+000 
12398372.966 +6.9561623302E-001 +3.2393987548E+000  +2.9205339715E-002 +4.0664956430E+000  +2.8381582415E-002 +1.0979780327E+001  +6.8610406039E-001 -1.4175921250E+000 
12523518.148 +6.9735580698E-001 +3.8047901010E+000  +2.8871446095E-002 +3.5257312837E+000  +3.0066764923E-002 +7.5648960333E+000  +7.2080739477E-001 +2.9228781909E-001 
12648663.329 +7.1398246338E-001 +3.2784275947E+000  +3.1892480232E-002 +3.5479462422E+000  +2.8404688603E-002 +6.2249741846E+000  +6.9011226013E-001 +1.1094295584E+000 
12773808.511 +7.4953576404E-001 +4.1165319465E+000  +2.9621018226E-002 +3.5397525016E+000  +2.9874746187E-002 +6.4373429160E+000  +7.3731417725E-001 +2.2002743113E-001 
12898953.692 +7.5083229103E-001 +2.0458521635E+000  +3.1284788799E-002 +6.8201240160E+000  +2.9873738212E-002 +9.1642498357E+000  +7.5224922094E-001 -1.7539023885E+000 
13024098.874 +7.7551093535E-001 +2.4937293042E+000  +3.1099641815E-002 +1.5459131356E+000  +2.9840987090E-002 +1.0661421815E+001  +7.4406235491E-001 -1.6792107879E+000 
13149244.055 +7.7567516917E-001 -1.3409355586E+000  +3.0944429053E-002 +5.5896301768E+000  +3.1188699998E-002 +7.3773353043E+000  +7.7745615201E-001 -5.1003430462E-001 
13274389.237 +7.9237643826E-001 -3.5044014094E-001  +3.3886812429E-002 +1.1302889477E+000  +3.0133605814E-002 +8.4868270420E+000  +8.0246688263E-001 -1.9459603602E+000 
13399534.418 +8.3090144530E-001 -2.1429338978E+000  +3.2621483588E-002 +4.3250338368E+000  +3.1193448301E-002 +5.4456835116E+000  +8.2560773631E-001 -2.0565002083E+000 
13524679.599 +8.4527377512E-001 -2.3015244011E+000  +3.1763158127E-002 +2.2560379083E+000  +3.2412930687E-002 +6.2770003844E+000  +8.2496019567E-001 -2.4549191821E+000 
13649824.781 +8.5881594438E-001 -2.1013818143E+000  +3.1717304253E-002 +4.5503293525E+000  +3.1127227341E-002 +4.1570559688E+000  +8.5109633342E-001 -1.5385853619E+000 
13774969.962 +8.5443395447E-001 -3.9412173796E+000  +3.2686896874E-002 +3.1825025027E+000  +3.2264957588E-002 +4.8210661946E+000  +8.7343684627E-001 -4.0099433962E+000 
13900115.144 +8.7400147213E-001 -3.9748482162E+000  +3.2145479450E-002 +4.3245481131E+000  +3.0191141148E-002 +8.3403227380E+000  +8.8701678629E-001 -3.8958324581E+000 
14025260.325 +8.8974373574E-001 -3.9630396842E+000  +3.3827152159E-002 +4.9203327660E+000  +3.1907298228E-002 +3.5982928297E+000  +9.0063481200E-001 -3.6706491264E+000 
14150405.507 +9.1545525404E-001 -4.3868698002E+000  +3.3682588558E-002 +3.8899426978E+000  +3.1838847468E-002 +1.7116668819E+000  +9.0924116192E-001 -5.3005134096E+000 
14275550.688 +9.2221760374E-001 -5.0495256479E+000  +3.3737196952E-002 +1.0668375144E+000  +3.0957471728E-002 +1.9198163062E+000  +9.3949221460E-001 -3.2371009773E+000 
14400695.870 +9.5802993722E-001 -5.4019433858E+000  +3.2746208821E-002 +1.7946054299E+000  +3.2549714556E-002 +3.0285609515E+000  +9.5026881027E-001 -4.1543704440E+000 
