!  2-Port S-parameters saved by WinCal
! VAR MeasName=S-Parameters (CALIBRATED_DATA) read from VNA (P5004A)
! VAR MeasDate=29/08/2024 12:06:58
! VAR NAME=S2_r9c5_pristine_9k-100M_2
! VAR FILENAME=S2_r9c5_pristine_9k-100M_2.S2P
! VAR DATE=29/08/2024 12:06:58
! VAR PHYS_PORTS=1,2
! VAR ObjTypeName=DATASET
! VAR IndexType=Frequency
!
# Hz S MA R 50
9000.000 +8.7604931419E-002 -1.6698225734E+002  +6.3158404645E-003 -3.0278420684E+001  +8.7341649760E-003 +8.9598522532E+001  +2.3061934710E-001 -1.4808371361E+002 
134145.181 +1.1144035087E-001 +1.6969214360E+002  +2.5425701733E-004 -1.0362650374E+002  +4.5116016407E-004 -1.7602851620E+002  +2.3992912437E-001 -1.7098317402E+002 
259290.363 +1.1301946256E-001 +1.6974719025E+002  +9.1726842693E-004 -5.0831134032E+001  +1.1272547930E-003 +1.4631246718E+002  +2.3663715221E-001 -1.6886193624E+002 
384435.544 +1.1456740541E-001 +1.6973259212E+002  +6.0343608701E-004 +1.5690361686E+002  +4.3489027045E-004 +1.6358628659E+002  +2.3724402269E-001 -1.6951667463E+002 
509580.726 +1.1336804787E-001 +1.7050768018E+002  +1.2248095127E-003 -8.3462254959E+001  +1.9773546470E-003 +1.4350152109E+002  +2.4011060519E-001 -1.6348596273E+002 
634725.907 +1.1675434329E-001 +1.7206042953E+002  +2.1578076536E-003 -6.3885050435E+001  +2.0089067085E-003 +1.3776179253E+002  +2.4773695742E-001 -1.6274578410E+002 
759871.089 +1.1972621443E-001 +1.7054580854E+002  +1.0658884149E-003 -8.9689130206E+001  +6.6482893569E-004 +1.1884866676E+002  +2.4969274722E-001 -1.6779951678E+002 
885016.270 +1.2157508302E-001 +1.6876809129E+002  +5.4961807202E-004 -7.7924115118E+001  +6.5002187622E-004 +1.4873400688E+002  +2.4624581165E-001 -1.6750718428E+002 
1010161.452 +1.1719723297E-001 +1.6978337103E+002  +1.5009604194E-003 -1.7159589347E+000  +3.5509322888E-003 -1.7197307750E+002  +2.1191981967E-001 -1.6827750343E+002 
1135306.633 +1.1856964272E-001 +1.6913139647E+002  +1.4629008118E-003 -1.2440679719E+001  +2.7517092199E-003 -1.6554380533E+002  +2.1391921407E-001 -1.7005467856E+002 
1260451.815 +1.2076617981E-001 +1.6957500733E+002  +1.6655501664E-003 -7.6498261411E+001  +4.5648021375E-003 +1.5501018960E+002  +2.3333998169E-001 -1.5806683811E+002 
1385596.996 +1.2611742105E-001 +1.7133126096E+002  +2.4829466834E-003 -7.1106874006E+001  +4.0161236582E-003 +1.5798117971E+002  +2.6067081498E-001 -1.5764693469E+002 
1510742.178 +1.2584695227E-001 +1.7093685711E+002  +1.6038844665E-003 -2.2137313350E+001  +2.3132561424E-003 +1.4260579851E+002  +2.6290814940E-001 -1.5749352385E+002 
1635887.359 +1.3040528273E-001 +1.7006886545E+002  +1.9628737851E-003 -1.9631081631E+001  +3.1900930499E-003 -1.3389853813E+002  +2.4073217979E-001 -1.5830617647E+002 
1761032.541 +1.3116813384E-001 +1.6987305157E+002  +3.6420399752E-003 +2.2931173024E+001  +3.2888406630E-003 -1.3628713373E+002  +2.3738661741E-001 -1.5668968909E+002 
1886177.722 +1.3084788312E-001 +1.7037002700E+002  +4.1393089768E-003 +5.0782831571E+001  +6.3961812024E-003 -1.1006206866E+002  +2.2922694616E-001 -1.5861230840E+002 
2011322.904 +1.2602689537E-001 +1.6783091903E+002  +7.8801789515E-003 +6.4302163910E+001  +6.6665380933E-003 -7.8931661956E+001  +2.3050231037E-001 -1.6435644931E+002 
2136468.085 +1.3332115936E-001 +1.6600567972E+002  +8.7868097980E-003 +8.2157461423E+001  +9.7565381400E-003 -4.6112285045E+001  +2.1086428269E-001 -1.6519922645E+002 
2261613.267 +1.2754489719E-001 +1.6464616865E+002  +1.7211917830E-002 +7.7892746587E+001  +1.8172516156E-002 -4.8119664147E+001  +1.9078049294E-001 -1.6364710211E+002 
2386758.448 +1.3250637357E-001 +1.6280227390E+002  +2.0070209664E-002 +1.0324002735E+002  +2.5134940922E-002 -2.9160283287E+001  +1.9512453868E-001 -1.7747326089E+002 
2511903.630 +1.3022531622E-001 +1.6576237545E+002  +2.1021299961E-002 +9.5329957756E+001  +2.2095702291E-002 -1.7178420466E+001  +2.3465902625E-001 -1.7894655220E+002 
2637048.811 +1.2850953334E-001 +1.6395931232E+002  +3.9374134959E-002 +9.6547053900E+001  +3.7986420615E-002 -6.0289818244E+000  +2.3999566133E-001 +1.6607350769E+002 
2762193.992 +1.4251622110E-001 +1.7860818476E+002  +8.0765795111E-002 -2.0007777593E+001  +8.0369482842E-002 -1.2565720277E+002  +2.6761386303E-001 -9.4030547917E+001 
2887339.174 +1.4733096064E-001 +1.7847381847E+002  +6.0868293153E-002 -2.5555321689E+001  +6.1988131519E-002 -1.3037927874E+002  +2.1199834180E-001 -1.0151887804E+002 
3012484.355 +1.4262511656E-001 +1.7634535248E+002  +7.1146428250E-002 -3.0690562744E+001  +6.5535249001E-002 -1.2943120788E+002  +3.0674709014E-001 -1.0839092007E+002 
3137629.537 +1.3241908095E-001 +1.7377273699E+002  +5.0563244641E-002 +1.0548834188E+001  +4.8315452017E-002 -8.9334679787E+001  +1.6267463051E-001 -1.3324904308E+002 
3262774.718 +1.1305138886E-001 +1.7747709938E+002  +2.1320004469E-001 +2.4082281757E+001  +2.0376099717E-001 -7.0493623127E+001  +6.2453904684E-001 -9.0044590362E+000 
3387919.900 +1.0314244067E-001 +1.6015948269E+002  +1.0474324212E-001 +4.3369392050E+001  +9.7719916523E-002 -4.7735413750E+001  +1.1436477564E-002 -1.2196376391E+002 
3513065.081 +1.5198965340E-001 +1.5659537171E+002  +7.2511241706E-002 +8.1559261622E+001  +7.0421854277E-002 -9.9851174253E-001  +1.9613269023E-001 +1.4063248893E+002 
3638210.263 +1.5742503175E-001 +1.5315929341E+002  +6.2527316825E-002 +9.6176482925E+001  +6.1297483643E-002 +2.1152917275E+001  +3.2011599919E-001 +1.6042971538E+002 
3763355.444 +1.9367981046E-001 +1.4642997235E+002  +1.2357570092E-001 +1.1476085572E+002  +1.1401799838E-001 +4.4781840725E+001  +4.5310757745E-001 +1.2563311184E+002 
3888500.626 +1.8265931481E-001 +1.4230441931E+002  +9.9372264979E-002 +1.0180829517E+002  +8.8829374240E-002 +3.2116911371E+001  +3.1454728246E-001 +1.5083151558E+002 
4013645.807 +1.7919187878E-001 +1.5216541122E+002  +9.1624587886E-002 +7.8383636629E+001  +8.4431415265E-002 +6.6488083218E+000  +1.9814411243E-001 +1.3628466762E+002 
4138790.989 +1.8391225843E-001 +1.5273087979E+002  +8.7580319787E-002 +7.5893875788E+001  +8.5131853219E-002 +9.9574674242E+000  +2.1824264378E-001 +1.3429110530E+002 
4263936.170 +2.0934597793E-001 +1.5641400883E+002  +7.1111578545E-002 +1.0152986637E+002  +7.0565346948E-002 +3.8956761517E+001  +3.8890189563E-001 +1.5041966266E+002 
4389081.352 +1.8359312697E-001 +1.4057103422E+002  +1.7531718557E-001 +7.6012901734E+001  +1.7373914680E-001 +1.4781774497E+001  +3.6784894652E-001 +8.7413209097E+001 
4514226.533 +2.3269774082E-001 +1.4360083612E+002  +1.7675428406E-001 +1.1532392388E+002  +1.7653157012E-001 +6.1907550197E+001  +7.8527921734E-001 +1.3101285201E+002 
4639371.715 +2.7149429610E-001 +1.3398967977E+002  +2.8945181329E-001 +1.1357604814E+002  +2.9248402093E-001 +6.0975647763E+001  +1.0205766026E+000 +1.1319561897E+002 
4764516.896 +2.8966265134E-001 +1.0853970278E+002  +5.2825836407E-001 +6.8603504245E+001  +4.6648426277E-001 +1.8431799158E+001  +1.1923015281E+000 +3.7833326732E+001 
4889662.078 +5.0479291331E-001 +1.4181888032E+002  +8.7043902636E-001 +1.6759835279E+002  +8.5953739039E-001 +1.2396440842E+002  +3.2027082600E+000 +1.5180581637E+002 
5014807.259 +4.1021374563E-001 +1.2764762290E+002  +5.9680539009E-001 +1.5627831293E+002  +5.5992959511E-001 +1.1110586566E+002  +2.0621631338E+000 +1.5774262453E+002 
5139952.441 +3.8064678276E-001 +1.2414139898E+002  +4.6589196880E-001 +1.0162455513E+002  +4.3401345609E-001 +6.1598774626E+001  +1.3250137637E+000 +9.4169087453E+001 
5265097.622 +3.6300193718E-001 +1.3162351622E+002  +3.5177280789E-001 +1.2633870858E+002  +3.5363173993E-001 +8.7558416764E+001  +1.4692911279E+000 +1.3241732865E+002 
5390242.804 +3.5815617685E-001 +1.3525973209E+002  +2.7953705020E-001 +1.0404901569E+002  +2.6752378806E-001 +7.3104585213E+001  +1.0689898209E+000 +1.1756965455E+002 
5515387.985 +3.8223525256E-001 +1.3332479515E+002  +2.9734404192E-001 +1.0794148098E+002  +2.8995408009E-001 +7.5504067931E+001  +1.2031384300E+000 +1.2105211067E+002 
5640533.166 +4.1160634658E-001 +1.2839741212E+002  +2.8688996217E-001 +9.8968648173E+001  +2.7934245282E-001 +6.7489847956E+001  +9.0794437965E-001 +1.1834885702E+002 
5765678.348 +3.8070094360E-001 +1.3121227230E+002  +3.2974366958E-001 +8.3085181461E+001  +3.2429677772E-001 +5.2553051718E+001  +1.1917700317E+000 +9.6611171280E+001 
5890823.529 +4.2902757276E-001 +1.2137152914E+002  +3.6127951573E-001 +8.9567768868E+001  +3.6190838932E-001 +6.4333232671E+001  +1.2339704877E+000 +1.1183893417E+002 
6015968.711 +4.6003439075E-001 +1.2390843467E+002  +3.8083521971E-001 +6.9498888896E+001  +3.7234943199E-001 +4.8095455201E+001  +1.0958236151E+000 +7.6687101834E+001 
6141113.892 +5.3033526763E-001 +1.0820837283E+002  +4.9548057450E-001 +6.6123722830E+001  +4.7774172381E-001 +4.6080688661E+001  +1.2240152743E+000 +7.5937185519E+001 
6266259.074 +5.8958928536E-001 +8.8402038515E+001  +5.9398629297E-001 +5.8862585894E+001  +5.6687542541E-001 +4.1473898682E+001  +1.1809376324E+000 +7.6591487179E+001 
6391404.255 +6.6060895993E-001 +8.1895428915E+001  +6.6060045831E-001 +4.3212896944E+001  +6.4726155840E-001 +2.7265387703E+001  +1.2580543992E+000 +4.2183261011E+001 
6516549.437 +5.5280502890E-001 +6.4455913684E+001  +6.2771388689E-001 +2.5156999246E+001  +6.0234810965E-001 +1.1657869808E+001  +1.0992887153E+000 +2.9485838365E+001 
6641694.618 +7.6947853619E-001 +6.4933643273E+001  +6.4161163534E-001 +3.0986413033E+001  +6.1472659491E-001 +1.8993174860E+001  +1.0350906923E+000 +4.1991516151E+001 
6766839.800 +6.2927882080E-001 +6.2288029131E+001  +5.2979109923E-001 +1.4635663681E+001  +5.2707618933E-001 +5.3813856429E+000  +9.4943955710E-001 +4.7009929917E+000 
6891984.981 +8.6512030556E-001 +2.1781617426E+001  +6.6292054565E-001 +4.2812950127E+000  +6.3066610893E-001 -1.2749667832E+000  +8.5976939852E-001 +6.5693139771E+000 
7017130.163 +7.9103385211E-001 +3.1382526311E+001  +5.4946064520E-001 +4.5618892891E+000  +5.3298880345E-001 -5.7371427970E-001  +8.2625955252E-001 -6.0336609372E+000 
7142275.344 +8.7840632821E-001 +5.0439760347E+000  +5.4882951202E-001 +1.0752093630E+000  +5.4795010187E-001 -3.5567394800E+000  +7.9486453078E-001 +5.7167129806E+000 
7267420.526 +6.3055218876E-001 +4.2224389529E-001  +4.6225947912E-001 -3.2963670835E+000  +4.5796105462E-001 -2.8038464431E+000  +9.3948828979E-001 -1.4850834574E+001 
7392565.707 +8.1314815955E-001 +4.6395048855E+000  +4.3920470155E-001 +2.7707199181E+000  +4.2894169936E-001 +5.4650026544E+000  +8.9172645176E-001 -1.2637593999E+001 
7517710.889 +5.9848864478E-001 +7.1139037034E+000  +3.8844618171E-001 +1.6383011715E+000  +3.9530221519E-001 +5.2195699066E+000  +7.9496338416E-001 -5.5317875206E+000 
7642856.070 +5.0054948743E-001 +8.7150758489E+000  +3.7867425573E-001 +4.7875048776E-001  +3.7097698125E-001 +4.1509261133E+000  +6.2998372608E-001 -5.0492918469E+000 
7768001.252 +4.2249760783E-001 +6.8072188966E+000  +3.6420919304E-001 -2.3132419627E-001  +3.6199486123E-001 +4.3929307407E+000  +6.2497946793E-001 -3.2673537584E+000 
7893146.433 +4.1746072343E-001 +5.7934465424E+000  +3.4907033623E-001 -1.6624123458E+000  +3.5400832280E-001 +4.8483762822E+000  +5.0401068475E-001 -3.6175839604E+000 
8018291.615 +4.8555640689E-001 +2.1442901407E+001  +3.4035875649E-001 -6.4549176937E-001  +3.3073088260E-001 +8.1515242699E+000  +5.4932607455E-001 +2.6936729305E+000 
8143436.796 +3.7419118221E-001 +2.4259251907E+001  +3.2376783727E-001 -3.0463357437E+000  +3.1681303162E-001 +5.8212839602E+000  +4.1057092012E-001 +1.2747439506E+001 
8268581.977 +3.7425512541E-001 +1.9935602446E+001  +3.1945815654E-001 -3.7501046969E+000  +3.2005509691E-001 +6.5934678794E+000  +4.7204195583E-001 +8.8985226658E+000 
8393727.159 +2.9833973563E-001 +1.3412195502E+001  +3.1930004348E-001 -5.3628098705E+000  +3.0825256291E-001 +5.9189188916E+000  +3.8060973112E-001 +1.6420870692E+001 
8518872.340 +4.0919605559E-001 +2.3994621948E+001  +3.0938234750E-001 -3.8724831914E+000  +3.0673479572E-001 +7.0946274983E+000  +3.1881520534E-001 +1.0994803848E+001 
8644017.522 +3.1549084231E-001 +2.8619019024E+001  +3.0225089216E-001 -3.3862162210E+000  +3.0375846201E-001 +8.2299575857E+000  +3.4738482552E-001 +1.1394985148E+001 
8769162.703 +3.8157513489E-001 +2.4793634930E+001  +3.0595029442E-001 -3.3978766078E+000  +3.0301653993E-001 +8.5664656324E+000  +3.2890368715E-001 +1.1300009457E+001 
8894307.885 +3.3749266733E-001 +2.8388159057E+001  +3.0174591370E-001 -4.7572215325E+000  +2.9933458431E-001 +9.1941672789E+000  +3.0438943429E-001 +5.1486467233E+000 
9019453.066 +2.8622133680E-001 +2.9292390917E+001  +2.9773266724E-001 -5.7980437463E+000  +2.9535206976E-001 +8.7095154310E+000  +2.7820783884E-001 +2.0850631455E+001 
9144598.248 +2.3386447346E-001 +2.5537215812E+001  +3.0184084479E-001 -6.5956584874E+000  +2.9564582191E-001 +9.0122554001E+000  +3.1303473509E-001 +8.2765668304E+000 
9269743.429 +2.8894630863E-001 +1.8593654689E+001  +3.0050347557E-001 -6.0316357650E+000  +2.9735401032E-001 +9.3197093155E+000  +2.5213663685E-001 +1.1568013923E+001 
9394888.611 +2.8654014823E-001 +2.2088186145E+001  +3.0167353628E-001 -4.8611120418E+000  +2.9663071422E-001 +1.1100713618E+001  +3.0695952791E-001 +1.3640796810E+001 
9520033.792 +2.7697532116E-001 +2.1721922577E+001  +2.9774831950E-001 -5.1992209615E+000  +2.9693077808E-001 +1.0498784770E+001  +2.9305694742E-001 +1.0384779335E+001 
9645178.974 +2.1371559412E-001 +6.8643613888E+000  +2.9973539439E-001 -6.7724644950E+000  +2.9578364109E-001 +8.7376116910E+000  +2.7315601487E-001 +1.5918660489E+001 
9770324.155 +2.5552802488E-001 +2.9524489564E+001  +2.9982205489E-001 -5.1742560717E+000  +2.9503209332E-001 +1.0151699354E+001  +2.8290044190E-001 +5.6654094558E-002 
9895469.337 +2.1219636116E-001 +1.1149681444E+001  +3.0482236271E-001 -6.1157382978E+000  +2.9801969538E-001 +9.5692234737E+000  +2.7168274068E-001 +7.7766190686E+000 
10020614.518 +2.4531781959E-001 +8.8697479730E+000  +3.0183262148E-001 -5.0170262629E+000  +3.0418338098E-001 +1.0921962495E+001  +2.7586234560E-001 +9.0651575146E+000 
10145759.700 +2.4023622335E-001 +1.0664317276E+001  +3.0459910949E-001 -5.5844119485E+000  +3.0414678160E-001 +1.0727779692E+001  +2.4321757763E-001 +8.4509759516E+000 
10270904.881 +2.7688470268E-001 +1.7960968773E+001  +3.0154009525E-001 -4.1115825071E+000  +3.0331142715E-001 +1.1840749193E+001  +2.8505330990E-001 +8.5624598961E+000 
10396050.063 +2.4382200081E-001 +2.8309121470E+001  +3.0069997781E-001 -4.5567062943E+000  +2.9935767324E-001 +1.0129153797E+001  +2.4843515503E-001 +1.9019769099E+001 
10521195.244 +2.7192821297E-001 +1.4785739728E+001  +3.0749385599E-001 -4.4673529163E+000  +3.0505582143E-001 +1.1156321592E+001  +2.3429246170E-001 +1.3335098672E+001 
10646340.426 +2.6813125917E-001 +2.6854201504E+001  +3.0490091765E-001 -4.1226785803E+000  +3.0151423784E-001 +1.0727607007E+001  +2.5139486188E-001 +1.8600635173E+001 
10771485.607 +2.6795215702E-001 +2.0299080364E+001  +3.0810254551E-001 -3.5906163122E+000  +3.0792337349E-001 +1.1538932698E+001  +3.0072058939E-001 +1.3802946026E+001 
10896630.788 +2.7763542946E-001 +2.5924201171E+001  +3.0990974657E-001 -2.7442596258E+000  +3.0765079901E-001 +1.0802199297E+001  +2.8686160059E-001 +1.4916444902E+001 
11021775.970 +2.6533617211E-001 +2.0123744614E+001  +3.1252420763E-001 -3.2507140879E+000  +3.0882563694E-001 +1.1110123369E+001  +3.0859788300E-001 +1.7115894225E+001 
11146921.151 +2.9327570148E-001 +2.3940932039E+001  +3.1382166736E-001 -2.4451956028E+000  +3.1037387144E-001 +1.1070668906E+001  +3.1340054354E-001 +1.7761497566E+001 
11272066.333 +2.8534787458E-001 +2.2282195078E+001  +3.2066467300E-001 -2.6253010267E+000  +3.1488517870E-001 +1.0212192048E+001  +2.8404311377E-001 +1.1406196093E+001 
11397211.514 +3.0400699285E-001 +2.1274705515E+001  +3.2007746904E-001 -2.0353264406E+000  +3.1890375818E-001 +1.0188214514E+001  +3.0653300099E-001 +1.0378637652E+001 
11522356.696 +2.9223211758E-001 +1.8487213554E+001  +3.2274414790E-001 -2.0987589306E+000  +3.2382912848E-001 +1.0355144918E+001  +3.4198264319E-001 +1.0180933730E+001 
11647501.877 +3.1346658632E-001 +1.9054104747E+001  +3.2707631564E-001 -1.8179539376E+000  +3.2314982841E-001 +9.5751094591E+000  +2.8838892747E-001 +1.3603522888E+001 
11772647.059 +3.1911138848E-001 +1.8108929383E+001  +3.2943734348E-001 -1.3090436113E+000  +3.2693258173E-001 +9.1778390517E+000  +3.1424542162E-001 +1.0583840989E+001 
11897792.240 +3.3810530578E-001 +1.2984648911E+001  +3.3501806399E-001 -6.6486740362E-001  +3.3185151045E-001 +9.4849581187E+000  +3.3115424658E-001 +9.4072785757E+000 
12022937.422 +3.4813155917E-001 +1.6342465053E+001  +3.3615658717E-001 -1.4939937524E-001  +3.3218535388E-001 +9.1454380274E+000  +3.5688245198E-001 +1.0261327636E+001 
12148082.603 +3.3341950845E-001 +1.2906077182E+001  +3.4144026483E-001 -5.7361330064E-001  +3.3673585077E-001 +8.0425650305E+000  +3.4588065649E-001 +1.0159494115E+001 
12273227.785 +3.7674184122E-001 +1.1195467119E+001  +3.4496431541E-001 +3.3988607949E-001  +3.4343218363E-001 +8.9369878421E+000  +3.7287983700E-001 +6.3145054907E+000 
12398372.966 +3.6020894976E-001 +1.0903578428E+001  +3.4807592477E-001 +7.8451575910E-002  +3.4511322295E-001 +7.6904638390E+000  +3.5832851415E-001 +8.0680487446E+000 
12523518.148 +3.3512163524E-001 +5.3097622774E+000  +3.5351577902E-001 +9.6458833285E-003  +3.5066861926E-001 +7.0145981250E+000  +3.7396294720E-001 +5.3594463373E+000 
12648663.329 +3.7831548772E-001 +7.5647662596E+000  +3.5596375090E-001 +5.4958524254E-001  +3.5264649336E-001 +7.3651002155E+000  +4.0174336845E-001 +5.8735222451E+000 
12773808.511 +3.9084876392E-001 +5.8866081155E+000  +3.6022175100E-001 +4.8735273082E-001  +3.5732626514E-001 +6.5028355843E+000  +3.9239520645E-001 +4.3789084886E+000 
12898953.692 +4.1128773728E-001 +2.8465679701E+000  +3.6610609669E-001 +1.0990873610E+000  +3.6029359065E-001 +6.5757591373E+000  +4.2145268727E-001 +4.2479623919E+000 
13024098.874 +4.2254180493E-001 +5.3067064024E+000  +3.6816658834E-001 +9.8991361919E-001  +3.6315068581E-001 +5.9566855526E+000  +4.1293613128E-001 +3.1394860708E+000 
13149244.055 +4.2375229716E-001 +3.0626599276E+000  +3.7202062369E-001 +1.0573977691E+000  +3.6746703306E-001 +5.1229136731E+000  +4.2104928573E-001 +1.1132281121E+000 
13274389.237 +4.5900858809E-001 +4.7856755947E+000  +3.7312449447E-001 +1.6984465770E+000  +3.7110243819E-001 +5.2710246640E+000  +4.4607169923E-001 +1.3520980032E+000 
13399534.418 +4.4533364431E-001 +4.6787649692E+000  +3.7727812424E-001 +8.4144999286E-001  +3.7288989126E-001 +4.0128219468E+000  +4.2599382418E-001 -5.5911970373E-002 
13524679.599 +4.8091442132E-001 +1.6407768343E+000  +3.8342153811E-001 +1.3707947085E+000  +3.7866188140E-001 +4.5203380266E+000  +4.6994439203E-001 -6.0364514955E-001 
13649824.781 +4.7454315807E-001 -7.8412581024E-001  +3.8481963762E-001 +1.0485868304E+000  +3.8079767349E-001 +3.4850663816E+000  +4.8582200390E-001 +3.2632517623E-001 
13774969.962 +4.8478676306E-001 -6.0487742122E-001  +3.8776326245E-001 +8.9659155933E-001  +3.8499558528E-001 +3.1063449423E+000  +4.8353745481E-001 -2.1624782042E+000 
13900115.144 +5.2153870540E-001 -3.9334590637E+000  +3.9123859727E-001 +1.1409810169E+000  +3.8730209422E-001 +3.1132431765E+000  +4.9984723886E-001 -1.9567651815E+000 
14025260.325 +5.2675451700E-001 -3.4482861771E+000  +3.9590655488E-001 +1.1653289095E+000  +3.8992616570E-001 +2.7773004247E+000  +5.3560414259E-001 -1.5788293673E+000 
14150405.507 +5.1195396842E-001 -2.6185166132E+000  +3.9610193338E-001 +9.4333907446E-001  +3.9407381414E-001 +2.2179418753E+000  +5.5866803970E-001 -2.6799790955E+000 
14275550.688 +5.6124320697E-001 -6.2936351057E+000  +4.0124728131E-001 +9.6804401918E-001  +3.9647458416E-001 +1.8524376961E+000  +5.4050298269E-001 -3.3981682012E+000 
14400695.870 +5.6882895089E-001 -6.1361147061E+000  +4.0437765704E-001 +7.5997770839E-001  +3.9882851313E-001 +1.5101693923E+000  +5.7524351227E-001 -5.9154366787E+000 
