!  2-Port S-parameters saved by WinCal
! VAR MeasName=S-Parameters (CALIBRATED_DATA) read from VNA (P5004A)
! VAR MeasDate=28/08/2024 17:00:27
! VAR NAME=S2_r9c9_RESET4_9k-100M_3
! VAR FILENAME=S2_r9c9_RESET4_9k-100M_3.S2P
! VAR DATE=28/08/2024 17:00:27
! VAR PHYS_PORTS=1,2
! VAR ObjTypeName=DATASET
! VAR IndexType=Frequency
!
# Hz S MA R 50
9000.000 +9.9356203158E-002 -1.7380721177E+002  +5.1387866417E-003 +1.6458091884E+002  +3.5138142274E-003 -1.4212009164E+002  +2.4690303802E-001 -1.3651852301E+002 
134145.181 +1.1150136421E-001 +1.6940430020E+002  +1.0724142617E-004 -2.4804372664E+001  +3.6509068765E-004 +4.7276037319E+001  +2.3738930302E-001 -1.7162503146E+002 
259290.363 +1.1126635650E-001 +1.6987043486E+002  +1.6989786963E-003 -2.4274849474E+001  +1.4485680848E-004 -1.8013367813E+001  +2.4460463401E-001 -1.6742781662E+002 
384435.544 +1.1285142193E-001 +1.7016526196E+002  +6.3232699463E-004 -7.2074555815E+001  +3.8661056747E-004 -1.5311101986E+001  +2.4085984865E-001 -1.7011288386E+002 
509580.726 +1.1483045975E-001 +1.7119978395E+002  +1.9626300509E-003 -1.7395939313E+002  +1.5766078513E-003 +1.4775954982E+002  +2.5666226126E-001 -1.6229266733E+002 
634725.907 +1.1791080592E-001 +1.7184801379E+002  +8.2417609190E-004 +3.5320498028E+001  +5.7386326074E-004 -1.4262708116E+001  +2.6089473132E-001 -1.6285266673E+002 
759871.089 +1.2004686131E-001 +1.7177295964E+002  +3.5268305472E-004 -5.3628402022E+001  +1.0662024710E-003 -2.4272282023E+001  +2.5467508348E-001 -1.6598678451E+002 
885016.270 +1.2021538286E-001 +1.6926077883E+002  +3.0507818279E-004 +2.2773797474E+001  +1.4678758791E-004 +1.0475399601E+002  +2.4744598512E-001 -1.6643319564E+002 
1010161.452 +1.1380667673E-001 +1.6928235215E+002  +1.3260308411E-003 -7.8586147703E+001  +4.0128395968E-004 -3.3035337673E+001  +2.1732767759E-001 -1.6803508656E+002 
1135306.633 +1.1388176072E-001 +1.6861267439E+002  +1.9865880267E-003 -1.4424393728E+002  +5.7832430924E-004 +1.1655501125E+002  +2.0349255771E-001 -1.6864867983E+002 
1260451.815 +1.2390026460E-001 +1.7121136774E+002  +2.5339734994E-004 -7.4385485716E+001  +1.3650011002E-003 +9.2003560342E+001  +2.2591734015E-001 -1.5577316588E+002 
1385596.996 +1.2547983083E-001 +1.7315233881E+002  +5.3964147883E-004 -1.7453497480E+002  +1.6467668656E-003 +4.3279157521E+001  +2.5049656541E-001 -1.5491920613E+002 
1510742.178 +1.2808743351E-001 +1.7202473213E+002  +3.8591618530E-004 +1.0898799320E+002  +9.1833038143E-004 +4.9321966222E+001  +2.7812393825E-001 -1.5864958122E+002 
1635887.359 +1.3086508272E-001 +1.7112157092E+002  +5.7635704338E-004 +1.4508972599E+002  +7.8052565265E-004 -1.1742029173E+002  +2.3329808864E-001 -1.6100595415E+002 
1761032.541 +1.2673292829E-001 +1.6947837885E+002  +2.1796483972E-003 +3.4126624550E+001  +1.1410258045E-003 -5.9171488547E+001  +2.2418723696E-001 -1.5660096674E+002 
1886177.722 +1.2945895493E-001 +1.6934028041E+002  +9.8144166228E-004 -1.2722232603E+002  +6.9720124003E-004 +5.5055566795E+001  +2.2275681271E-001 -1.6353750803E+002 
2011322.904 +1.3111915550E-001 +1.6878914085E+002  +2.1349313084E-003 -1.3650568383E+002  +3.7543470995E-004 -1.3357671208E+002  +2.0827844382E-001 -1.6304176178E+002 
2136468.085 +1.2867353273E-001 +1.6829336686E+002  +4.7308535003E-003 +1.2671864985E+001  +1.8538379700E-003 -7.0315529924E+001  +1.6568699823E-001 +1.7200399074E+002 
2261613.267 +1.3000192395E-001 +1.6469551131E+002  +1.7656282066E-003 +1.4288705860E+001  +2.3213688945E-003 -1.5328315400E+002  +1.2878493428E-001 +1.7112400935E+002 
2386758.448 +1.3163400107E-001 +1.7010917441E+002  +2.6818988441E-003 +1.0631199992E+002  +5.0575107211E-003 -1.4160878960E+002  +2.0486623677E-001 +1.6070238612E+002 
2511903.630 +1.3058009586E-001 +1.6632358213E+002  +1.0441514234E-002 -4.9826979322E+000  +3.2007119060E-003 +1.0283543791E+002  +1.9603379151E-001 +1.4515120778E+002 
2637048.811 +1.2672848629E-001 +1.7115205058E+002  +6.3125303922E-003 +7.1406130346E+001  +3.7502539952E-003 +1.0998089757E+002  +3.3639761602E-001 +1.6291603072E+002 
2762193.992 +1.2093270527E-001 +1.7113880916E+002  +7.0924963162E-003 -6.6919994694E+001  +7.0460341383E-003 +5.4128307222E+001  +8.8820982449E-001 +1.2843736278E+002 
2887339.174 +1.1478881629E-001 +1.7487858234E+002  +1.1201061745E-002 +1.3228771758E+002  +1.7387835451E-002 -1.1614082171E+002  +9.0227209050E-001 -1.1817985103E+002 
3012484.355 +1.1974762713E-001 +1.7504397218E+002  +6.8312791272E-003 -6.7950092863E+001  +3.9524785119E-003 +1.7896158459E+002  +7.4640552462E-002 -4.5140664380E+001 
3137629.537 +1.3103630775E-001 +1.7062558977E+002  +1.1636405469E-002 -3.4794044653E+001  +4.5161687425E-003 -2.2115335091E+001  +2.1069651605E-001 -6.5681147351E+001 
3262774.718 +1.2754791017E-001 +1.6519474728E+002  +1.5953411160E-002 -1.3014406597E+002  +1.8845431880E-002 +5.1009038550E+001  +9.4463900758E-001 -2.6096183589E+001 
3387919.900 +1.2293568590E-001 +1.5464666654E+002  +4.8596392300E-003 +1.7774734355E+002  +1.4235631285E-002 +6.6897336458E+001  +9.9174970848E-002 -4.0268286631E+000 
3513065.081 +1.4720098911E-001 +1.5803327362E+002  +5.2478407616E-002 -4.7001709614E+001  +2.8975330414E-002 +8.9293676805E+000  +4.0084566386E+000 -1.6857118808E+002 
3638210.263 +1.6461354009E-001 +1.5149756569E+002  +4.8090513002E-003 -4.1542784565E+001  +6.8182279552E-003 -5.7114729627E+001  +4.0085625477E-001 +1.5162509988E+002 
3763355.444 +1.5012331998E-001 +1.4176420194E+002  +2.1071870131E-003 -7.7442208331E+000  +6.1413197182E-003 -9.3555822611E+001  +6.3813734192E-001 +1.5463518903E+002 
3888500.626 +1.7942376066E-001 +1.4761869815E+002  +6.4333679086E-003 +9.9975205588E+001  +5.1113098629E-003 -1.0835256627E+002  +3.6978552607E-001 +1.5101578898E+002 
4013645.807 +2.1390064721E-001 +1.4491312158E+002  +2.2225204031E-003 +2.0600682323E+001  +7.4192228226E-003 +5.9489598832E+001  +2.8903201194E-001 +1.1542205820E+002 
4138790.989 +1.9026083343E-001 +1.4501363381E+002  +3.3647985254E-002 -8.8417428679E+001  +3.5187956156E-002 -3.4990580591E+001  +1.1403003351E+000 +2.8586066273E+001 
4263936.170 +1.9338683088E-001 +1.4158949910E+002  +3.5211536901E-003 -1.6797848291E+002  +5.7179959427E-003 +8.7794668749E+001  +5.1582470283E-001 +1.1551448321E+002 
4389081.352 +1.9865489566E-001 +1.4469930198E+002  +3.8132262902E-003 -1.5781419638E+002  +1.0320549434E-002 +3.7642462346E+001  +6.6391029675E-001 +1.3862204088E+002 
4514226.533 +1.8346213933E-001 +1.3329060412E+002  +1.0825525277E-001 -9.9945491661E+001  +4.7961602860E-002 +8.6123905514E+001  +7.4020877742E+000 -4.6273891654E+001 
4639371.715 +2.6173776965E-001 +1.3456610303E+002  +4.2293008558E-002 -1.3059693292E+000  +6.0207118834E-002 +4.2224833288E+000  +1.5265987220E+000 -2.6725971643E+000 
4764516.896 +3.8344609748E-001 +1.2140380570E+002  +9.2235089431E-002 -6.9238463061E+000  +7.1502578315E-002 +8.9923261628E+001  +4.7422892498E+000 +2.2239914268E+001 
4889662.078 +3.4729813124E-001 +1.2429986796E+002  +4.2503868497E-002 -1.6596427782E+002  +9.4817193491E-003 +7.9279470805E+001  +3.9456913039E+000 +3.7923850303E+000 
5014807.259 +4.2092246372E-001 +1.2256442927E+002  +1.2051446272E-001 +5.9633815576E+001  +9.4640067503E-003 +1.0736165916E+002  +5.6903464515E+000 -5.1233540167E+001 
5139952.441 +4.1969737329E-001 +1.3020491418E+002  +2.7533445206E-002 -1.5930016154E+001  +5.4736527498E-003 -1.0174332265E+002  +3.3087192625E+000 +1.2086667800E+002 
5265097.622 +4.2398032981E-001 +1.3452516669E+002  +1.5661157182E-002 +1.4295461100E+002  +3.5129206702E-002 +1.3437406770E+002  +2.8725078077E+000 +1.4270552888E+002 
5390242.804 +4.7585663903E-001 +1.2932956653E+002  +4.5182290224E-002 -2.7020171415E+001  +2.5290966297E-002 -8.1549770496E+001  +3.2133523958E+000 +9.3605986337E+001 
5515387.985 +4.3489827506E-001 +1.3344421815E+002  +1.8929969327E-002 +1.6152678023E+002  +1.7857744456E-002 -6.0219007569E+001  +2.6376919128E+000 +1.2830825580E+002 
5640533.166 +5.0544946423E-001 +1.2902568829E+002  +1.6240661942E-002 -1.1041666686E+002  +2.3591433164E-002 -7.2860516554E+001  +1.2674567147E+000 +6.2364840595E+001 
5765678.348 +4.4071764859E-001 +1.2527134975E+002  +8.1662381758E-003 +1.1597142571E+002  +2.1767926766E-002 -6.2339612697E+001  +2.1630983638E+000 +7.9895454834E+001 
5890823.529 +5.5694782738E-001 +1.2637221583E+002  +1.2121672524E-002 +1.5957028499E+002  +1.9689487371E-003 -2.4895189562E+001  +1.3325285938E+000 +7.8962894563E+001 
6015968.711 +5.9856004723E-001 +1.2032998762E+002  +7.4420276811E-003 +5.4446501179E+001  +2.7446673154E-002 +9.4040483830E+001  +2.7011087962E+000 +2.2022150944E+001 
6141113.892 +6.4033340240E-001 +1.1598202535E+002  +9.0261187275E-003 +1.1417904892E+002  +1.5692976715E-002 +4.1194108489E+001  +2.3305759109E+000 +3.0215220677E+001 
6266259.074 +7.7580000387E-001 +1.0270455708E+002  +6.6999156444E-003 -1.3924197137E+002  +2.1933847581E-002 -1.4874780081E+002  +1.6822823587E+000 +2.8256874275E+001 
6391404.255 +1.1223723050E+000 +9.7751192622E+001  +1.0414996021E-002 -6.7480202258E+001  +1.9784246227E-002 -9.6534940920E+001  +1.4535710770E+000 +1.2269094627E+001 
6516549.437 +1.0124691740E+000 +8.9244158375E+001  +4.3759766464E-003 -6.1898866384E+001  +2.0941184245E-002 +1.6299707868E+002  +1.6573953943E+000 +2.0534515410E+001 
6641694.618 +1.5830571753E+000 +7.4011162563E+001  +1.3228758028E-002 +1.1780921561E+002  +1.3813359317E-003 -2.0656966037E+001  +1.2025014570E+000 -1.7061258289E+001 
6766839.800 +1.6152124973E+000 +6.4956403370E+001  +7.3272572604E-003 -9.2978119359E+001  +2.0742019895E-002 -1.7150504436E+002  +1.1420511878E+000 -9.9806830148E+000 
6891984.981 +1.6451676534E+000 +4.7785241455E+001  +3.0149953711E-002 -4.8494137553E+001  +1.6837979135E-002 +1.5876468549E+002  +1.2703217224E+000 -4.3108930695E+000 
7017130.163 +1.4787782717E+000 +2.2854100859E+001  +2.6920301160E-002 +7.5854927393E+001  +1.1311409295E-002 -1.8123011819E+001  +1.1502745287E+000 -1.4646484095E+001 
7142275.344 +1.5995695099E+000 -4.1969560051E+000  +6.5749062612E-003 +5.1155393410E+001  +1.5947968352E-002 -1.6613499395E+002  +1.3008134774E+000 -1.0967699297E+001 
7267420.526 +1.4372686114E+000 -6.2042227247E+000  +7.8511733926E-003 -1.1135509356E+002  +9.4521714023E-003 -1.4125042236E+002  +1.3149046193E+000 -7.6124751101E+000 
7392565.707 +1.2250617799E+000 -3.2570957897E-001  +9.9893623303E-003 +9.2588607433E+001  +3.8173185541E-003 +1.7327087717E+002  +1.2471732200E+000 -5.9417223877E+000 
7517710.889 +1.0664026321E+000 -6.2359722226E+000  +4.4283634407E-003 +1.3696493293E+002  +1.4236341078E-002 +4.8015855754E+001  +1.1797652351E+000 -7.6057720692E+000 
7642856.070 +1.1304041430E+000 +4.4865646749E+000  +7.4915162522E-003 -1.3387218308E+002  +6.8124388892E-003 -1.2335222564E+002  +9.2783148494E-001 +2.5941255268E+000 
7768001.252 +8.7188582452E-001 +1.0095066252E+001  +1.5459533814E-003 -1.4350746847E+002  +6.8730259702E-003 +9.7922092502E+001  +9.9271740523E-001 -1.3985400269E+000 
7893146.433 +9.6067407554E-001 +6.1444535996E+000  +4.6300085058E-004 -2.9634366102E+001  +6.4331425589E-003 +2.4947408195E+001  +9.7625993565E-001 +2.5924977901E+000 
8018291.615 +8.4276103934E-001 -2.1655707300E-001  +5.3215118386E-003 -1.0289811623E+002  +5.1124110327E-003 -1.0582080723E+002  +8.8296566192E-001 -1.1597546114E+000 
8143436.796 +7.8754768906E-001 +8.2583950343E+000  +3.8982966984E-003 +1.7377148184E+002  +2.6485218907E-003 -2.2178894261E+001  +7.9090135771E-001 -1.4610463064E+000 
8268581.977 +7.1052952492E-001 +8.9563774205E+000  +5.6348120474E-003 +1.2423955020E+002  +4.0891549204E-003 -1.6798852548E+002  +7.8781555362E-001 -4.1372782884E+000 
8393727.159 +6.5637858181E-001 +4.2493483389E+000  +3.6039527096E-003 -5.9518330422E+001  +4.4796302380E-003 -1.0717759959E+002  +7.6377155437E-001 +5.1930484799E+000 
8518872.340 +6.6526275157E-001 +4.3818891254E+000  +2.0481083678E-003 +2.5504677916E+001  +1.9704547298E-003 -1.4250976588E+002  +7.9161010131E-001 +4.2522048179E-002 
8644017.522 +6.6993468705E-001 +1.3091770610E+001  +3.8636389996E-003 +1.6502382601E+002  +1.3635677202E-004 -1.0019033024E+002  +7.3762905111E-001 -7.8413074905E-001 
8769162.703 +6.6128244166E-001 +1.0836584717E+001  +9.5867972592E-004 +1.2207904842E+002  +1.5319211826E-003 +3.1827671602E+001  +6.7168492812E-001 +3.8608010459E+000 
8894307.885 +5.9235505938E-001 +9.7070419018E+000  +3.8843541933E-003 -6.3046203911E+001  +4.5323749776E-003 +7.7853557035E+001  +6.4826167874E-001 -3.0370149376E+000 
9019453.066 +6.2635561067E-001 +6.1143825195E+000  +3.1679384244E-003 -1.0596150377E+002  +3.0965128326E-003 +1.1564612254E+002  +6.8537896870E-001 +2.5381752412E+000 
9144598.248 +4.9882167522E-001 +5.0866822667E+000  +2.4294657788E-003 -1.4200152204E+002  +4.9922708756E-003 +7.0192106064E+001  +6.2177517982E-001 -1.6921702839E-001 
9269743.429 +5.9701870870E-001 +8.6307486170E+000  +1.9980657419E-003 +1.1090516220E+002  +1.9896321443E-003 -6.2650044233E+001  +6.6968807944E-001 -1.9788759787E+000 
9394888.611 +5.4762903164E-001 +1.1737494221E+001  +3.8678636221E-003 +1.6580959044E+000  +4.7237108403E-003 -7.2075612261E+001  +6.1523549132E-001 -3.8861009413E+000 
9520033.792 +5.9830806815E-001 +2.7176720611E+000  +3.0758159057E-003 -1.2361799014E+002  +4.0216899947E-004 +4.9819895322E+001  +5.2860670453E-001 -1.1987164968E+000 
9645178.974 +5.8223864179E-001 +4.9319679431E+000  +1.2205348564E-003 -1.3419118713E+001  +2.7743538689E-003 +1.5584957648E+002  +5.7221099550E-001 +1.6840766289E-001 
9770324.155 +5.6302168267E-001 +2.2981387166E+000  +1.2753067096E-003 -1.7117564140E+002  +1.5191319866E-003 +4.3052419863E+001  +5.9355494520E-001 -6.9977624991E+000 
9895469.337 +5.2470909905E-001 -1.9253615401E+000  +3.1591014750E-003 +1.2056580722E+002  +1.6394534090E-003 +7.8219510650E+000  +5.7579248357E-001 -3.5828318431E+000 
10020614.518 +5.3132853640E-001 +4.4720665402E+000  +2.2767263146E-003 +5.0641178034E+001  +9.9652529569E-004 -1.7115626750E+002  +5.8492432538E-001 -3.6786658042E+000 
10145759.700 +5.3532712384E-001 +9.5608264188E+000  +2.4227822003E-003 +4.0057875956E-001  +3.2618146079E-003 +1.5198005202E+002  +5.5635918084E-001 -3.8247148599E+000 
10270904.881 +5.5909531304E-001 +7.0664609786E+000  +1.1159045333E-003 -1.4656576947E+002  +1.5509087813E-003 -6.3577320231E+001  +5.9535653673E-001 -3.4025009382E+000 
10396050.063 +5.7162911875E-001 +7.9946588086E+000  +1.6554364224E-003 -2.0768499849E+001  +2.9369238100E-003 +1.7945688075E+002  +6.0037351606E-001 -2.6959297622E+000 
10521195.244 +5.5437325839E-001 +1.0071170439E+001  +3.0968647569E-003 -6.5809391871E+001  +1.6274523481E-003 -1.7358338234E+002  +5.6417766079E-001 +2.5469615703E+000 
10646340.426 +5.6853810192E-001 +9.3504883993E+000  +8.1834796920E-004 +1.0399729390E+002  +1.6639915553E-003 -7.0059571979E+001  +5.8733459810E-001 +3.8681254728E+000 
10771485.607 +5.5880860149E-001 +6.5651134514E+000  +2.1997455560E-003 +2.0269021029E+000  +6.4263035433E-004 -1.7740535994E+002  +6.5204556835E-001 -1.3715216251E-001 
10896630.788 +5.9211916397E-001 +8.1810961363E+000  +2.1613393634E-003 -5.9012378005E+001  +3.4624548099E-003 -1.1823531875E+002  +6.2861925266E-001 -3.7838429339E-001 
11021775.970 +5.7585711867E-001 +1.0839251909E+001  +1.5351942856E-003 +1.0040062324E+002  +3.2795000213E-004 -1.6221574833E+001  +5.9183299731E-001 +2.7132285925E+000 
11146921.151 +5.9202710610E-001 +7.5101203743E+000  +4.5966422780E-003 +1.7817044014E+002  +5.1105579145E-004 +1.2284819135E+001  +6.1394195051E-001 +2.2973363737E+000 
11272066.333 +6.1533091288E-001 +5.2807013117E+000  +1.5331520444E-003 -6.7961628016E+001  +2.1006690413E-003 +1.7366162941E+001  +6.0158683781E-001 -1.5371118713E-001 
11397211.514 +6.3361481493E-001 +6.1234543019E+000  +2.4521204521E-003 +1.5149354766E+002  +2.0305277769E-003 -6.4477459076E+000  +6.3252892995E-001 +1.3839242895E+000 
11522356.696 +6.3672628389E-001 +9.4583922154E+000  +9.6018814575E-004 +2.5837311219E+001  +2.7854048229E-003 +1.1882529973E+002  +6.4527011823E-001 +1.1964230398E+000 
11647501.877 +6.3242700736E-001 +7.1717506275E+000  +2.5209925796E-003 -6.1222423532E+001  +1.6587624559E-003 -1.4708848403E+002  +6.5969122317E-001 +3.2396197937E+000 
11772647.059 +6.8344111223E-001 +6.7925259769E+000  +1.9277973721E-003 -8.2972000313E+001  +6.2514549311E-004 -4.6227742579E+000  +6.6455403165E-001 +3.9061686583E+000 
11897792.240 +6.6467294267E-001 +7.6054695934E+000  +1.0007290250E-003 -6.4314936264E+001  +1.5326333878E-003 -6.6363073065E+001  +6.5400284823E-001 +1.0782915206E+000 
12022937.422 +6.6720568106E-001 +4.6959520547E+000  +1.8759693331E-003 -5.5155260390E+000  +3.6741878841E-003 +7.5525992788E+001  +6.8236298894E-001 +5.1544444609E-001 
12148082.603 +7.0532398394E-001 +4.9185213345E+000  +5.3958558202E-004 -2.1536378778E+001  +1.8812369158E-003 -5.7722106417E+001  +7.0627916161E-001 +1.3110625043E+000 
12273227.785 +6.9503560242E-001 +4.6567937461E+000  +2.2563107051E-003 +1.9198692788E+001  +1.0942956693E-003 -3.6986972794E+001  +6.8213923213E-001 +1.7567850301E+000 
12398372.966 +7.3395092661E-001 +4.9986683878E+000  +9.1302119472E-004 +7.4098296653E+001  +1.1971913839E-003 -5.2837739161E+001  +7.3405662710E-001 -6.7668570043E-002 
12523518.148 +7.3940364969E-001 +2.4568283125E+000  +1.5700702196E-003 +7.6532045777E+001  +2.1956344060E-003 +4.9084656257E+001  +7.6864284394E-001 -1.6736875519E-001 
12648663.329 +7.2412329776E-001 +3.0274051727E+000  +1.5277052793E-003 -8.1784554270E+001  +9.5913932953E-004 -5.4127099040E+001  +7.4274173840E-001 -1.5832855227E-001 
12773808.511 +7.5875893393E-001 +4.6901529780E+000  +1.9941719051E-003 +1.5725884170E+002  +1.9547136915E-003 +6.2426315492E+001  +7.6031861837E-001 +1.1498888164E-001 
12898953.692 +7.7029529305E-001 +4.6930209594E-001  +1.2359631111E-003 +9.2092319552E+001  +4.5076271446E-004 -8.6443582416E+001  +7.7121430001E-001 +4.2793790614E-001 
13024098.874 +8.0652063021E-001 +1.2030718071E+000  +3.1898683438E-004 -1.6095968749E+002  +2.6448904212E-003 +4.4106001720E+001  +8.0320799810E-001 -1.5304970187E-001 
13149244.055 +7.8470596128E-001 +1.6681443913E+000  +1.1614477096E-003 -1.2035413904E+002  +1.7555652818E-003 +1.4982837401E+002  +8.1013739752E-001 -2.6927768451E-001 
13274389.237 +8.0637493611E-001 +1.3779888842E+000  +5.5064088307E-004 +1.2225401828E+002  +8.4757337667E-004 +1.3843010155E+000  +8.3363677759E-001 -2.8521208328E-001 
13399534.418 +8.4024895619E-001 -1.4142541331E+000  +1.3637078071E-003 +9.1542688625E+001  +6.7003845573E-004 +1.4294945010E+002  +8.5940388858E-001 -1.9482475982E+000 
13524679.599 +8.5602133337E-001 -2.0162895470E+000  +8.5880645284E-004 +9.1080508540E+001  +4.8152918348E-004 +9.0849791840E+001  +8.4591418398E-001 -1.0033391027E+000 
13649824.781 +8.8170213911E-001 -1.4037238972E+000  +1.2622824618E-003 +2.3956958470E+001  +1.8649301766E-003 +1.2104552125E+002  +8.8243184160E-001 -2.7965733557E+000 
13774969.962 +8.7867685659E-001 -7.5986889066E-001  +6.3950726393E-004 -1.3018469084E+002  +8.7272224661E-004 +1.6408699410E+002  +8.8958867067E-001 -2.3946470773E+000 
13900115.144 +9.1334498602E-001 -2.7873490861E+000  +9.3413597089E-004 +1.7279032491E+002  +1.6413448590E-003 +4.5812062149E+001  +9.3819374584E-001 -3.6751752348E+000 
14025260.325 +9.2545399892E-001 -1.6494667768E+000  +1.7668135061E-003 +9.9257717809E+001  +1.0364449624E-003 +1.2478342415E+002  +9.1308069098E-001 -2.6983341649E+000 
14150405.507 +9.3888335923E-001 -5.6374721429E+000  +1.4816445521E-003 +1.4990270264E+002  +1.1968050604E-003 -1.1240332568E+002  +9.5637607495E-001 -4.0690433646E+000 
14275550.688 +9.6502401178E-001 -3.3624008430E+000  +1.2938200747E-003 -2.5355766807E+001  +1.0731906532E-003 -1.0568716138E+002  +9.9454793886E-001 -3.9435316852E+000 
14400695.870 +9.7708321794E-001 -4.2596201906E+000  +1.0761661449E-003 +1.9880825813E+001  +1.4821539611E-003 +1.5690723308E+002  +9.7647940028E-001 -2.9139682415E+000 
