!  2-Port S-parameters saved by WinCal
! VAR MeasName=S-Parameters (CALIBRATED_DATA) read from VNA (P5004A)
! VAR MeasDate=29/08/2024 11:16:31
! VAR NAME=S2_r9c3_RESET3_9k-100M_1
! VAR FILENAME=S2_r9c3_RESET3_9k-100M_1.S2P
! VAR DATE=29/08/2024 11:16:31
! VAR PHYS_PORTS=1,2
! VAR ObjTypeName=DATASET
! VAR IndexType=Frequency
!
# Hz S MA R 50
9000.000 +8.3923918955E-002 -1.7422665599E+002  +4.1426585779E-003 +1.0392370231E+002  +5.5129177032E-003 +1.0050164999E+002  +2.2131608818E-001 -1.5104768219E+002 
134145.181 +1.1093565182E-001 +1.6963935924E+002  +1.1715188795E-004 +2.3109477452E+001  +5.9198883269E-004 +1.6337869311E+002  +2.3669513104E-001 -1.7117553761E+002 
259290.363 +1.1250546243E-001 +1.6951598506E+002  +4.8068610636E-004 -1.6932125611E+002  +6.7190972755E-004 +8.9746230553E+001  +2.4104656004E-001 -1.6794217258E+002 
384435.544 +1.1305803332E-001 +1.7042364945E+002  +9.2667010452E-005 -7.1822581788E+001  +2.7772370165E-004 +8.0466375949E+001  +2.4213885068E-001 -1.7028027765E+002 
509580.726 +1.1310845709E-001 +1.7016096079E+002  +2.3226534298E-004 -2.7297185870E+001  +8.0626924222E-004 +8.9461353998E+001  +2.3184952375E-001 -1.6459516294E+002 
634725.907 +1.1902533166E-001 +1.7179033174E+002  +5.7584426602E-004 -1.2606640533E+002  +7.4484011761E-004 +1.5227289409E+002  +2.5901659341E-001 -1.6453732283E+002 
759871.089 +1.2113852758E-001 +1.7080006001E+002  +9.0313303464E-004 -1.2658471793E+002  +4.4991893365E-004 +1.0901551298E+002  +2.4840326825E-001 -1.6564972047E+002 
885016.270 +1.2034821784E-001 +1.6895229385E+002  +6.8400052171E-004 -7.4402912973E+001  +8.2943500341E-004 +6.1921053294E+001  +2.4537052380E-001 -1.6640228068E+002 
1010161.452 +1.1604723963E-001 +1.6973233614E+002  +6.7701739198E-004 -2.9347083744E+001  +8.5235489515E-004 +8.4928887747E+001  +2.0621097183E-001 -1.6792670314E+002 
1135306.633 +1.1616086360E-001 +1.6915728125E+002  +2.1899669988E-003 +5.0506270474E+001  +3.5752450065E-003 -1.5148228361E+002  +1.6965405702E-001 -1.7647485103E+002 
1260451.815 +1.2087438080E-001 +1.7004554638E+002  +4.2949593911E-004 +1.3785526784E+002  +8.1669262279E-004 +1.7396160505E+002  +2.3066108512E-001 -1.5961143945E+002 
1385596.996 +1.2486852862E-001 +1.7242707459E+002  +4.6003787462E-004 +5.3779862395E+001  +3.3647715974E-004 +7.9527319905E+001  +2.5978554278E-001 -1.5782714558E+002 
1510742.178 +1.2575959021E-001 +1.7197009005E+002  +2.8611504051E-003 -8.0445115963E+001  +9.8771483218E-004 +1.0477293055E+002  +2.5996520733E-001 -1.5813531593E+002 
1635887.359 +1.2707596761E-001 +1.7017412017E+002  +1.1118658723E-003 -6.4347350093E+001  +5.0664609285E-004 -7.6052441505E+001  +2.4638818040E-001 -1.6027669689E+002 
1761032.541 +1.3011294339E-001 +1.7180241050E+002  +1.3477492456E-003 -9.3965540637E-001  +3.1487341394E-003 -1.7201113924E+002  +2.2060761758E-001 -1.5725258953E+002 
1886177.722 +1.3225176197E-001 +1.6835461280E+002  +2.9071791047E-003 +1.9039707642E+001  +1.8134866579E-003 -7.7868194476E+001  +1.8542281056E-001 -1.5899199339E+002 
2011322.904 +1.2482192091E-001 +1.6880309308E+002  +8.1955191128E-003 +3.6593534279E+000  +6.2167968848E-003 -1.4295867916E+002  +1.4731798862E-001 -1.5257581433E+002 
2136468.085 +1.3057010627E-001 +1.7024560894E+002  +3.3678005692E-003 +8.3411656963E+001  +4.3516882094E-003 -1.1754737446E+002  +1.9846983058E-001 -1.6470051978E+002 
2261613.267 +1.3186757664E-001 +1.6609363388E+002  +1.1595136777E-002 +6.9284712095E+001  +1.0007626908E-002 -3.0895605148E+001  +8.8149224924E-002 +1.0056084937E+002 
2386758.448 +1.3951710428E-001 +1.6429241738E+002  +4.2697254552E-003 +1.0564358038E+002  +4.9779488865E-003 -1.0600163962E+001  +2.2164003450E-001 +1.7056080887E+002 
2511903.630 +1.3047886855E-001 +1.6484786644E+002  +1.4415256718E-002 +3.3205157649E+001  +1.7938321825E-002 -5.6782971591E+001  +9.4523125979E-002 -1.5595759566E+002 
2637048.811 +1.3846363663E-001 +1.6359313910E+002  +3.1911948948E-002 +2.5475908697E+001  +2.0286945791E-002 -8.1212875113E+001  +1.4820059993E-001 -6.4650709277E+001 
2762193.992 +1.2900731291E-001 +1.6879891578E+002  +2.4636340296E-001 -1.0703870838E+002  +2.6010087513E-001 +1.2576810437E+002  +3.0690477452E+000 -1.0110921378E+002 
2887339.174 +1.2786162799E-001 +1.7358914829E+002  +2.1110831508E-002 -5.5750639898E+001  +1.7839543261E-002 -1.3438689819E+002  +3.0013828860E-001 -1.1562033699E+002 
3012484.355 +1.3599652617E-001 +1.6197380843E+002  +3.2927585695E-002 +1.1147730883E+001  +3.4316155443E-002 -6.9426388491E+001  +2.3897108245E-001 -9.7601478747E+000 
3137629.537 +1.3011711958E-001 +1.7534185092E+002  +5.0983693921E-002 -1.8316789030E+001  +4.4883512433E-002 -9.5628547585E+001  +2.3592567651E-001 -3.3118987456E+000 
3262774.718 +1.2581283022E-001 +1.7005430609E+002  +2.4040725450E-002 -5.0637826950E+001  +2.5053169709E-002 -1.1354670142E+002  +1.3668176978E-001 -9.2801345456E+001 
3387919.900 +1.2325897473E-001 +1.5384729946E+002  +1.6341130880E-001 -3.0444835912E+001  +1.5274660210E-001 -9.1796057604E+001  +1.5563674736E+000 -3.3689325056E+001 
3513065.081 +1.5248170066E-001 +1.5131902342E+002  +3.9588670510E-002 +8.7210101675E+001  +5.1021780027E-002 -2.0140379104E+000  +3.9838325363E-001 +9.2462464059E+001 
3638210.263 +1.7761601693E-001 +1.4171729407E+002  +5.7833939234E-002 +1.0951905590E+002  +3.0905813203E-002 +2.6624740909E+001  +4.9951136273E-001 +1.1366847856E+002 
3763355.444 +1.8908472823E-001 +1.4838317777E+002  +3.9911148129E-002 +9.6266896868E+001  +2.8756921991E-002 -1.2189835873E+001  +2.1241245140E-001 +1.0256484319E+002 
3888500.626 +1.7700997212E-001 +1.5005010192E+002  +2.5592583670E-002 +5.8210009628E+001  +3.2325871678E-002 -6.9756714815E-001  +2.1734133106E-001 +9.1688061163E+001 
4013645.807 +1.6627893090E-001 +1.5233339167E+002  +2.6920842326E-002 +8.7758455526E+001  +2.2607619169E-002 +1.3914710489E+000  +2.8810904970E-001 +1.5528591446E+002 
4138790.989 +1.9253361705E-001 +1.4441616007E+002  +4.6015654655E-002 +7.8833126373E+001  +3.8231423363E-002 +2.6251888151E+001  +3.6825251950E-001 +9.4256128929E+001 
4263936.170 +1.9723952753E-001 +1.3731260004E+002  +5.2795863616E-002 +1.1894824706E+002  +5.4614147811E-002 +5.2175089241E+001  +7.9385572672E-001 +1.3279419920E+002 
4389081.352 +2.4914695897E-001 +1.4314766532E+002  +3.3702828763E-002 +1.1054103524E+002  +3.4340929437E-002 +4.6814794513E+001  +4.1777761457E-001 +1.2190048568E+002 
4514226.533 +2.5345222194E-001 +1.3525374938E+002  +8.6798904228E-002 +9.7655879514E+001  +7.3346969839E-002 +4.5423051875E+001  +7.0461613430E-001 +9.7020746678E+001 
4639371.715 +2.5137915308E-001 +1.3115721595E+002  +9.9995378345E-002 +8.2113412242E+001  +9.8491626507E-002 +1.0758210863E+001  +7.6172490098E-001 +7.2223820425E+001 
4764516.896 +3.1478561324E-001 +1.2496147635E+002  +1.1640639625E-001 +8.0629884389E+001  +1.3266921313E-001 +2.4138653220E+001  +7.0986916397E-001 +3.2316240341E+001 
4889662.078 +3.6493427349E-001 +1.3127125977E+002  +2.2575373650E-001 -5.4173532442E+001  +2.0352039684E-001 -1.2236886544E+002  +3.3986560093E+000 -1.1562532288E+002 
5014807.259 +3.7998240045E-001 +1.3897495176E+002  +1.6063579185E-001 +1.6232788283E+002  +1.3055058459E-001 +1.2006353064E+002  +2.2458955646E+000 +1.2940124682E+002 
5139952.441 +3.5907326386E-001 +1.3019549826E+002  +3.1050731529E-001 +1.6603810679E+002  +2.5116212271E-001 +1.2514682933E+002  +4.2699181096E+000 +1.4583128422E+002 
5265097.622 +3.2178340399E-001 +1.3654213659E+002  +1.8734076537E-001 +1.0048453033E+002  +1.9023839520E-001 +6.6264121077E+001  +3.2301149032E+000 +9.2212828848E+001 
5390242.804 +3.8260451732E-001 +1.3505370203E+002  +1.0988569127E-001 +1.1889018333E+002  +1.0352149701E-001 +8.3418051248E+001  +1.4944203653E+000 +1.1396813774E+002 
5515387.985 +4.0867050383E-001 +1.3393823854E+002  +9.6600738646E-002 +9.5276943489E+001  +7.3190324271E-002 +6.3092231803E+001  +9.3092173533E-001 +9.7285411540E+001 
5640533.166 +3.9853243625E-001 +1.2226791127E+002  +1.4461925694E-001 +6.5342609026E+001  +1.5701167731E-001 +3.1924006833E+001  +1.5203340829E+000 +6.0590980430E+001 
5765678.348 +4.9914442607E-001 +1.2599152723E+002  +1.5417077248E-001 +9.2947077778E+001  +1.6076706587E-001 +5.8936581622E+001  +1.7125629631E+000 +7.4899211274E+001 
5890823.529 +4.9344882622E-001 +1.2847919116E+002  +1.2298410601E-001 +7.8236145463E+001  +9.8772068849E-002 +5.8201298313E+001  +1.2881665552E+000 +6.6187272892E+001 
6015968.711 +6.1751134745E-001 +1.2517801590E+002  +1.9669247361E-001 +5.6884888293E+001  +1.7710009689E-001 +3.6525811970E+001  +2.0620527195E+000 +2.9736197711E+001 
6141113.892 +6.7535971000E-001 +1.0740802439E+002  +1.8977171019E-001 +4.6551915347E+001  +1.6084652505E-001 +2.9913507588E+001  +1.1963592248E+000 +3.0730040759E+001 
6266259.074 +6.8805915748E-001 +9.9596526729E+001  +1.8943971646E-001 +5.1538659390E+001  +1.9145629142E-001 +2.8264205137E+001  +1.6349378550E+000 +3.9942165667E+001 
6391404.255 +6.3983928598E-001 +9.7619635483E+001  +2.0219079741E-001 +4.0208199923E+001  +1.8914856403E-001 +1.8254940884E+001  +1.8871597198E+000 +3.3571846491E+001 
6516549.437 +1.1293273969E+000 +7.8891421653E+001  +2.4387513736E-001 +4.4004203537E+001  +2.4678348698E-001 +2.0253377814E+001  +1.7004176849E+000 +1.7792620208E+001 
6641694.618 +1.3579112757E+000 +6.6903676681E+001  +2.4781843769E-001 +2.9824258863E+001  +2.2712157217E-001 +2.2773687097E+001  +1.1542399952E+000 +1.4766986288E+001 
6766839.800 +1.2879344682E+000 +4.8958317124E+001  +2.1706109497E-001 +1.2566411725E+001  +2.1879697535E-001 +7.8053461379E+000  +1.0339530413E+000 -1.0587414129E+000 
6891984.981 +1.4654984021E+000 +3.4618914495E+001  +2.0390386325E-001 +9.4370586601E+000  +2.1872877160E-001 +2.1577008605E+000  +1.1887587341E+000 +1.1432367952E+000 
7017130.163 +1.1447027434E+000 +3.0999576439E+001  +1.5689253985E-001 +8.6238503903E-003  +1.5665357353E-001 -5.0253192475E-001  +1.1719981981E+000 -1.8575392143E+001 
7142275.344 +1.4855519055E+000 +1.1442551201E+001  +1.7387316974E-001 -3.0850857945E+000  +1.5365768656E-001 -3.5121945898E+000  +1.1595586310E+000 -7.3820283913E+000 
7267420.526 +1.4588098806E+000 +1.3532764832E+000  +1.4800602352E-001 -2.8784961301E+000  +1.3067062256E-001 -3.6278947743E+000  +1.2592256276E+000 -1.4143212881E+001 
7392565.707 +1.1437856254E+000 +5.2399600495E-001  +1.1178822924E-001 -1.1986368032E+000  +1.0850085727E-001 +3.7528026968E+000  +1.1690848223E+000 -1.0000538744E+001 
7517710.889 +1.1175615022E+000 +4.1423722389E+000  +1.0456594971E-001 +2.1682407877E+000  +1.0308857121E-001 +2.5213362583E+000  +1.0697683933E+000 -1.1257339983E+001 
7642856.070 +1.0379505898E+000 -2.3815651770E+000  +1.0453853941E-001 +7.0410228799E+000  +9.3149408391E-002 +4.6985206108E+000  +9.5252795372E-001 -5.7123122279E+000 
7768001.252 +9.1467532074E-001 +2.4635019860E+000  +9.9896471195E-002 +9.7464864227E-002  +9.2024094368E-002 +2.9839037961E+000  +8.3766257993E-001 -5.3989801156E+000 
7893146.433 +7.0253117099E-001 +4.3112488453E+000  +9.1663682829E-002 +3.0807416448E+000  +8.5946925699E-002 +4.8349011196E+000  +8.7081972633E-001 +2.5511934683E+000 
8018291.615 +6.7491871347E-001 +1.1360058527E+001  +8.4270592020E-002 -6.4216677867E-001  +8.6516154547E-002 +8.6311187045E+000  +6.7590165195E-001 +4.5653006857E+000 
8143436.796 +6.5229645761E-001 +6.1635042180E+000  +8.3547338029E-002 +1.7033324185E+000  +8.0806119277E-002 +7.7743600214E+000  +7.8426787933E-001 -1.9895188397E+000 
8268581.977 +6.1851100542E-001 +7.1141949551E+000  +7.9470943410E-002 +4.8584031334E-001  +7.4998369282E-002 +8.5215067914E+000  +6.5217983025E-001 +2.6895482855E+000 
8393727.159 +5.8399050310E-001 +7.1655656332E+000  +8.3987855722E-002 -1.4130805509E+000  +8.1426709294E-002 +7.7578939912E+000  +6.6589212022E-001 +2.9597833201E+000 
8518872.340 +5.8926699605E-001 +7.2047410755E+000  +8.3474528768E-002 +6.9219426870E-001  +7.7880166930E-002 +7.2234834020E+000  +6.2219994202E-001 +2.4209115081E+000 
8644017.522 +5.8014388154E-001 +1.1154568288E+001  +7.2671754010E-002 -3.7943756447E+000  +8.1123036031E-002 +8.6737751920E+000  +5.5388845039E-001 -2.6495435537E+000 
8769162.703 +5.3119392621E-001 +5.4531394570E+000  +7.4674244403E-002 -5.9017148370E+000  +8.0066945148E-002 +1.1666520383E+001  +5.7702283343E-001 +4.8035815562E+000 
8894307.885 +5.1788091704E-001 +1.7427863340E+001  +7.4184208608E-002 -3.0811938669E+000  +7.6800873831E-002 +9.4411956440E+000  +5.5826913725E-001 -5.5908412451E-001 
9019453.066 +4.9215143592E-001 +8.5227709822E+000  +7.7658101233E-002 -4.5256390528E+000  +7.6945923007E-002 +1.0179898416E+001  +5.2919990668E-001 +1.2764328743E+000 
9144598.248 +4.6016468908E-001 +9.3072900148E+000  +7.5951008821E-002 -6.2266892202E+000  +7.7867162177E-002 +9.8387133143E+000  +5.1492222412E-001 -1.2507715196E+000 
9269743.429 +4.9165728502E-001 +6.6193284563E+000  +7.7054333983E-002 -4.7707526598E+000  +7.4236964156E-002 +1.0736824641E+001  +5.0903267065E-001 +1.5203593251E-001 
9394888.611 +4.7237759494E-001 +1.1411129688E+001  +7.5735074335E-002 -3.7585725896E+000  +7.4259377152E-002 +1.3343453313E+001  +4.6964316071E-001 -1.8341217484E+000 
9520033.792 +4.1072711495E-001 +4.9490575169E+000  +7.8723202582E-002 -5.0161743743E+000  +7.5313332022E-002 +1.2045575270E+001  +5.2817810224E-001 -2.5258572393E-001 
9645178.974 +5.0996443034E-001 +3.4363627374E+000  +7.6136533714E-002 -5.1950341191E+000  +7.8613895545E-002 +1.1718982525E+001  +5.0470485770E-001 +3.2665263063E+000 
9770324.155 +4.3554294522E-001 +7.8841309537E-003  +7.7501090837E-002 -2.7377139543E+000  +7.5014995573E-002 +1.1118028426E+001  +4.8277903057E-001 -6.2076395969E+000 
9895469.337 +4.5347150753E-001 +2.9618328126E+000  +7.8471481374E-002 -5.0668093460E+000  +7.6461500777E-002 +1.0465741968E+001  +5.1740864252E-001 -1.0406864631E+001 
10020614.518 +4.9303468888E-001 +9.9621944944E+000  +7.5266071441E-002 -1.8609663092E+000  +7.7660886079E-002 +1.2988776443E+001  +5.0461050530E-001 -4.1301998137E+000 
10145759.700 +4.6829981575E-001 +8.8681322680E+000  +7.7685663094E-002 -3.6101639146E+000  +7.6904467130E-002 +1.4441324885E+001  +5.1737687896E-001 -2.4164459309E+000 
10270904.881 +4.6908834999E-001 +9.3958102942E+000  +8.1469380246E-002 -2.9497787087E+000  +7.7308064351E-002 +1.1366629941E+001  +5.0129226677E-001 +7.8960663344E-001 
10396050.063 +4.8699166432E-001 +5.0055599504E+000  +7.8120030688E-002 -3.9974822961E+000  +7.8464131582E-002 +1.3454372442E+001  +4.8549062660E-001 -3.1826069330E+000 
10521195.244 +4.6407893775E-001 +5.5674290606E+000  +7.7632215331E-002 -3.8148806413E+000  +7.9527932491E-002 +1.2457336545E+001  +5.0655102976E-001 +2.4013518166E+000 
10646340.426 +5.0269880648E-001 +6.7560726376E+000  +7.8759988918E-002 -2.1549816665E-001  +8.0569125646E-002 +1.1960292753E+001  +4.9529434150E-001 +8.9556795551E-002 
10771485.607 +4.6801503716E-001 +8.2145394880E+000  +8.0598267022E-002 -9.6500007385E-001  +7.6981660874E-002 +1.4335849083E+001  +5.2351164264E-001 +2.5216473335E+000 
10896630.788 +5.1904486827E-001 +8.4973555660E+000  +8.1712542102E-002 -7.0987631552E-001  +7.8606072189E-002 +1.4367939564E+001  +5.3329403802E-001 +2.7017352357E+000 
11021775.970 +4.8733669440E-001 +1.0668762029E+001  +8.2474625851E-002 -9.1447362694E-001  +7.9670945469E-002 +1.3231822445E+001  +5.0278629585E-001 -1.4921176360E+000 
11146921.151 +5.4721701285E-001 +9.0823832404E+000  +8.0774977946E-002 +7.5089065041E-001  +7.9693293769E-002 +1.2608111149E+001  +5.0357350791E-001 +6.3601112189E+000 
11272066.333 +5.4755090707E-001 +1.0236799421E+001  +8.2377263712E-002 -3.5662632146E-001  +8.1166791553E-002 +1.3771474141E+001  +5.4541716684E-001 +3.1909805444E+000 
11397211.514 +5.4301243122E-001 +7.0496002491E+000  +8.4077365317E-002 +6.6011817755E-001  +8.3470404315E-002 +1.2754654851E+001  +5.4677824678E-001 +3.5059778592E+000 
11522356.696 +5.7029535461E-001 +6.9250184657E+000  +8.2392586683E-002 +2.2568548897E-001  +8.2561293364E-002 +1.2884316494E+001  +5.7089595207E-001 +6.0315138877E-001 
11647501.877 +5.2854043641E-001 +6.3666692093E+000  +8.6138428514E-002 -5.2219488704E-001  +8.5301463411E-002 +1.1277463056E+001  +5.3877181045E-001 +4.6916478020E-001 
11772647.059 +5.5201255773E-001 +8.0034320822E+000  +8.7011084480E-002 +1.5563243349E+000  +8.6555996251E-002 +1.1700469329E+001  +6.0637061374E-001 +1.1993569557E+000 
11897792.240 +5.6819151053E-001 +6.1760097881E+000  +8.6630495541E-002 +8.9049114379E-001  +8.6786584788E-002 +1.1115360051E+001  +5.9668338704E-001 +2.3620507669E-001 
12022937.422 +5.9064799171E-001 +5.7935130464E+000  +8.9142350434E-002 +1.3230559143E+000  +8.6573280248E-002 +9.5969412587E+000  +5.9242156278E-001 +3.0068449562E+000 
12148082.603 +6.0304967009E-001 +8.0040197255E+000  +8.7566429015E-002 +5.1844928489E-001  +8.5859818694E-002 +1.0881938272E+001  +5.9805910006E-001 +1.9849562203E+000 
12273227.785 +6.0860248194E-001 +5.0112333399E+000  +9.0891402983E-002 +2.9921798522E+000  +8.8952590407E-002 +9.8838704252E+000  +6.3167079247E-001 -1.0703981779E+000 
12398372.966 +6.3631184383E-001 +7.4563504850E+000  +8.9986835169E-002 +2.3778364593E+000  +8.7494966617E-002 +9.5991759330E+000  +6.4772993750E-001 -6.2911073762E-001 
12523518.148 +6.4241273888E-001 +5.4662285357E+000  +9.0187412618E-002 +2.1006445499E+000  +8.9840875151E-002 +8.2574506500E+000  +6.4122275117E-001 +1.3571074811E+000 
12648663.329 +6.1457513414E-001 +1.3416697714E+000  +9.2990728744E-002 +1.1026843583E+000  +8.9182836568E-002 +8.4944440045E+000  +6.4750304702E-001 +3.3661660010E-001 
12773808.511 +6.6261679293E-001 +3.6735714400E+000  +9.3811662428E-002 +1.7476956312E+000  +9.3893238499E-002 +8.8883469440E+000  +6.6334063531E-001 -8.6767944780E-001 
12898953.692 +6.7580479365E-001 +2.9934747049E+000  +9.5670490168E-002 +2.5705453445E+000  +9.4666655975E-002 +8.2077375745E+000  +6.8136176729E-001 -1.8989064174E+000 
13024098.874 +7.0932949104E-001 +1.2046106023E+000  +9.5923651797E-002 +3.0035980457E+000  +9.6286444104E-002 +7.9580199848E+000  +7.1754819075E-001 -3.1993337882E+000 
13149244.055 +7.0136139927E-001 -6.5021163856E-001  +9.6112839904E-002 +3.0763368571E+000  +9.5490269135E-002 +7.3886248978E+000  +7.3585209593E-001 -1.3259112744E+000 
13274389.237 +7.1967351005E-001 -5.7966962416E-001  +9.7441423685E-002 +2.6329395686E+000  +9.7233626371E-002 +6.9579828659E+000  +7.5490875102E-001 -1.8150067198E+000 
13399534.418 +7.3703384837E-001 +4.4567008748E-001  +9.8468379458E-002 +3.9492239101E+000  +9.7655641006E-002 +6.5892020358E+000  +7.5105925356E-001 -2.0774975869E+000 
13524679.599 +7.8780780496E-001 -1.2024720765E+000  +9.7577780311E-002 +1.9322699374E+000  +9.8289522595E-002 +6.2818526810E+000  +7.5955872088E-001 -3.3010955400E+000 
13649824.781 +7.7840400410E-001 -3.2203189557E+000  +1.0040747095E-001 +2.1091169082E+000  +9.9296047300E-002 +4.8756078978E+000  +7.8429306697E-001 -2.7200659866E+000 
13774969.962 +7.8188281145E-001 -3.0524781777E+000  +1.0156101729E-001 +1.8419020882E+000  +1.0030262992E-001 +4.7430848785E+000  +8.0626030386E-001 -4.5281818948E+000 
13900115.144 +8.1416459841E-001 -3.2279125785E+000  +1.0123091591E-001 +2.3218362963E+000  +1.0029640558E-001 +5.1458200510E+000  +8.1535922867E-001 -2.6380260189E+000 
14025260.325 +8.3180777019E-001 -4.4025441475E+000  +1.0158385639E-001 +2.6137471350E+000  +1.0050074922E-001 +3.2763036757E+000  +8.6471775694E-001 -5.5419392366E+000 
14150405.507 +8.3343647928E-001 -4.4704320392E+000  +1.0262565520E-001 +2.3422868615E+000  +9.9595647359E-002 +2.8052198850E+000  +8.6715141416E-001 -4.3754907591E+000 
14275550.688 +8.4370852820E-001 -5.0839094441E+000  +1.0371622327E-001 +1.6308688227E+000  +1.0150812036E-001 +3.0055241846E+000  +8.8158367260E-001 -5.1986241206E+000 
14400695.870 +8.8019022867E-001 -6.3985924906E+000  +1.0306480998E-001 +2.2464940626E+000  +1.0078302457E-001 +2.1048319232E+000  +8.8823945949E-001 -4.6915926879E+000 
