!  2-Port S-parameters saved by WinCal
! VAR MeasName=S-Parameters (CALIBRATED_DATA) read from VNA (P5004A)
! VAR MeasDate=28/08/2024 16:53:57
! VAR NAME=S2_r9c9_SET1_9k-100M_1
! VAR FILENAME=S2_r9c9_SET1_9k-100M_1.S2P
! VAR DATE=28/08/2024 16:53:57
! VAR PHYS_PORTS=1,2
! VAR ObjTypeName=DATASET
! VAR IndexType=Frequency
!
# Hz S MA R 50
9000.000 +8.7645288992E-002 -1.7035276608E+002  +3.3707342817E-003 -9.3919175847E+001  +8.0090964189E-003 -8.6515025163E+001  +3.0584176193E-001 -1.3028608959E+002 
134145.181 +1.1131752294E-001 +1.6955571786E+002  +5.2090063340E-004 -5.7280362225E+001  +1.1602771796E-004 +1.1756322981E+002  +2.3558533694E-001 -1.7149182389E+002 
259290.363 +1.1119993019E-001 +1.7007031045E+002  +7.3563183923E-004 -5.5304271146E+001  +5.4021997141E-004 +1.6960808205E+002  +2.4591744353E-001 -1.6749522753E+002 
384435.544 +1.1369781734E-001 +1.6965691278E+002  +4.9380664312E-004 -8.1857598961E+001  +7.1703668733E-004 +5.9178865782E+001  +2.4267381022E-001 -1.6897723257E+002 
509580.726 +1.1231105364E-001 +1.7013342881E+002  +1.9102330738E-003 -5.7144123872E+001  +5.7446707517E-004 -1.5957908702E+002  +2.6119660551E-001 -1.6347030113E+002 
634725.907 +1.1902361475E-001 +1.7097729820E+002  +1.4305875601E-003 -3.7748006553E+001  +1.6136249872E-003 +1.0183954106E+002  +2.4508767154E-001 -1.6520260396E+002 
759871.089 +1.1836685680E-001 +1.7124789703E+002  +8.8996844362E-004 -9.6795956702E+001  +9.7570660013E-004 +1.0145931985E+002  +2.4640817367E-001 -1.6684374360E+002 
885016.270 +1.1999693761E-001 +1.6942614165E+002  +9.8450613521E-004 -7.6456722003E+001  +1.1234861621E-003 +1.1152183183E+002  +2.4742559820E-001 -1.6699547837E+002 
1010161.452 +1.1757210793E-001 +1.6874060695E+002  +9.0497881570E-004 +3.2049855966E+000  +2.4996516615E-003 -1.5115512998E+002  +2.1908515785E-001 -1.7022267234E+002 
1135306.633 +1.1525415246E-001 +1.6707262735E+002  +2.1197085386E-003 -6.1615825540E+000  +3.9663090646E-003 -1.2938985162E+002  +1.9740080970E-001 -1.6794222630E+002 
1260451.815 +1.2117327485E-001 +1.7015293114E+002  +4.0240399370E-003 -6.9805315050E+001  +2.8622038674E-003 +1.3249864359E+002  +2.5137498509E-001 -1.5645865147E+002 
1385596.996 +1.2696812182E-001 +1.7078396579E+002  +1.0377403270E-003 -7.2364780032E+001  +1.3809610014E-003 +1.2508835009E+002  +2.6550801709E-001 -1.5947379036E+002 
1510742.178 +1.2738882184E-001 +1.7167094330E+002  +2.3656631441E-003 -8.7425186974E+001  +1.6621180610E-003 +1.6207263758E+002  +2.6525336099E-001 -1.5912481426E+002 
1635887.359 +1.2942131049E-001 +1.7082381722E+002  +2.1705141215E-003 -5.6357001871E+000  +2.8015945551E-003 -1.4190998775E+002  +2.2599821062E-001 -1.5828665489E+002 
1761032.541 +1.2790996301E-001 +1.7020516663E+002  +2.2366074752E-003 +5.9113785514E+001  +2.4291802760E-003 -1.1502136166E+002  +2.3456222873E-001 -1.6062722799E+002 
1886177.722 +1.3181402124E-001 +1.6911148091E+002  +4.6452027365E-003 +6.1039912421E+001  +2.8642175906E-003 -7.9996725650E+001  +2.2995057137E-001 -1.6670365684E+002 
2011322.904 +1.3331303272E-001 +1.6906584438E+002  +5.9645953032E-003 +6.0127914416E+001  +7.9424972032E-003 -8.0161228292E+001  +2.0427715318E-001 -1.6127141320E+002 
2136468.085 +1.3102012297E-001 +1.6852213776E+002  +1.0979093636E-002 +7.6672995517E+001  +1.0651724934E-002 -6.0516287628E+001  +1.8957798444E-001 -1.6974020668E+002 
2261613.267 +1.3422913015E-001 +1.6642794013E+002  +1.0339093190E-002 +8.5503454202E+001  +1.0928166509E-002 -4.5926506817E+001  +2.2329720368E-001 -1.6762221258E+002 
2386758.448 +1.3150959892E-001 +1.6289883386E+002  +1.9415556962E-002 +8.6847334575E+001  +1.9102761670E-002 -3.3320120527E+001  +2.0475003271E-001 -1.7236452268E+002 
2511903.630 +1.3317764834E-001 +1.6734606492E+002  +2.3718927733E-002 +1.0948456017E+002  +2.4220150922E-002 -1.6280850251E+001  +2.4736942292E-001 +1.6715509710E+002 
2637048.811 +1.0952576171E-001 +1.6690359739E+002  +6.0990284706E-002 +6.6790609066E+001  +6.4954056214E-002 -5.0669762920E+001  +1.0315247828E-001 +1.5763858097E+002 
2762193.992 +1.4376416924E-001 +1.7455177642E+002  +5.8717255109E-002 -3.3272199501E+001  +5.0565426587E-002 -1.3642098429E+002  +2.8812608979E-001 -1.1739122671E+002 
2887339.174 +1.0339557781E-001 +1.7955982019E+002  +1.4083853915E-001 +2.0277005781E+001  +1.4104135078E-001 -8.3312454725E+001  +2.2798584439E-001 -9.8372170479E+000 
3012484.355 +1.3009028964E-001 +1.7005639454E+002  +4.7128811443E-002 -2.4543594436E+001  +4.7529393798E-002 -1.1980029081E+002  +2.8862546532E-001 -1.2067699543E+002 
3137629.537 +1.4208330098E-001 +1.7124358921E+002  +3.2507498575E-002 +1.5091545914E+001  +3.6383113373E-002 -8.1345184946E+001  +1.6974154974E-001 -1.4896385484E+002 
3262774.718 +1.3413598273E-001 +1.7493173008E+002  +6.8501211257E-002 -2.9621072242E+000  +7.3753147178E-002 -9.5161449896E+001  +1.8144553992E-001 -8.7380252817E+001 
3387919.900 +1.4359838149E-001 +1.7717077989E+002  +4.7596044583E-002 +1.3802049865E+001  +4.8379075063E-002 -6.7871527788E+001  +1.2436220317E-001 -1.6011049148E+002 
3513065.081 +1.4284591607E-001 +1.4951118508E+002  +6.6267555946E-002 +9.6690476479E+001  +6.3452581241E-002 +3.8981736552E+000  +2.7097860756E-001 +1.5572693217E+002 
3638210.263 +1.8274354558E-001 +1.5466936569E+002  +4.6154761081E-002 +1.2286499766E+002  +4.4243556050E-002 +4.2476709622E+001  +3.8885294543E-001 +1.6443317489E+002 
3763355.444 +1.7650392165E-001 +1.5756177097E+002  +6.9727530336E-002 +9.9985515586E+001  +5.8403257161E-002 +2.2361376644E+001  +3.9320394103E-001 +1.3713494676E+002 
3888500.626 +1.6729084112E-001 +1.5461216498E+002  +6.4228875075E-002 +1.0189842337E+002  +5.6661208710E-002 +2.8419223715E+001  +3.9663629894E-001 +1.5855217094E+002 
4013645.807 +1.8416731004E-001 +1.5491127734E+002  +6.4201929825E-002 +8.0338456755E+001  +5.7505558472E-002 +6.8251779103E+000  +2.3438346249E-001 +1.4613891312E+002 
4138790.989 +1.8863440372E-001 +1.4526064252E+002  +7.3370698251E-002 +8.9761354130E+001  +7.1674851986E-002 +2.4043423680E+001  +2.6882930656E-001 +1.5815879661E+002 
4263936.170 +1.8170260017E-001 +1.3940035891E+002  +1.1579383144E-001 +9.6995047917E+001  +1.1878901482E-001 +3.4291242612E+001  +4.1478087029E-001 +1.4071554881E+002 
4389081.352 +2.0150753306E-001 +1.5160373001E+002  +9.6232157756E-002 +1.0039389610E+002  +8.7992501421E-002 +3.4047471188E+001  +4.9933132237E-001 +1.3891617551E+002 
4514226.533 +1.9966055244E-001 +1.4233069061E+002  +1.6166720266E-001 +9.1619053221E+001  +1.5994029198E-001 +3.5006205299E+001  +6.1583274159E-001 +1.1478222028E+002 
4639371.715 +2.6972383978E-001 +1.2998350322E+002  +2.5393627445E-001 +1.0206041054E+002  +2.6211161602E-001 +5.2932706258E+001  +8.4106387147E-001 +1.0152710830E+002 
4764516.896 +2.6707562745E-001 +1.3422187974E+002  +2.6599253084E-001 +9.6017291171E+001  +2.4370336246E-001 +4.8678186860E+001  +9.0654186925E-001 +9.3391277536E+001 
4889662.078 +4.9289060423E-001 +1.0294239025E+002  +6.7160158492E-001 +8.5190057564E+001  +6.2880099156E-001 +4.2895279147E+001  +1.3732178289E+000 +6.0538827631E+001 
5014807.259 +3.3814869115E-001 +1.2051114278E+002  +3.0509918009E-001 +9.1469016547E+001  +2.9829968198E-001 +5.2128256338E+001  +7.5797805320E-001 +9.5853377612E+001 
5139952.441 +4.4838316328E-001 +1.4609106335E+002  +6.8547821637E-001 -1.7592922828E+002  +6.6360525898E-001 +1.3935013261E+002  +3.1964595866E+000 +1.5878148184E+002 
5265097.622 +3.7255918635E-001 +1.3397398093E+002  +2.4227058472E-001 +1.2149559067E+002  +2.4506276688E-001 +8.3212267293E+001  +1.0729028064E+000 +1.2936447807E+002 
5390242.804 +3.1894530655E-001 +1.3012908376E+002  +2.5497875916E-001 +9.7832403579E+001  +2.3656923597E-001 +6.2023484380E+001  +9.8736522922E-001 +1.1864767702E+002 
5515387.985 +3.9186998735E-001 +1.3839679546E+002  +2.1284090608E-001 +1.0991450444E+002  +2.0029060522E-001 +7.3836503144E+001  +9.8998945883E-001 +1.2087945972E+002 
5640533.166 +4.3207021284E-001 +1.3208622039E+002  +2.6506209127E-001 +9.1298204944E+001  +2.4560483464E-001 +6.2199650409E+001  +8.4590044113E-001 +9.6364357530E+001 
5765678.348 +3.8103932565E-001 +1.3244161080E+002  +2.4220369574E-001 +7.2904989220E+001  +2.3431102354E-001 +4.5991600900E+001  +7.9551555224E-001 +8.8382926884E+001 
5890823.529 +4.2861802368E-001 +1.1255500826E+002  +3.8263418511E-001 +8.7895748697E+001  +3.7790871528E-001 +6.1116995339E+001  +1.3322368762E+000 +1.0943875551E+002 
6015968.711 +4.6514905998E-001 +1.1568800403E+002  +3.8092109192E-001 +7.7941464859E+001  +3.8967783821E-001 +5.4745178185E+001  +1.3800130105E+000 +9.3772502134E+001 
6141113.892 +5.4749171849E-001 +1.0435095767E+002  +4.4554431292E-001 +6.4093143817E+001  +4.3368439857E-001 +4.6555063042E+001  +1.1599535303E+000 +7.8095534984E+001 
6266259.074 +5.3488791168E-001 +1.0197639680E+002  +4.2472104527E-001 +5.3385724879E+001  +4.0753537021E-001 +3.6133096292E+001  +1.0320632932E+000 +6.6979501565E+001 
6391404.255 +6.4559713544E-001 +1.0152921836E+002  +4.6329985649E-001 +4.9959738199E+001  +4.5236210523E-001 +3.7239785036E+001  +1.2390593640E+000 +5.2340702444E+001 
6516549.437 +8.3505409304E-001 +8.6226272480E+001  +5.2434317635E-001 +4.5902311827E+001  +5.1214181111E-001 +3.4074112680E+001  +9.6516955716E-001 +4.4043107656E+001 
6641694.618 +8.0180156373E-001 +7.8110354274E+001  +5.3861060963E-001 +2.8893319562E+001  +5.1090533613E-001 +1.8280109654E+001  +1.1736142910E+000 +1.9236494666E+001 
6766839.800 +6.5773409979E-001 +4.3138992128E+001  +4.8574621676E-001 +1.0498942271E+001  +4.9278344586E-001 -9.0346442823E-001  +7.5931823730E-001 +7.6419741553E+000 
6891984.981 +7.2729721678E-001 +4.5206163795E+001  +4.7483406122E-001 +9.8540941504E+000  +4.6851565771E-001 +1.9938400559E+000  +8.8626760586E-001 +3.5605873400E+000 
7017130.163 +9.5982250429E-001 +2.1602829173E+001  +5.2480742519E-001 +4.6604725172E+000  +5.1601519039E-001 -1.5115021091E+000  +9.2496760565E-001 +2.9456033810E+000 
7142275.344 +8.8756933654E-001 +1.7975689879E+001  +4.6519006012E-001 +2.4791063222E+000  +4.4764374794E-001 -3.9268595443E+000  +1.0493778116E+000 -2.2372100507E-001 
7267420.526 +1.0623536480E+000 +3.0171714421E+000  +4.4355721791E-001 +7.1827704845E-001  +4.3736134374E-001 +2.7938340461E-001  +9.9012954368E-001 -9.5177651964E+000 
7392565.707 +8.6888226649E-001 +2.0149554379E+000  +3.6767868203E-001 +3.5193358551E+000  +3.6720754540E-001 +3.8864801063E+000  +8.6901376220E-001 -9.8847895570E+000 
7517710.889 +7.3865335990E-001 -1.0550504301E+000  +3.4605981716E-001 +2.0063498609E+000  +3.4043789351E-001 +4.7190810474E+000  +7.2900101915E-001 -5.0933760605E+000 
7642856.070 +6.6506941631E-001 +3.3782177131E+000  +3.2414392781E-001 +7.8752359069E-001  +3.2492701238E-001 +4.6062396067E+000  +6.4997177570E-001 -6.0425103896E+000 
7768001.252 +6.1572677933E-001 +2.1477107217E+001  +2.9759512110E-001 +8.6511451736E-001  +2.9884838750E-001 +7.2906812005E+000  +7.1537377842E-001 -5.5072007001E+000 
7893146.433 +4.9005844249E-001 +9.5652055534E+000  +2.9450457537E-001 -1.5240510415E+000  +2.9545931408E-001 +5.5215154154E+000  +6.2794882376E-001 +3.4568597450E+000 
8018291.615 +5.4620034354E-001 +8.0458929106E+000  +2.8726731503E-001 -1.3951795508E+000  +2.9152994709E-001 +7.0815835418E+000  +5.7142306823E-001 +1.1434605262E+001 
8143436.796 +4.5295539876E-001 +2.5151727567E+001  +2.7937018417E-001 -1.7910835649E+000  +2.7211109556E-001 +5.1891611493E+000  +4.7368648632E-001 +2.5057139598E-001 
8268581.977 +4.5133793299E-001 +1.8986668429E+001  +2.7356933315E-001 -2.4350164350E+000  +2.6986753942E-001 +7.2025557586E+000  +5.3402216634E-001 +3.7828526613E+000 
8393727.159 +3.8711937091E-001 +3.2938346087E+001  +2.5636141775E-001 -4.2017936685E+000  +2.5862119120E-001 +7.2326635863E+000  +4.9716048849E-001 +6.3220849588E+000 
8518872.340 +4.3014335910E-001 +1.4894283328E+001  +2.6683539051E-001 -2.5786040643E+000  +2.6263879533E-001 +8.1443664962E+000  +5.0139544769E-001 +1.3777244318E+001 
8644017.522 +3.4185569461E-001 +2.4432096245E+001  +2.5610791952E-001 -5.2017740871E+000  +2.5625269356E-001 +7.7116984419E+000  +3.9606661846E-001 +1.1074483564E+001 
8769162.703 +3.0831543556E-001 +1.7895540012E+001  +2.5950165177E-001 -4.9276125674E+000  +2.5837775933E-001 +8.8965980654E+000  +4.2593001659E-001 +7.3558892032E-002 
8894307.885 +3.3453688219E-001 +7.3112631913E+000  +2.5884040666E-001 -5.3186636944E+000  +2.5915369959E-001 +7.4269451726E+000  +3.5377155802E-001 +7.1353375541E+000 
9019453.066 +2.9110545353E-001 +1.2743006372E+001  +2.5322175155E-001 -6.5343371324E+000  +2.5000096406E-001 +8.3728527422E+000  +3.6177085298E-001 +2.3760711872E+001 
9144598.248 +3.0093281038E-001 +2.0295289111E+001  +2.5004580853E-001 -5.4459071025E+000  +2.5458748180E-001 +8.8576762719E+000  +3.6008864111E-001 +6.1003854015E+000 
9269743.429 +2.9063839934E-001 +1.3457910643E+001  +2.5251755611E-001 -5.6261695131E+000  +2.4999982982E-001 +9.4044106618E+000  +2.7612987720E-001 +1.3056017403E+001 
9394888.611 +2.6908675038E-001 +1.4303171560E+001  +2.5272564744E-001 -5.7846440819E+000  +2.4887781213E-001 +1.0382111554E+001  +3.4960200055E-001 +7.9919319320E+000 
9520033.792 +2.8364953864E-001 +1.0986684976E+001  +2.5407598852E-001 -5.8720825706E+000  +2.5173382405E-001 +8.9991776415E+000  +2.8378925522E-001 +3.8098828505E+000 
9645178.974 +2.3791923167E-001 +2.0844047534E+001  +2.5392844117E-001 -6.1993363189E+000  +2.4656944859E-001 +1.0296772919E+001  +3.4666206589E-001 +1.4413749537E+001 
9770324.155 +3.0565342012E-001 +6.3159298561E+000  +2.5649249855E-001 -5.8574332750E+000  +2.5516446952E-001 +9.7786970877E+000  +2.8938389802E-001 +1.3535253509E+000 
9895469.337 +2.5136869901E-001 +1.1004512359E+001  +2.5401257246E-001 -6.1778520543E+000  +2.5540847367E-001 +9.6420058573E+000  +2.9576595294E-001 +2.2244607173E+000 
10020614.518 +2.9901901243E-001 +1.1052342291E+001  +2.5529985687E-001 -4.8767579403E+000  +2.5165614025E-001 +1.1547769278E+001  +3.3639408707E-001 +7.8329438456E+000 
10145759.700 +2.9841372124E-001 +1.4465976797E+001  +2.5505807095E-001 -4.3536096864E+000  +2.5358940679E-001 +1.0351409883E+001  +2.9622392394E-001 +7.5837374110E+000 
10270904.881 +3.5124610452E-001 +1.8856592343E+001  +2.5435188011E-001 -3.4859018586E+000  +2.5434784330E-001 +1.1600431781E+001  +3.2721555871E-001 +6.8935777080E+000 
10396050.063 +2.8267442492E-001 +1.4874784921E+001  +2.5584591896E-001 -4.1709121838E+000  +2.5371452737E-001 +1.0934662349E+001  +3.1506057058E-001 +9.5262759914E+000 
10521195.244 +3.1708486198E-001 +1.4377132096E+001  +2.5973788501E-001 -4.1331252236E+000  +2.5607370971E-001 +1.1432468038E+001  +3.3821424390E-001 +1.0149193213E+001 
10646340.426 +3.2210590879E-001 +2.2396747958E+001  +2.5436050400E-001 -3.0720466421E+000  +2.5468963397E-001 +1.2065402261E+001  +3.5443153844E-001 +1.5971923662E+001 
10771485.607 +3.0607861552E-001 +1.6683115388E+001  +2.6041647756E-001 -3.1786902334E+000  +2.5894554683E-001 +1.1178640827E+001  +3.2428219678E-001 +1.5905670892E+001 
10896630.788 +3.1300593433E-001 +1.8948092779E+001  +2.6220226311E-001 -2.8721725884E+000  +2.5958731513E-001 +1.1534032047E+001  +3.4932713420E-001 +7.9888231255E+000 
11021775.970 +3.4304657576E-001 +1.7689976827E+001  +2.6339580261E-001 -2.4390106481E+000  +2.6054666084E-001 +1.1755706444E+001  +3.5633726029E-001 +1.0181259616E+001 
11146921.151 +3.5096525271E-001 +1.6231807574E+001  +2.6503487748E-001 -1.9332283098E+000  +2.6089623494E-001 +1.0994963650E+001  +3.4799857932E-001 +1.7224455087E+001 
11272066.333 +3.2017919782E-001 +1.2499628084E+001  +2.6852329764E-001 -2.0712496413E+000  +2.6582606761E-001 +1.0055788399E+001  +3.3350678659E-001 +1.5920169842E+001 
11397211.514 +3.2728879918E-001 +1.4025849728E+001  +2.7475498596E-001 -1.9563174981E+000  +2.7061518765E-001 +1.0547151199E+001  +3.3102347732E-001 +8.5543607307E+000 
11522356.696 +3.5693624494E-001 +1.8388744063E+001  +2.7243998367E-001 -1.4846744043E+000  +2.6985345290E-001 +1.0830292704E+001  +3.8553765340E-001 +1.3422765604E+001 
11647501.877 +3.7623554792E-001 +1.5956331790E+001  +2.7626574833E-001 -7.5004160627E-001  +2.7702148041E-001 +1.0506282510E+001  +3.6784140464E-001 +8.2964058971E+000 
11772647.059 +3.7336812546E-001 +1.4676781619E+001  +2.7908760834E-001 -5.2902499535E-001  +2.7990594794E-001 +1.0364353078E+001  +3.8489366259E-001 +6.8383556507E+000 
11897792.240 +3.6663635874E-001 +1.2017337942E+001  +2.8391573410E-001 -3.4548911204E-001  +2.8349911629E-001 +9.7247739723E+000  +4.0147398557E-001 +6.5300827312E+000 
12022937.422 +3.8507959403E-001 +1.0857786486E+001  +2.8517153421E-001 -1.8308597591E-001  +2.8186371337E-001 +9.7675570238E+000  +4.0239790937E-001 +1.0790385146E+001 
12148082.603 +3.6826847756E-001 +1.1239217499E+001  +2.8902298162E-001 -6.5151855620E-001  +2.8481271807E-001 +8.5240015063E+000  +3.8428028349E-001 +1.0291581372E+001 
12273227.785 +4.1591091207E-001 +8.6603117233E+000  +2.9499695967E-001 +1.0437279105E-001  +2.9208021034E-001 +9.1983698266E+000  +4.2803210855E-001 +5.3859741022E+000 
12398372.966 +3.8901285642E-001 +1.0087773312E+001  +2.9359893732E-001 +2.1222041867E-001  +2.9039359311E-001 +8.0126740967E+000  +4.3515485328E-001 +1.0933470081E+001 
12523518.148 +3.9430554836E-001 +7.5420594356E+000  +2.9757587008E-001 +2.7772094299E-001  +2.9505308207E-001 +7.6290635427E+000  +4.2504853475E-001 +5.1833679649E+000 
12648663.329 +4.3410260045E-001 +6.6052837583E+000  +3.0315425798E-001 +8.8918416903E-001  +3.0279431851E-001 +7.3520155488E+000  +4.3777834303E-001 +3.5976051145E+000 
12773808.511 +4.5756707278E-001 +6.5174594627E+000  +3.0462941765E-001 +1.5886787697E+000  +3.0080657374E-001 +7.5069265374E+000  +4.4508871799E-001 +6.9647215292E+000 
12898953.692 +4.5263829543E-001 +4.3724287693E+000  +3.0954180491E-001 +1.2652658678E+000  +3.0580736782E-001 +6.6849194536E+000  +4.7134722416E-001 +4.3541626988E+000 
13024098.874 +4.6895163528E-001 +4.9944315504E+000  +3.1135364371E-001 +1.3766950795E+000  +3.0692511275E-001 +6.3611277963E+000  +4.8519993584E-001 +1.2128117901E+000 
13149244.055 +4.9580690160E-001 +2.1006366857E+000  +3.1680090436E-001 +1.4377056595E+000  +3.1188927489E-001 +5.4562687092E+000  +4.6522339003E-001 +1.9363296053E+000 
13274389.237 +4.9383515426E-001 +2.4634906443E+000  +3.1894019933E-001 +1.5024463907E+000  +3.1290544478E-001 +5.6010737262E+000  +5.0827716593E-001 +1.7982892622E+000 
13399534.418 +5.0190923924E-001 +2.5657646894E+000  +3.1978998855E-001 +1.4183037949E+000  +3.1800442377E-001 +4.9254220620E+000  +5.0056127214E-001 +3.5190614930E-002 
13524679.599 +5.1458134378E-001 -3.3247961560E-001  +3.2363527809E-001 +1.2205548027E+000  +3.2016215266E-001 +4.4609161097E+000  +5.2991304068E-001 -6.8076975525E-001 
13649824.781 +5.3370505052E-001 -1.8938208858E-001  +3.2694433546E-001 +1.3736048072E+000  +3.2399763116E-001 +3.9348673360E+000  +5.4091178287E-001 -2.6520536238E+000 
13774969.962 +5.6541720181E-001 +9.3516852946E-001  +3.2764442606E-001 +1.8357775453E+000  +3.2554013160E-001 +3.8774050174E+000  +5.6263402278E-001 -1.9895865392E+000 
13900115.144 +5.7881411344E-001 -1.9091450128E+000  +3.3204726233E-001 +1.7168002474E+000  +3.2734229819E-001 +3.6167338106E+000  +5.6587755718E-001 -2.0508191182E+000 
14025260.325 +5.6082983196E-001 -2.5409578495E+000  +3.3632858344E-001 +1.3059942934E+000  +3.3009454483E-001 +2.5518717298E+000  +5.7505998227E-001 -3.7517819305E+000 
14150405.507 +6.0497910626E-001 -3.0805803597E+000  +3.3669962790E-001 +1.1518067726E+000  +3.3317697192E-001 +2.3363310359E+000  +5.6623951437E-001 -2.6407808213E+000 
14275550.688 +6.1568813323E-001 -4.1354011782E+000  +3.3840165757E-001 +1.4065648417E+000  +3.3416432055E-001 +2.3019052527E+000  +6.1247959106E-001 -1.5374827132E+000 
14400695.870 +6.3311635187E-001 -4.6287150266E+000  +3.4186775443E-001 +1.1166092598E+000  +3.3669298043E-001 +1.6637508377E+000  +6.1800081503E-001 -5.3332427953E+000 
