!  2-Port S-parameters saved by WinCal
! VAR NAME=S2_r9c9_formed(0)_9k-100M_3
! VAR DATE=30/08/2024 12:17:49
! VAR FILENAME=S2_r9c9_formed(0)_9k-100M_3.S2P
! VAR MeasName=S-Parameters (CALIBRATED_DATA) read from VNA (P5004A)
! VAR MeasDate=28/08/2024 17:04:13
! VAR PHYS_PORTS=1,2
! VAR ObjTypeName=DATASET
! VAR IndexType=Frequency
!
# Hz S MA R 50
9000.000 +9.7973348321E-002 -1.6232495274E+002  +3.7141565385E-003 +4.1414349659E+001  +2.1300527794E-002 +4.1863152438E+001  +2.7928198070E-001 -1.5068746006E+002 
134145.181 +1.1147737493E-001 +1.6989072714E+002  +4.1232188749E-004 +1.1509006061E+002  +2.3010954617E-004 -1.1669063254E+002  +2.3920781715E-001 -1.7102155836E+002 
259290.363 +1.1286772150E-001 +1.6956258739E+002  +7.5161378645E-004 +2.0283092195E+001  +5.6100824456E-004 -1.4141375649E+002  +2.3870584812E-001 -1.7077809018E+002 
384435.544 +1.1413712449E-001 +1.7077768469E+002  +3.4583197357E-004 -5.9519353060E+001  +7.1082563198E-004 +5.1483800172E+001  +2.5426221789E-001 -1.6945100944E+002 
509580.726 +1.1322924748E-001 +1.7043848766E+002  +6.8640013057E-004 +1.3113842515E+002  +5.3686223214E-004 +5.1153885724E+001  +2.4698991445E-001 -1.6594244836E+002 
634725.907 +1.1610016541E-001 +1.7093028318E+002  +1.1320104961E-003 +1.7137315490E+002  +1.2324698628E-003 -2.2036276509E+001  +2.5456985189E-001 -1.6428442427E+002 
759871.089 +1.2013764691E-001 +1.7082912879E+002  +4.6402582374E-004 +3.4577657122E+001  +7.2653720642E-005 -1.0256410672E+002  +2.4801357207E-001 -1.6673187063E+002 
885016.270 +1.2159092695E-001 +1.6903160269E+002  +4.0718125240E-004 +1.1820849597E+002  +2.0629289284E-004 +1.5024159325E+002  +2.4568712592E-001 -1.6648346964E+002 
1010161.452 +1.2009272558E-001 +1.7199806075E+002  +6.3197685120E-004 -2.1336451846E+001  +5.3172976098E-004 -1.0947132600E+002  +2.1213617085E-001 -1.7032851643E+002 
1135306.633 +1.1559430412E-001 +1.6942162056E+002  +6.3858228355E-004 +1.4402925718E+002  +1.8329681825E-003 -8.6289130066E+001  +1.8552473325E-001 -1.6717104002E+002 
1260451.815 +1.2219630175E-001 +1.7176544188E+002  +8.9223611812E-004 -9.6527873978E+001  +1.1982695335E-003 -1.2124590671E+002  +2.2382705229E-001 -1.5910696037E+002 
1385596.996 +1.2445442906E-001 +1.7246495324E+002  +2.1293295677E-004 -7.8724535189E+000  +1.9055309899E-003 -1.4652977684E+001  +2.6825833201E-001 -1.5624636665E+002 
1510742.178 +1.2725043134E-001 +1.7264479533E+002  +1.4879791050E-003 +1.4475445095E+002  +1.7012862754E-003 -1.1095020181E+002  +2.6221923717E-001 -1.5898909761E+002 
1635887.359 +1.2687328956E-001 +1.7164964177E+002  +9.6192002684E-004 +1.3017565372E+002  +6.3129683475E-004 +1.7453228027E+002  +2.0720209531E-001 -1.5450331047E+002 
1761032.541 +1.2759857084E-001 +1.6867146928E+002  +6.8945163393E-004 +8.4342449832E+001  +5.6102679384E-004 +4.5424851220E+001  +2.2351172879E-001 -1.5767832121E+002 
1886177.722 +1.3116737387E-001 +1.7017095716E+002  +7.3873355725E-004 +2.7107556628E+001  +2.7386119832E-003 +1.3273178481E+002  +1.9923899871E-001 -1.6763745582E+002 
2011322.904 +1.2959459731E-001 +1.6603796471E+002  +1.0035097608E-003 -1.7628954348E+002  +2.2649404540E-003 +1.5427583828E+002  +2.1241770438E-001 -1.6754433394E+002 
2136468.085 +1.2667704746E-001 +1.6786990507E+002  +6.4236342936E-004 -9.6568594134E+001  +3.2014406714E-003 +9.2839411186E+001  +2.0914637952E-001 +1.6990817046E+002 
2261613.267 +1.2888127198E-001 +1.6591745371E+002  +4.7374811516E-003 +4.0364706821E+001  +1.6388602271E-003 -3.8240064509E+001  +2.2110292245E-001 +1.7162570047E+002 
2386758.448 +1.3534763856E-001 +1.6225753177E+002  +8.8183814275E-004 -6.7987996860E+001  +7.5027316211E-003 -1.6382767483E+002  +1.8331053808E-001 +1.6409988667E+002 
2511903.630 +1.2285170876E-001 +1.6534392112E+002  +2.6479974027E-003 -1.5646246310E+002  +5.0300899262E-003 -7.1386994119E+001  +2.5445089326E-001 +1.6485603622E+002 
2637048.811 +1.1570856549E-001 +1.6379827941E+002  +5.7691945422E-003 -1.3180942995E+002  +6.6820943106E-003 -7.4487624544E+001  +2.3128119755E-001 +1.4658561798E+002 
2762193.992 +1.0182645658E-001 +1.6459094772E+002  +1.1288883008E-002 -1.3711362695E+002  +1.3082675947E-002 +8.3999878367E+001  +9.8313534544E-002 +1.0554054917E+002 
2887339.174 +1.2521107078E-001 +1.7719958643E+002  +1.5971791606E-002 -1.1611043492E+002  +1.1360202462E-002 -4.9284155011E-002  +4.6526488150E-001 -1.0230892513E+002 
3012484.355 +1.3571764043E-001 +1.7371142300E+002  +5.0911707407E-003 +7.1319476899E+001  +1.5327184707E-002 +1.7398510755E+002  +6.6994540238E-001 -6.2377820074E+001 
3137629.537 +1.2048311846E-001 +1.7101199071E+002  +4.7649634315E-003 +3.2906372960E+001  +9.0749978261E-003 +9.4014919541E+001  +2.4796783687E-001 -1.0560288069E+002 
3262774.718 +1.4050602984E-001 +1.6410773817E+002  +1.1538653719E-002 -9.8396652671E+001  +6.7034972519E-003 -1.0211590042E+002  +3.1058883019E-001 -6.4653156442E+001 
3387919.900 +1.3171795958E-001 +1.6857151101E+002  +9.1015647770E-003 +1.8683133113E+001  +1.6409224013E-002 -1.6331348009E+002  +2.9655297092E-001 +5.8267409120E+001 
3513065.081 +1.5096451682E-001 +1.5784586332E+002  +4.0841267212E-003 +8.8574499958E+001  +7.5136586515E-003 -1.3185586255E+002  +3.5908571200E-001 +1.2673099911E+002 
3638210.263 +1.8028647568E-001 +1.4558144482E+002  +4.0578376449E-003 -9.2914556387E+001  +9.9353127475E-003 -5.9839863167E+001  +7.9937201058E-001 +1.1624586350E+002 
3763355.444 +1.7154937578E-001 +1.4374590648E+002  +1.4208998727E-002 +1.5238810801E+001  +7.3091656616E-003 +1.6943074968E+002  +6.4518566970E-001 +1.3462256962E+002 
3888500.626 +1.8358972651E-001 +1.5490805271E+002  +4.8860307857E-003 -1.0129869576E+002  +3.0930889504E-003 +2.7746130204E+000  +3.8360425886E-001 +1.4188297849E+002 
4013645.807 +1.7340597418E-001 +1.4482228331E+002  +5.5118642157E-003 -9.9277147917E+000  +1.3718087199E-002 +1.1640806815E+000  +2.5268979170E-001 +1.1068194098E+002 
4138790.989 +2.0324829908E-001 +1.3845845482E+002  +5.5070230920E-003 +1.6896740362E+002  +9.7198221928E-003 -6.2757348712E+001  +5.8686653671E-001 +1.2944769932E+002 
4263936.170 +1.7467127272E-001 +1.3612759429E+002  +2.3861597652E-003 +4.0510564955E+001  +1.5637361855E-002 -9.6736644721E+001  +6.5908932342E-001 +9.8136570967E+001 
4389081.352 +2.1365647776E-001 +1.3765750039E+002  +3.7666520214E-002 +3.4785559522E+001  +6.2209299872E-002 -1.3758100390E+002  +1.7420330056E+000 +4.9539046989E+001 
4514226.533 +2.4411987974E-001 +1.3400961447E+002  +9.9129276846E-003 +5.1689762326E+001  +1.5771692583E-002 +2.0028223337E+001  +5.8773460806E-001 +1.3649782139E+002 
4639371.715 +3.0658496325E-001 +1.1338888710E+002  +5.3207719618E-002 -1.2467245597E+002  +7.7870588923E-002 -5.4459721510E+001  +2.6313534362E+000 +1.5187012057E+002 
4764516.896 +3.9515202714E-001 +1.1620144936E+002  +3.5388397879E-002 +1.4192632844E+002  +2.8327115430E-002 -1.4769561772E+002  +2.8938037515E+000 -1.7836200171E+002 
4889662.078 +4.2830370475E-001 +1.2238680769E+002  +3.0318906421E-002 -1.6362299606E+002  +3.5423561860E-002 -6.7141352622E+001  +1.8056597200E+000 -5.6253305167E+001 
5014807.259 +3.3607173663E-001 +1.1875567527E+002  +7.8531499050E-002 +1.3905685940E+002  +1.6052110553E-001 +1.2625963257E+002  +1.3650818865E+001 -1.4692763931E+002 
5139952.441 +3.7697242177E-001 +1.3925316557E+002  +2.7552088313E-002 -2.9303129118E+001  +1.5123624709E-002 -1.4116125217E+001  +3.7276736724E+000 +1.0819037413E+002 
5265097.622 +3.8174168705E-001 +1.2966244728E+002  +4.1064150427E-002 -8.4500113927E+001  +8.8230262455E-003 -1.1700340769E+001  +1.9765066374E+000 +1.1618589870E+002 
5390242.804 +4.0906939193E-001 +1.3859580347E+002  +1.8784126427E-002 -1.7703182172E+002  +1.1758171704E-002 +4.5045667100E+001  +1.5287640622E+000 +1.0149237350E+002 
5515387.985 +4.9721990911E-001 +1.2437394586E+002  +8.0472406333E-003 +6.6464052677E+001  +1.9939138929E-002 -8.1282229633E+001  +1.8413998097E+000 +5.4448273172E+001 
5640533.166 +4.4116619486E-001 +1.2567513461E+002  +4.4135248820E-002 -2.0935494853E+001  +1.9767588057E-002 +1.2196482099E+002  +2.3939999328E+000 +7.6714315084E+001 
5765678.348 +5.7887290470E-001 +1.2651248473E+002  +2.7634409003E-002 +2.3578040919E+001  +3.4327042095E-002 +1.1752647263E+001  +2.5714817117E+000 +6.6245310724E+001 
5890823.529 +6.7660217279E-001 +9.9811752288E+001  +2.7972845079E-002 +1.1239744442E+002  +3.4605846163E-002 +1.7555768803E+002  +2.5016242894E+000 +4.7172500890E+001 
6015968.711 +6.9666100022E-001 +1.1499444901E+002  +5.2506631937E-003 +9.7880929281E+001  +1.0635549317E-002 -8.0619297788E+001  +1.8173171571E+000 +6.3148525228E+001 
6141113.892 +7.2720355059E-001 +1.2169306670E+002  +2.0598384783E-002 +7.4427681136E+001  +1.3469377708E-002 -4.4334494714E+000  +1.6230578781E+000 +3.9538007366E+001 
6266259.074 +8.9004300435E-001 +1.0291323909E+002  +4.4504084289E-002 +1.2707624788E+000  +2.4863235278E-002 -6.1936475132E-002  +1.7876973159E+000 -2.9741265337E+000 
6391404.255 +1.0727453900E+000 +9.6928720332E+001  +1.2540720933E-002 +1.6495789057E+002  +3.2808300183E-003 -1.4005836893E+002  +1.3822637109E+000 +7.2614895152E+000 
6516549.437 +1.3551954275E+000 +7.6480133635E+001  +2.9798093791E-002 -6.8042557665E+001  +1.0806034021E-002 +1.7136584924E+002  +1.6452333938E+000 +1.3531090752E+001 
6641694.618 +2.0059856983E+000 +6.6323763387E+001  +1.8961239551E-002 +4.0574474719E+001  +5.1449941456E-002 +1.5608349004E+002  +1.5186215803E+000 +2.6239923123E+000 
6766839.800 +1.5979701688E+000 +5.6830217322E+001  +1.2020186054E-002 +1.2530895840E+002  +3.1023207546E-002 +6.4887020972E+001  +1.3085269656E+000 -6.0858846944E+000 
6891984.981 +1.4927566892E+000 +4.0093216071E+001  +1.6896542266E-002 +7.1936194545E+000  +1.3419322724E-002 +3.3107253176E+001  +1.2416077060E+000 -4.4326257609E+000 
7017130.163 +1.8690951652E+000 +1.3641744666E+001  +3.3413941600E-003 +1.5030346483E+002  +9.0472145242E-003 +1.4626533667E+002  +1.3285412998E+000 -4.3793953103E+000 
7142275.344 +1.6790988502E+000 -1.8739553896E+000  +1.2372408749E-002 +1.0937248887E+002  +5.6576154244E-003 +1.5813252518E+002  +1.2501233466E+000 -1.2927907083E+001 
7267420.526 +1.5222307421E+000 +3.4670264959E+000  +1.1717572999E-002 -9.3944711668E+001  +1.4959192454E-002 -2.7575337467E+001  +1.4491083833E+000 -1.4111262288E+001 
7392565.707 +1.3289374824E+000 -3.2275340896E+000  +7.4982323644E-003 -5.1317047314E+001  +1.4904320472E-002 +1.0218402961E+002  +1.3633808352E+000 -4.7093830202E+000 
7517710.889 +1.2528619798E+000 +4.0776167831E+000  +6.3881577195E-003 +7.4978520054E+000  +6.5580076048E-003 -1.1736504325E+002  +1.1468887103E+000 -5.2536992887E+000 
7642856.070 +1.0703032954E+000 -4.7092629051E+000  +8.5618676049E-003 +8.3116251820E+000  +4.3659457765E-003 +1.0403841777E+002  +1.0126604071E+000 -1.6774069086E+000 
7768001.252 +8.9402854548E-001 +6.5723267253E+000  +1.0622503853E-002 -9.2556691190E+001  +3.2691456031E-003 -1.5047528821E+002  +9.8415488338E-001 -1.5707150627E+000 
7893146.433 +8.6153756232E-001 +2.1576501646E+000  +5.1234722331E-003 +6.3385127516E+001  +2.9228438388E-003 -2.4849427772E+000  +9.3705993957E-001 +2.1561644554E-003 
8018291.615 +8.0223330363E-001 +8.1241770393E+000  +3.0671145929E-003 -1.8768922723E+001  +5.0262108202E-003 -1.3330840775E+002  +8.9110783755E-001 +1.3895850397E+000 
8143436.796 +7.7531982997E-001 +9.9741428169E+000  +2.2273730746E-003 +1.0328307603E+002  +3.2764815800E-003 +1.1513632696E+002  +8.1798547797E-001 -1.5817214947E+000 
8268581.977 +6.7901961788E-001 +1.8274124655E+000  +2.8131845395E-003 +1.9805128383E+001  +3.7352239206E-003 -1.0824877439E+002  +7.9846239924E-001 +2.0022871775E+000 
8393727.159 +6.9128942526E-001 +6.0176231327E+000  +3.5709192389E-003 +1.4308796411E+002  +8.1378617024E-003 +7.2586537926E+001  +7.2451101924E-001 +9.3135307557E-001 
8518872.340 +6.2919540472E-001 +1.0026147494E+001  +2.2242022771E-003 -1.2671556849E+001  +1.3556930497E-003 +1.4799991245E+001  +7.6631524429E-001 +5.0746600390E+000 
8644017.522 +6.0218152999E-001 +9.9707079236E+000  +1.8525833736E-003 +5.9765678424E+001  +1.0827189983E-003 -4.0034711871E+001  +6.4479955126E-001 +2.5275405998E+000 
8769162.703 +5.8389755173E-001 +8.5558022979E+000  +4.5001808760E-003 -1.0615836992E+002  +4.6512611369E-003 +1.2291231241E+002  +6.8342426677E-001 -3.4038304698E+000 
8894307.885 +6.2361058382E-001 -3.5394175910E+000  +8.1295567433E-004 -1.0742734697E+002  +2.7302828470E-003 +5.3941736303E+001  +6.3742308003E-001 -2.5724272688E+000 
9019453.066 +5.9718758286E-001 +7.2125876356E+000  +4.2380560625E-003 -1.7530350279E+002  +3.9694091011E-003 +1.1884002360E+002  +6.5279523389E-001 +6.8688128396E+000 
9144598.248 +5.9699561483E-001 +5.1125968092E+000  +7.1336596558E-004 -1.2243575995E+002  +2.5249984375E-003 +1.7679847345E+002  +6.0640293973E-001 -1.5761243753E+000 
9269743.429 +5.4578726554E-001 +4.1103688395E+000  +1.7020430585E-003 +1.0406740743E+002  +9.7486825017E-004 -3.7559594262E+000  +6.0456861870E-001 -4.6582714589E+000 
9394888.611 +5.6893115431E-001 +3.6909916962E+000  +2.2207076712E-003 -3.6266548346E+001  +3.6590504506E-003 +3.9767177846E+001  +6.3075631767E-001 -2.2646243859E+000 
9520033.792 +5.5067613017E-001 +5.8557748423E+000  +2.7942672786E-003 +3.8793746289E+001  +3.4735684254E-003 -2.2430189180E+001  +6.0317065707E-001 +4.7181624900E+000 
9645178.974 +5.3963349197E-001 +4.4297287262E+000  +7.2965959171E-004 +1.3163223132E+002  +4.7154510069E-004 -1.7821327769E+002  +5.6561237639E-001 -6.4547079615E+000 
9770324.155 +4.9496095760E-001 -5.4697539759E-001  +8.9649799957E-004 +1.6409139616E+002  +1.3298243557E-003 +5.5380983118E+000  +5.6722905373E-001 -3.8575222338E+000 
9895469.337 +4.8041776859E-001 +2.8545559485E+000  +6.6519076032E-004 -1.6545056292E+002  +2.1417676371E-003 -6.9977428257E+001  +6.1456669492E-001 -7.7663036918E-001 
10020614.518 +5.6985967899E-001 +6.4797261552E+000  +1.8097798611E-003 -8.5683220325E+001  +7.2383901311E-004 +1.9499146115E+001  +5.7774224874E-001 -4.9415397040E+000 
10145759.700 +5.3941760610E-001 +6.6282366864E+000  +1.9671312531E-003 -1.7411461468E+002  +1.2885097795E-003 +1.6422031062E+002  +5.6836217222E-001 -3.3655554508E+000 
10270904.881 +5.4488117131E-001 +6.9674776964E+000  +1.4911579539E-003 -1.5412277440E+002  +7.9942808824E-004 +1.4192420655E+002  +5.5619637454E-001 -1.8348905102E+000 
10396050.063 +6.1967723815E-001 +9.4225439832E+000  +7.7625650363E-004 -7.7072358551E+001  +4.0386115737E-004 +4.5936718699E+001  +6.0756826566E-001 -2.4080668151E-001 
10521195.244 +5.4435781840E-001 +8.1456738006E+000  +6.6029667137E-004 +1.3983207550E+002  +1.7878269372E-003 +7.5734279038E+001  +5.6954284433E-001 -6.0762164292E-001 
10646340.426 +5.3619468118E-001 +5.8793495775E+000  +1.4270109093E-003 +1.2806278047E+002  +8.6429088530E-004 -1.2232026796E+002  +5.9236810198E-001 -1.4277849062E+000 
10771485.607 +6.1842969820E-001 +5.6465155400E+000  +3.0022031328E-003 +1.1266334474E+001  +2.0609384608E-003 +1.4468532705E+002  +5.7890647555E-001 +2.7879783940E+000 
10896630.788 +5.8861254896E-001 +5.2050010151E+000  +7.1840528186E-004 -4.6004357034E+001  +7.4278042518E-004 +1.7636655590E+002  +5.8936281978E-001 -5.5346962220E-001 
11021775.970 +5.6060872993E-001 +9.2912807904E+000  +1.1338746197E-003 +8.3661995207E+001  +1.7436312731E-003 +5.5612726352E+001  +6.2502304665E-001 +3.9922326116E+000 
11146921.151 +5.9567293114E-001 +9.2207639588E+000  +1.2990969389E-003 -1.4745696450E+002  +5.7555661293E-004 +4.2255092643E+001  +6.0529692808E-001 +6.2970108850E-001 
11272066.333 +6.2549631113E-001 +9.7286259095E+000  +1.3173311257E-003 +1.3551208324E+002  +7.6174663221E-004 +5.5501496754E+001  +6.4507536168E-001 +1.1224425360E+000 
11397211.514 +6.4194427579E-001 +5.4670792779E+000  +1.1660233197E-003 -4.2690460281E+001  +1.4353991134E-003 +9.3660334530E+001  +6.2974299176E-001 +7.9604203933E-002 
11522356.696 +6.1299248169E-001 +4.0103067369E+000  +1.1532253779E-003 -1.6457945464E+001  +2.5927854725E-003 +6.0143838854E+001  +6.5009321334E-001 +3.5589616675E+000 
11647501.877 +6.0767809259E-001 +5.7027961884E+000  +1.1445001239E-003 +1.6558183601E+002  +1.1100138953E-003 +5.4111802926E+001  +6.7491891917E-001 +2.9532625967E+000 
11772647.059 +6.7367920569E-001 +6.2339865581E+000  +2.9893254040E-003 -1.5565448653E+002  +6.9806524988E-004 +2.7972173160E+001  +6.6406013921E-001 +1.9312622026E+000 
11897792.240 +6.5864597613E-001 +4.6043053824E+000  +3.3594428737E-004 +7.8971131370E+001  +1.3619171609E-003 -7.6286631918E+001  +6.7793965162E-001 +1.2170715892E+000 
12022937.422 +6.5544909319E-001 +4.7044912628E+000  +3.6845657809E-003 +4.7465151253E+001  +2.2833220257E-003 -7.8755893696E-001  +6.8514311971E-001 +3.0679839534E+000 
12148082.603 +6.8671403937E-001 +5.9991295136E+000  +2.3290227360E-003 +5.1111888931E+001  +1.4652348076E-003 +3.8448917765E+001  +6.8193668772E-001 +1.2519406355E+000 
12273227.785 +6.8595733004E-001 +6.3094852908E+000  +1.1433337296E-003 -4.1161969141E+001  +6.4875497077E-004 +1.5740440946E+001  +6.8530583086E-001 +1.4690377911E+000 
12398372.966 +6.9894386855E-001 +4.5096974316E+000  +1.3524888985E-003 +1.6521069503E+002  +2.3899688605E-003 +1.0288426013E+002  +7.4344232237E-001 -2.2761926758E-001 
12523518.148 +7.3714357398E-001 +2.2576911520E+000  +1.2580321282E-003 -1.6802834887E+002  +1.1886444771E-003 +5.8877064648E+001  +7.2728474118E-001 +4.5349213595E-001 
12648663.329 +7.4328612666E-001 +2.2724479110E+000  +1.6756724552E-003 -1.4846092328E+001  +7.3625390298E-004 -1.3886246501E+001  +7.2956475170E-001 +8.3456101518E-001 
12773808.511 +7.3347859830E-001 +3.4507055179E+000  +2.3114008602E-003 -6.7103399751E+001  +1.3650202261E-003 +8.5687380033E+001  +7.7304980859E-001 -1.6779515893E-001 
12898953.692 +7.8563120683E-001 +7.2680347495E-001  +1.2267097723E-003 -1.0571798059E+002  +3.7268660096E-004 -6.7517486070E+001  +8.0327149284E-001 -2.4711286414E-001 
13024098.874 +8.0456506567E-001 +8.8683340019E-001  +1.1976238066E-003 +1.5085233141E+002  +4.3622289331E-004 -1.2835284627E+002  +8.0964962803E-001 -1.0872681690E+000 
13149244.055 +8.1545781323E-001 +5.1182739929E-001  +2.1345963890E-003 +4.9071778645E+001  +9.6314066537E-004 -5.0575690319E-001  +8.0910801562E-001 -1.7766977319E+000 
13274389.237 +8.2263466327E-001 +4.8547699997E-001  +1.2687097057E-003 +4.8790263073E+001  +5.7403310521E-004 +5.6376227304E+001  +8.1364455133E-001 -1.7005901335E+000 
13399534.418 +8.3774187803E-001 -1.5153621142E+000  +1.5798918038E-003 -8.1875537208E+001  +2.0040938839E-004 -1.3291703971E+002  +8.5397713314E-001 -2.0127908473E+000 
13524679.599 +8.6094018775E-001 +1.3227629660E-001  +7.8364105520E-004 -2.1968803859E+001  +2.0843734218E-003 +1.0938513864E+002  +8.7424687831E-001 -2.4032522728E+000 
13649824.781 +8.7468302994E-001 -2.0496893521E+000  +4.2767450136E-005 -9.5553473847E+001  +1.4088248549E-003 +1.2708408016E+002  +8.7103483845E-001 -1.9364670233E+000 
13774969.962 +8.7924877991E-001 -1.8520244010E+000  +7.8804595581E-004 +6.1481178798E+001  +8.3410122627E-004 +8.3817769025E+001  +8.8852618835E-001 -2.6854498889E+000 
13900115.144 +8.7955137362E-001 -3.2013654232E+000  +1.2245405315E-003 +1.5961034921E+001  +1.0638101610E-003 +1.4837863432E+002  +9.2786672288E-001 -2.0422060535E+000 
14025260.325 +9.1325400437E-001 -1.9003360689E+000  +6.4859041205E-004 +1.0314123727E+002  +1.8993691792E-003 +5.7069769212E+001  +9.3938900347E-001 -2.4834324898E+000 
14150405.507 +9.5142174167E-001 -3.2538331840E+000  +9.1545392054E-004 +6.7846324333E+001  +1.0496216438E-003 +9.5904876006E+001  +9.7555177582E-001 -3.5101365805E+000 
14275550.688 +9.5896558871E-001 -5.1106220222E+000  +3.7307092707E-004 -4.3233181839E+001  +9.1358057218E-004 +1.2653282579E+001  +9.6334537190E-001 -4.4859511474E+000 
14400695.870 +9.6424004406E-001 -4.6973459460E+000  +5.3113583140E-004 +8.1165846876E+000  +1.4441074749E-003 -2.0863563484E+001  +9.9512982316E-001 -4.5953218673E+000 
