!  2-Port S-parameters saved by WinCal
! VAR MeasName=S-Parameters (CALIBRATED_DATA) read from VNA (P5004A)
! VAR MeasDate=29/08/2024 10:05:22
! VAR NAME=S2_r9c1_RESET1_9k-100M_3
! VAR FILENAME=S2_r9c1_RESET1_9k-100M_3.S2P
! VAR DATE=29/08/2024 10:05:22
! VAR PHYS_PORTS=1,2
! VAR ObjTypeName=DATASET
! VAR IndexType=Frequency
!
# Hz S MA R 50
9000.000 +8.0260057395E-002 -1.5858603141E+002  +8.3616501981E-003 +1.7447247455E+002  +7.8223614031E-003 +1.1665957114E+002  +2.5209265343E-001 -1.4169104349E+002 
134145.181 +1.1095862269E-001 +1.6952549026E+002  +2.7340388219E-004 -8.3354148500E+001  +8.7312204234E-004 +5.7333183473E+001  +2.3828801852E-001 -1.7081558409E+002 
259290.363 +1.1155302437E-001 +1.7007984465E+002  +1.5321702424E-003 -1.0480611267E+002  +5.7747326924E-004 -7.6985046676E+000  +2.3869246720E-001 -1.6821557527E+002 
384435.544 +1.1478474330E-001 +1.6968665576E+002  +8.2109465502E-004 -1.1148618916E+002  +1.2699735624E-003 +4.8253708687E+001  +2.4020514740E-001 -1.7001078971E+002 
509580.726 +1.1497340813E-001 +1.7168878945E+002  +1.9636205870E-003 -6.7987876289E+001  +1.3832598224E-003 +7.7189573102E+001  +2.4125280758E-001 -1.6513240789E+002 
634725.907 +1.1492860447E-001 +1.7222046038E+002  +8.5864659987E-004 -1.2007258800E+002  +2.1069798488E-003 +1.1448331784E+002  +2.5253674690E-001 -1.6441788084E+002 
759871.089 +1.2058380013E-001 +1.7050829960E+002  +6.2264127697E-004 -1.1743977393E+002  +3.3422260709E-004 +1.1476305560E+002  +2.4821688202E-001 -1.6596988313E+002 
885016.270 +1.1982027120E-001 +1.6898253980E+002  +1.2324567695E-003 -5.8442970912E+001  +6.2461801958E-004 +1.2231449478E+002  +2.3801875620E-001 -1.6603796374E+002 
1010161.452 +1.1658715346E-001 +1.6898370350E+002  +2.3501046390E-003 +1.1677906547E+001  +1.0977662024E-003 -1.6800943037E+002  +2.0069511982E-001 -1.7079592199E+002 
1135306.633 +1.1682191639E-001 +1.6917117876E+002  +3.6612012814E-003 -4.1111612070E+001  +2.2863255367E-003 +1.7253631527E+002  +1.9986379015E-001 -1.6247064038E+002 
1260451.815 +1.2059092546E-001 +1.6993907055E+002  +2.8380285798E-003 +7.7758270602E+000  +2.7737947759E-003 -1.7500188065E+002  +1.9794982351E-001 -1.5900540817E+002 
1385596.996 +1.2349121859E-001 +1.7255249229E+002  +1.0829495582E-003 -1.2170494379E+002  +1.6927240785E-003 +1.5004320494E+002  +2.5991609471E-001 -1.5899536347E+002 
1510742.178 +1.2742819388E-001 +1.7230522171E+002  +1.0158477788E-003 -9.6734277058E+001  +1.9181261907E-003 -1.7416445521E+002  +2.5738245177E-001 -1.5878839872E+002 
1635887.359 +1.2611089323E-001 +1.7224852306E+002  +2.2626095441E-003 -6.5980031193E+001  +2.0871218568E-003 +1.5324239640E+002  +2.3006989176E-001 -1.5669326197E+002 
1761032.541 +1.3043249484E-001 +1.6916259060E+002  +6.2374797883E-004 +1.1779622744E+002  +2.7030617983E-003 -1.3786805772E+002  +2.3404196433E-001 -1.5910428787E+002 
1886177.722 +1.2891716648E-001 +1.6881373503E+002  +3.1760056459E-003 +3.1433184509E+001  +4.3877462051E-003 -1.1323158846E+002  +2.1828097842E-001 -1.5893791411E+002 
2011322.904 +1.3155164703E-001 +1.6882514343E+002  +3.4212864763E-003 +5.3418173457E+001  +6.1262729488E-003 -5.1200892534E+001  +2.1435862279E-001 -1.6643531980E+002 
2136468.085 +1.3262834209E-001 +1.6880208748E+002  +8.1129650710E-003 +6.1519656629E+001  +7.7682451525E-003 -7.2781692533E+001  +1.7739049965E-001 -1.6826437206E+002 
2261613.267 +1.3246208584E-001 +1.6775025048E+002  +7.0633626252E-003 +7.9310223646E+001  +8.3670409351E-003 -5.7764044601E+001  +1.9293967554E-001 -1.6902019677E+002 
2386758.448 +1.3758409877E-001 +1.6674874734E+002  +9.8929614469E-003 +7.3785763588E+001  +6.8720176956E-003 -4.0184146158E+001  +2.2069484827E-001 -1.7523183101E+002 
2511903.630 +1.3522120293E-001 +1.6546310856E+002  +1.0988221010E-002 +7.2706513688E+001  +1.2726755189E-002 -4.5659686342E+001  +2.1639695194E-001 -1.6892714927E+002 
2637048.811 +1.2664817876E-001 +1.7162025275E+002  +2.2064031229E-002 +3.8931428571E+001  +2.4220261194E-002 -8.6142467549E+001  +1.7356908523E-001 -1.6113719335E+002 
2762193.992 +1.1931082317E-001 +1.7494033974E+002  +1.0875546719E-001 +2.3635945332E+001  +1.4845566223E-001 -1.0163277039E+002  +5.0869980241E-001 -1.3131762855E+001 
2887339.174 +1.1033650247E-001 +1.7629126734E+002  +4.4201273212E-002 +9.6598479303E+000  +4.5078850168E-002 -8.3631989537E+001  +1.0443961894E-001 -1.5543879296E+002 
3012484.355 +1.4435611134E-001 +1.6824308705E+002  +3.8077347585E-002 -4.3171737116E+001  +3.6515463737E-002 -1.2378733419E+002  +3.4188218905E-001 -9.2016310960E+001 
3137629.537 +1.2565961934E-001 +1.6505212959E+002  +5.4333474037E-002 +1.7644162404E+001  +5.2443193113E-002 -6.9519683595E+001  +6.0208557449E-002 -8.3928094458E+001 
3262774.718 +1.4214958721E-001 +1.6442251282E+002  +4.0262799710E-002 +2.4801433174E+001  +2.9038467606E-002 -6.2410847623E+001  +5.9772645161E-002 -1.1280034950E+002 
3387919.900 +1.2592551325E-001 +1.6663161064E+002  +8.0371078134E-002 +5.3661703093E+001  +9.6765491083E-002 -4.2903646247E+001  +4.1747327640E-001 +6.1036149417E+001 
3513065.081 +1.3912554863E-001 +1.6241800079E+002  +3.2034489031E-002 +2.8936763850E+001  +3.0631994868E-002 -5.0375310554E+001  +1.6576706531E-001 -1.6381231889E+002 
3638210.263 +1.8873965375E-001 +1.5384321269E+002  +3.7952334113E-002 +1.3467295553E+002  +3.7276244287E-002 +6.1311931670E+001  +4.5519694782E-001 +1.5616515012E+002 
3763355.444 +1.7692264701E-001 +1.4691258064E+002  +6.0506851505E-002 +8.2303904297E+001  +5.7859867348E-002 -3.3525012502E-001  +1.8363936235E-001 +1.3120615913E+002 
3888500.626 +1.6624566699E-001 +1.5785097467E+002  +6.9551816514E-002 +4.7830283273E+001  +6.1283138695E-002 -2.5969712169E+001  +9.9613932930E-002 +6.9589101162E+001 
4013645.807 +1.8300970605E-001 +1.5105421063E+002  +5.8436980691E-002 +8.7550976383E+001  +5.8952391403E-002 +1.7986705694E+001  +2.9958961596E-001 +1.3199356427E+002 
4138790.989 +1.6915361573E-001 +1.5446815632E+002  +5.5782608839E-002 +8.3887940383E+001  +5.3559743848E-002 +1.3057117923E+001  +3.6953654797E-001 +1.4485644226E+002 
4263936.170 +1.7788246016E-001 +1.4505068988E+002  +6.7316626998E-002 +7.9415415088E+001  +6.2428474171E-002 +1.2243173101E+001  +2.5296480577E-001 +1.3973168777E+002 
4389081.352 +1.9078310560E-001 +1.5010492935E+002  +7.7833900902E-002 +8.9734284634E+001  +7.2015993491E-002 +2.5732021728E+001  +4.8993208676E-001 +1.3203097056E+002 
4514226.533 +2.0849992925E-001 +1.4699201039E+002  +1.1746353184E-001 +6.8214192157E+001  +9.9381929466E-002 +6.8808911397E+000  +4.8412790676E-001 +7.4547044002E+001 
4639371.715 +1.9400956925E-001 +1.3103862809E+002  +1.6127165371E-001 +1.0472037510E+002  +1.6424265092E-001 +4.5240793106E+001  +9.1853360441E-001 +1.2138789161E+002 
4764516.896 +2.6046916968E-001 +1.2746885003E+002  +2.5618082729E-001 +1.3278587638E+002  +2.4767992173E-001 +8.5093488555E+001  +1.5632179078E+000 +1.3336916280E+002 
4889662.078 +4.0199617090E-001 +1.4937490289E+002  +6.4444396430E-001 -1.6039835424E+002  +5.8708235568E-001 +1.5231712801E+002  +3.9370662746E+000 +1.5678195776E+002 
5014807.259 +4.5601453178E-001 +1.3937152876E+002  +3.4764106078E-001 +1.6645342644E+002  +3.3492836412E-001 +1.2531626040E+002  +1.9274751448E+000 +1.3032457787E+002 
5139952.441 +4.0494757834E-001 +1.3842058572E+002  +1.8938955726E-001 +1.2856575747E+002  +1.9298809509E-001 +9.0089574380E+001  +1.1420279888E+000 +1.1386841684E+002 
5265097.622 +2.9046864558E-001 +1.3327918199E+002  +1.7416542833E-001 +9.6667497214E+001  +1.5968149919E-001 +5.6249971508E+001  +9.6183200429E-001 +1.0816076381E+002 
5390242.804 +4.2165713968E-001 +1.2623786208E+002  +1.9899124657E-001 +1.0374390299E+002  +1.9560291340E-001 +7.4729810208E+001  +8.8214319230E-001 +1.1051262247E+002 
5515387.985 +3.9191216665E-001 +1.3294213020E+002  +2.0609522453E-001 +1.1973241685E+002  +1.8397171471E-001 +8.5081490419E+001  +1.4320992358E+000 +1.2285430751E+002 
5640533.166 +4.3371439991E-001 +1.2338247093E+002  +2.4666984575E-001 +9.0278909782E+001  +2.4186166353E-001 +5.6137040148E+001  +1.1600416859E+000 +8.8792218266E+001 
5765678.348 +4.7001829744E-001 +1.2258044488E+002  +3.0772661388E-001 +1.0506808476E+002  +2.9485554229E-001 +7.7779309614E+001  +1.9483967254E+000 +1.0821940404E+002 
5890823.529 +4.9418831002E-001 +1.2579054786E+002  +2.1958406011E-001 +8.9128707067E+001  +1.9737751678E-001 +6.1557055369E+001  +1.1413646344E+000 +9.2174177564E+001 
6015968.711 +6.7032409199E-001 +1.1368653672E+002  +3.3939071155E-001 +8.0745044644E+001  +3.1470921438E-001 +5.8630175934E+001  +1.2880182870E+000 +6.7896972086E+001 
6141113.892 +7.3178822987E-001 +1.0815951866E+002  +3.4796989007E-001 +7.8993463003E+001  +3.2728129247E-001 +5.3516227110E+001  +1.2297395507E+000 +7.0338645933E+001 
6266259.074 +6.8125810695E-001 +1.1596132619E+002  +2.6624967183E-001 +6.3959584244E+001  +2.5880539697E-001 +4.6699522023E+001  +1.1783496334E+000 +5.5359665332E+001 
6391404.255 +7.3743782075E-001 +9.2551186633E+001  +3.5311729919E-001 +5.2603311209E+001  +3.4527345338E-001 +3.5331071998E+001  +1.2788127145E+000 +5.3647487332E+001 
6516549.437 +8.9051632768E-001 +8.3546446626E+001  +3.5137051693E-001 +3.8173271484E+001  +3.5035518857E-001 +2.3175589210E+001  +1.0825656582E+000 +2.4358007256E+001 
6641694.618 +8.5448720373E-001 +5.7124891722E+001  +3.9593497200E-001 +2.0540876589E+001  +3.6756322539E-001 +1.0146548100E+001  +9.6021654588E-001 +1.7968951795E+001 
6766839.800 +9.1686023742E-001 +5.7139115405E+001  +3.2920074270E-001 +1.5312459112E+001  +3.4270154962E-001 +1.0981547908E+001  +8.6006178417E-001 +8.2011424617E+000 
6891984.981 +1.2846289651E+000 +3.8782795763E+001  +4.0408170198E-001 +1.1375669174E+001  +3.7979136290E-001 +7.5081412982E+000  +1.0949687547E+000 +3.4398412362E+000 
7017130.163 +9.8504631404E-001 +3.0982404782E+001  +3.2546280128E-001 +3.9736728448E+000  +3.1713072727E-001 -1.5397146019E-001  +1.1779798039E+000 -1.2059671492E+000 
7142275.344 +1.0790649758E+000 +1.2234967689E+001  +3.1584969765E-001 -2.2010594977E-001  +3.0512287017E-001 -9.3753031779E-001  +8.6014836069E-001 -1.0785964474E+001 
7267420.526 +1.0263288951E+000 +9.2837794577E+000  +2.5766256780E-001 +3.5086732449E-001  +2.6276891568E-001 +2.8712792271E-001  +1.0804099607E+000 -9.6694193808E+000 
7392565.707 +1.0881331339E+000 +7.8939121441E-001  +2.3142643327E-001 +4.8001964979E+000  +2.3287375476E-001 +3.2338793105E+000  +9.4646381877E-001 -7.3439563460E+000 
7517710.889 +8.3676590073E-001 +5.5170625327E+000  +2.1047902498E-001 +1.7262257718E+000  +2.1712042418E-001 +4.2991308401E+000  +9.6268276076E-001 -8.8904736666E+000 
7642856.070 +8.6672757927E-001 +6.5549507676E+000  +2.0218771493E-001 +4.7126580194E+000  +2.0092060257E-001 +7.0936255967E+000  +8.7216833074E-001 -3.0436796203E+000 
7768001.252 +7.1715715788E-001 +3.1587850154E+000  +1.9690064891E-001 +2.2735698569E+000  +1.9317820051E-001 +4.5800663958E+000  +7.5163146577E-001 -7.6901951443E+000 
7893146.433 +6.4887516254E-001 +1.1807549265E+001  +1.8743807670E-001 +3.2502915343E-001  +1.7836894169E-001 +4.2923780719E+000  +7.0342366106E-001 +7.0157253381E+000 
8018291.615 +6.1224230788E-001 +1.0281579060E+001  +1.8355551485E-001 -1.2698180368E+000  +1.8649477549E-001 +5.1238743565E+000  +6.8684632845E-001 -4.8475466869E+000 
8143436.796 +5.2444780188E-001 +1.0078702194E+001  +1.7670270287E-001 -3.2886819920E+000  +1.7883630965E-001 +7.8364562062E+000  +6.5258614449E-001 -4.3140003710E+000 
8268581.977 +5.8088948799E-001 +7.2788717959E+000  +1.6848856047E-001 -5.0920656358E+000  +1.7490763485E-001 +7.5734906527E+000  +6.0253004418E-001 +2.2734386988E+000 
8393727.159 +5.5588613077E-001 +1.2293931614E+001  +1.6934699404E-001 -1.9881674540E+000  +1.6588500094E-001 +7.0434109903E+000  +5.2936319515E-001 +5.5697758157E+000 
8518872.340 +4.7363103582E-001 +1.2047521162E+001  +1.6237010102E-001 -5.6383168954E+000  +1.6594797734E-001 +6.3470348419E+000  +4.9434894868E-001 +1.0558376236E+001 
8644017.522 +4.4728615239E-001 +2.2465816904E+001  +1.6227794933E-001 -3.7398414976E+000  +1.5701228037E-001 +8.4792575695E+000  +5.4936469844E-001 +3.7098905903E-001 
8769162.703 +4.2753097794E-001 +2.1298225255E+001  +1.6169744291E-001 -3.6631106637E+000  +1.5614852752E-001 +9.4871309772E+000  +4.5550163177E-001 +5.7937935483E+000 
8894307.885 +5.0077642989E-001 +1.4330761869E+001  +1.6279838069E-001 -3.7785708644E+000  +1.6111296022E-001 +8.8813646607E+000  +4.7215182101E-001 +2.8156558853E+000 
9019453.066 +4.2343214836E-001 +1.3532874735E+001  +1.5970762499E-001 -4.1361873552E+000  +1.5931332367E-001 +9.8411948260E+000  +4.6258513234E-001 +4.5199462075E+000 
9144598.248 +4.1495156216E-001 +1.0951753512E+001  +1.6054398711E-001 -3.8527378568E+000  +1.5665755249E-001 +9.3602763376E+000  +4.5973380076E-001 +3.3949204786E+000 
9269743.429 +4.0370886377E-001 +5.2180186334E+000  +1.6087827697E-001 -3.8472932151E+000  +1.5838805481E-001 +9.1568006555E+000  +4.4705834718E-001 +9.0104514400E-001 
9394888.611 +4.1989756289E-001 +5.1580931057E+000  +1.6203102923E-001 -4.1212509716E+000  +1.6075685631E-001 +1.1402533412E+001  +4.3724420948E-001 +2.6089005114E-001 
9520033.792 +4.0908704431E-001 +8.0530686127E+000  +1.6163847656E-001 -4.0793182021E+000  +1.5995478725E-001 +1.1742661830E+001  +4.4600437858E-001 +6.2604070772E+000 
9645178.974 +4.1850773433E-001 +5.9313964288E+000  +1.5864465320E-001 -2.9451903656E+000  +1.6187175949E-001 +1.1828355928E+001  +4.7006045263E-001 +2.7389646119E+000 
9770324.155 +4.0908406242E-001 +2.0557568992E-001  +1.6217988335E-001 -4.5292864051E+000  +1.6216257550E-001 +1.0849938949E+001  +4.2209360167E-001 -4.0810910792E+000 
9895469.337 +3.8813346159E-001 +6.3818085930E+000  +1.6333673099E-001 -3.9936396545E+000  +1.6132598072E-001 +1.3108604509E+001  +4.3271684067E-001 -1.8280821617E+000 
10020614.518 +3.5992946804E-001 +1.1665020127E+001  +1.6136997214E-001 -4.3444603660E+000  +1.6079491192E-001 +1.2411565320E+001  +4.2112717796E-001 -2.3539464645E-001 
10145759.700 +4.1628926936E-001 +9.5413760488E+000  +1.6568386468E-001 -3.1817646754E+000  +1.6226144382E-001 +1.3677996744E+001  +4.0752508352E-001 -3.8109459521E+000 
10270904.881 +4.0248519678E-001 +1.2412963795E+001  +1.6247805244E-001 -3.3810844104E+000  +1.6362523510E-001 +1.2196524903E+001  +3.7806691070E-001 -2.8040023198E+000 
10396050.063 +4.2193007221E-001 +4.5544851949E+000  +1.6649481401E-001 -2.9711768885E+000  +1.6735627365E-001 +1.3353624229E+001  +4.3269873345E-001 -3.5826988868E+000 
10521195.244 +4.5169013272E-001 +6.6671877071E+000  +1.6577023730E-001 -1.6912810244E+000  +1.6550228863E-001 +1.3747143255E+001  +4.1593820784E-001 +1.7948413496E+000 
10646340.426 +4.2179238959E-001 +1.3213398881E+001  +1.6310439363E-001 -2.8133462682E+000  +1.6402654999E-001 +1.2578887910E+001  +4.0202422679E-001 +8.4614055142E+000 
10771485.607 +4.1987609241E-001 +9.4515260440E+000  +1.6684180323E-001 -2.7830541898E+000  +1.6558297314E-001 +1.1749689307E+001  +4.1179919311E-001 +5.3161018644E+000 
10896630.788 +4.2919452387E-001 +1.1837872362E+001  +1.6903337731E-001 -2.4233622254E+000  +1.6517966759E-001 +1.2497459214E+001  +4.3952190726E-001 +4.4504626274E+000 
11021775.970 +4.3039446322E-001 +8.2523991639E+000  +1.6959641336E-001 -1.2523443259E+000  +1.6665007509E-001 +1.2317492473E+001  +4.5009729424E-001 +8.1179325992E+000 
11146921.151 +4.1066029895E-001 +1.2112862752E+001  +1.7121524362E-001 -2.1806068509E+000  +1.6916395769E-001 +1.2217641696E+001  +4.3643982771E-001 +4.8210983051E+000 
11272066.333 +4.3234640331E-001 +1.1891586316E+001  +1.7123669093E-001 -1.4873668710E+000  +1.6855822492E-001 +1.2086061690E+001  +4.5639558929E-001 +6.4549478000E+000 
11397211.514 +4.5625944882E-001 +1.3633174197E+001  +1.7460639941E-001 -9.9225370723E-001  +1.7133019652E-001 +1.1585658963E+001  +4.3775806350E-001 +5.2562166732E+000 
11522356.696 +4.7742664311E-001 +1.0278849184E+001  +1.7387314318E-001 +7.9097995800E-002  +1.7317244018E-001 +1.1896578881E+001  +4.5335162948E-001 +2.4386311555E+000 
11647501.877 +4.8430233799E-001 +1.0246856738E+001  +1.7696631896E-001 +1.2359649705E-001  +1.7578267947E-001 +1.1795141394E+001  +4.8380221731E-001 +2.8308105657E+000 
11772647.059 +4.5175774966E-001 +7.8215288012E+000  +1.7883477568E-001 -3.9043064066E-001  +1.7498802294E-001 +1.0750395274E+001  +4.9486273460E-001 +8.2661181816E+000 
11897792.240 +4.6041415124E-001 +8.9330462851E+000  +1.8303388973E-001 +2.5369957315E-001  +1.7991280006E-001 +1.0823588788E+001  +4.9658110313E-001 +4.3695218801E+000 
12022937.422 +5.1241104896E-001 +1.1151774978E+001  +1.8017064535E-001 +8.6670947625E-001  +1.7961230779E-001 +1.0819767185E+001  +4.9548501270E-001 +3.9514760775E+000 
12148082.603 +5.0143666871E-001 +5.6436462714E+000  +1.8569406658E-001 +1.5339605163E+000  +1.8434302113E-001 +1.0579487707E+001  +5.1472629299E-001 +3.0316916702E+000 
12273227.785 +4.9047137020E-001 +8.8549682012E+000  +1.8540363373E-001 +8.0408673444E-001  +1.8371995354E-001 +9.1252701474E+000  +5.3753082492E-001 +3.2076330562E+000 
12398372.966 +5.3206418346E-001 +8.4370295112E+000  +1.8876149839E-001 +1.2978470284E+000  +1.8497769238E-001 +9.3822195858E+000  +5.1997321643E-001 +3.2441301756E+000 
12523518.148 +5.3815652977E-001 +6.2253761725E+000  +1.9067356629E-001 +1.4338128349E+000  +1.8732611631E-001 +8.1715552470E+000  +5.3935408309E-001 +2.0287553307E+000 
12648663.329 +5.5029829237E-001 +5.3303284022E+000  +1.9250596228E-001 +1.8183698789E+000  +1.8897450030E-001 +8.6845466754E+000  +5.7029450939E-001 +7.6110686382E-001 
12773808.511 +5.6121861012E-001 +2.7647508147E+000  +1.9519116368E-001 +1.4997556494E+000  +1.9304006637E-001 +7.6967519265E+000  +5.6363475922E-001 -3.2816026859E-001 
12898953.692 +5.8338431990E-001 +3.3374320160E+000  +1.9670960924E-001 +2.2696976159E+000  +1.9447448840E-001 +7.6965285257E+000  +5.9530315272E-001 -1.0834392148E+000 
13024098.874 +5.7723354672E-001 +2.7087813812E+000  +1.9678708362E-001 +1.4271646676E+000  +1.9556414101E-001 +7.0847613856E+000  +5.9491177283E-001 -1.0036705775E-001 
13149244.055 +6.1055673158E-001 +4.6280383794E-001  +2.0036708192E-001 +2.7399624289E+000  +1.9714281176E-001 +7.4970266071E+000  +6.2491495822E-001 +1.6135554557E+000 
13274389.237 +6.4172926205E-001 +1.7772998304E+000  +2.0417058255E-001 +2.6483121251E+000  +1.9853916665E-001 +6.0207031020E+000  +6.2320390703E-001 -2.2160565388E+000 
13399534.418 +6.4502941726E-001 -1.7690492942E+000  +2.0519452879E-001 +2.3970939715E+000  +2.0292433173E-001 +5.4183044992E+000  +6.5263300849E-001 -7.4915740091E-001 
13524679.599 +6.5215465076E-001 +1.1075289382E-001  +2.0450250546E-001 +2.1595124040E+000  +2.0479548585E-001 +5.1803799186E+000  +6.4504315964E-001 -3.3007826902E+000 
13649824.781 +6.6096052519E-001 -3.6372268964E+000  +2.0860955481E-001 +2.3687423850E+000  +2.0436791552E-001 +4.7901831325E+000  +6.8456470457E-001 -1.1011302655E+000 
13774969.962 +6.8576525724E-001 -3.1082675297E+000  +2.0956708417E-001 +2.4296454623E+000  +2.0914839019E-001 +4.1429078167E+000  +7.0580228647E-001 -3.5601029082E+000 
13900115.144 +7.1012071060E-001 -3.1675323525E+000  +2.1099143070E-001 +2.1695972509E+000  +2.0830452159E-001 +3.9674618775E+000  +6.9644138229E-001 -3.2787811788E+000 
14025260.325 +7.3433105761E-001 -3.8136445413E+000  +2.1455229560E-001 +2.1051842155E+000  +2.0932726143E-001 +3.3534893012E+000  +7.3382448237E-001 -4.4708115144E+000 
14150405.507 +7.6539096776E-001 -3.9187899344E+000  +2.1504592456E-001 +2.5514541899E+000  +2.0935455836E-001 +3.4899887550E+000  +7.5549762198E-001 -5.4256868751E+000 
14275550.688 +7.4339492936E-001 -4.0340284964E+000  +2.1467005897E-001 +1.3946791234E+000  +2.1059485427E-001 +2.7275101449E+000  +7.4845896805E-001 -5.4598923385E+000 
14400695.870 +7.5827659799E-001 -4.9451360660E+000  +2.1401925942E-001 +1.3767844297E+000  +2.1230962536E-001 +2.0711397820E+000  +7.6513626136E-001 -3.9267969536E+000 
