!  2-Port S-parameters saved by WinCal
! VAR MeasName=S-Parameters (CALIBRATED_DATA) read from VNA (P5004A)
! VAR MeasDate=29/08/2024 14:28:53
! VAR NAME=S2_r9c7_pristine_9k-100M_3
! VAR FILENAME=S2_r9c7_pristine_9k-100M_3.S2P
! VAR DATE=29/08/2024 14:28:53
! VAR PHYS_PORTS=1,2
! VAR ObjTypeName=DATASET
! VAR IndexType=Frequency
!
# Hz S MA R 50
9000.000 +7.8045111557E-002 -1.7146704311E+002  +3.6100458944E-003 +1.7852435129E+001  +1.5943624198E-002 +1.2716386713E+002  +3.0019042414E-001 -1.3578297281E+002 
134145.181 +1.1041570646E-001 +1.6951281641E+002  +2.9202150917E-004 -6.0571710976E+001  +5.5104882102E-004 -1.3707936789E+002  +2.4038812457E-001 -1.7125322667E+002 
259290.363 +1.1227758935E-001 +1.6979269401E+002  +6.8949389792E-004 -5.4834389928E+001  +1.0866814095E-003 +9.2462403614E+001  +2.4023029099E-001 -1.6979385808E+002 
384435.544 +1.1311634358E-001 +1.7024648936E+002  +3.8598485435E-004 -1.2797351958E+002  +7.4657308880E-004 +1.2919327586E+002  +2.4317527146E-001 -1.7007032974E+002 
509580.726 +1.1404344715E-001 +1.7128750457E+002  +9.6358802025E-004 -5.3968091057E+001  +3.8243945870E-003 +1.1135843961E+002  +2.4225532761E-001 -1.6336418980E+002 
634725.907 +1.1576167144E-001 +1.7295042638E+002  +2.3831621140E-003 -7.2862951201E+001  +3.2010345325E-003 -1.7414860050E+002  +2.5201218161E-001 -1.6258905770E+002 
759871.089 +1.2031063778E-001 +1.7081592199E+002  +5.5264624544E-004 -6.8766150275E+001  +1.0110390373E-003 +1.1006436761E+002  +2.5083322245E-001 -1.6775083730E+002 
885016.270 +1.2147319406E-001 +1.6876625798E+002  +4.0528462557E-004 -1.5457087187E+001  +6.9834400107E-004 +1.5039357685E+002  +2.4483331837E-001 -1.6775754795E+002 
1010161.452 +1.1726928116E-001 +1.6918729056E+002  +1.6096074053E-003 +4.8226578949E+001  +2.3548293170E-003 -1.5877677092E+002  +2.1889979869E-001 -1.6777588861E+002 
1135306.633 +1.1552509081E-001 +1.6785515028E+002  +4.8311056752E-003 +6.1559734491E+001  +6.5266964377E-003 -1.1556515378E+002  +1.9393660084E-001 -1.6726168243E+002 
1260451.815 +1.1767800707E-001 +1.7066829749E+002  +6.6677541969E-003 +1.0984065714E+001  +5.1478444082E-003 -1.2390557056E+002  +2.1758839429E-001 -1.5974600931E+002 
1385596.996 +1.2826861127E-001 +1.7210040580E+002  +2.0015671422E-003 -4.1726474525E+001  +3.9182658448E-003 +1.7727342063E+002  +2.5265215084E-001 -1.5811251366E+002 
1510742.178 +1.2564530698E-001 +1.7185751934E+002  +2.8826053789E-003 +6.0141545035E+000  +3.7412315971E-003 -1.5350812377E+002  +2.5772479160E-001 -1.6108142666E+002 
1635887.359 +1.2868221248E-001 +1.7064968650E+002  +4.1856701839E-003 +1.1240969711E+001  +3.8040717164E-003 -1.0483120064E+002  +2.4463148993E-001 -1.5893976927E+002 
1761032.541 +1.3002951988E-001 +1.6977958516E+002  +6.0560937070E-003 +4.1587736089E+001  +6.4371772912E-003 -1.1311911126E+002  +2.4358399620E-001 -1.5906372417E+002 
1886177.722 +1.3323766947E-001 +1.6958204958E+002  +6.1222875377E-003 +6.5105916955E+001  +8.1123216358E-003 -7.5628661519E+001  +2.3206253144E-001 -1.6005256264E+002 
2011322.904 +1.2967326434E-001 +1.6960902374E+002  +1.8271432046E-002 +5.2398173196E+001  +1.9796874129E-002 -7.8504427664E+001  +2.0477247243E-001 -1.5255231383E+002 
2136468.085 +1.3250804326E-001 +1.6880263239E+002  +1.9687996574E-002 +9.4207094531E+001  +2.1572741926E-002 -3.6351837155E+001  +2.0615671504E-001 -1.7440287375E+002 
2261613.267 +1.3116322726E-001 +1.7095230272E+002  +2.3906824746E-002 +6.0943486810E+001  +3.0050693504E-002 -5.9023671288E+001  +1.8922237730E-001 -1.6059139276E+002 
2386758.448 +1.3334178911E-001 +1.6732011406E+002  +2.2894981647E-002 +8.4582449545E+001  +2.4745848721E-002 -3.1375058268E+001  +2.2349545897E-001 -1.6864554550E+002 
2511903.630 +1.3479457343E-001 +1.6421324077E+002  +4.7857913858E-002 +9.5661070546E+001  +5.3184369278E-002 -2.0077860989E+001  +1.5872165160E-001 +1.7179600602E+002 
2637048.811 +1.1676191052E-001 +1.7153961180E+002  +7.2080858974E-002 +5.6817149986E+001  +8.1785963537E-002 -5.8816705365E+001  +9.9435249486E-002 -1.5098303580E+002 
2762193.992 +1.2686299810E-001 +1.7807559041E+002  +6.0450558763E-002 +1.8038578249E+001  +6.4717847464E-002 -9.0288934458E+001  +2.2783687439E-001 -1.3447988543E+002 
2887339.174 +1.5527759600E-001 -1.7868483666E+002  +5.2567484685E-002 -2.0628524038E+001  +5.4890731653E-002 -1.2914804131E+002  +2.9110796416E-001 -1.3295437471E+002 
3012484.355 +1.3968675637E-001 +1.7839985369E+002  +7.2698054118E-002 +1.3518822558E+001  +7.0306741380E-002 -8.5665088943E+001  +2.0213278359E-001 -1.2274687171E+002 
3137629.537 +1.4238000383E-001 -1.7879778227E+002  +8.5751762145E-002 +1.7581337645E+001  +8.5205850167E-002 -7.4676105433E+001  +1.4051196719E-001 -1.1519500214E+002 
3262774.718 +1.3726469476E-001 +1.7379721904E+002  +7.0003561244E-002 +3.3673504614E+001  +6.9411265674E-002 -5.8365075499E+001  +1.7974170278E-001 -1.4031304026E+002 
3387919.900 +1.2841366086E-001 +1.7086245593E+002  +1.1021527552E-001 +4.4871726743E+001  +1.0179140361E-001 -4.2640570535E+001  +7.1254208203E-002 -1.3126150284E+002 
3513065.081 +1.1664420938E-001 +1.5292770468E+002  +1.5960945995E-001 +6.9177390870E+001  +1.5909296375E-001 -1.6467752923E+001  +1.0630014925E-001 +9.6234788528E+001 
3638210.263 +1.5748699394E-001 +1.4402948602E+002  +1.3290211846E-001 +1.0320426985E+002  +1.3482850289E-001 +2.2401645307E+001  +2.8170892784E-001 +1.5278479209E+002 
3763355.444 +1.5015599628E-001 +1.3259850810E+002  +1.9619260986E-001 +8.7587549121E+001  +1.8797491186E-001 +1.0698409807E+001  +1.9607126846E-001 +1.2400411860E+002 
3888500.626 +1.7407067902E-001 +1.5911792373E+002  +1.1745905497E-001 +1.0286853533E+002  +1.1714223740E-001 +2.6490170198E+001  +3.8396288626E-001 +1.4723476373E+002 
4013645.807 +1.6533465791E-001 +1.5398499188E+002  +1.0833263083E-001 +8.9844457661E+001  +1.0958350974E-001 +2.0924205196E+001  +2.9258944305E-001 +1.6780162351E+002 
4138790.989 +1.8687847283E-001 +1.4798643697E+002  +1.5206461142E-001 +1.0004591244E+002  +1.4863331465E-001 +3.1115873311E+001  +3.3101673523E-001 +1.4932642490E+002 
4263936.170 +1.6104709542E-001 +1.6379285332E+002  +1.3022084302E-001 +6.2833022267E+001  +1.2803181409E-001 -2.5238655580E+000  +1.9678769872E-001 +1.5923673474E+002 
4389081.352 +2.0124858095E-001 +1.4746927594E+002  +1.7603020571E-001 +9.5213082071E+001  +1.6991122307E-001 +3.4635900785E+001  +3.6301886479E-001 +1.4136190876E+002 
4514226.533 +1.7239357508E-001 +1.4492253634E+002  +2.0929510259E-001 +7.8340878122E+001  +2.0639673306E-001 +1.9610887558E+001  +3.0005446723E-001 +1.2880073251E+002 
4639371.715 +2.1112792169E-001 +1.2635903862E+002  +3.2632077047E-001 +9.1864350376E+001  +3.1654002796E-001 +3.6981208169E+001  +5.3952049130E-001 +1.1800918301E+002 
4764516.896 +3.6492995860E-001 +1.4004441325E+002  +3.4791718356E-001 +1.4167629220E+002  +3.3733140790E-001 +9.1422803616E+001  +8.6413034626E-001 +1.5477438945E+002 
4889662.078 +3.2246156229E-001 +1.1234451132E+002  +5.5250466691E-001 +1.0226159207E+002  +5.3201046980E-001 +5.2834032285E+001  +1.0110672317E+000 +1.1477884152E+002 
5014807.259 +2.7599096505E-001 +1.3283132330E+002  +3.2935708265E-001 +9.9441099545E+001  +3.1754254832E-001 +5.4513659510E+001  +6.4135357639E-001 +1.3147656587E+002 
5139952.441 +3.4582009686E-001 +1.1662178414E+002  +4.7007595920E-001 +1.0336674789E+002  +4.5396657929E-001 +6.1402119127E+001  +8.1808948629E-001 +1.3205468986E+002 
5265097.622 +2.7297834795E-001 +1.2575958292E+002  +4.2457172457E-001 +9.1947170683E+001  +4.1855887295E-001 +5.1150297735E+001  +8.4783450587E-001 +1.2377735555E+002 
5390242.804 +3.1711368268E-001 +1.3695886583E+002  +3.1600147397E-001 +1.0060015309E+002  +3.0920454501E-001 +6.3665425550E+001  +7.4454314766E-001 +1.4365631483E+002 
5515387.985 +3.0374652714E-001 +1.3583804339E+002  +3.4080263595E-001 +9.2486162852E+001  +3.2542238396E-001 +5.7999730487E+001  +7.6525927492E-001 +1.4084657955E+002 
5640533.166 +3.8967664854E-001 +1.3962465227E+002  +3.5629772730E-001 +1.1102406405E+002  +3.4460317296E-001 +7.9553132029E+001  +1.0068394398E+000 +1.4793141823E+002 
5765678.348 +3.1386557440E-001 +1.3011307922E+002  +4.1906295423E-001 +7.9597315126E+001  +4.0885012965E-001 +5.1421464564E+001  +8.0222230874E-001 +1.2884676579E+002 
5890823.529 +3.2328556716E-001 +1.2759442047E+002  +4.4738200156E-001 +8.0798828502E+001  +4.2957576386E-001 +5.5318922783E+001  +9.1403315334E-001 +1.3544507388E+002 
6015968.711 +3.1975544168E-001 +1.2468717371E+002  +5.0029350581E-001 +7.3562223484E+001  +4.8947242422E-001 +4.9056993536E+001  +9.5078088028E-001 +1.2632182239E+002 
6141113.892 +3.5616246325E-001 +1.2249898347E+002  +4.9909071477E-001 +7.0387105435E+001  +4.9361361220E-001 +4.8627219041E+001  +8.5665964292E-001 +1.2889712861E+002 
6266259.074 +4.5915904895E-001 +9.6791795245E+001  +8.1440013690E-001 +6.6952121137E+001  +7.8686922090E-001 +4.8669631210E+001  +1.1877942015E+000 +1.0461149430E+002 
6391404.255 +3.3772925461E-001 +9.7544252924E+001  +7.4837997947E-001 +5.3422381295E+001  +7.4710670243E-001 +3.6990834242E+001  +1.0298731801E+000 +1.0203259165E+002 
6516549.437 +4.0624089756E-001 +9.5287843342E+001  +8.3219265942E-001 +4.9838293023E+001  +8.2473370784E-001 +3.6099384049E+001  +1.1018102448E+000 +8.9933453063E+001 
6641694.618 +3.5630692928E-001 +8.5168694824E+001  +8.1682168902E-001 +3.5593060478E+001  +8.1704931728E-001 +2.3807207067E+001  +6.5384963001E-001 +7.7561953112E+001 
6766839.800 +1.5764561597E-001 +7.0784763675E+001  +8.5061849381E-001 +2.0466583057E+001  +8.5368849501E-001 +1.0699908923E+001  +5.8329343310E-001 +6.8584161984E+001 
6891984.981 +1.5963381039E-001 +5.4554898817E+001  +9.2813088583E-001 +1.4857068132E+001  +9.3034791910E-001 +6.8246050348E+000  +6.4094725454E-001 +5.1165016700E+001 
7017130.163 +5.7758938398E-002 +1.0845133426E+002  +8.6539652441E-001 +6.4454792763E+000  +8.5835645554E-001 +8.7822252920E-001  +3.8662253666E-001 +3.9483223470E+001 
7142275.344 +1.0779701689E-001 +1.2236447790E+002  +8.6791615360E-001 +3.1467903157E+000  +8.6267944276E-001 +5.8420433564E-001  +2.6160487667E-001 +2.2404374211E+001 
7267420.526 +4.6492387423E-002 +1.3626396028E+002  +9.1673956059E-001 +5.3624711377E-001  +9.0448411728E-001 -1.0694618677E+000  +1.4916982387E-001 -1.1784454618E+001 
7392565.707 +6.9479746233E-002 +1.1242738105E+002  +9.4924376022E-001 -5.5982024820E-002  +9.5944043987E-001 +4.6076524168E-001  +1.7698552306E-001 -3.0707946834E+001 
7517710.889 +4.7533580457E-002 +1.2468101706E+002  +9.1588453151E-001 -3.6781095725E-001  +9.1805671157E-001 +1.6781065201E+000  +1.2927169036E-001 +3.7016213687E+001 
7642856.070 +1.3920537706E-001 +1.0902234662E+002  +8.6562412102E-001 -1.8512381585E+000  +8.6345195277E-001 +9.9216900283E-001  +1.4647971228E-001 +1.4184823374E+002 
7768001.252 +1.6191459662E-001 +1.3335672280E+002  +8.3379088583E-001 -2.7625400437E+000  +8.4022551082E-001 +2.5345184838E+000  +1.8086553053E-001 +7.7660071421E+001 
7893146.433 +2.6388374033E-001 +1.3518415096E+002  +7.9381334988E-001 -3.7076776544E+000  +7.9003679423E-001 +3.0093148097E+000  +1.9532020691E-001 +9.0419424195E+001 
8018291.615 +1.6525012467E-001 +1.1149889331E+002  +8.1054103618E-001 -3.6508577428E+000  +8.1522962270E-001 +4.4444484182E+000  +1.0830967862E-001 +1.2709818071E+002 
8143436.796 +2.0066862138E-001 +1.3418313776E+002  +7.7075253036E-001 -5.5333482072E+000  +7.6507315950E-001 +2.9678989714E+000  +2.8630217147E-001 +1.2004049664E+002 
8268581.977 +3.0082008132E-001 +1.3721863801E+002  +7.4362072110E-001 -6.4209257519E+000  +7.3388728770E-001 +3.6786963399E+000  +2.7987077000E-001 +1.1295874770E+002 
8393727.159 +3.0570181616E-001 +1.1925105588E+002  +7.3093421172E-001 -5.5130752755E+000  +7.2288598680E-001 +4.9702938686E+000  +2.6554965334E-001 +1.2543932021E+002 
8518872.340 +2.9016469746E-001 +1.2037624311E+002  +7.2953806778E-001 -6.1588941346E+000  +7.2721641085E-001 +5.7680353334E+000  +2.1460520040E-001 +1.3365421138E+002 
8644017.522 +2.2929693041E-001 +1.2214852892E+002  +7.2134272006E-001 -6.0293653981E+000  +7.1882023560E-001 +6.6982789430E+000  +2.7900831303E-001 +1.1158731747E+002 
8769162.703 +3.0585357220E-001 +1.3192909219E+002  +7.0549913018E-001 -8.2061942949E+000  +7.0038665949E-001 +5.4250177950E+000  +2.7871739950E-001 +1.2732960970E+002 
8894307.885 +3.1550627899E-001 +1.2504792231E+002  +6.9212436139E-001 -7.6200255828E+000  +6.8889433118E-001 +6.0909657553E+000  +2.9100064157E-001 +1.2404607895E+002 
9019453.066 +2.8437461178E-001 +1.3393909971E+002  +6.9847966800E-001 -7.9849917958E+000  +6.9808356415E-001 +5.9164758966E+000  +2.6610192301E-001 +1.2564956343E+002 
9144598.248 +2.7964938233E-001 +1.3604183954E+002  +6.9979472057E-001 -8.8121527449E+000  +6.9461201040E-001 +6.1545873416E+000  +2.7454324132E-001 +1.2609655295E+002 
9269743.429 +2.6362251992E-001 +1.3702800293E+002  +7.0228378508E-001 -8.6328902082E+000  +6.9654138419E-001 +6.3080296389E+000  +2.5121031069E-001 +1.3159390892E+002 
9394888.611 +2.6974604578E-001 +1.3490543053E+002  +6.9609842930E-001 -8.5238792467E+000  +6.8946512527E-001 +6.9541828969E+000  +2.6535801437E-001 +1.2707571776E+002 
9520033.792 +2.6802813266E-001 +1.3850567716E+002  +6.9655009283E-001 -8.9708118755E+000  +6.9165533760E-001 +6.4795763892E+000  +2.3999777039E-001 +1.3423784552E+002 
9645178.974 +2.8979802495E-001 +1.3669358936E+002  +6.9342511824E-001 -9.2556070381E+000  +6.9270254677E-001 +6.7666940952E+000  +2.3954405012E-001 +1.3870544143E+002 
9770324.155 +3.0490702484E-001 +1.4883091744E+002  +6.9443085311E-001 -1.0009210707E+001  +6.9160105873E-001 +5.7569629520E+000  +2.6326604058E-001 +1.3891349991E+002 
9895469.337 +2.5410307396E-001 +1.4262867111E+002  +6.9169822099E-001 -9.4738496973E+000  +6.8819681467E-001 +6.2432928020E+000  +3.3142288951E-001 +1.3364667363E+002 
10020614.518 +2.7628924614E-001 +1.4241022811E+002  +6.9238587184E-001 -8.8774452563E+000  +6.8878406839E-001 +6.9581466818E+000  +2.6783889291E-001 +1.2871361076E+002 
10145759.700 +2.5634251535E-001 +1.4315321736E+002  +6.9842623527E-001 -9.0376530623E+000  +6.9439567754E-001 +6.4840459105E+000  +2.9275743012E-001 +1.3543707650E+002 
10270904.881 +2.7557687237E-001 +1.4445122777E+002  +7.0008437936E-001 -8.8775806056E+000  +6.9830228041E-001 +6.8887691391E+000  +2.4528060199E-001 +1.3503343922E+002 
10396050.063 +2.6248734077E-001 +1.3974502961E+002  +6.9665447116E-001 -8.1422601714E+000  +6.9265733240E-001 +7.1665524127E+000  +2.7199228821E-001 +1.2276695498E+002 
10521195.244 +2.6387087302E-001 +1.3873454775E+002  +7.0014664158E-001 -8.1227888289E+000  +6.9446648074E-001 +6.9582647278E+000  +2.9128128981E-001 +1.2787453506E+002 
10646340.426 +2.3899778141E-001 +1.4098849671E+002  +7.0827498785E-001 -7.9694215376E+000  +7.0141602710E-001 +6.9800252670E+000  +2.9316980574E-001 +1.2875825092E+002 
10771485.607 +2.6908255911E-001 +1.3884785731E+002  +7.0999539870E-001 -7.6537790073E+000  +7.0499149281E-001 +6.8234852869E+000  +2.5387977239E-001 +1.2846782717E+002 
10896630.788 +2.2478160887E-001 +1.3710502052E+002  +7.1738681804E-001 -7.3752228749E+000  +7.1117845935E-001 +6.6215713090E+000  +2.7750434331E-001 +1.3113753935E+002 
11021775.970 +2.7339087900E-001 +1.2940405028E+002  +7.1429251530E-001 -6.9966681472E+000  +7.0697162917E-001 +6.8065452659E+000  +2.6016929885E-001 +1.2931328075E+002 
11146921.151 +2.6126639226E-001 +1.3638715601E+002  +7.1919443556E-001 -6.8916905332E+000  +7.1426165180E-001 +6.3304788200E+000  +2.5643817923E-001 +1.2729059202E+002 
11272066.333 +2.2743603332E-001 +1.3704873282E+002  +7.3166237472E-001 -6.3070089884E+000  +7.2695276738E-001 +6.5328008374E+000  +2.3093085326E-001 +1.2407742081E+002 
11397211.514 +2.1997877289E-001 +1.3216570688E+002  +7.3217062765E-001 -5.6655879362E+000  +7.2952862277E-001 +6.7682540606E+000  +2.3682216420E-001 +1.2196984318E+002 
11522356.696 +2.4805982459E-001 +1.2357356893E+002  +7.3290408764E-001 -5.3881384237E+000  +7.2806155887E-001 +6.2978210961E+000  +2.5051143075E-001 +1.2691964465E+002 
11647501.877 +2.4619352959E-001 +1.3001068993E+002  +7.4246408048E-001 -5.8139521787E+000  +7.3663541499E-001 +5.4268880971E+000  +2.5334414423E-001 +1.3167220011E+002 
11772647.059 +2.1249459165E-001 +1.2861364108E+002  +7.5056448094E-001 -5.0287664764E+000  +7.4632436408E-001 +5.8781352245E+000  +2.4241127052E-001 +1.2464144243E+002 
11897792.240 +2.3556437117E-001 +1.2949346004E+002  +7.5578316717E-001 -4.5716187895E+000  +7.5270450032E-001 +5.6408703687E+000  +2.1246686097E-001 +1.2103886018E+002 
12022937.422 +2.0490973584E-001 +1.2744549009E+002  +7.6347403944E-001 -4.3625058735E+000  +7.5889006386E-001 +5.1893848257E+000  +2.4034738770E-001 +1.2258867448E+002 
12148082.603 +2.2370497931E-001 +1.2404512618E+002  +7.6983885834E-001 -4.2162780715E+000  +7.6607332265E-001 +4.9185052542E+000  +2.0159548617E-001 +1.2755458205E+002 
12273227.785 +2.0333425358E-001 +1.2825872351E+002  +7.8014298625E-001 -3.9630652687E+000  +7.7452915466E-001 +4.5704500987E+000  +2.1017538138E-001 +1.2674883517E+002 
12398372.966 +2.0018195605E-001 +1.3220616386E+002  +7.8923648372E-001 -3.9180298516E+000  +7.8641787491E-001 +4.0975997300E+000  +1.9252348588E-001 +1.2841055718E+002 
12523518.148 +1.8143550543E-001 +1.3421763991E+002  +7.9704258790E-001 -3.7101435191E+000  +7.9325482861E-001 +3.5101660487E+000  +2.1024283424E-001 +1.2718559225E+002 
12648663.329 +1.7112051668E-001 +1.3114510489E+002  +8.0869659948E-001 -3.2947013141E+000  +8.0465272878E-001 +3.4756332861E+000  +1.8331707830E-001 +1.2991933712E+002 
12773808.511 +1.4382825486E-001 +1.2936421438E+002  +8.2309723416E-001 -2.5613340782E+000  +8.1796829985E-001 +3.5982166629E+000  +1.4760224647E-001 +1.2782460646E+002 
12898953.692 +1.6065792635E-001 +1.2962356447E+002  +8.2630871022E-001 -2.6977067685E+000  +8.1927272076E-001 +3.0000156194E+000  +1.5984579671E-001 +1.2358972246E+002 
13024098.874 +1.4311162156E-001 +1.2249043500E+002  +8.3427045497E-001 -2.0085666996E+000  +8.2737608702E-001 +2.8355366099E+000  +1.5586067177E-001 +1.2373333022E+002 
13149244.055 +1.5908834134E-001 +1.2083088552E+002  +8.3827049493E-001 -2.2358892782E+000  +8.3593066427E-001 +2.2349510379E+000  +1.5293221227E-001 +1.3167143010E+002 
13274389.237 +1.0555751235E-001 +1.2398063418E+002  +8.5766988678E-001 -1.6676999109E+000  +8.5269957472E-001 +2.9917372784E+000  +1.2310186582E-001 +1.2425877348E+002 
13399534.418 +8.2878397354E-002 +1.2869087874E+002  +8.6926830489E-001 -1.4657772134E+000  +8.6413664029E-001 +1.7611144835E+000  +1.1670474381E-001 +1.2486826645E+002 
13524679.599 +1.1984469501E-001 +1.2755701682E+002  +8.8083931077E-001 -1.4204772635E+000  +8.5779164814E-001 +1.0619314562E+000  +1.0161904548E-001 +1.1870072100E+002 
13649824.781 +8.9212050238E-002 +1.2209696745E+002  +8.8168780922E-001 -1.6862551976E+000  +8.9020815675E-001 +1.0217074283E+000  +8.9426497653E-002 +1.1833426872E+002 
13774969.962 +7.6204322449E-002 +1.1089267005E+002  +8.9769123879E-001 -6.5788595013E-001  +8.8803471757E-001 +6.8323337885E-001  +8.4274953350E-002 +1.2078698856E+002 
13900115.144 +7.3127236673E-002 +9.6384525248E+001  +9.1290041335E-001 -1.1382839744E+000  +8.9666406620E-001 +9.7693226206E-001  +6.2290429034E-002 +1.4264249145E+002 
14025260.325 +5.9195746864E-002 +1.3104111163E+002  +9.1127949940E-001 -6.8102943505E-001  +9.0838918196E-001 +2.2880320374E-001  +6.7050025509E-002 +1.3102077774E+002 
14150405.507 +3.1030039138E-002 +1.3071422768E+002  +9.2661525700E-001 -7.5741074726E-001  +9.1215098591E-001 +2.9227861036E-001  +5.9111564511E-002 +1.1554324595E+002 
14275550.688 +3.2432765364E-002 +1.1624964297E+002  +9.3894753143E-001 -1.3702283669E+000  +9.2468830625E-001 -8.0853330508E-002  +3.2739570416E-002 +1.0063780168E+002 
14400695.870 +1.2636014531E-002 +1.1302967794E+002  +9.5459426356E-001 -1.6163140246E+000  +9.5031147656E-001 -2.4343872934E-001  +2.4893124683E-002 +1.5913019523E+002 
