!  2-Port S-parameters saved by WinCal
! VAR MeasName=S-Parameters (CALIBRATED_DATA) read from VNA (P5004A)
! VAR MeasDate=29/08/2024 14:41:39
! VAR NAME=S2_r9c8_pristine_9k-100M_1
! VAR FILENAME=S2_r9c8_pristine_9k-100M_1.S2P
! VAR DATE=29/08/2024 14:41:39
! VAR PHYS_PORTS=1,2
! VAR ObjTypeName=DATASET
! VAR IndexType=Frequency
!
# Hz S MA R 50
9000.000 +8.9789173793E-002 -1.5808715462E+002  +9.8652756783E-003 -8.7079591791E+001  +5.1136037127E-003 -1.1715439221E+002  +2.5186721985E-001 -1.4698750099E+002 
134145.181 +1.1173938864E-001 +1.6966769633E+002  +3.9060932173E-005 -1.2611266965E+002  +3.0005892953E-004 +1.7746036871E+002  +2.3900447128E-001 -1.7151406524E+002 
259290.363 +1.1251254724E-001 +1.6968453081E+002  +4.0003907443E-004 -5.1233648347E+001  +7.6400892721E-004 +1.3178819693E+002  +2.4113722797E-001 -1.7085655981E+002 
384435.544 +1.1422839087E-001 +1.6957521748E+002  +6.0391588772E-004 -5.3648308618E+001  +1.2667828730E-003 +1.0582500462E+002  +2.4515734724E-001 -1.6927110050E+002 
509580.726 +1.1254758094E-001 +1.6986192905E+002  +2.3200973360E-003 -5.7961473107E+001  +1.2305201507E-003 -1.7231464928E+002  +2.3900155867E-001 -1.6592307480E+002 
634725.907 +1.1756829775E-001 +1.7219561231E+002  +1.4697448452E-003 -8.3731631254E+001  +2.7185185818E-003 +1.1798212655E+002  +2.5439074296E-001 -1.6372720463E+002 
759871.089 +1.2066277004E-001 +1.7036748011E+002  +1.3698196837E-003 -4.3066233679E+001  +1.1477963153E-003 +1.0572582963E+002  +2.4141511520E-001 -1.6668192541E+002 
885016.270 +1.2091808099E-001 +1.6897836917E+002  +5.5302446401E-004 +1.4136351651E+001  +1.2107708733E-003 +1.6241489431E+002  +2.4661717162E-001 -1.6817342834E+002 
1010161.452 +1.1697425480E-001 +1.6902241621E+002  +1.9397309098E-003 +2.4577042520E+001  +2.5913051086E-003 -1.2792975880E+002  +2.2146284412E-001 -1.6789037247E+002 
1135306.633 +1.2037932501E-001 +1.6834208532E+002  +4.3250165022E-003 +6.0901161068E+001  +3.7498392495E-003 -1.0336083836E+002  +1.8778409734E-001 -1.7051919443E+002 
1260451.815 +1.2021266325E-001 +1.7105857469E+002  +4.3873941996E-003 +1.0195382743E+001  +5.0551358522E-003 -1.5669390223E+002  +2.3163131864E-001 -1.6052268780E+002 
1385596.996 +1.2494695725E-001 +1.7188634785E+002  +2.4101082965E-003 -2.7086657278E+001  +3.3122469901E-003 +1.6716151005E+002  +2.5746354610E-001 -1.5935589623E+002 
1510742.178 +1.2954340780E-001 +1.7101756892E+002  +2.1873562440E-003 -1.5556595443E+001  +3.7325101857E-003 -1.5240182287E+002  +2.5198608641E-001 -1.6015819004E+002 
1635887.359 +1.2653651414E-001 +1.7074293057E+002  +5.5193333926E-003 +1.9539528477E+001  +4.3221521711E-003 -1.3643021450E+002  +2.5884884625E-001 -1.5862847469E+002 
1761032.541 +1.3158077018E-001 +1.7074108900E+002  +6.5149561547E-003 +3.2955995235E+001  +5.7057043795E-003 -9.5957447413E+001  +2.2906707516E-001 -1.5670148130E+002 
1886177.722 +1.3299262895E-001 +1.6875098134E+002  +9.1763605279E-003 +8.6413140959E+001  +7.8399988716E-003 -4.8401568034E+001  +2.0914588728E-001 -1.6539110232E+002 
2011322.904 +1.3196354976E-001 +1.6980795230E+002  +1.3798894700E-002 +5.5622900942E+001  +1.6768808796E-002 -7.3558031638E+001  +2.0995886154E-001 -1.5465407918E+002 
2136468.085 +1.3199782807E-001 +1.6630775782E+002  +2.8663261164E-002 +8.0879473726E+001  +2.5797883418E-002 -4.5490659370E+001  +1.6423482918E-001 -1.5910396393E+002 
2261613.267 +1.3094360124E-001 +1.6803505205E+002  +2.9543264649E-002 +6.8018450651E+001  +2.9229739005E-002 -5.9826395921E+001  +1.8795726185E-001 -1.5639338171E+002 
2386758.448 +1.3884700933E-001 +1.6663854428E+002  +2.9781749776E-002 +9.7248968103E+001  +2.8052777495E-002 -2.3846486208E+001  +1.8980271992E-001 -1.7583861198E+002 
2511903.630 +1.2738564508E-001 +1.7047264593E+002  +4.8034481994E-002 +4.1996299989E+001  +4.9836804670E-002 -6.9365055464E+001  +1.8076446217E-001 -1.4027202665E+002 
2637048.811 +1.0199672328E-001 +1.6996534942E+002  +1.0073276043E-001 +6.7972774410E+001  +1.0736097861E-001 -4.3305530965E+001  +7.2619217755E-002 +1.4894617451E+002 
2762193.992 +1.4440749845E-001 -1.7535304290E+002  +6.3305114107E-002 -1.7928593431E+001  +6.6660730712E-002 -1.2601093134E+002  +2.9530907553E-001 -1.3336227089E+002 
2887339.174 +1.1471421240E-001 +1.7884856680E+002  +1.0423603281E-001 +3.0612004722E+001  +1.0511379717E-001 -7.3682809026E+001  +1.3580765988E-001 -9.8327820562E+001 
3012484.355 +1.4226858335E-001 +1.7725425590E+002  +5.9408170810E-002 +8.3657575312E+000  +5.3530060811E-002 -8.7871388676E+001  +2.3708633811E-001 -1.3347286653E+002 
3137629.537 +1.3828226778E-001 +1.7242200001E+002  +6.7464540666E-002 +5.0261978672E+001  +6.2871329824E-002 -4.9978783696E+001  +1.4886742725E-001 -1.5739576019E+002 
3262774.718 +1.3770437181E-001 -1.7870126714E+002  +8.3938377342E-002 +1.1216032046E+001  +8.3898398376E-002 -8.1330054374E+001  +2.2069027312E-001 -1.2284649321E+002 
3387919.900 +1.1694772082E-001 -1.7487680557E+002  +1.2291558518E-001 +2.6978718465E+001  +1.2255734176E-001 -5.9665325597E+001  +1.1233574418E-001 -1.1864975046E+002 
3513065.081 +1.0527265277E-001 +1.7540179129E+002  +1.4132910132E-001 +3.6389454769E+001  +1.3784556787E-001 -5.0329614237E+001  +9.8940766541E-002 -1.0067642700E+002 
3638210.263 +1.1430157336E-001 +1.4554801185E+002  +1.5939350748E-001 +7.8090498886E+001  +1.5909636877E-001 -3.2616976219E+000  +1.7755738216E-001 +1.3761504669E+002 
3763355.444 +1.4428189581E-001 +1.4486860764E+002  +1.9307866275E-001 +8.7684049501E+001  +1.8742709436E-001 +1.2684458979E+001  +3.0719897421E-001 +1.1248253328E+002 
3888500.626 +1.6921240429E-001 +1.5703663655E+002  +8.6451527463E-002 +8.6168294117E+001  +8.2121350635E-002 +1.1928857885E+001  +2.5703333140E-001 +1.7795937898E+002 
4013645.807 +1.6494172755E-001 +1.6110466677E+002  +9.7068302002E-002 +6.5131168956E+001  +9.6943390001E-002 -8.1564385098E+000  +1.7809064811E-001 -1.7635330116E+002 
4138790.989 +1.9022269446E-001 +1.4827543553E+002  +1.4419785245E-001 +9.7930508844E+001  +1.3717826513E-001 +3.1181344062E+001  +3.0479563359E-001 +1.5364665654E+002 
4263936.170 +1.3273311491E-001 +1.4531252789E+002  +2.4450235466E-001 +6.4393775253E+001  +2.3302377922E-001 -9.9502715213E-001  +2.2169079435E-001 +7.8221758418E+001 
4389081.352 +1.5378399556E-001 +1.5589617316E+002  +1.6417172360E-001 +7.0135819256E+001  +1.5658862724E-001 +8.7048674829E+000  +2.4723162785E-001 +1.5029463932E+002 
4514226.533 +2.5992265094E-001 +1.2741438661E+002  +3.0138815745E-001 +1.0607128307E+002  +2.9833070767E-001 +4.9160857563E+001  +5.0765123475E-001 +1.3073294697E+002 
4639371.715 +1.9822095288E-001 +1.4588728969E+002  +1.6505439100E-001 +8.2687246419E+001  +1.6059990607E-001 +2.8672016067E+001  +3.0681369887E-001 +1.6161075816E+002 
4764516.896 +4.3477446887E-001 +8.7832017748E+001  +8.7742035188E-001 +1.0892060968E+002  +8.4597590572E-001 +5.6720169831E+001  +1.6211570358E+000 +1.2245967206E+002 
4889662.078 +4.3622973172E-001 +1.0258092756E+002  +7.9905931219E-001 +1.0400385890E+002  +7.7627424937E-001 +5.4967465614E+001  +1.4454911972E+000 +1.0605402306E+002 
5014807.259 +4.6187538349E-001 +1.3576623971E+002  +5.0633323929E-001 +1.4398071151E+002  +4.9500489341E-001 +9.9978936181E+001  +1.1795577214E+000 +1.5527852010E+002 
5139952.441 +2.7765086621E-001 +1.2726392936E+002  +3.5557474245E-001 +9.4991013332E+001  +3.5098050339E-001 +5.3334083802E+001  +6.6280186367E-001 +1.3269909414E+002 
5265097.622 +2.9494064512E-001 +1.3794224696E+002  +2.9567314898E-001 +1.0390534917E+002  +2.8678539835E-001 +6.4405701471E+001  +7.3784098882E-001 +1.4884940265E+002 
5390242.804 +3.1277604760E-001 +1.3335573764E+002  +3.2066700383E-001 +9.5817763710E+001  +3.1402004455E-001 +5.8566727369E+001  +6.5152591300E-001 +1.4317642209E+002 
5515387.985 +3.2072404237E-001 +1.3694097083E+002  +3.1382051780E-001 +9.4974471691E+001  +3.1336981799E-001 +6.1019492812E+001  +7.1987590032E-001 +1.4512965073E+002 
5640533.166 +3.2343307968E-001 +1.3156621316E+002  +3.7455454585E-001 +8.7344888280E+001  +3.7282182748E-001 +5.5158213896E+001  +7.3735903934E-001 +1.3507555710E+002 
5765678.348 +3.7021283322E-001 +1.2761625618E+002  +4.1741675829E-001 +9.2420759848E+001  +4.0571964454E-001 +6.3847270782E+001  +8.6001489128E-001 +1.4081513082E+002 
5890823.529 +3.4942729998E-001 +1.2763045608E+002  +4.4010120857E-001 +8.0887095435E+001  +4.3297728093E-001 +5.4518965980E+001  +8.4781462582E-001 +1.3137237956E+002 
6015968.711 +3.8520876064E-001 +1.2006103389E+002  +5.0795382162E-001 +8.3568960146E+001  +5.0372755853E-001 +5.9277291596E+001  +1.0015748220E+000 +1.3521190434E+002 
6141113.892 +3.6211713123E-001 +1.1818255489E+002  +5.5334735256E-001 +6.7051520539E+001  +5.4734354890E-001 +4.6119768320E+001  +8.5335428626E-001 +1.1680065772E+002 
6266259.074 +3.4756742268E-001 +1.0359514470E+002  +6.8339541927E-001 +6.4506747078E+001  +6.7141431531E-001 +4.5890805279E+001  +1.1038365507E+000 +1.1783784248E+002 
6391404.255 +3.3349502232E-001 +9.3998032103E+001  +7.6573272578E-001 +4.9080057806E+001  +7.5970473263E-001 +3.2962955003E+001  +8.9636852425E-001 +9.2798389904E+001 
6516549.437 +2.3959674718E-001 +9.7756647879E+001  +7.9320186433E-001 +2.8864906037E+001  +7.7579754496E-001 +1.4983475784E+001  +7.2427085821E-001 +4.9687283958E+001 
6641694.618 +2.1573909361E-001 +1.0484587023E+002  +7.5210238614E-001 +3.0338786135E+001  +7.4667427066E-001 +1.8090330737E+001  +7.0519897234E-001 +8.3977040445E+001 
6766839.800 +1.6077062174E-001 +5.6960171347E+001  +8.7742628577E-001 +2.0344688561E+001  +8.7186537643E-001 +1.0694025413E+001  +5.8713054217E-001 +7.1282515196E+001 
6891984.981 +1.7400044908E-001 +9.0488538601E+001  +8.5589373107E-001 +1.4454425770E+001  +8.4396249864E-001 +6.7973804732E+000  +5.2489448879E-001 +4.5337017567E+001 
7017130.163 +7.6893309428E-002 +7.0860904901E+001  +8.9066150847E-001 +4.6878449299E+000  +8.9572430318E-001 -8.0307026873E-001  +4.2567981544E-001 +3.0705633432E+000 
7142275.344 +7.8624311595E-002 +4.5952712936E+001  +9.0989185088E-001 +4.0214778852E+000  +9.0899091855E-001 +6.1551270825E-001  +2.2731344841E-001 +3.1933216535E+001 
7267420.526 +3.5914134241E-002 +1.3555203092E+001  +9.5775377002E-001 +1.1891906023E+000  +9.5839263460E-001 +2.4100297976E-001  +3.3868453882E-001 -2.0678261799E+000 
7392565.707 +4.5948181063E-002 +2.4460633688E+001  +9.6589524231E-001 +1.6854424681E-001  +9.7102709707E-001 +3.9663370533E-001  +7.8602246204E-002 -4.9581776263E+001 
7517710.889 +8.4464133415E-002 +9.2560806052E+001  +9.3182697068E-001 -1.6384060452E+000  +9.2712568051E-001 -8.6682685712E-002  +1.1157499047E-001 -1.3028764036E+002 
7642856.070 +2.1634584152E-001 +9.6607812404E+001  +8.7198860208E-001 -6.0594687627E-001  +8.7243409855E-001 +3.0728485330E+000  +4.6549412882E-002 +7.2417200810E+001 
7768001.252 +2.0876692863E-001 +1.0681809920E+002  +8.4222088916E-001 -2.1411919485E+000  +8.3925466986E-001 +3.2613941168E+000  +8.7175610555E-002 +1.1217598871E+002 
7893146.433 +2.5925839278E-001 +1.3999442631E+002  +8.0420691345E-001 -3.9220130061E+000  +7.9917100885E-001 +1.7083772939E+000  +1.5480557136E-001 +1.0349222389E+002 
8018291.615 +2.2429323392E-001 +1.2765928091E+002  +7.8692444338E-001 -5.5616034217E+000  +7.9415607005E-001 +2.1491395327E+000  +2.2781378994E-001 +1.4816101659E+002 
8143436.796 +2.3074574554E-001 +1.1727463564E+002  +7.6821760418E-001 -4.6982886954E+000  +7.6900174125E-001 +4.3897878917E+000  +2.2256730060E-001 +1.1933327934E+002 
8268581.977 +2.1333572941E-001 +1.3302903343E+002  +7.5952701799E-001 -5.2983808215E+000  +7.5688134908E-001 +4.0859670226E+000  +2.4655892139E-001 +1.1164812478E+002 
8393727.159 +3.1057754340E-001 +1.3143342913E+002  +7.3445188436E-001 -6.4758003638E+000  +7.2829100752E-001 +3.9836596101E+000  +2.3691681671E-001 +1.1968718304E+002 
8518872.340 +2.4876952215E-001 +1.2908750084E+002  +7.3547592778E-001 -6.7463068160E+000  +7.2838088306E-001 +5.1485270129E+000  +2.5920979909E-001 +1.2038215810E+002 
8644017.522 +2.8866060314E-001 +1.3462753099E+002  +7.1771502654E-001 -7.7498913932E+000  +7.1466040410E-001 +5.0841869627E+000  +2.7631842753E-001 +1.1968289145E+002 
8769162.703 +2.8470595220E-001 +1.4002274587E+002  +7.1846219795E-001 -8.1142808973E+000  +7.1166972822E-001 +4.7514723622E+000  +2.3523499716E-001 +1.2729359406E+002 
8894307.885 +2.5706185460E-001 +1.3518094029E+002  +7.1987268622E-001 -8.7413624921E+000  +7.1136838704E-001 +5.1002736560E+000  +2.6720417342E-001 +1.4101832485E+002 
9019453.066 +2.8647130184E-001 +1.3774280848E+002  +6.9901457442E-001 -8.5704388914E+000  +6.9905858385E-001 +6.0480050280E+000  +2.8844563807E-001 +1.2017174507E+002 
9144598.248 +2.7707671995E-001 +1.3788335421E+002  +7.0124157915E-001 -9.1507095820E+000  +6.9799094560E-001 +5.6343940551E+000  +3.1013841368E-001 +1.3734702649E+002 
9269743.429 +2.7083073084E-001 +1.3931265422E+002  +6.9041665240E-001 -8.9771430150E+000  +6.8583547674E-001 +6.3035933985E+000  +3.2244598391E-001 +1.2382834486E+002 
9394888.611 +2.9976871747E-001 +1.4008582350E+002  +6.8671203693E-001 -9.4865518398E+000  +6.8827072498E-001 +6.1917817913E+000  +3.0664051868E-001 +1.3199327045E+002 
9520033.792 +2.8713018179E-001 +1.4006145601E+002  +6.9155428838E-001 -9.5485081970E+000  +6.9203301981E-001 +5.9250603189E+000  +2.8830266782E-001 +1.3755076861E+002 
9645178.974 +2.9561369489E-001 +1.4549032854E+002  +6.9399429495E-001 -9.7106982820E+000  +6.9159884202E-001 +5.9648518615E+000  +2.8391889085E-001 +1.3307348222E+002 
9770324.155 +2.5882042717E-001 +1.4374457152E+002  +6.9880112141E-001 -9.5326519151E+000  +6.9392126182E-001 +6.6965039290E+000  +2.7929504246E-001 +1.3764284367E+002 
9895469.337 +2.7264545381E-001 +1.4881047049E+002  +6.9847295959E-001 -9.8151603421E+000  +6.9356341239E-001 +6.0584865874E+000  +2.9149030062E-001 +1.3744122334E+002 
10020614.518 +2.8281416439E-001 +1.4622188926E+002  +7.0137496824E-001 -9.5787808234E+000  +6.9708512480E-001 +6.4001583603E+000  +2.7780297383E-001 +1.3928333659E+002 
10145759.700 +2.5422491127E-001 +1.4734016818E+002  +7.0384471439E-001 -9.3803855841E+000  +6.9944728580E-001 +6.4142683476E+000  +2.7828122089E-001 +1.3616991122E+002 
10270904.881 +2.6418542248E-001 +1.4405573990E+002  +7.0277650064E-001 -8.8671588401E+000  +6.9758034329E-001 +6.8965747302E+000  +2.8347193157E-001 +1.3236176475E+002 
10396050.063 +2.8806325934E-001 +1.3882959533E+002  +6.9894766398E-001 -8.7441650951E+000  +6.9299531025E-001 +6.7422893905E+000  +2.6290220074E-001 +1.3390276449E+002 
10521195.244 +2.8638844504E-001 +1.4295358381E+002  +6.9875184564E-001 -8.9197168510E+000  +6.9523051032E-001 +6.2479862738E+000  +3.1471641944E-001 +1.3325830306E+002 
10646340.426 +2.5944151313E-001 +1.4023784182E+002  +7.1065248759E-001 -8.1687627133E+000  +7.0551036947E-001 +6.6639008753E+000  +2.7357983116E-001 +1.3418929025E+002 
10771485.607 +2.8647584923E-001 +1.3717826077E+002  +7.0808111950E-001 -7.7484307658E+000  +7.0071320640E-001 +6.7151408443E+000  +2.8058902236E-001 +1.3020966905E+002 
10896630.788 +2.6702453897E-001 +1.4345923915E+002  +7.1165695182E-001 -7.6623093921E+000  +7.0619055693E-001 +6.4709901732E+000  +2.8251873881E-001 +1.2350769162E+002 
11021775.970 +2.2895819211E-001 +1.3182040097E+002  +7.2244595876E-001 -6.8099501957E+000  +7.1603271884E-001 +6.6978067307E+000  +2.7548804266E-001 +1.3070385547E+002 
11146921.151 +2.7299839548E-001 +1.3428502420E+002  +7.1655939066E-001 -6.7866602477E+000  +7.1358988325E-001 +6.5262232694E+000  +2.6936348390E-001 +1.2484262082E+002 
11272066.333 +2.5769342956E-001 +1.2931065917E+002  +7.2283117075E-001 -6.3849207546E+000  +7.1909004226E-001 +6.5104678338E+000  +2.8150314219E-001 +1.2793709049E+002 
11397211.514 +2.2437684911E-001 +1.3039199533E+002  +7.3410758912E-001 -5.7793381290E+000  +7.3206791420E-001 +6.5749273317E+000  +2.5559366437E-001 +1.2658485594E+002 
11522356.696 +2.3730223672E-001 +1.2845963111E+002  +7.3801726920E-001 -5.6540549174E+000  +7.3370192768E-001 +6.1959971602E+000  +2.4808004881E-001 +1.2996922315E+002 
11647501.877 +2.3502356089E-001 +1.3197560822E+002  +7.4639884662E-001 -5.4712631536E+000  +7.3977967787E-001 +6.1504099378E+000  +2.3923425304E-001 +1.2594956119E+002 
11772647.059 +2.0921120255E-001 +1.2779825557E+002  +7.5501285677E-001 -4.7701108519E+000  +7.5054513674E-001 +6.0551297564E+000  +2.3717879246E-001 +1.2475551559E+002 
11897792.240 +1.8838478975E-001 +1.3219397443E+002  +7.6297400156E-001 -4.4558394039E+000  +7.5781441027E-001 +5.5914099839E+000  +2.4782439369E-001 +1.2379686101E+002 
12022937.422 +2.1261851258E-001 +1.3329335874E+002  +7.6851920319E-001 -4.4194191297E+000  +7.6204788306E-001 +5.3593927540E+000  +2.1993590295E-001 +1.2282035100E+002 
12148082.603 +2.0836559798E-001 +1.3166371409E+002  +7.7494316133E-001 -4.4633339623E+000  +7.7106689350E-001 +4.5708729165E+000  +2.2915245170E-001 +1.3040238266E+002 
12273227.785 +1.9274499548E-001 +1.3036220509E+002  +7.8199117305E-001 -3.8674650306E+000  +7.7807070496E-001 +4.5295295554E+000  +2.2772160256E-001 +1.2855698037E+002 
12398372.966 +1.7699463430E-001 +1.2823342360E+002  +7.9113862326E-001 -3.3355284737E+000  +7.8630313477E-001 +4.6948033967E+000  +2.0927946750E-001 +1.2122304801E+002 
12523518.148 +1.6806601550E-001 +1.3000392216E+002  +8.0648008670E-001 -3.1295400658E+000  +8.0184987559E-001 +4.0318783006E+000  +1.9062908369E-001 +1.3170921295E+002 
12648663.329 +1.7297146736E-001 +1.2413377566E+002  +8.1233594954E-001 -3.0476564701E+000  +8.0763262979E-001 +3.8193061699E+000  +1.7424711865E-001 +1.3178260512E+002 
12773808.511 +1.8274844653E-001 +1.2880862915E+002  +8.1988357788E-001 -2.8974608893E+000  +8.1357734473E-001 +3.4718095622E+000  +1.5832765078E-001 +1.2775619155E+002 
12898953.692 +1.7924133466E-001 +1.3143221327E+002  +8.2722517152E-001 -2.7066063798E+000  +8.1991424988E-001 +2.8878812034E+000  +1.6103985423E-001 +1.2625781287E+002 
13024098.874 +1.4759188296E-001 +1.3076865769E+002  +8.4044192143E-001 -2.3028738082E+000  +8.3550163055E-001 +2.5842194469E+000  +1.4390995466E-001 +1.2984781645E+002 
13149244.055 +1.5662322326E-001 +1.3213992376E+002  +8.4907596983E-001 -2.3051056331E+000  +8.4413453248E-001 +2.2507027181E+000  +1.2576335412E-001 +1.3350298922E+002 
13274389.237 +1.2694888125E-001 +1.1890852647E+002  +8.5679546240E-001 -1.3482349648E+000  +8.5221158749E-001 +2.5308257785E+000  +1.1616416252E-001 +1.2644497578E+002 
13399534.418 +1.1376713565E-001 +1.2443417214E+002  +8.8431445219E-001 -1.7630742784E+000  +8.6374406844E-001 +1.8484718159E+000  +1.2021173279E-001 +1.2930195214E+002 
13524679.599 +9.2213967887E-002 +1.2300949585E+002  +8.7875923317E-001 -1.0986805417E+000  +8.7051165121E-001 +1.8873607922E+000  +1.2951230284E-001 +1.2839922255E+002 
13649824.781 +9.5021625920E-002 +1.2188030558E+002  +8.9934697677E-001 -1.3635301026E+000  +8.8454122549E-001 +8.6603086963E-001  +9.7887786326E-002 +1.2749000817E+002 
13774969.962 +1.0484186524E-001 +1.2231589659E+002  +9.0770392264E-001 -1.1429254694E+000  +8.9112604399E-001 +6.6965276080E-001  +6.2926426614E-002 +1.2799593195E+002 
13900115.144 +6.3062511017E-002 +1.1378649267E+002  +9.1277161035E-001 -8.7884816524E-001  +9.0584477064E-001 +6.7683684314E-001  +7.3531849171E-002 +1.2527856048E+002 
14025260.325 +6.3734341536E-002 +1.1134725935E+002  +9.2179156807E-001 -8.3045048741E-002  +9.2449086018E-001 +4.1550692242E-001  +4.2553460418E-002 +1.3967370439E+002 
14150405.507 +5.6753309438E-002 +1.0536129394E+002  +9.2519237801E-001 -7.0420038316E-001  +9.1809923121E-001 +7.1194580414E-001  +3.0837280106E-002 +1.3247412537E+002 
14275550.688 +4.2712412881E-002 +1.0321780726E+002  +9.4802295847E-001 -1.2120963160E+000  +9.4487044284E-001 -1.2297210366E-001  +3.3866713326E-002 +1.3723429735E+002 
14400695.870 +2.4671508168E-002 +1.0823191213E+002  +9.3896885948E-001 -3.2303254606E-001  +9.4364206125E-001 -1.2989983571E-001  +2.4933360980E-002 +1.4187872108E+002 
