!  2-Port S-parameters saved by WinCal
! VAR MeasName=S-Parameters (CALIBRATED_DATA) read from VNA (P5004A)
! VAR MeasDate=29/08/2024 10:05:07
! VAR NAME=S2_r9c1_RESET1_9k-100M_1
! VAR FILENAME=S2_r9c1_RESET1_9k-100M_1.S2P
! VAR DATE=29/08/2024 10:05:07
! VAR PHYS_PORTS=1,2
! VAR ObjTypeName=DATASET
! VAR IndexType=Frequency
!
# Hz S MA R 50
9000.000 +9.0050708460E-002 -1.6987953820E+002  +9.9156453386E-003 -1.2058103229E+002  +7.2812356587E-003 -7.5809079905E+000  +2.5692647327E-001 -1.4719755153E+002 
134145.181 +1.1137943097E-001 +1.6961894423E+002  +5.2431046380E-004 -1.4495511255E+001  +5.1955875808E-004 -4.6445070395E+001  +2.4457116888E-001 -1.6952919756E+002 
259290.363 +1.1122361391E-001 +1.6964389643E+002  +1.2301513408E-003 -8.5993703290E+001  +9.9056048330E-004 +9.8618420302E+001  +2.4115630296E-001 -1.6840037004E+002 
384435.544 +1.1472478839E-001 +1.7032370249E+002  +8.0386272541E-004 -5.6731811799E+001  +1.1179305522E-003 +1.0357760727E+002  +2.4350523609E-001 -1.6736303895E+002 
509580.726 +1.1517906471E-001 +1.7090744321E+002  +1.2480121276E-003 -1.0099552811E+001  +1.6420951212E-003 +1.2289924723E+002  +2.3882991865E-001 -1.6301190775E+002 
634725.907 +1.1737737663E-001 +1.7112125180E+002  +1.1676254031E-003 -8.3195798450E+001  +1.9732090278E-003 +8.1444713789E+001  +2.4401397371E-001 -1.6473410704E+002 
759871.089 +1.1876392690E-001 +1.7106248723E+002  +1.5847622693E-003 -1.3350112129E+002  +6.6234018051E-004 +4.6784647473E+001  +2.4942104836E-001 -1.6593364833E+002 
885016.270 +1.2240476089E-001 +1.6934460038E+002  +5.6321299601E-004 -3.4177676491E+001  +5.5345819571E-004 +9.9826083741E+001  +2.4099644650E-001 -1.6585944209E+002 
1010161.452 +1.1658000281E-001 +1.6984558908E+002  +2.1560727260E-003 -1.0279808968E+001  +1.6443080896E-003 +1.5876985083E+002  +2.2308005283E-001 -1.6767407960E+002 
1135306.633 +1.1452655172E-001 +1.6973358514E+002  +2.2683235070E-003 -1.6390702195E+001  +2.5806494278E-003 -1.6288342435E+002  +2.1019143365E-001 -1.6879052419E+002 
1260451.815 +1.1971450107E-001 +1.7161409028E+002  +2.2894458659E-003 -6.6179310817E+001  +1.6067121531E-003 +6.8243417725E+001  +2.0420429704E-001 -1.6108469046E+002 
1385596.996 +1.2559788956E-001 +1.7206427291E+002  +1.1290961262E-003 -5.3489090115E+001  +2.7804209400E-004 +1.6262330536E+002  +2.6376446428E-001 -1.5936268427E+002 
1510742.178 +1.2703582640E-001 +1.7227372564E+002  +1.2883436754E-003 -7.5269161441E+001  +2.5420261780E-003 +1.6134601047E+002  +2.5904285034E-001 -1.5880674963E+002 
1635887.359 +1.2822681250E-001 +1.7118516646E+002  +1.0792783731E-003 -3.5644965784E+001  +2.0224072812E-003 -1.5735189746E+002  +2.4627305257E-001 -1.5886958201E+002 
1761032.541 +1.3024671573E-001 +1.6880878856E+002  +1.7159111728E-003 +5.5259656271E+001  +1.7402552060E-003 -1.6664919647E+002  +2.4756224085E-001 -1.5753780663E+002 
1886177.722 +1.2817156447E-001 +1.6792093536E+002  +1.8173522247E-003 +1.5501813419E+001  +3.5396899867E-003 -9.3831362042E+001  +2.2678723151E-001 -1.5565012102E+002 
2011322.904 +1.3022965336E-001 +1.6924605634E+002  +5.8109860319E-003 +6.1472342948E+001  +6.0569146056E-003 -8.7315517040E+001  +1.9473648763E-001 -1.6435126524E+002 
2136468.085 +1.3071930788E-001 +1.6770836373E+002  +3.4060514037E-003 +6.5668453157E+001  +5.8696571321E-003 -8.1974213641E+001  +2.2089878482E-001 -1.6787647156E+002 
2261613.267 +1.3709861099E-001 +1.6871941633E+002  +8.5117095243E-003 +5.3438287701E+001  +7.2318436980E-003 -7.9037372426E+001  +1.9775422803E-001 -1.6269963156E+002 
2386758.448 +1.3995520253E-001 +1.6522227041E+002  +1.3244298402E-002 +1.1020404887E+002  +1.4235384135E-002 -8.4604839468E+000  +2.2330787340E-001 +1.6566250551E+002 
2511903.630 +1.2939265397E-001 +1.6604720560E+002  +1.9377345990E-002 +1.1329702342E+002  +1.8040699767E-002 +2.7436988125E+000  +2.7655962338E-001 +1.6861314264E+002 
2637048.811 +1.3131083234E-001 +1.6683618462E+002  +2.4517655231E-002 +2.9061077591E+001  +2.9089666209E-002 -9.1939581378E+001  +1.6050740086E-001 -1.3562920089E+002 
2762193.992 +1.1265715925E-001 -1.7876667053E+002  +7.2078479469E-002 +3.8966879317E+000  +7.3372415806E-002 -9.8858354527E+001  +5.5805271377E-002 -9.4701266798E+001 
2887339.174 +1.3963365710E-001 +1.7000754570E+002  +2.7985340057E-002 -6.3654236962E+000  +2.3369819079E-002 -1.3393919396E+002  +2.4744682152E-001 -1.1759747482E+002 
3012484.355 +1.4048935245E-001 +1.6950137530E+002  +3.8583120863E-002 -4.1266930754E+001  +4.4653751266E-002 -1.3863814275E+002  +4.2016090524E-001 -1.0300449810E+002 
3137629.537 +1.2779969111E-001 +1.7623560867E+002  +4.1164766523E-002 -3.9447625765E+001  +4.9507649625E-002 -1.2805612274E+002  +2.6234947717E-001 -1.0563626878E+002 
3262774.718 +1.3210094636E-001 +1.6268639131E+002  +5.3434530074E-002 +3.1780649019E+001  +3.8549717433E-002 -7.3725592646E+001  +7.8440842455E-002 -1.1593049211E+002 
3387919.900 +1.3424816941E-001 +1.6230847435E+002  +5.0491408040E-002 +4.8953195285E+001  +4.6761537599E-002 -4.0409134104E+001  +1.2845223116E-001 +1.1400136713E+002 
3513065.081 +1.3772349951E-001 +1.5313639059E+002  +7.7988243898E-002 +4.2910260504E+001  +7.2579636402E-002 -3.4148166923E+001  +1.4947410801E-001 +2.7608979049E+001 
3638210.263 +1.6668634792E-001 +1.5655433638E+002  +6.5711541150E-002 +1.2921760979E+002  +6.4830966390E-002 +3.9663373988E+001  +7.1069864267E-001 +1.4704454713E+002 
3763355.444 +1.8889660997E-001 +1.5001265244E+002  +5.0184673817E-002 +8.1752547868E+001  +4.0230394810E-002 +7.0277766585E+000  +1.4950730259E-001 +1.3895287163E+002 
3888500.626 +1.5598087500E-001 +1.5177878078E+002  +6.0263331270E-002 +8.0144614656E+001  +6.2377638247E-002 +1.1254864379E+001  +3.1314274944E-001 +1.3665744387E+002 
4013645.807 +1.7932673190E-001 +1.5201257541E+002  +6.6646167315E-002 +6.6580826285E+001  +6.8552906538E-002 -7.9023913112E+000  +1.5570959204E-001 +1.0562526911E+002 
4138790.989 +2.0023092013E-001 +1.5411336327E+002  +4.7267984551E-002 +7.2962846601E+001  +4.4132801991E-002 +1.3337853262E+001  +2.2533958282E-001 +1.3589657337E+002 
4263936.170 +1.8977619773E-001 +1.4808775083E+002  +6.1209015662E-002 +7.7820973660E+001  +6.2959749417E-002 +7.1412416532E+000  +2.3075708373E-001 +1.3064436748E+002 
4389081.352 +2.0901546134E-001 +1.3576754046E+002  +1.4353588405E-001 +9.3941223735E+001  +1.3553284490E-001 +3.8460320029E+001  +5.7634587425E-001 +9.7083300096E+001 
4514226.533 +2.1567988876E-001 +1.4277046983E+002  +1.8905940032E-001 +1.3069398912E+002  +2.0337599466E-001 +7.1017577737E+001  +1.5819831644E+000 +1.3326103528E+002 
4639371.715 +2.9592446890E-001 +1.3414701577E+002  +1.8065420479E-001 +1.3007877218E+002  +1.7035653954E-001 +8.0999115433E+001  +9.4456622373E-001 +1.2161211356E+002 
4764516.896 +2.6935400527E-001 +1.3766152991E+002  +1.6066951759E-001 +1.2474332334E+002  +1.5881666819E-001 +7.5211670615E+001  +1.1108774926E+000 +1.2802345552E+002 
4889662.078 +4.2732712935E-001 +1.4275267292E+002  +4.8215787776E-001 +1.7802695127E+002  +4.6113638906E-001 +1.2779535697E+002  +2.8833478289E+000 +1.3707918628E+002 
5014807.259 +3.7155329461E-001 +1.3149873436E+002  +4.6101421903E-001 +1.2738678069E+002  +4.0815895516E-001 +8.3558952798E+001  +2.7170790957E+000 +1.0727493057E+002 
5139952.441 +3.9917462959E-001 +1.1654504840E+002  +2.5573323071E-001 +1.0752603234E+002  +2.6440710980E-001 +6.2257903951E+001  +9.7625537609E-001 +1.0592674255E+002 
5265097.622 +3.4914333285E-001 +1.3638050719E+002  +2.2555758024E-001 +1.0463440043E+002  +2.3291997233E-001 +7.0820138798E+001  +1.5424543145E+000 +9.9690327661E+001 
5390242.804 +4.0894449246E-001 +1.3961929500E+002  +1.4127740635E-001 +1.2635566639E+002  +1.2791112645E-001 +8.9919896407E+001  +1.0034639250E+000 +1.2654756137E+002 
5515387.985 +3.6388715691E-001 +1.3306242746E+002  +1.7168949399E-001 +9.2120356605E+001  +1.5854420402E-001 +5.7743678855E+001  +9.4620478664E-001 +1.0336656527E+002 
5640533.166 +4.9490217293E-001 +1.2487014646E+002  +2.9509807108E-001 +1.0420701943E+002  +2.8865122896E-001 +7.7388367423E+001  +1.5456754276E+000 +9.6364289601E+001 
5765678.348 +4.3794277476E-001 +1.2641288798E+002  +2.4854539261E-001 +7.8995163016E+001  +2.2595188884E-001 +4.7386096972E+001  +1.2450537077E+000 +7.5685026912E+001 
5890823.529 +4.8249981018E-001 +1.2325168314E+002  +3.0350702729E-001 +8.7062342658E+001  +3.3075103288E-001 +6.1266367542E+001  +1.9520436587E+000 +8.4702262376E+001 
6015968.711 +5.0467233763E-001 +1.1482043278E+002  +3.1003792580E-001 +6.5638577861E+001  +2.9765562304E-001 +4.5643492636E+001  +1.5440864198E+000 +6.8303270758E+001 
6141113.892 +6.2962847286E-001 +1.1192429330E+002  +3.6797170342E-001 +7.5581590289E+001  +3.3874632931E-001 +5.6844343873E+001  +1.7271332328E+000 +7.3829795171E+001 
6266259.074 +7.5849682076E-001 +1.0791129497E+002  +3.9234960538E-001 +6.4599536355E+001  +3.5495964944E-001 +4.6344649766E+001  +1.7059284011E+000 +4.5623360709E+001 
6391404.255 +7.6024408568E-001 +9.5768478966E+001  +3.3166528129E-001 +4.6173531869E+001  +3.4712566940E-001 +3.2158560030E+001  +1.2511744469E+000 +4.0031096526E+001 
6516549.437 +9.1747605545E-001 +7.9763159670E+001  +4.5470340881E-001 +3.7302461137E+001  +4.2885219101E-001 +2.8707380731E+001  +1.4928597763E+000 +3.4856559678E+001 
6641694.618 +8.1408122736E-001 +6.6234283232E+001  +3.2764474380E-001 +2.5149416117E+001  +3.6870953911E-001 +1.2336028801E+001  +9.9152652814E-001 +1.9829070997E+001 
6766839.800 +1.2511633366E+000 +5.4793677818E+001  +4.4255413778E-001 +2.2885512619E+001  +4.2517661527E-001 +1.3890396668E+001  +1.2343644374E+000 +1.3066804118E+001 
6891984.981 +1.2502898915E+000 +3.1510292457E+001  +4.0662646374E-001 +9.8366589624E+000  +4.0693604652E-001 +2.1807196754E+000  +1.0174028398E+000 +8.0831910639E+000 
7017130.163 +1.3194689709E+000 +2.0432455788E+001  +3.6705788216E-001 +1.7063858788E+000  +3.6778031802E-001 +6.5226891937E-001  +1.0563702012E+000 -7.9659789090E+000 
7142275.344 +1.0365444239E+000 +3.9018663889E+000  +2.9659934758E-001 -5.0518773143E+000  +3.0877809131E-001 -5.3610501150E+000  +9.8511751929E-001 -7.0505575979E+000 
7267420.526 +1.1101406590E+000 +5.6083673008E+000  +2.7313020106E-001 -1.2565174402E+000  +2.6937916801E-001 +1.1322883993E+000  +1.0188207166E+000 -1.1532650855E+001 
7392565.707 +1.0951830800E+000 +1.1715727552E+000  +2.4572321410E-001 +5.8567833549E+000  +2.3115359188E-001 +4.8270961283E+000  +1.0994723813E+000 -7.9580120623E+000 
7517710.889 +9.0752689979E-001 +7.3579194322E+000  +2.1176820073E-001 +3.1508183330E+000  +2.1173918364E-001 +7.6675558838E+000  +9.6498685394E-001 -6.4686799699E+000 
7642856.070 +8.3547801483E-001 +7.5340247645E-002  +2.1129457721E-001 -1.0127459901E+000  +2.0662132352E-001 +6.1751905280E+000  +8.2241428270E-001 -1.1765165981E+001 
7768001.252 +6.8731575449E-001 +2.8981793295E+000  +1.9675680312E-001 +1.3709219559E+000  +1.9763610008E-001 +4.6325272513E+000  +7.6028241645E-001 -9.9667777111E+000 
7893146.433 +6.3016294952E-001 +8.6732644315E+000  +1.9227887399E-001 +7.2457543838E-001  +1.8428255875E-001 +4.5396169779E+000  +7.0362981661E-001 -1.0334636221E+001 
8018291.615 +6.3336248005E-001 +3.4941119991E+000  +1.8042164838E-001 -2.9691371935E+000  +1.8801459747E-001 +6.9722797698E+000  +6.3746725959E-001 -6.7627760805E+000 
8143436.796 +6.4027074359E-001 +1.5689111368E+001  +1.7752772451E-001 -8.1081914006E-001  +1.7362900573E-001 +5.8034595067E+000  +6.2212614631E-001 +3.6148884210E-001 
8268581.977 +6.2613047855E-001 +1.9265491196E+001  +1.7230376968E-001 -2.9012958698E-001  +1.7025666492E-001 +7.4455818837E+000  +5.9529351918E-001 +6.5316311669E-001 
8393727.159 +5.1112702456E-001 +9.1426643131E+000  +1.6483690973E-001 -3.2508576284E+000  +1.6679112277E-001 +5.9024168807E+000  +5.1602688339E-001 +5.1136824793E+000 
8518872.340 +5.4923984820E-001 +1.3852743421E+001  +1.6366633119E-001 -1.8416817745E+000  +1.6177995433E-001 +9.0407579848E+000  +5.2548686296E-001 +8.3476214416E+000 
8644017.522 +4.2266915245E-001 +1.4976599492E+001  +1.6086658277E-001 -5.4558535935E+000  +1.6081362260E-001 +9.1498839611E+000  +4.9620343728E-001 +5.8089215641E+000 
8769162.703 +4.5527827835E-001 +1.7690686718E+001  +1.6094196615E-001 -4.6819782137E+000  +1.5550202865E-001 +1.0712714463E+001  +4.8341098392E-001 +2.9361649661E+000 
8894307.885 +4.5596699391E-001 +1.5380448947E+001  +1.6071320756E-001 -5.4696254941E+000  +1.5709842628E-001 +9.8811764416E+000  +4.7879489703E-001 +4.8033306752E+000 
9019453.066 +3.7983385721E-001 +3.7526849300E+000  +1.6080309371E-001 -6.8537574298E+000  +1.5877147028E-001 +9.4099625809E+000  +3.8682981258E-001 +1.5235531033E+000 
9144598.248 +4.1687915763E-001 +1.2757128430E+001  +1.6309289479E-001 -4.3260501810E+000  +1.5860852897E-001 +9.9351075379E+000  +4.3544696563E-001 -3.7944023271E+000 
9269743.429 +3.8116144670E-001 +1.0351735547E+001  +1.6253711089E-001 -5.2233162999E+000  +1.6157245823E-001 +9.4085964293E+000  +4.1020159455E-001 -8.8454596177E+000 
9394888.611 +3.8236452706E-001 +6.0889882118E+000  +1.5868410128E-001 -3.8659474540E+000  +1.5924034419E-001 +1.1409157193E+001  +4.6355265837E-001 -1.8710797667E+000 
9520033.792 +3.2775919302E-001 +9.9213791736E+000  +1.6039166040E-001 -5.7513150164E+000  +1.5829738298E-001 +1.0266002355E+001  +4.6080409819E-001 +5.0926944830E-001 
9645178.974 +4.0170574984E-001 +7.8178118176E+000  +1.6210189523E-001 -4.6518626424E+000  +1.6038111979E-001 +1.0704855251E+001  +3.9137433587E-001 -3.5418492656E+000 
9770324.155 +4.2151372450E-001 +4.2540527673E+000  +1.6012478364E-001 -3.4007986669E+000  +1.6287208088E-001 +1.0774572935E+001  +4.2135216671E-001 -1.6094557616E+000 
9895469.337 +3.8956804044E-001 +6.2039873337E+000  +1.6361643635E-001 -4.6857963584E+000  +1.5957820048E-001 +1.1685810790E+001  +4.1371318711E-001 -1.2030453930E+000 
10020614.518 +3.9035859471E-001 +4.2902499490E+000  +1.6271464037E-001 -3.1874218420E+000  +1.6184515834E-001 +1.0976948151E+001  +4.2895491608E-001 +5.2565418124E+000 
10145759.700 +3.7946308680E-001 +8.1482693237E+000  +1.6389114008E-001 -4.2259094240E+000  +1.6171470720E-001 +1.1483367032E+001  +3.9874550554E-001 +3.3371927024E-001 
10270904.881 +4.1789496245E-001 +6.4996821645E+000  +1.6349203607E-001 -2.5050380875E+000  +1.6336506304E-001 +1.3405391210E+001  +4.3653284602E-001 +1.3526477755E+000 
10396050.063 +4.3477252586E-001 +1.7805891462E+001  +1.6302299263E-001 -2.8965032624E+000  +1.6007587952E-001 +1.3476195778E+001  +4.1653183714E-001 -6.6564720283E-001 
10521195.244 +3.8023983989E-001 +1.4995828406E+001  +1.6496740272E-001 -2.4389903669E+000  +1.6083860352E-001 +1.2110048833E+001  +4.0497680748E-001 +6.8623780325E+000 
10646340.426 +4.1442297476E-001 +1.3786047992E+001  +1.6557498464E-001 -1.9731164762E+000  +1.6246552364E-001 +1.2463284906E+001  +4.0654073181E-001 +6.0838069050E+000 
10771485.607 +3.9844572061E-001 +1.2151089727E+001  +1.6315870753E-001 -2.3980040638E+000  +1.6570120082E-001 +1.2098168961E+001  +4.1621167238E-001 +6.5942859001E+000 
10896630.788 +4.1183738690E-001 +5.5396469134E+000  +1.6868252274E-001 -1.2892001436E+000  +1.6835285249E-001 +1.2485293697E+001  +4.3859904058E-001 +2.7923126560E+000 
11021775.970 +4.1222070627E-001 +1.0321065652E+001  +1.6990480727E-001 -1.8131258224E+000  +1.6370107673E-001 +1.2573765272E+001  +4.3571984059E-001 +7.1380141574E+000 
11146921.151 +4.3920171763E-001 +1.2688725286E+001  +1.7133454653E-001 -6.8126280105E-001  +1.6993129248E-001 +1.1858867021E+001  +4.5489799086E-001 +3.5729366400E+000 
11272066.333 +4.5162714766E-001 +1.0103237184E+001  +1.7153139724E-001 -1.1614969120E+000  +1.6895414891E-001 +1.1802339192E+001  +4.5505256145E-001 +6.9243783161E+000 
11397211.514 +4.5519631776E-001 +1.1781742708E+001  +1.7329577027E-001 -1.0417605701E+000  +1.6915218696E-001 +1.1340171539E+001  +4.4367560418E-001 +5.0564817842E+000 
11522356.696 +4.7187037300E-001 +1.3473309507E+001  +1.7455629351E-001 -2.5559791289E-001  +1.7312541756E-001 +1.2369252772E+001  +4.9070932146E-001 +5.9022994490E+000 
11647501.877 +4.6603524237E-001 +8.6512356417E+000  +1.8030191330E-001 -1.3090121329E-001  +1.7534584332E-001 +1.1424119247E+001  +4.5451928435E-001 +2.7564918287E+000 
11772647.059 +4.7060545484E-001 +8.6484152892E+000  +1.7983460201E-001 -1.7740195967E-001  +1.7740280768E-001 +1.0586782173E+001  +4.7405470186E-001 +5.8655907640E+000 
11897792.240 +4.6898330936E-001 +8.2136597314E+000  +1.8146085283E-001 +4.3172093891E-001  +1.7837379705E-001 +1.0413058083E+001  +4.9569262039E-001 +3.4571936214E+000 
12022937.422 +5.0342491271E-001 +9.4618538085E+000  +1.8273717396E-001 +8.5836495015E-001  +1.8149980833E-001 +1.0671981450E+001  +5.0929986549E-001 +3.0621035339E+000 
12148082.603 +4.9202976260E-001 +6.2775667311E+000  +1.8451980813E-001 +7.1371511257E-001  +1.8495400243E-001 +1.0065660587E+001  +5.1788075774E-001 +2.3290257902E+000 
12273227.785 +5.3823456390E-001 +7.9753635721E+000  +1.8466749855E-001 +1.2586357374E+000  +1.8572779288E-001 +1.0161341000E+001  +5.0678131413E-001 +2.2593431204E+000 
12398372.966 +5.1957535237E-001 +6.7993367544E+000  +1.8695257755E-001 +1.9792579258E+000  +1.8676461257E-001 +8.8739963377E+000  +5.1078862919E-001 +2.7183635892E+000 
12523518.148 +5.3456424882E-001 +6.0016797545E+000  +1.8820581551E-001 +1.3937120027E+000  +1.8673753019E-001 +8.2776220271E+000  +5.1874703222E-001 +4.9753881130E+000 
12648663.329 +5.5231705016E-001 +5.3232467117E+000  +1.9196604131E-001 +2.1020513182E+000  +1.8961686063E-001 +9.2409826765E+000  +5.9313909866E-001 +2.1811549872E+000 
12773808.511 +5.8070155312E-001 +1.5341768388E+000  +1.9378584346E-001 +2.2259261819E+000  +1.9231093040E-001 +8.6776902143E+000  +5.9893758957E-001 +3.0625584361E+000 
12898953.692 +5.6738456758E-001 +4.5885148588E+000  +1.9521343470E-001 +1.4848209946E+000  +1.9410910100E-001 +7.7376744013E+000  +5.8801268619E-001 +2.3850267007E+000 
13024098.874 +5.8495932845E-001 +2.0162589271E+000  +1.9904005398E-001 +2.2463783046E+000  +1.9798439635E-001 +6.6844845100E+000  +6.0373776559E-001 -1.5156779749E+000 
13149244.055 +6.0887155034E-001 +3.9063473079E+000  +1.9940732862E-001 +2.0949536561E+000  +1.9545868934E-001 +6.3358188152E+000  +5.9679228342E-001 -8.1142157072E-001 
13274389.237 +6.4549158913E-001 +1.5277957708E+000  +2.0224836749E-001 +2.6978341073E+000  +2.0154420990E-001 +6.4909652236E+000  +6.1964644196E-001 -1.4461387376E+000 
13399534.418 +6.3477936834E-001 -1.8877039098E+000  +2.0691149120E-001 +2.7355378921E+000  +2.0319795271E-001 +5.8246099401E+000  +6.6732244070E-001 -2.5443999194E+000 
13524679.599 +6.6496753379E-001 +3.1810883178E-001  +2.0556107251E-001 +2.2715458969E+000  +2.0199415358E-001 +5.0342685315E+000  +6.4231140005E-001 -4.6904936193E-001 
13649824.781 +6.5726215587E-001 -8.8019239684E-001  +2.0694593944E-001 +1.9328837302E+000  +2.0621689891E-001 +4.7501437288E+000  +6.6977800666E-001 -2.0825963390E+000 
13774969.962 +6.8018415070E-001 -2.8729038008E+000  +2.0892075313E-001 +2.2177254389E+000  +2.0681159752E-001 +4.0058008614E+000  +6.9518391102E-001 -3.8441890091E+000 
13900115.144 +6.8342850946E-001 -3.6675793625E+000  +2.1004579675E-001 +1.9060084721E+000  +2.0793084549E-001 +3.7407750017E+000  +6.9994672213E-001 -2.4327041879E+000 
14025260.325 +7.3139128960E-001 -2.2374022255E+000  +2.1083971364E-001 +2.3728089765E+000  +2.1020680247E-001 +3.6427802761E+000  +7.1255113134E-001 -3.2186768059E+000 
14150405.507 +7.4854984938E-001 -4.2766795007E+000  +2.1453325908E-001 +2.0584425842E+000  +2.1185489250E-001 +3.2853503267E+000  +7.4179081789E-001 -4.3078060443E+000 
14275550.688 +7.3176230867E-001 -6.8729749787E+000  +2.1667952709E-001 +1.2173363670E+000  +2.0962831531E-001 +1.8062691590E+000  +7.4250252077E-001 -4.2085497269E+000 
14400695.870 +7.7756165405E-001 -5.2774210277E+000  +2.1472072602E-001 +1.8247300156E+000  +2.1501289105E-001 +2.3781807339E+000  +7.8725653488E-001 -5.4284345800E+000 
