!  2-Port S-parameters saved by WinCal
! VAR MeasName=S-Parameters (CALIBRATED_DATA) read from VNA (P5004A)
! VAR MeasDate=29/08/2024 12:07:08
! VAR NAME=S2_r9c5_pristine_9k-100M_3
! VAR FILENAME=S2_r9c5_pristine_9k-100M_3.S2P
! VAR DATE=29/08/2024 12:07:08
! VAR PHYS_PORTS=1,2
! VAR ObjTypeName=DATASET
! VAR IndexType=Frequency
!
# Hz S MA R 50
9000.000 +6.6216392081E-002 -1.7512157006E+002  +7.4592502702E-003 +5.7086839770E+001  +8.4976491403E-003 -1.4820702555E+002  +2.4916974419E-001 -1.4176473089E+002 
134145.181 +1.1112202123E-001 +1.7009659105E+002  +5.4464097871E-005 +6.0790897185E+001  +3.3448700593E-004 -1.0549274073E+002  +2.3887608105E-001 -1.7073109579E+002 
259290.363 +1.1273208008E-001 +1.6991820209E+002  +6.0704446657E-004 -4.6290046886E+001  +4.2046684142E-004 -1.6123335944E+002  +2.3632531473E-001 -1.6954252476E+002 
384435.544 +1.1318004382E-001 +1.7016822773E+002  +2.2931346564E-004 -4.7281947420E+000  +1.3397931857E-003 +1.4301350177E+002  +2.4062457457E-001 -1.6865978897E+002 
509580.726 +1.1462931066E-001 +1.7113949786E+002  +1.3197203632E-003 -1.0035245470E+002  +1.0480352513E-003 -1.6964039168E+002  +2.4248603001E-001 -1.6775159862E+002 
634725.907 +1.1751959687E-001 +1.7156834271E+002  +1.1628983297E-003 -8.4126964465E+001  +9.5153767378E-004 +1.6252750249E+002  +2.5318856621E-001 -1.6674420763E+002 
759871.089 +1.1887097434E-001 +1.7000070322E+002  +1.4920584405E-003 -4.6836963051E+001  +9.3887493564E-004 +8.7767337096E+001  +2.5123186383E-001 -1.6572350783E+002 
885016.270 +1.2043741286E-001 +1.6919001256E+002  +6.4177931761E-004 -1.0396197677E+001  +1.2046632617E-003 +1.3431210532E+002  +2.4559363646E-001 -1.6752303147E+002 
1010161.452 +1.1557363918E-001 +1.6963243169E+002  +2.8780748664E-003 +1.8009438387E+001  +2.6626123163E-003 -1.5247772578E+002  +2.1868540065E-001 -1.6885286900E+002 
1135306.633 +1.1753717063E-001 +1.6836121416E+002  +3.0501122733E-003 +5.4507274128E+000  +2.3361155647E-003 -1.4320577065E+002  +2.1544149933E-001 -1.7048963215E+002 
1260451.815 +1.2198222593E-001 +1.7067174597E+002  +2.4982335034E-003 +1.0015254297E+000  +2.7591081953E-003 -1.7996304509E+002  +2.2911465047E-001 -1.6082052081E+002 
1385596.996 +1.2411846565E-001 +1.7150368087E+002  +2.5183305167E-003 -4.8066187074E+001  +2.7213046496E-003 +1.6350897668E+002  +2.4101967696E-001 -1.5585365417E+002 
1510742.178 +1.2685156901E-001 +1.7245173780E+002  +1.6184399663E-003 -4.3866570908E-001  +3.0183113182E-003 +1.6885706152E+002  +2.5245439713E-001 -1.6105831482E+002 
1635887.359 +1.3007028738E-001 +1.7049061747E+002  +9.2008442306E-004 -1.4496481795E+001  +2.4564881118E-003 -1.5276558348E+002  +2.4870178561E-001 -1.5986054310E+002 
1761032.541 +1.2939351745E-001 +1.6955133003E+002  +2.6523253967E-003 +5.1447772571E+001  +3.0093941831E-003 -9.6402679652E+001  +2.3223641808E-001 -1.6121481972E+002 
1886177.722 +1.2973751919E-001 +1.6747946828E+002  +4.4905634213E-003 +6.5208616531E+001  +4.1476049391E-003 -6.7227669501E+001  +2.2709240904E-001 -1.6552698667E+002 
2011322.904 +1.3380120083E-001 +1.6740057754E+002  +8.2183337802E-003 +6.7254988971E+001  +8.5030211983E-003 -6.2912477185E+001  +2.0425992037E-001 -1.6286833876E+002 
2136468.085 +1.3090938934E-001 +1.6823565766E+002  +1.5992071089E-002 +6.5733836101E+001  +2.1363080796E-002 -7.0433713407E+001  +1.5293200027E-001 -1.6308334617E+002 
2261613.267 +1.4091493835E-001 +1.6597960919E+002  +1.3916031528E-002 +8.0583690295E+001  +1.3964620298E-002 -4.4608348103E+001  +1.6376984744E-001 -1.6996626903E+002 
2386758.448 +1.4172143575E-001 +1.6424194229E+002  +1.2589976732E-002 +7.7268014986E+001  +1.2005372071E-002 -2.9808434432E+001  +2.2642569799E-001 -1.6634191274E+002 
2511903.630 +1.3411555349E-001 +1.6299614041E+002  +2.5582552454E-002 +7.5271122250E+001  +2.4239122652E-002 -3.9252743203E+001  +1.8999744473E-001 -1.6913062599E+002 
2637048.811 +1.2883572466E-001 +1.6150379181E+002  +4.3034639797E-002 +8.2700329027E+001  +5.1250628965E-002 -3.6448461353E+001  +1.3479791149E-001 -1.7952818558E+002 
2762193.992 +1.3060470797E-001 +1.6911174258E+002  +4.6553835303E-002 +3.4898164503E+001  +4.6557202291E-002 -7.4304980827E+001  +1.4227187277E-001 -1.4535741571E+002 
2887339.174 +1.3619494994E-001 -1.7761033086E+002  +1.2649910608E-001 +1.2647950852E+000  +1.4666832683E-001 -1.0353484029E+002  +3.4559381709E-001 -3.2359248201E+001 
3012484.355 +1.4342003740E-001 +1.6788589764E+002  +4.2676613750E-002 +4.9497927891E+001  +3.8287390058E-002 -4.1810746160E+001  +1.3659450882E-001 +1.6525249821E+002 
3137629.537 +1.4503665272E-001 -1.7999876087E+002  +6.8330494215E-002 -3.0132550621E+001  +7.0822969479E-002 -1.3200046230E+002  +2.7392321620E-001 -1.0833261820E+002 
3262774.718 +1.4862211251E-001 +1.6645353125E+002  +3.8339481386E-002 +2.9138231058E+001  +3.6354582169E-002 -5.8493662998E+001  +1.7510419601E-001 -1.4702020672E+002 
3387919.900 +1.0647631320E-001 +1.6170969509E+002  +1.1630312140E-001 +2.9306454334E+001  +1.1014027777E-001 -5.0424504039E+001  +8.9489209167E-002 -4.8854233776E+001 
3513065.081 +1.2101098431E-001 +1.6244836864E+002  +1.2276827429E-001 +4.4535463780E+001  +1.2929806867E-001 -3.6903656217E+001  +1.7627006996E-001 +4.6106777140E+001 
3638210.263 +1.6420190159E-001 +1.5248741440E+002  +7.4665670491E-002 +9.7696806691E+001  +7.7103123048E-002 +1.8331046963E+001  +2.9570359905E-001 +1.4595617664E+002 
3763355.444 +1.9645578536E-001 +1.4504155935E+002  +1.4524819038E-001 +1.4003646369E+002  +1.3839225477E-001 +5.9813481371E+001  +6.7630412396E-001 +1.4018128151E+002 
3888500.626 +1.8814387454E-001 +1.5845430319E+002  +5.3023074667E-002 +1.1027908651E+002  +5.1493490074E-002 +3.8680296851E+001  +4.0603749649E-001 +1.5947497939E+002 
4013645.807 +1.8756277663E-001 +1.5336952792E+002  +6.2367447468E-002 +8.2803839853E+001  +5.8437482602E-002 +1.3461264131E+001  +2.2259082031E-001 +1.6795711043E+002 
4138790.989 +1.6793339687E-001 +1.5141457861E+002  +8.3863032929E-002 +8.3309901674E+001  +7.1907138071E-002 +1.8963439883E+001  +3.2055577276E-001 +1.6156589342E+002 
4263936.170 +1.8786208110E-001 +1.5523844731E+002  +9.1005490226E-002 +8.1403784364E+001  +8.9334344268E-002 +2.1573244398E+001  +3.5179257972E-001 +1.3623899630E+002 
4389081.352 +2.1383512384E-001 +1.4848270864E+002  +1.0662815480E-001 +1.0376826183E+002  +9.7783223796E-002 +4.0071597889E+001  +4.1440579965E-001 +1.4214441717E+002 
4514226.533 +1.9967228257E-001 +1.3529705415E+002  +2.0693593382E-001 +7.6738431640E+001  +2.0437299191E-001 +2.1879217347E+001  +4.3866272877E-001 +8.6056097099E+001 
4639371.715 +2.7992635064E-001 +1.3437145141E+002  +3.2882290210E-001 +1.1639602875E+002  +3.3401411530E-001 +6.4223017445E+001  +1.2664090347E+000 +1.1168402622E+002 
4764516.896 +3.6908761203E-003 +9.5772080017E+001  +7.8079734625E-001 -1.3634292851E+001  +7.7587978725E-001 -6.5200118158E+001  +2.6031082620E+000 -5.0752430384E+001 
4889662.078 +5.0205721276E-001 +1.6104315846E+002  +7.7180679183E-001 -1.5116920011E+002  +7.5075878795E-001 +1.6392177154E+002  +2.0460378408E+000 -1.7985707595E+002 
5014807.259 +3.5856421154E-001 +1.0965017091E+002  +6.5764364762E-001 +7.6267701948E+001  +6.7352430648E-001 +2.8063996857E+001  +1.9193108560E+000 +4.9383220140E+001 
5139952.441 +2.4957796049E-001 +1.0756159404E+002  +4.8942315372E-001 +7.7208336771E+001  +4.8624679135E-001 +3.4680145657E+001  +1.3544959755E+000 +8.4019680321E+001 
5265097.622 +3.8070696444E-001 +1.2182477927E+002  +4.0319795980E-001 +1.0624999800E+002  +4.0358060728E-001 +6.6515811006E+001  +1.2041660500E+000 +1.1129697256E+002 
5390242.804 +3.5966069633E-001 +1.2988952910E+002  +2.4846410286E-001 +9.1533092120E+001  +2.3857456523E-001 +5.5729754609E+001  +6.4165295958E-001 +1.1087831989E+002 
5515387.985 +3.9330932094E-001 +1.2578732079E+002  +3.0120185800E-001 +1.1084452280E+002  +3.0120770463E-001 +7.6509637405E+001  +1.0575489890E+000 +1.3123896958E+002 
5640533.166 +3.8204159781E-001 +1.3375356137E+002  +2.7165984268E-001 +9.8523569425E+001  +2.5594746168E-001 +6.7298677332E+001  +1.0583968166E+000 +1.1884517517E+002 
5765678.348 +4.6961585639E-001 +1.2790187641E+002  +5.1314732109E-001 +1.0656998896E+002  +4.9147936899E-001 +7.8164296977E+001  +2.1142028781E+000 +1.0807205697E+002 
5890823.529 +4.7508427139E-001 +1.2266050190E+002  +4.1981747489E-001 +8.2597544454E+001  +4.1869894670E-001 +5.9320894090E+001  +1.3347367462E+000 +9.0971158023E+001 
6015968.711 +3.7619260627E-001 +1.2176642797E+002  +3.7751750023E-001 +7.2340375570E+001  +3.5289315570E-001 +4.7604526439E+001  +1.2636312645E+000 +9.8573781701E+001 
6141113.892 +3.6657245557E-001 +1.0885484180E+002  +4.2820549288E-001 +4.5355498091E+001  +4.2366795814E-001 +2.4486649809E+001  +9.7482044667E-001 +5.9719480014E+001 
6266259.074 +5.2067550918E-001 +1.0568930180E+002  +4.8080456924E-001 +4.9240778955E+001  +4.4584965663E-001 +3.1931204330E+001  +1.0263737496E+000 +4.9819190939E+001 
6391404.255 +6.2016351145E-001 +1.0313496713E+002  +5.1946217464E-001 +5.6188674894E+001  +4.9623603118E-001 +3.9109488279E+001  +1.2395310308E+000 +6.1706200023E+001 
6516549.437 +6.6883943879E-001 +8.1761386902E+001  +5.3133668501E-001 +4.1156652639E+001  +5.1883861318E-001 +2.8294877641E+001  +8.0377478917E-001 +5.5066665232E+001 
6641694.618 +7.6490951525E-001 +7.1560120950E+001  +6.1125830229E-001 +2.9267901167E+001  +6.0445923575E-001 +1.8282532640E+001  +1.0343688227E+000 +2.7186387232E+001 
6766839.800 +6.8722614545E-001 +4.8952587680E+001  +5.9892921220E-001 +1.4569039160E+001  +5.8876717309E-001 +4.5337955814E+000  +8.9613892836E-001 +1.4555468741E+001 
6891984.981 +7.9592653916E-001 +4.3906867476E+001  +6.1270084395E-001 +1.0708076534E+001  +6.0820795312E-001 +2.6730996723E+000  +1.1433455966E+000 +4.5886631742E+000 
7017130.163 +5.9453566306E-001 +2.5611666048E+001  +5.0921117383E-001 +1.6585012899E+000  +5.2635345146E-001 -1.8148334656E+000  +8.7657916959E-001 +1.1866577628E+000 
7142275.344 +7.0203359020E-001 -5.0439397114E+000  +5.1390615824E-001 -5.0158824312E+000  +5.2258536571E-001 -7.8295576964E+000  +8.4009584587E-001 -1.0274451129E+001 
7267420.526 +6.3969682579E-001 +5.9659904734E+000  +4.5434666187E-001 +3.6430490607E-001  +4.5519369985E-001 -9.0897359357E-001  +7.5595128429E-001 -8.2239232442E+000 
7392565.707 +7.6108449691E-001 +8.6583950456E+000  +4.1546490592E-001 +4.7963136558E+000  +4.1850547128E-001 +3.6811742742E+000  +8.1219271949E-001 -8.4259209716E+000 
7517710.889 +7.6623958271E-001 -1.0691298743E+000  +4.0590794727E-001 +3.2096922668E+000  +4.0347218540E-001 +3.5264779515E+000  +6.9780079834E-001 -6.4256240668E+000 
7642856.070 +5.6641598116E-001 +6.7601808128E+000  +3.7172536287E-001 +4.2373984808E-002  +3.7314837995E-001 +4.2543885238E+000  +6.4659712496E-001 -5.0849884081E+000 
7768001.252 +5.6390205632E-001 +5.8079943995E+000  +3.6736790882E-001 -1.6569745460E-002  +3.6361163969E-001 +5.3132025214E+000  +6.0234782193E-001 -9.6709105159E-001 
7893146.433 +4.5138939274E-001 +1.4854781521E+001  +3.4425948116E-001 -1.4988558367E+000  +3.4866115438E-001 +4.0733630759E+000  +4.9159581637E-001 +1.9073803225E+000 
8018291.615 +4.5696619888E-001 +1.2509115888E+001  +3.3457954786E-001 -1.2964089324E+000  +3.3652765409E-001 +7.1431203592E+000  +5.2712019319E-001 +5.1552425254E+000 
8143436.796 +3.7054648213E-001 +1.2730400754E+001  +3.2600621098E-001 -2.9331820954E+000  +3.2883458216E-001 +5.4666848014E+000  +4.1250461160E-001 +4.3746230544E+000 
8268581.977 +4.1744913292E-001 +1.6805706417E+001  +3.2627378479E-001 -2.5564170239E+000  +3.2194993118E-001 +6.7409092383E+000  +4.0365128228E-001 +4.1647342996E+000 
8393727.159 +3.9799366226E-001 +2.2508218747E+001  +3.1257463206E-001 -2.0907744607E+000  +3.0764712023E-001 +8.0196924375E+000  +4.2510793640E-001 +1.6097598090E+001 
8518872.340 +3.3607827536E-001 +1.8724189739E+001  +3.1237948025E-001 -4.3619889446E+000  +3.1231434813E-001 +7.5996090198E+000  +3.6402312101E-001 +4.9397824235E+000 
8644017.522 +2.9602251379E-001 +2.2438765696E+001  +3.0431751002E-001 -5.4615115753E+000  +3.0502954561E-001 +6.8379757735E+000  +3.3825741510E-001 +1.2012641494E+001 
8769162.703 +3.0102196628E-001 +1.4150062111E+001  +3.0974118474E-001 -5.8751649981E+000  +3.0367442797E-001 +6.0479608270E+000  +2.5847364796E-001 +7.8201291768E+000 
8894307.885 +3.3236776313E-001 +2.5087400214E+001  +3.0515628747E-001 -4.4673897909E+000  +2.9848374659E-001 +9.0839316649E+000  +2.9464992199E-001 +2.8413675734E+000 
9019453.066 +2.3519199259E-001 +7.4212636491E+000  +3.0690314599E-001 -6.0640349381E+000  +2.9735682360E-001 +8.0551674759E+000  +3.2569050605E-001 +1.1777986433E+001 
9144598.248 +3.0868291139E-001 +1.0893910169E+001  +3.0398725201E-001 -5.8310552919E+000  +3.0013045872E-001 +1.0159170297E+001  +3.1070120372E-001 +5.8781540327E+000 
9269743.429 +2.6042781462E-001 +2.1228256486E+001  +2.9752900762E-001 -5.4674006644E+000  +2.9646275505E-001 +8.6413036385E+000  +2.6018679742E-001 +6.2699541388E+000 
9394888.611 +2.3652622349E-001 +1.8907239091E+001  +2.9957388233E-001 -6.1091279514E+000  +2.9755887469E-001 +9.5036752665E+000  +2.5665243494E-001 +8.6649632320E+000 
9520033.792 +2.7550169458E-001 +3.0769949135E+001  +2.9562184099E-001 -6.4435000637E+000  +2.9064652604E-001 +9.9846628975E+000  +2.4457387018E-001 +5.8313257515E+000 
9645178.974 +2.3804355005E-001 +1.7983073235E+001  +3.0016610758E-001 -6.3268777981E+000  +2.9550587489E-001 +1.0735124267E+001  +2.5442163403E-001 +1.0813178137E+001 
9770324.155 +2.4591013288E-001 +1.0221264866E+001  +3.0248015187E-001 -5.4865650542E+000  +3.0005699371E-001 +1.0050368156E+001  +2.2537566642E-001 +3.7108024608E+000 
9895469.337 +2.1691513807E-001 +1.2704360619E+001  +3.0048992085E-001 -5.5502580973E+000  +2.9851342631E-001 +1.0221831875E+001  +2.2460714290E-001 +3.5515977169E+000 
10020614.518 +2.0196640639E-001 +1.6402432032E+001  +2.9998829828E-001 -5.1511975628E+000  +3.0201092961E-001 +1.0688350949E+001  +2.7820456356E-001 +5.2348269236E+000 
10145759.700 +2.5229798880E-001 +2.0148311668E+001  +3.0089767055E-001 -4.4505042228E+000  +2.9704864581E-001 +1.0598659824E+001  +2.7504421286E-001 +1.1282400373E+001 
10270904.881 +2.6487836192E-001 +2.1083869193E+001  +3.0012086501E-001 -4.7618334718E+000  +2.9887735193E-001 +1.0759913155E+001  +2.5225076967E-001 +1.2486234153E+001 
10396050.063 +2.4376142479E-001 +1.8985310514E+001  +3.0295853637E-001 -5.0907127788E+000  +2.9970461186E-001 +1.0685169331E+001  +2.3134091289E-001 +1.3563109676E+001 
10521195.244 +2.6483862028E-001 +2.0616301871E+001  +3.0455231519E-001 -3.9889560164E+000  +3.0101756497E-001 +1.1303886951E+001  +2.8033711362E-001 +9.1617558961E+000 
10646340.426 +2.5859781779E-001 +2.6557575667E+001  +3.0494154902E-001 -4.4968012439E+000  +3.0456402205E-001 +1.0834587412E+001  +2.3383685706E-001 +1.0463493825E+001 
10771485.607 +2.7418770491E-001 +2.6311457848E+001  +3.0659852283E-001 -2.7403234539E+000  +3.0685833672E-001 +1.1135377713E+001  +3.1051665972E-001 +1.2420028096E+001 
10896630.788 +2.4645886047E-001 +2.4327849492E+001  +3.0842860509E-001 -3.7156737858E+000  +3.0645103068E-001 +1.0912089335E+001  +2.9672318718E-001 +1.7658497584E+001 
11021775.970 +2.9716899800E-001 +2.1866590737E+001  +3.1498425507E-001 -2.9926531801E+000  +3.0976083715E-001 +1.0883357266E+001  +2.6774258163E-001 +1.0651681779E+001 
11146921.151 +2.9878707838E-001 +2.6489923577E+001  +3.1523613344E-001 -2.4197200519E+000  +3.1113321579E-001 +1.0768470061E+001  +3.1137430292E-001 +7.6836297196E+000 
11272066.333 +2.9349500363E-001 +1.5369508640E+001  +3.2047897022E-001 -2.2764798981E+000  +3.1764895999E-001 +1.0464198437E+001  +3.2275759474E-001 +1.5720970922E+001 
11397211.514 +2.7650558198E-001 +2.5793231497E+001  +3.1777114066E-001 -2.5480353286E+000  +3.1552768025E-001 +9.8356528755E+000  +3.0679082286E-001 +1.6213269124E+001 
11522356.696 +3.4024255671E-001 +2.0675894120E+001  +3.2359671554E-001 -1.1518209482E+000  +3.1890973540E-001 +1.0693695097E+001  +3.1562682003E-001 +1.2038967008E+001 
11647501.877 +3.0548583098E-001 +1.8131491879E+001  +3.2634912308E-001 -1.3235214245E+000  +3.2449681902E-001 +9.8382360469E+000  +3.3003199775E-001 +1.2105206517E+001 
11772647.059 +2.8865449831E-001 +2.1406732722E+001  +3.2683947231E-001 -1.6338850999E+000  +3.2428632002E-001 +9.2386449984E+000  +3.3457386631E-001 +1.3289177766E+001 
11897792.240 +3.2084575592E-001 +1.5697187532E+001  +3.3375413813E-001 -9.8251647381E-001  +3.3030696747E-001 +8.9523983441E+000  +3.4331527890E-001 +1.1345571014E+001 
12022937.422 +3.5009169053E-001 +1.2231382787E+001  +3.3907821713E-001 -8.9206397985E-001  +3.3587452858E-001 +9.1978286036E+000  +3.3735057459E-001 +1.0212409334E+001 
12148082.603 +3.5951430746E-001 +1.1194955197E+001  +3.4353831392E-001 +1.7042528228E-001  +3.3838897714E-001 +9.2988699887E+000  +3.8380387623E-001 +9.5610666342E+000 
12273227.785 +3.0996414611E-001 +1.1958336460E+001  +3.4354792375E-001 -7.0127670282E-001  +3.3859575405E-001 +7.9992736567E+000  +3.5958923914E-001 +1.4092650577E+001 
12398372.966 +3.4815561872E-001 +1.0349978385E+001  +3.4851652479E-001 -6.8838761418E-001  +3.4732356763E-001 +7.2913233584E+000  +3.5151982444E-001 +1.0171500451E+001 
12523518.148 +3.7148411487E-001 +1.2830808741E+001  +3.5032703016E-001 +3.7452988780E-002  +3.4559221915E-001 +7.4197750221E+000  +3.6346831886E-001 +6.6347098706E+000 
12648663.329 +3.8286778902E-001 +6.7810159296E+000  +3.5574370923E-001 +3.4476473527E-001  +3.5036407695E-001 +7.1526347578E+000  +3.9704853195E-001 +5.9344570922E+000 
12773808.511 +4.1335193099E-001 +5.8727080484E+000  +3.6093746322E-001 +8.9560860125E-001  +3.5644333863E-001 +6.7280269069E+000  +3.9474663822E-001 +5.0245129596E+000 
12898953.692 +3.9618599214E-001 +5.3991570544E+000  +3.6400897737E-001 +4.8271601768E-001  +3.5887767552E-001 +6.4061964365E+000  +4.1099812023E-001 +4.4786633762E+000 
13024098.874 +4.1587987874E-001 +6.2783204752E+000  +3.6515958715E-001 +1.1227845385E+000  +3.6133668350E-001 +5.9254949237E+000  +4.2950380588E-001 +4.6459832292E+000 
13149244.055 +4.4182365636E-001 +5.0463766338E+000  +3.7093309860E-001 +1.3787439806E+000  +3.6794860960E-001 +5.4917943902E+000  +4.3921447323E-001 +2.6907908226E+000 
13274389.237 +4.4286943674E-001 +3.8753905228E+000  +3.7418219143E-001 +1.1367256682E+000  +3.7034800123E-001 +4.9964561436E+000  +4.4967515016E-001 +1.5037326837E+000 
13399534.418 +4.3584911761E-001 +4.8156032313E+000  +3.7780316771E-001 +9.1279249908E-001  +3.7108749371E-001 +4.5910901170E+000  +4.5680676171E-001 +1.0824681323E+000 
13524679.599 +4.6435792785E-001 +4.8556002420E-001  +3.8173589023E-001 +1.3734528796E+000  +3.7781997671E-001 +4.2573023090E+000  +4.8633502244E-001 +1.6970304451E+000 
13649824.781 +4.9639242945E-001 +6.4671671375E-001  +3.8504918962E-001 +1.8545941658E+000  +3.8117250168E-001 +4.0889158503E+000  +5.1354729134E-001 -2.1249582974E+000 
13774969.962 +4.8886806804E-001 -1.5291011279E+000  +3.8916666385E-001 +1.0458426804E+000  +3.8457988601E-001 +3.3387886863E+000  +4.8794351214E-001 -2.5040279014E+000 
13900115.144 +5.1314898427E-001 -1.2776363783E+000  +3.9180497008E-001 +1.2134341030E+000  +3.8696645470E-001 +2.7620710349E+000  +4.9739684889E-001 -2.7939731251E+000 
14025260.325 +5.0680459852E-001 -3.6766616825E+000  +3.9395884134E-001 +9.8039291083E-001  +3.9122639445E-001 +2.2533011025E+000  +5.2361196744E-001 -2.6472744856E+000 
14150405.507 +5.2618337122E-001 -3.9099246921E+000  +3.9886116735E-001 +1.1195594212E+000  +3.9218141560E-001 +1.9099281523E+000  +5.3890550827E-001 -3.5946579739E+000 
14275550.688 +5.5181873826E-001 -4.8320008783E+000  +4.0048419038E-001 +7.0923949014E-001  +3.9545452428E-001 +1.6399355110E+000  +5.4583030494E-001 -4.6839183170E+000 
14400695.870 +5.2701920853E-001 -7.9021956567E+000  +4.0445237947E-001 +4.2812609656E-001  +3.9777577944E-001 +1.1068271687E+000  +5.8520686611E-001 -5.5130276644E+000 
