!  2-Port S-parameters saved by WinCal
! VAR MeasName=S-Parameters (CALIBRATED_DATA) read from VNA (P5004A)
! VAR MeasDate=29/08/2024 11:42:40
! VAR NAME=S2_r9c4_RESET1_9k-100M_3
! VAR FILENAME=S2_r9c4_RESET1_9k-100M_3.S2P
! VAR DATE=29/08/2024 11:42:40
! VAR PHYS_PORTS=1,2
! VAR ObjTypeName=DATASET
! VAR IndexType=Frequency
!
# Hz S MA R 50
9000.000 +8.7370978630E-002 -1.6684135761E+002  +2.1666648328E-002 +1.9921278803E+001  +4.5443281715E-003 +8.4971452232E+001  +1.8011777920E-001 -1.2600991433E+002 
134145.181 +1.1148801742E-001 +1.6965722745E+002  +4.6213297816E-004 -1.3794222398E+001  +3.2644293402E-004 -4.3582802865E+001  +2.3903511614E-001 -1.7171321425E+002 
259290.363 +1.1253939187E-001 +1.7022128373E+002  +8.0297187020E-004 -1.4524057350E+002  +1.3941295700E-003 +1.2659943891E+002  +2.4001344936E-001 -1.6693269957E+002 
384435.544 +1.1472121347E-001 +1.6953210556E+002  +7.9198641742E-004 -8.3343801310E+001  +9.6517591597E-004 +4.4845808879E+001  +2.4415066265E-001 -1.6926149640E+002 
509580.726 +1.1452112538E-001 +1.7166375670E+002  +1.0444009659E-003 -3.1564056472E+000  +2.3184902697E-003 +8.2783979989E+001  +2.4132856236E-001 -1.6569031232E+002 
634725.907 +1.1713945817E-001 +1.7188633029E+002  +1.1224026121E-003 -9.8691957506E+001  +1.1179338444E-003 +1.1913273880E+002  +2.6014567428E-001 -1.6638508004E+002 
759871.089 +1.2048829170E-001 +1.7061771207E+002  +1.0920182042E-003 -1.2588350930E+002  +2.5361102296E-004 +1.4171805049E+002  +2.5264888071E-001 -1.6718345806E+002 
885016.270 +1.2196474112E-001 +1.6878878686E+002  +5.8533440709E-004 -8.4292002319E+001  +7.2830380651E-004 +1.1247814401E+002  +2.4355633346E-001 -1.6687079244E+002 
1010161.452 +1.1756425448E-001 +1.7165488567E+002  +9.4090640683E-004 -6.2197006060E+001  +1.1572357049E-003 -9.4124828241E+001  +2.2084771230E-001 -1.6895766438E+002 
1135306.633 +1.1665731374E-001 +1.6841477754E+002  +1.6158577764E-003 +2.2307244804E+001  +8.8150425208E-004 +1.3896920158E+002  +1.9835244107E-001 -1.7599281409E+002 
1260451.815 +1.1656015387E-001 +1.6944100955E+002  +2.5416174135E-003 +7.3397572333E+000  +3.0056963359E-003 -1.7327392108E+002  +1.9642463670E-001 -1.6023868105E+002 
1385596.996 +1.2265864009E-001 +1.7284597459E+002  +2.8974113357E-003 -6.9602417176E+001  +3.1911426845E-003 +1.3774322228E+002  +2.7641099466E-001 -1.5501666779E+002 
1510742.178 +1.2589196679E-001 +1.7110231468E+002  +1.4272086013E-003 -9.4041106366E+001  +2.1874300287E-003 +1.0443999400E+002  +2.6833112524E-001 -1.5768965755E+002 
1635887.359 +1.2922306321E-001 +1.7060062357E+002  +4.2969070016E-004 -9.5683141340E+001  +1.4269101655E-003 -1.7040458379E+002  +2.3912038085E-001 -1.5614982412E+002 
1761032.541 +1.2980317256E-001 +1.6917298045E+002  +2.3122027027E-003 +1.8530735854E+001  +1.1181935199E-003 -1.2529555361E+002  +2.0663742550E-001 -1.5998614567E+002 
1886177.722 +1.3364040337E-001 +1.6719847926E+002  +2.7691570543E-003 -1.5580264039E+000  +2.2620865007E-003 -9.6204897217E+001  +2.2648462716E-001 -1.5888007803E+002 
2011322.904 +1.2706096054E-001 +1.6802469597E+002  +6.0885743341E-003 +3.5537314078E+001  +1.1762412646E-002 -8.8045137123E+001  +1.7269374647E-001 -1.4970461784E+002 
2136468.085 +1.3040477178E-001 +1.6676118582E+002  +1.1605720956E-002 +7.6679425433E+001  +7.4992764535E-003 -5.6561056052E+001  +1.4938744777E-001 -1.7388836448E+002 
2261613.267 +1.3646756703E-001 +1.6347422553E+002  +9.1642475134E-003 +9.7111524564E+001  +9.0731882267E-003 -5.2425492468E+001  +1.8017057823E-001 -1.6822415805E+002 
2386758.448 +1.2951196034E-001 +1.6408677247E+002  +1.4864620544E-002 +9.3084355489E+001  +1.5009862157E-002 -3.4323638931E+001  +1.8384820292E-001 -1.7949089822E+002 
2511903.630 +1.3815523168E-001 +1.6780861636E+002  +1.9975788982E-002 +1.0520401860E+002  +2.0470231677E-002 -1.1807881757E+001  +2.7067681096E-001 +1.5290631273E+002 
2637048.811 +1.3448464341E-001 +1.6570326042E+002  +2.2272113808E-002 +3.9223064969E+001  +2.4843018998E-002 -7.4108466554E+001  +1.5260678521E-001 -1.4903498369E+002 
2762193.992 +1.2578119626E-001 +1.6803094442E+002  +4.2893598289E-002 +4.6791355296E+001  +3.5110801386E-002 -6.3469660845E+001  +1.0613123682E-001 +1.6229772747E+002 
2887339.174 +1.3558327179E-001 +1.7400000281E+002  +5.2420813514E-002 -1.3764894212E+001  +4.0905520189E-002 -1.2637466732E+002  +2.0165028305E-001 -8.3176546710E+001 
3012484.355 +1.3375363149E-001 +1.7312492288E+002  +3.3612384837E-002 -7.6786652783E+000  +3.4428369632E-002 -1.0078952343E+002  +1.2464642104E-001 -1.3334531973E+002 
3137629.537 +1.2227810481E-001 +1.7332677828E+002  +3.6650754407E-002 -3.6957775736E+001  +3.6934999402E-002 -1.4433381008E+002  +2.9196874031E-001 -1.2169169364E+002 
3262774.718 +1.2208349652E-001 +1.6753532673E+002  +5.8685759305E-002 +8.1336899973E+000  +5.1072241300E-002 -8.0900853483E+001  +9.9518746646E-002 -7.2256006271E+001 
3387919.900 +1.2593701650E-001 +1.6656057338E+002  +7.1115564765E-002 +4.5924807564E+001  +8.3090093491E-002 -3.6510606907E+001  +2.5597076852E-001 +7.5844850416E+001 
3513065.081 +1.2856234911E-001 +1.4195846623E+002  +7.7172325911E-002 +7.4455717337E+001  +7.2627317721E-002 -1.1411487107E+001  +1.6986014985E-001 +1.1591163811E+002 
3638210.263 +1.6757637859E-001 +1.4190002146E+002  +5.7700412878E-002 +1.1864480282E+002  +7.2369963087E-002 +2.0160096508E+001  +3.5886837167E-001 +1.3648045743E+002 
3763355.444 +1.8212264937E-001 +1.5073121361E+002  +7.0462674472E-002 +1.2839019224E+002  +7.6582757376E-002 +5.3174593869E+001  +6.6146034328E-001 +1.3833554187E+002 
3888500.626 +1.7193413589E-001 +1.5398427685E+002  +5.4307672191E-002 +6.7397532813E+001  +4.7514770839E-002 -9.8108158540E+000  +1.4316726770E-001 +1.2708097513E+002 
4013645.807 +1.9371111280E-001 +1.4301305869E+002  +7.3572917860E-002 +1.0379632546E+002  +7.3273818951E-002 +3.5403498823E+001  +3.9574697042E-001 +1.2701019172E+002 
4138790.989 +1.7167773372E-001 +1.5140339088E+002  +8.0341496271E-002 +9.5297953642E+001  +7.8741777968E-002 +3.3063835889E+001  +5.5563042356E-001 +1.3111087662E+002 
4263936.170 +1.8234222480E-001 +1.4939103804E+002  +1.0462318306E-001 +8.2110126681E+001  +1.0688627573E-001 +1.7753466691E+001  +5.9315880102E-001 +9.6308570156E+001 
4389081.352 +2.0037394413E-001 +1.4769017663E+002  +6.0358504029E-002 +8.9802197975E+001  +6.2781072182E-002 +3.2079940881E+001  +4.3067897195E-001 +1.4003056973E+002 
4514226.533 +1.7579807572E-001 +1.3685578539E+002  +1.6813449989E-001 +5.9595678626E+001  +1.3668008929E-001 -2.2606193527E+000  +5.3387682870E-001 +5.4381613618E+001 
4639371.715 +2.8542562303E-001 +1.3039862709E+002  +1.4522774726E-001 +1.1102420608E+002  +1.3948689724E-001 +6.2224840962E+001  +6.5397329956E-001 +1.1804517935E+002 
4764516.896 +3.1373115586E-001 +9.1586766021E+001  +3.4536526171E-001 +5.0784924351E+001  +3.2513919299E-001 -1.0069920484E+000  +7.4810376575E-001 +1.7685671124E+001 
4889662.078 +3.5351581447E-001 +1.2070237337E+002  +4.7875180514E-001 +1.2709236323E+002  +4.9586215387E-001 +7.9584732537E+001  +2.5041848802E+000 +1.1415515169E+002 
5014807.259 +5.0221632401E-001 +1.3130389581E+002  +7.7163364859E-001 +1.6081966568E+002  +7.1557030712E-001 +1.1678556412E+002  +3.5536007236E+000 +1.3019010358E+002 
5139952.441 +3.5270520171E-001 +1.3695436508E+002  +1.6400887163E-001 +1.5767624245E+002  +1.6648079405E-001 +1.1980039267E+002  +1.4060391960E+000 +1.5303098227E+002 
5265097.622 +3.4784131467E-001 +1.3523352745E+002  +2.0370806163E-001 +1.1858806966E+002  +1.8901627105E-001 +7.7618675121E+001  +1.4082413632E+000 +1.1586322492E+002 
5390242.804 +3.5857971969E-001 +1.3673569235E+002  +1.3920316269E-001 +1.2224493092E+002  +1.3484311281E-001 +8.1607473103E+001  +1.0996815300E+000 +1.3414960133E+002 
5515387.985 +3.5262852303E-001 +1.3009173800E+002  +2.2046507000E-001 +7.8902306186E+001  +2.1467921033E-001 +4.8113319661E+001  +1.2777610833E+000 +7.7847239287E+001 
5640533.166 +4.6803848554E-001 +1.2566648425E+002  +2.3508989302E-001 +9.8934302615E+001  +2.1443840568E-001 +6.6723769592E+001  +1.0719994236E+000 +9.6251057406E+001 
5765678.348 +4.2050293365E-001 +1.3048022696E+002  +2.0023209323E-001 +9.3102131472E+001  +1.6875534760E-001 +6.4416830482E+001  +1.2519193794E+000 +1.0637062113E+002 
5890823.529 +5.3047027416E-001 +1.2424711533E+002  +2.7200535506E-001 +9.8166393217E+001  +2.3569171015E-001 +6.9684270777E+001  +1.4760508653E+000 +9.6048594236E+001 
6015968.711 +5.8462904253E-001 +1.1319489749E+002  +4.0222630847E-001 +6.6772886485E+001  +4.0468897578E-001 +4.6137844652E+001  +2.0119284354E+000 +5.1290267303E+001 
6141113.892 +6.8548324756E-001 +1.0797602620E+002  +3.3171344337E-001 +6.4971268394E+001  +3.3179871259E-001 +3.6775408836E+001  +1.3263013487E+000 +4.3666617395E+001 
6266259.074 +7.9326193622E-001 +9.7726005592E+001  +4.0853384975E-001 +4.7152505966E+001  +3.8727782657E-001 +3.3734656848E+001  +1.3878641340E+000 +3.2772835296E+001 
6391404.255 +9.1589297902E-001 +9.6761262673E+001  +3.5821222552E-001 +5.0406596679E+001  +3.9604660620E-001 +3.6609810992E+001  +1.3016811898E+000 +3.1841882194E+001 
6516549.437 +8.4255272205E-001 +8.2425030045E+001  +3.5670799690E-001 +4.0703366630E+001  +3.3252670440E-001 +2.4089933572E+001  +1.0765990403E+000 +3.1712897942E+001 
6641694.618 +6.4916573035E-001 +5.2815503034E+001  +3.3472919384E-001 +1.0029686098E+001  +3.5516505496E-001 -3.2951116513E+000  +1.1272769107E+000 +9.5497192194E+000 
6766839.800 +8.5085684976E-001 +4.8663103379E+001  +3.5905316646E-001 +1.0334514638E+001  +3.3690099650E-001 +2.9814576347E+000  +1.1369865452E+000 +5.7478106029E+000 
6891984.981 +1.1816870609E+000 +3.5666394322E+001  +3.8542925375E-001 +8.9006677355E+000  +3.8153332550E-001 -1.1048263941E+000  +1.1622284187E+000 +1.1705641170E+000 
7017130.163 +1.1535053631E+000 +3.2998365238E+001  +3.2732089095E-001 +7.1648187508E+000  +3.3824140369E-001 +2.3647492133E+000  +1.1238833936E+000 -2.4474849534E+000 
7142275.344 +1.1598787729E+000 +1.1278536439E+001  +2.9678145726E-001 -1.1854052812E+000  +2.8738395190E-001 -2.2248676172E+000  +1.0449508376E+000 -1.0509600479E+001 
7267420.526 +1.0882012295E+000 +2.6603722218E+000  +2.7059297535E-001 -9.6306060529E-001  +2.6765268617E-001 -1.5732790494E-001  +1.1426786666E+000 -1.2182672686E+001 
7392565.707 +9.7058510604E-001 -2.2880211613E+000  +2.3298375927E-001 -1.3199830201E-002  +2.2470714194E-001 +2.9404326117E+000  +1.1841440416E+000 -1.5259610631E+001 
7517710.889 +9.5241280111E-001 +3.9050977241E+000  +2.0971034565E-001 +4.6759695376E+000  +2.0173885135E-001 +6.8984380391E+000  +9.3537967548E-001 -3.5071767247E+000 
7642856.070 +8.2109647115E-001 +7.2586737031E+000  +1.9774891087E-001 +4.2077734955E+000  +1.9320848906E-001 +6.3477383666E+000  +9.0998743574E-001 -6.5704630108E+000 
7768001.252 +7.8811962819E-001 +8.4727806553E+000  +1.8763119756E-001 +3.1683452682E-001  +1.7964124195E-001 +1.0558515228E+001  +8.2434815251E-001 -6.8313217573E-001 
7893146.433 +6.8035475761E-001 +3.9456390144E+000  +1.8354156542E-001 -2.0514578713E-001  +1.7501874581E-001 +4.6331007949E+000  +7.0281002795E-001 -5.2987755029E+000 
8018291.615 +5.6536449283E-001 +9.7409693531E+000  +1.6600821172E-001 -4.2213012285E+000  +1.7138623675E-001 +4.3308087279E+000  +6.1466938595E-001 -3.6185792844E-002 
8143436.796 +5.3996358267E-001 +6.4345580664E+000  +1.6863729256E-001 -4.1683530790E+000  +1.6485628121E-001 +6.5879383527E+000  +6.6715444860E-001 +2.9953681152E+000 
8268581.977 +6.0019222861E-001 +1.0717890807E+001  +1.6445063199E-001 -1.3580873512E+000  +1.6502965804E-001 +7.9164554919E+000  +5.2852832681E-001 +4.3845572260E+000 
8393727.159 +5.5786931525E-001 +7.6742487026E+000  +1.6195947793E-001 -2.6347220297E+000  +1.6363092368E-001 +5.8358267427E+000  +5.1809546116E-001 +6.4070638141E-001 
8518872.340 +5.0942083010E-001 +1.6587403148E+001  +1.5501948151E-001 -2.9238017425E+000  +1.6262827214E-001 +8.8077356780E+000  +5.6229355895E-001 +1.5085125946E+000 
8644017.522 +4.7596759137E-001 +9.3945413253E+000  +1.5748910739E-001 -3.1917986020E+000  +1.5825009327E-001 +9.7427836631E+000  +5.3776146386E-001 +6.4805392382E+000 
8769162.703 +4.5316795964E-001 +8.3097252091E+000  +1.6229087447E-001 -4.1568798583E+000  +1.5735093139E-001 +7.6226333321E+000  +4.4915957713E-001 -2.9591017506E+000 
8894307.885 +4.7031484942E-001 +1.7277547358E+001  +1.5556018645E-001 -4.2386385325E+000  +1.5260710853E-001 +1.0812869470E+001  +4.8990739116E-001 +5.6297296900E+000 
9019453.066 +4.1409391855E-001 +1.1727799335E+001  +1.5151061473E-001 -5.7105847268E+000  +1.5355537346E-001 +1.0033873168E+001  +4.8633302437E-001 +9.8478301506E+000 
9144598.248 +4.1309129211E-001 +9.6874022318E+000  +1.4931986785E-001 -4.6305450913E+000  +1.4887767631E-001 +1.0174347907E+001  +4.2650232575E-001 +3.6914664563E+000 
9269743.429 +3.8121900864E-001 +1.3792034451E+001  +1.5117580037E-001 -5.1577351863E+000  +1.4902963292E-001 +9.4942987457E+000  +4.2373847786E-001 +4.8018945318E+000 
9394888.611 +3.6859843007E-001 +9.7356471626E+000  +1.5041374352E-001 -4.1724376192E+000  +1.5216638857E-001 +1.0753788500E+001  +4.3889742677E-001 +1.2979887954E+000 
9520033.792 +4.3599118457E-001 +6.3015607737E+000  +1.5695134051E-001 -4.3234905492E+000  +1.5210738368E-001 +1.0528358620E+001  +4.2216683787E-001 +8.8464607949E-001 
9645178.974 +3.8867424184E-001 +5.7617453210E+000  +1.5397893717E-001 -4.8465587262E+000  +1.5296981037E-001 +1.1039204902E+001  +4.2130475912E-001 -2.7444141362E+000 
9770324.155 +3.8555349878E-001 +1.1677072867E+000  +1.5426092450E-001 -4.5586470560E+000  +1.5427291398E-001 +1.0467569445E+001  +4.0440926954E-001 -5.3478572241E+000 
9895469.337 +3.9809904664E-001 +7.1788766213E+000  +1.5351944999E-001 -3.7274339575E+000  +1.5662734879E-001 +1.1844374370E+001  +4.0025616758E-001 -2.2935902858E+000 
10020614.518 +3.7242254923E-001 +1.5980174977E+000  +1.5749590411E-001 -3.7848467447E+000  +1.5234122041E-001 +1.0775054581E+001  +3.8583406186E-001 -5.4993506437E+000 
10145759.700 +3.8786494853E-001 +7.7701970574E+000  +1.5765053133E-001 -2.7482256324E+000  +1.5326333737E-001 +1.2254906397E+001  +4.4292629107E-001 -2.9482913292E+000 
10270904.881 +4.0497533559E-001 +1.2549045710E+001  +1.5581161632E-001 -4.4634066610E+000  +1.5372443549E-001 +1.2366101138E+001  +3.8541872644E-001 -4.7108787044E+000 
10396050.063 +3.8483212488E-001 +1.2383740288E+001  +1.5562001390E-001 -3.6445927216E+000  +1.5873941196E-001 +1.3579562556E+001  +4.2604715610E-001 -1.9737278021E+000 
10521195.244 +4.2318912152E-001 +1.0733991538E+001  +1.5962101744E-001 -2.0787145820E+000  +1.5934619337E-001 +1.2410252111E+001  +4.0388506977E-001 +2.7146414293E-001 
10646340.426 +4.1543763674E-001 +6.4395223165E+000  +1.5830652921E-001 -2.2104742455E+000  +1.5612152167E-001 +1.1957746658E+001  +4.3947750057E-001 +4.4612875313E+000 
10771485.607 +4.0855244396E-001 +8.3844887829E+000  +1.6323921897E-001 -1.4381053746E+000  +1.5689406884E-001 +1.2519239075E+001  +4.5803421646E-001 +6.3665568447E+000 
10896630.788 +4.4989811208E-001 +1.1087874180E+001  +1.6220882876E-001 -1.5484769441E+000  +1.6123878258E-001 +1.2059615191E+001  +4.2941233361E-001 +2.7373489203E+000 
11021775.970 +4.3289122829E-001 +1.2758471698E+001  +1.6155459162E-001 -1.7177627324E+000  +1.5827657239E-001 +1.2778443043E+001  +4.3853691988E-001 +9.1017039977E+000 
11146921.151 +4.2679941023E-001 +1.1221203097E+001  +1.6355668529E-001 -1.3115000466E+000  +1.6480460461E-001 +1.1461063015E+001  +4.6022383863E-001 +3.9723648516E+000 
11272066.333 +4.4488388123E-001 +1.0230423254E+001  +1.6443177215E-001 -8.7182304141E-001  +1.6336829996E-001 +1.1920387848E+001  +4.5564316680E-001 +5.3492366891E+000 
11397211.514 +4.5546753712E-001 +5.7066019897E+000  +1.6772532271E-001 -6.4258093636E-001  +1.6615358228E-001 +1.1597839557E+001  +4.5556075934E-001 +8.8879517545E+000 
11522356.696 +4.6392401833E-001 +1.0518705994E+001  +1.7075681845E-001 -3.4742077056E-002  +1.6689019577E-001 +1.1393769184E+001  +4.6323640964E-001 +5.5141653418E+000 
11647501.877 +4.6475859736E-001 +1.0135268733E+001  +1.7098855267E-001 +3.1781143606E-001  +1.6873999649E-001 +1.1807738213E+001  +4.9251997391E-001 +2.7717475200E+000 
11772647.059 +4.9012656383E-001 +7.1038924263E+000  +1.7361881951E-001 +1.4192708694E-001  +1.7032390940E-001 +1.0687414070E+001  +4.8429589360E-001 +5.7986303209E+000 
11897792.240 +4.8787168542E-001 +9.6344168538E+000  +1.7126612014E-001 +2.8255991414E-001  +1.6949238502E-001 +1.0054074485E+001  +4.9721411938E-001 +7.7704076270E+000 
12022937.422 +4.8919184891E-001 +8.2726831546E+000  +1.7458853906E-001 +1.5436682474E-001  +1.7134953785E-001 +1.0474508589E+001  +4.9102347038E-001 +6.4969105546E+000 
12148082.603 +5.0629241428E-001 +8.5195091826E+000  +1.7776837195E-001 +8.1891030250E-001  +1.7395981740E-001 +9.5374085210E+000  +5.1890725411E-001 +3.7837854015E+000 
12273227.785 +5.3508495936E-001 +6.0324386694E+000  +1.7998342088E-001 +1.5775348763E+000  +1.7879874180E-001 +1.0065890631E+001  +5.1767826417E-001 +3.9020900950E+000 
12398372.966 +5.2758621020E-001 +5.4176386964E+000  +1.8434550273E-001 +1.2129905294E+000  +1.8172505363E-001 +9.3614494712E+000  +5.4938317086E-001 +1.5489852480E+000 
12523518.148 +5.4577771780E-001 +6.7586762857E+000  +1.8369673699E-001 +1.5019433043E+000  +1.7838933803E-001 +8.6526108099E+000  +5.6300736839E-001 +2.8214451597E+000 
12648663.329 +5.6984434102E-001 +2.3275646240E+000  +1.8635459618E-001 +1.9967030872E+000  +1.8530002857E-001 +8.7213495796E+000  +5.7070814223E-001 +7.1175347731E-001 
12773808.511 +5.6128450802E-001 +3.2551608741E+000  +1.8868976752E-001 +2.0642021679E+000  +1.8501444817E-001 +8.4357009963E+000  +5.8655632389E-001 +8.5323267150E-001 
12898953.692 +5.7853722907E-001 +4.0387503442E+000  +1.8900154102E-001 +1.8258564320E+000  +1.8754508347E-001 +7.4016706194E+000  +5.9006228008E-001 +2.1901666079E-001 
13024098.874 +5.9631694326E-001 +2.9818117014E+000  +1.9205512495E-001 +2.1722972168E+000  +1.8910012797E-001 +7.8338976215E+000  +6.2319269627E-001 -9.1851436795E-001 
13149244.055 +6.2538876180E-001 -1.9081929652E+000  +1.9436726842E-001 +2.7156548532E+000  +1.9186464693E-001 +7.2869190485E+000  +6.3820771020E-001 -1.5515412687E+000 
13274389.237 +6.1668955138E-001 -1.4862325955E-001  +1.9473240112E-001 +2.0210433169E+000  +1.9203063237E-001 +5.7183211384E+000  +6.1201668287E-001 -1.7040872604E+000 
13399534.418 +6.2685365144E-001 -4.8068618659E-001  +1.9600918474E-001 +2.4266334927E+000  +1.9417411868E-001 +5.1894096035E+000  +6.4221871824E-001 -2.4376689201E+000 
13524679.599 +6.4029420986E-001 -2.4083145468E+000  +1.9692672372E-001 +2.3361469923E+000  +1.9554052069E-001 +5.0630820961E+000  +6.8090918054E-001 -3.9546397681E+000 
13649824.781 +6.7524871468E-001 -1.9143078769E+000  +1.9971388963E-001 +2.1427317635E+000  +1.9692869391E-001 +4.7680692723E+000  +6.7685883806E-001 -1.9772123985E+000 
13774969.962 +6.8833582793E-001 -8.2628235400E-001  +2.0041700654E-001 +1.9996834084E+000  +1.9759556248E-001 +4.3399484252E+000  +7.0805892265E-001 -4.0222858840E+000 
13900115.144 +7.0180717787E-001 -3.6526690655E+000  +2.0138599186E-001 +1.9669646072E+000  +1.9907449760E-001 +3.3640929239E+000  +7.0028444776E-001 -2.2440949883E+000 
14025260.325 +7.2493486632E-001 -4.6649963036E+000  +2.0396794146E-001 +1.9339567492E+000  +2.0173476950E-001 +2.9905716433E+000  +7.1460228833E-001 -4.2493752689E+000 
14150405.507 +7.4646803348E-001 -4.1490221189E+000  +2.0464276083E-001 +1.9290756262E+000  +2.0235106409E-001 +2.9594766721E+000  +7.2771007984E-001 -4.1801392639E+000 
14275550.688 +7.4070061729E-001 -5.4293285550E+000  +2.0696566899E-001 +1.9503282290E+000  +2.0500097331E-001 +2.1550706418E+000  +7.6773645081E-001 -5.7316501757E+000 
14400695.870 +7.6727353401E-001 -6.0403484057E+000  +2.0756549044E-001 +1.1601149639E+000  +2.0460522600E-001 +1.8924710787E+000  +7.6608557059E-001 -5.5552767577E+000 
