!  2-Port S-parameters saved by WinCal
! VAR MeasName=S-Parameters (CALIBRATED_DATA) read from VNA (P5004A)
! VAR MeasDate=29/08/2024 10:35:31
! VAR NAME=S2_r9c2_RESET1_9k-100M_2
! VAR FILENAME=S2_r9c2_RESET1_9k-100M_2.S2P
! VAR DATE=29/08/2024 10:35:31
! VAR PHYS_PORTS=1,2
! VAR ObjTypeName=DATASET
! VAR IndexType=Frequency
!
# Hz S MA R 50
9000.000 +8.4572193898E-002 -1.5983138469E+002  +3.2156917008E-003 -1.9244914551E+001  +6.5671612513E-003 -6.2308518799E+001  +2.6604180947E-001 -1.5264590660E+002 
134145.181 +1.1119898940E-001 +1.6943377974E+002  +2.0735128572E-004 +5.1363203984E+001  +3.6124239196E-004 -1.4776593050E+002  +2.4456693074E-001 -1.7105864704E+002 
259290.363 +1.1249045113E-001 +1.6956146700E+002  +8.1139378846E-004 -5.2221392970E+001  +1.0322236200E-003 +7.9419068015E+001  +2.4251831435E-001 -1.6959715018E+002 
384435.544 +1.1469691298E-001 +1.6984088471E+002  +7.2445408716E-004 -3.0907892252E+001  +8.3847836713E-004 +9.0947266481E+001  +2.4079633038E-001 -1.6816293052E+002 
509580.726 +1.1205898220E-001 +1.7077913828E+002  +3.0019009084E-003 -7.1844727228E+000  +2.6901297558E-003 +1.5226470888E+002  +2.1675562565E-001 -1.6145915172E+002 
634725.907 +1.1624353088E-001 +1.7069136300E+002  +3.0549563282E-003 -9.0361750054E+001  +3.2477376546E-003 +8.5411906753E+001  +2.6795008712E-001 -1.5659770594E+002 
759871.089 +1.2071131837E-001 +1.7078581431E+002  +1.0260983177E-003 -9.6897282929E+001  +1.2901031731E-003 +9.4687598955E+001  +2.4727604333E-001 -1.6759391587E+002 
885016.270 +1.2043210553E-001 +1.6848933682E+002  +6.6813665340E-004 -5.4526103091E+001  +8.9696559234E-004 +1.2953010671E+002  +2.4425259118E-001 -1.6740055777E+002 
1010161.452 +1.1736512394E-001 +1.6939215884E+002  +1.6014887678E-003 -2.8463432669E+001  +2.0417339535E-003 +1.7444073875E+002  +2.1072981758E-001 -1.6720366077E+002 
1135306.633 +1.1939619231E-001 +1.6874816497E+002  +2.4593214408E-003 +1.9588906045E+001  +3.4031129113E-003 -1.3550886489E+002  +1.9863277515E-001 -1.6674857709E+002 
1260451.815 +1.2252766616E-001 +1.7096816352E+002  +2.4154556874E-003 -3.1808388474E+001  +2.6751260989E-003 -1.7264928648E+002  +2.0979432022E-001 -1.5786379378E+002 
1385596.996 +1.2502096704E-001 +1.7135892991E+002  +2.3537342958E-003 -7.6489673500E+001  +2.3959431675E-003 +1.1805837772E+002  +2.6560860472E-001 -1.5771672773E+002 
1510742.178 +1.2926982407E-001 +1.7269989045E+002  +1.6978808843E-003 -5.0881796347E+001  +1.6918799333E-003 +1.6219162140E+002  +2.3325583076E-001 -1.5868386207E+002 
1635887.359 +1.2686599286E-001 +1.7069673447E+002  +2.7502591768E-003 -3.0409307238E+001  +2.7536135165E-003 -1.6572870437E+002  +2.4551452451E-001 -1.5627270360E+002 
1761032.541 +1.3296931840E-001 +1.6985024340E+002  +1.9024133609E-003 +1.8133621997E+001  +1.2301642062E-003 -1.4514544321E+002  +2.3596606635E-001 -1.6141379024E+002 
1886177.722 +1.2806542436E-001 +1.6859594632E+002  +4.3252433848E-003 +7.2266941614E+001  +3.7725664621E-003 -6.9696026301E+001  +2.3734178224E-001 -1.6542598789E+002 
2011322.904 +1.3391831775E-001 +1.6775938698E+002  +6.9105238599E-003 +5.2726939312E+001  +8.4034808090E-003 -8.6387114176E+001  +2.2096090104E-001 -1.5537672558E+002 
2136468.085 +1.2836758622E-001 +1.6774006998E+002  +2.0139838682E-002 +5.8661806062E+001  +1.9991690526E-002 -6.3387495228E+001  +1.1625246171E-001 -1.6064849727E+002 
2261613.267 +1.3260206633E-001 +1.6660425901E+002  +1.4747252895E-002 +8.8510117584E+001  +1.4125191207E-002 -3.1275992039E+001  +1.9878250786E-001 -1.7793141122E+002 
2386758.448 +1.4154982468E-001 +1.6441824471E+002  +1.6961769608E-002 +9.7674892621E+001  +1.6598537314E-002 -3.6268514664E+001  +1.7580230204E-001 -1.7613888292E+002 
2511903.630 +1.4224138282E-001 +1.6584407626E+002  +2.4413123528E-002 +1.0639313237E+002  +2.5118364816E-002 -8.3670824026E+000  +2.2500544204E-001 +1.6207005066E+002 
2637048.811 +1.2426022972E-001 +1.6790668545E+002  +4.0448791307E-002 +6.8405482663E+001  +3.7480481265E-002 -3.7697627491E+001  +1.7130057310E-001 +1.6872602227E+002 
2762193.992 +1.3827826262E-001 +1.6819677315E+002  +3.8614463833E-002 +4.1167090411E+001  +3.8875706507E-002 -6.5836455387E+001  +1.1343614312E-001 -1.6158991110E+002 
2887339.174 +1.5699577082E-001 -1.7611941031E+002  +1.3533029378E-001 -4.2537304499E+001  +1.4055093530E-001 -1.4330885268E+002  +4.3614218147E-001 -7.3566484425E+001 
3012484.355 +1.4610861842E-001 +1.7837168201E+002  +4.5439397328E-002 -1.6341447524E+001  +4.6433905564E-002 -1.0975925710E+002  +1.6838497872E-001 -1.2600671816E+002 
3137629.537 +1.3819965405E-001 +1.7373912756E+002  +9.1780094988E-002 -2.9992256174E+001  +9.9039625857E-002 -1.1866122013E+002  +4.2005087557E-001 -9.1634465621E+001 
3262774.718 +1.3078819441E-001 +1.6846572465E+002  +5.6870007214E-002 +1.4052187933E+001  +5.7740206898E-002 -7.4516105292E+001  +1.6084907211E-001 -1.1686390106E+002 
3387919.900 +8.8673023885E-002 -1.6807046384E+002  +4.3069823989E-001 +1.3972499896E+001  +4.2967406172E-001 -7.8065608342E+001  +1.8202865226E+000 -1.7570864274E+001 
3513065.081 +1.2379888867E-001 +1.6026604847E+002  +9.6860047913E-002 +5.3683535120E+001  +1.0785188824E-001 -2.2161827555E+001  +1.6541088079E-001 +1.0377646628E+002 
3638210.263 +1.7638257496E-001 +1.5283531430E+002  +8.1297565164E-002 +1.0666391876E+002  +8.1436446547E-002 +2.6461555978E+001  +3.5601860283E-001 +1.2749501716E+002 
3763355.444 +1.7947725577E-001 +1.5301987110E+002  +6.5534100316E-002 +1.1650933020E+002  +6.0112931017E-002 +4.0212801239E+001  +4.0662829721E-001 +1.5455082282E+002 
3888500.626 +1.8724530605E-001 +1.5078692257E+002  +6.9202938054E-002 +1.0885507851E+002  +7.1941736550E-002 +3.8631912682E+001  +3.7673048325E-001 +1.4778038520E+002 
4013645.807 +1.6482008293E-001 +1.5564163295E+002  +5.7061275785E-002 +9.5509121510E+001  +6.2540407650E-002 +3.0403261995E+001  +4.0498671004E-001 +1.6483313507E+002 
4138790.989 +1.6820031233E-001 +1.5178834680E+002  +7.3655294581E-002 +7.6387926466E+001  +7.0099955221E-002 +7.6271528999E+000  +2.6389837811E-001 +1.5682581170E+002 
4263936.170 +1.6906980135E-001 +1.4940545776E+002  +1.1037010639E-001 +7.0784031158E+001  +1.0155511113E-001 +3.2006870140E+000  +2.3257242965E-001 +1.1686431704E+002 
4389081.352 +1.8770911256E-001 +1.5122545160E+002  +1.2275473674E-001 +9.7944006461E+001  +1.1455018203E-001 +3.5691833225E+001  +5.8756522802E-001 +1.3547664748E+002 
4514226.533 +1.5885098899E-001 +1.2178671857E+002  +3.9179920472E-001 +6.3281982874E+001  +3.6869419680E-001 +5.6019442345E+000  +1.1747947553E+000 +5.3420160022E+001 
4639371.715 +2.4654820883E-001 +1.0276096082E+002  +6.0768154322E-001 +1.0489074693E+002  +5.8105864172E-001 +4.5050939188E+001  +2.0958723351E+000 +1.0600200774E+002 
4764516.896 +3.4421085873E-001 +1.4021788283E+002  +2.8336634162E-001 +1.6316804697E+002  +2.7355670014E-001 +1.1410386183E+002  +1.2813774826E+000 +1.5299759988E+002 
4889662.078 +4.6069880392E-001 +1.2408668737E+002  +4.9099679551E-001 +1.2114259078E+002  +4.5903884797E-001 +7.3460859033E+001  +1.2015529525E+000 +1.0122607321E+002 
5014807.259 +4.3109008642E-001 +1.2799963422E+002  +5.4723507603E-001 +1.2233521127E+002  +5.6865862231E-001 +8.2767786649E+001  +1.9729475657E+000 +1.0851416263E+002 
5139952.441 +3.2469252434E-001 +1.1320005341E+002  +3.5890920643E-001 +8.9691507246E+001  +3.3452331448E-001 +4.4355665225E+001  +8.3948924328E-001 +9.6591941502E+001 
5265097.622 +3.4946557886E-001 +1.3835680040E+002  +2.0474832242E-001 +1.1232228509E+002  +2.0500538721E-001 +7.0821861446E+001  +8.3904961193E-001 +1.2087370891E+002 
5390242.804 +3.2902476902E-001 +1.3346237026E+002  +2.4304568151E-001 +1.0554248498E+002  +2.4013478702E-001 +6.7579789942E+001  +1.0537013877E+000 +1.2447696531E+002 
5515387.985 +3.6269548592E-001 +1.3480462313E+002  +2.1851897616E-001 +1.0405229786E+002  +2.1809140267E-001 +6.9690139875E+001  +9.9113251616E-001 +1.2566179466E+002 
5640533.166 +3.1015827679E-001 +1.3012215234E+002  +2.4599241373E-001 +8.1095701964E+001  +2.4974259404E-001 +5.2364870615E+001  +9.8366994738E-001 +1.1527792804E+002 
5765678.348 +4.5980786520E-001 +1.1582369116E+002  +4.2800300078E-001 +9.1788928906E+001  +3.9905407602E-001 +6.2346681609E+001  +1.3420989648E+000 +1.0223168848E+002 
5890823.529 +3.6415589763E-001 +1.2292478759E+002  +3.1115724877E-001 +7.7697981449E+001  +3.1113744414E-001 +5.2727910571E+001  +1.1735976771E+000 +1.0804650897E+002 
6015968.711 +5.0836391478E-001 +1.2251338343E+002  +3.3493526829E-001 +7.8558675297E+001  +3.2385030720E-001 +5.9538327542E+001  +1.0339830486E+000 +9.0891304580E+001 
6141113.892 +5.9013404117E-001 +1.0779069648E+002  +4.4352572174E-001 +6.2376338871E+001  +4.3538720245E-001 +3.9087592940E+001  +1.0584390737E+000 +5.6199405676E+001 
6266259.074 +6.1482191220E-001 +1.0825098453E+002  +4.8648834924E-001 +6.1465526119E+001  +4.7583715066E-001 +4.3178186716E+001  +1.4183447077E+000 +5.9718001285E+001 
6391404.255 +6.4023383563E-001 +9.5507138270E+001  +4.8062132673E-001 +4.8063528303E+001  +4.6397853901E-001 +3.2402458693E+001  +1.0806994136E+000 +4.7522113405E+001 
6516549.437 +5.9031073781E-001 +5.9963317937E+001  +5.6033046316E-001 +2.4841220976E+001  +5.4555489063E-001 +9.7841844015E+000  +9.5909020361E-001 +3.6378616475E+001 
6641694.618 +7.0271355617E-001 +8.2351646530E+001  +4.6861458718E-001 +2.9876841609E+001  +4.8506551235E-001 +1.7273346410E+001  +1.0165818671E+000 +1.9765206610E+001 
6766839.800 +8.7323720447E-001 +3.8042565560E+001  +6.0863201706E-001 +1.6084956342E+001  +6.1962120802E-001 +7.1810690609E+000  +9.7394483899E-001 +3.1078047205E+001 
6891984.981 +6.7785056199E-001 +3.8656774266E+001  +5.0882264637E-001 +3.8618210621E+000  +5.0773686678E-001 -1.7067414075E+000  +1.0726868611E+000 +3.2517150467E+000 
7017130.163 +8.7819584059E-001 +2.4542926229E+001  +5.1663170929E-001 +4.8685659395E+000  +5.0557152656E-001 -9.9333692093E-001  +9.3131914046E-001 +4.8166460712E+000 
7142275.344 +7.9479405587E-001 +8.2833415896E+000  +4.5795729353E-001 -1.3400864092E+000  +4.5705331709E-001 -5.4226211128E+000  +8.6693650611E-001 -1.1451613976E+001 
7267420.526 +7.8856923866E-001 +2.6875137003E+000  +4.1477556232E-001 -1.4245321812E+000  +4.1579183168E-001 -2.3137956490E+000  +8.4600141549E-001 -1.5326832555E+001 
7392565.707 +7.1734628738E-001 -4.8236615028E+000  +3.8175845044E-001 +9.1038128248E-001  +3.8074334059E-001 +1.7338983265E+000  +9.3862494960E-001 -1.8745868310E+001 
7517710.889 +7.1427258154E-001 +9.4791724823E+000  +3.4592263827E-001 +1.9591056051E+000  +3.4471131433E-001 +5.1962204493E+000  +7.1151008557E-001 -1.6648193545E-001 
7642856.070 +7.0309007608E-001 +4.8061034506E+000  +3.2913184656E-001 +3.4479607379E+000  +3.3592094910E-001 +5.1584477865E+000  +6.9166700921E-001 +1.8555461893E+000 
7768001.252 +6.0603672370E-001 -3.8439779477E+000  +3.2272541447E-001 +5.8059775705E-001  +3.2362852174E-001 +4.6205801405E+000  +6.3794020720E-001 -2.2787915567E-001 
7893146.433 +5.4137327676E-001 +9.9855758922E+000  +3.0850061760E-001 -1.2972156000E+000  +3.1047330663E-001 +5.4229822621E+000  +5.1837870563E-001 +3.6710567343E-001 
8018291.615 +4.8559368403E-001 +2.2703424115E+001  +2.8668188740E-001 -1.1636691325E+000  +2.9061055240E-001 +7.2732939903E+000  +5.4012369010E-001 +1.0527776108E+001 
8143436.796 +4.7289118204E-001 +1.3658345956E+001  +2.8672927075E-001 -3.1419012428E+000  +2.9073408620E-001 +5.7001861471E+000  +4.8123754680E-001 +3.7939674633E+000 
8268581.977 +4.0297919836E-001 +1.4091272611E+001  +2.8231180355E-001 -3.2222292346E+000  +2.8200854247E-001 +7.4508671285E+000  +5.1095495809E-001 +4.7381045749E+000 
8393727.159 +3.7763528902E-001 +2.2649570672E+001  +2.7697853314E-001 -3.7988385108E+000  +2.7437228355E-001 +7.6167255281E+000  +4.5817096008E-001 +2.1906256384E+000 
8518872.340 +3.8565015420E-001 +2.0376166667E+001  +2.7168431568E-001 -4.4561008366E+000  +2.7230216087E-001 +8.1521290276E+000  +4.2888532421E-001 +1.1236698265E+000 
8644017.522 +3.6611986706E-001 +2.2434933725E+001  +2.6811662277E-001 -4.1492298807E+000  +2.6620391415E-001 +7.7939420017E+000  +4.1198151675E-001 +8.0336851947E+000 
8769162.703 +3.1831129794E-001 +2.0111476827E+001  +2.6487649608E-001 -4.9300343925E+000  +2.6415276406E-001 +9.3216016267E+000  +3.7397573915E-001 +8.1843982217E+000 
8894307.885 +3.6740319933E-001 +2.3480012105E+001  +2.6285398365E-001 -4.9130590744E+000  +2.6163510923E-001 +9.9431433095E+000  +3.8204337500E-001 +6.9372897770E+000 
9019453.066 +2.6723811271E-001 +2.0619703488E+001  +2.6014036129E-001 -5.4006322164E+000  +2.5772431654E-001 +7.6195056452E+000  +3.6174429809E-001 +1.1731924557E+001 
9144598.248 +3.0031638537E-001 +9.9966361348E+000  +2.6120440452E-001 -5.9464921675E+000  +2.6097398942E-001 +8.7982408601E+000  +3.2997418615E-001 +1.6044848877E+001 
9269743.429 +2.9538942972E-001 +1.2577150913E+001  +2.6614771284E-001 -5.0911383322E+000  +2.6329803787E-001 +1.0468397756E+001  +3.8339583434E-001 +1.9931823296E+000 
9394888.611 +2.5331831661E-001 +5.6413188117E+000  +2.6012827012E-001 -5.8582241562E+000  +2.6139640954E-001 +9.3467102580E+000  +3.3514202842E-001 +7.8588788090E+000 
9520033.792 +2.9746064612E-001 +1.2799032756E+001  +2.6125537421E-001 -5.3212001963E+000  +2.5785184307E-001 +9.6301650546E+000  +3.2236479151E-001 +1.0982719362E+001 
9645178.974 +2.5255390188E-001 +1.7383010481E+001  +2.6017946217E-001 -5.4784626472E+000  +2.5890874927E-001 +1.0429536181E+001  +3.1083519844E-001 +3.9275088232E+000 
9770324.155 +2.8454906200E-001 +1.1431399788E+001  +2.6078325759E-001 -5.2991731714E+000  +2.6423869530E-001 +1.0516759234E+001  +3.0736403702E-001 -7.3026081278E-001 
9895469.337 +2.7662758707E-001 +1.5852010993E+001  +2.6456166802E-001 -4.2671050872E+000  +2.5863411973E-001 +1.0720365233E+001  +3.2150403829E-001 -5.9651053160E+000 
10020614.518 +2.7129538630E-001 +2.0482815733E+001  +2.6243449776E-001 -4.8657369904E+000  +2.5647247262E-001 +1.1312463095E+001  +3.2627130678E-001 +7.1919081102E+000 
10145759.700 +2.5225476002E-001 +1.9612811901E+001  +2.6225102170E-001 -4.4567708921E+000  +2.6052683250E-001 +1.0491945531E+001  +3.0907748602E-001 +1.0175559284E+000 
10270904.881 +2.9944846929E-001 +1.6699626561E+001  +2.6484102086E-001 -4.1829648965E+000  +2.6479054111E-001 +1.1423585053E+001  +3.0851578431E-001 +7.2632577666E+000 
10396050.063 +3.1535581937E-001 +1.7338031663E+001  +2.6591779300E-001 -3.8780322512E+000  +2.6561087696E-001 +1.1310027348E+001  +2.7104782342E-001 +8.5902908189E+000 
10521195.244 +2.7444951057E-001 +1.5977966059E+001  +2.6448197252E-001 -3.9802767342E+000  +2.6492591712E-001 +1.0754510524E+001  +2.9329354436E-001 +9.6413544610E+000 
10646340.426 +3.1948869126E-001 +1.1511097142E+001  +2.6840029593E-001 -2.7478808794E+000  +2.6602846534E-001 +1.1707620660E+001  +3.4620890310E-001 +1.1054663930E+001 
10771485.607 +2.9646031887E-001 +1.9646217738E+001  +2.6757564496E-001 -3.4058426741E+000  +2.6701220490E-001 +1.0954752012E+001  +3.2446541259E-001 +1.3749656750E+001 
10896630.788 +3.1043375694E-001 +1.4810517189E+001  +2.7083810162E-001 -3.0289079911E+000  +2.7048317171E-001 +1.1306654060E+001  +3.3250665418E-001 +1.4576099978E+001 
11021775.970 +3.1332905214E-001 +2.3394471924E+001  +2.7054881337E-001 -2.4772389687E+000  +2.6839749324E-001 +1.0801111427E+001  +3.3544231886E-001 +1.0533907410E+001 
11146921.151 +3.4959685310E-001 +2.1805012082E+001  +2.7428571612E-001 -1.9528668040E+000  +2.7071239425E-001 +1.1386712377E+001  +3.1282807824E-001 +1.5545743318E+001 
11272066.333 +3.4937276586E-001 +1.8445838398E+001  +2.7800625424E-001 -1.6307160795E+000  +2.7555175641E-001 +1.1638790956E+001  +3.5308860920E-001 +1.0320068039E+001 
11397211.514 +3.2418558452E-001 +1.8256341987E+001  +2.7915874123E-001 -1.6402285685E+000  +2.7549847677E-001 +1.0567265192E+001  +3.5015997142E-001 +1.0158016888E+001 
11522356.696 +3.5916960676E-001 +1.7543949420E+001  +2.8109796419E-001 -1.1282134117E+000  +2.8018418330E-001 +1.0736658601E+001  +3.7385610101E-001 +1.2670350492E+001 
11647501.877 +3.5905657334E-001 +1.8124841356E+001  +2.8554045891E-001 -5.8646813217E-001  +2.8343556372E-001 +1.0727157620E+001  +3.6970325354E-001 +7.9121835280E+000 
11772647.059 +3.6931752690E-001 +1.5177903568E+001  +2.8855604119E-001 -7.4207076346E-001  +2.8385317904E-001 +9.7990546639E+000  +3.6685110497E-001 +7.2092238319E+000 
11897792.240 +3.6823355061E-001 +1.2726627231E+001  +2.9237528566E-001 -1.5659505026E-001  +2.8961160700E-001 +9.8907050988E+000  +4.0078485328E-001 +1.0066910095E+001 
12022937.422 +3.9039592234E-001 +1.1710528644E+001  +2.9667550919E-001 -1.6879489656E-001  +2.9315573373E-001 +9.4774600565E+000  +4.0738467851E-001 +8.7060102830E+000 
12148082.603 +3.9126407170E-001 +1.0290356696E+001  +2.9773782078E-001 +1.7473925616E-001  +2.9661900029E-001 +9.1766688899E+000  +3.9288521290E-001 +7.8894958323E+000 
12273227.785 +3.7673864840E-001 +1.0122748751E+001  +3.0135971772E-001 -4.1492678853E-001  +2.9655068461E-001 +8.4005978136E+000  +3.8477449668E-001 +1.0469068006E+001 
12398372.966 +4.1233238211E-001 +6.7336662843E+000  +3.0609954323E-001 +5.1026347134E-001  +3.0284245716E-001 +8.4510349109E+000  +4.1265247858E-001 +6.6111055257E+000 
12523518.148 +3.9582440741E-001 +7.4358977536E+000  +3.0923038827E-001 +2.8684868343E-001  +3.0582903308E-001 +7.5778499009E+000  +4.1842397617E-001 +5.5510942784E+000 
12648663.329 +4.1132260885E-001 +9.9639015462E+000  +3.1172497577E-001 +1.9807260921E-001  +3.0776382629E-001 +7.3892143050E+000  +4.2187784109E-001 +2.5807319636E+000 
12773808.511 +4.4704783911E-001 +3.4505665252E+000  +3.1618653852E-001 +1.1301132164E+000  +3.1226408348E-001 +7.1717611206E+000  +4.5247297058E-001 +2.4023342494E+000 
12898953.692 +4.4683703065E-001 +7.5674297930E+000  +3.1860159609E-001 +1.2550368226E+000  +3.1428069238E-001 +6.7685785428E+000  +4.4940730249E-001 +2.3023247304E+000 
13024098.874 +4.6421052682E-001 +2.3333234144E+000  +3.2182103089E-001 +9.7263774748E-001  +3.1881347765E-001 +6.3885453564E+000  +4.7782419691E-001 +2.5143407779E+000 
13149244.055 +4.7973731811E-001 +3.2916371280E+000  +3.2639494886E-001 +1.4770696940E+000  +3.2149596209E-001 +5.8960941406E+000  +4.9509102214E-001 -2.1690020540E-001 
13274389.237 +4.7781520894E-001 +1.3555570826E+000  +3.2916402435E-001 +1.0178761832E+000  +3.2397525635E-001 +5.0458715824E+000  +5.0329243022E-001 +3.1648107421E-001 
13399534.418 +4.8130562747E-001 +2.9408501424E+000  +3.2993915014E-001 +9.8554978723E-001  +3.2605874726E-001 +4.3197495328E+000  +4.9895527935E-001 -3.7573270085E-001 
13524679.599 +5.1917982103E-001 -5.1216511702E-001  +3.3397232399E-001 +1.7716208392E+000  +3.2917704527E-001 +4.3075067895E+000  +5.1159560598E-001 +1.0499056299E+000 
13649824.781 +5.1656852852E-001 -4.5906769653E-002  +3.3635542076E-001 +1.5873626108E+000  +3.3237795087E-001 +3.5382669161E+000  +5.1890066662E-001 -2.9903153207E-001 
13774969.962 +5.3509097228E-001 -4.8364751439E+000  +3.4158795944E-001 +1.4256463075E+000  +3.3838741045E-001 +3.4647021009E+000  +5.6986491846E-001 -1.3092074843E+000 
13900115.144 +5.4847290598E-001 -1.7562254530E+000  +3.4303446975E-001 +1.2747731372E+000  +3.3805615486E-001 +3.1218073751E+000  +5.6986110380E-001 -3.7447434431E+000 
14025260.325 +5.7640531273E-001 -2.7154259455E+000  +3.4593922067E-001 +1.4447435680E+000  +3.4106375693E-001 +2.7756904566E+000  +5.7440206853E-001 -4.0510398715E+000 
14150405.507 +5.8321830870E-001 -2.7176202529E+000  +3.4745762434E-001 +1.3179369597E+000  +3.4031088854E-001 +2.4179325476E+000  +5.9694460871E-001 -3.0722963529E+000 
14275550.688 +6.3231630079E-001 -4.4451241732E+000  +3.4986353995E-001 +1.5675640737E+000  +3.4606603160E-001 +2.3145115698E+000  +6.1570419182E-001 -4.8547158589E+000 
14400695.870 +6.2243593246E-001 -6.2647471417E+000  +3.5174040829E-001 +1.0121764142E+000  +3.4598540928E-001 +1.2883645176E+000  +6.1838270031E-001 -3.0201833052E+000 
