!  2-Port S-parameters saved by WinCal
! VAR MeasName=S-Parameters (CALIBRATED_DATA) read from VNA (P5004A)
! VAR MeasDate=29/08/2024 10:43:59
! VAR NAME=S2_r9c2_RESET4_9k-100M_2
! VAR FILENAME=S2_r9c2_RESET4_9k-100M_2.S2P
! VAR DATE=29/08/2024 10:43:59
! VAR PHYS_PORTS=1,2
! VAR ObjTypeName=DATASET
! VAR IndexType=Frequency
!
# Hz S MA R 50
9000.000 +8.9502904335E-002 -1.5119600154E+002  +2.2769700221E-002 -7.3441415810E+001  +2.4177456027E-002 -6.2972869118E+001  +2.1301723785E-001 -1.3742404785E+002 
134145.181 +1.1096412778E-001 +1.6954776326E+002  +2.5642245431E-004 +5.8544060167E+001  +5.9097009771E-004 +1.1838646280E+002  +2.3911686830E-001 -1.7135445162E+002 
259290.363 +1.1202250985E-001 +1.7042930467E+002  +1.0646262441E-003 -6.7692448142E+001  +8.3013593361E-004 +3.6888410187E+001  +2.5359924623E-001 -1.6598606975E+002 
384435.544 +1.1470503126E-001 +1.7003612958E+002  +6.1215302773E-005 +7.3138074863E+001  +6.3752600927E-004 +1.1406841194E+002  +2.4042226587E-001 -1.7009473269E+002 
509580.726 +1.1261128038E-001 +1.7064413039E+002  +9.4683793087E-004 -1.5138464325E+002  +2.4041710489E-003 +1.4563393110E+002  +2.3245382785E-001 -1.6517545134E+002 
634725.907 +1.1468872527E-001 +1.7198450346E+002  +2.7616328818E-004 +2.3508218284E+001  +1.6721840781E-003 -3.0262983842E+000  +2.4593331377E-001 -1.6620164978E+002 
759871.089 +1.1995410714E-001 +1.7132229279E+002  +1.5058133545E-003 -1.4659132620E+002  +5.5871798896E-004 +9.4007694460E+001  +2.4797452685E-001 -1.6556689199E+002 
885016.270 +1.2087283660E-001 +1.6908264990E+002  +1.5742732569E-004 -7.7058765735E+001  +6.5870111030E-004 -1.6124338431E+002  +2.4705839954E-001 -1.6649958396E+002 
1010161.452 +1.1837211804E-001 +1.6924588188E+002  +4.7619069974E-004 +1.8708851745E+001  +2.8185104269E-004 -8.6319280184E+001  +2.1741124695E-001 -1.6754465211E+002 
1135306.633 +1.1845025182E-001 +1.7053900199E+002  +1.8172046869E-003 -3.5099569811E+001  +1.5141637082E-003 -1.7898590091E+002  +1.9618106032E-001 -1.7735575184E+002 
1260451.815 +1.2300414393E-001 +1.7156864966E+002  +1.0607665928E-003 -1.6446119049E+002  +2.1279319189E-003 +1.6486133628E+002  +2.2708226867E-001 -1.6282802409E+002 
1385596.996 +1.2658404807E-001 +1.7261342206E+002  +9.0217847602E-004 -4.8816510497E+001  +6.3558834546E-004 -9.5176967188E+001  +2.7054503243E-001 -1.5693756524E+002 
1510742.178 +1.2646322549E-001 +1.7202534157E+002  +5.3506300913E-004 -1.2478013050E+002  +5.5505257234E-004 +2.9087525594E+001  +2.6970159973E-001 -1.5898601514E+002 
1635887.359 +1.2908261909E-001 +1.7124819621E+002  +1.4725191078E-003 -7.4547572232E+000  +7.4148983893E-004 -1.3387152532E+002  +2.4506996091E-001 -1.5571602666E+002 
1761032.541 +1.2770446095E-001 +1.6886222805E+002  +1.0966645974E-003 +3.1517568968E+001  +1.1304933116E-003 -1.0678766713E+002  +2.3158734674E-001 -1.5988096523E+002 
1886177.722 +1.2903758478E-001 +1.6769520633E+002  +2.7942233833E-003 +3.4117200089E+001  +2.5742658348E-003 -1.5084389121E+002  +2.3477475930E-001 -1.5686074395E+002 
2011322.904 +1.2991336693E-001 +1.6856763123E+002  +1.9090046953E-003 +7.9854020606E+000  +4.0427941352E-003 -3.9130281986E+001  +1.9271473782E-001 -1.6331494465E+002 
2136468.085 +1.3134842250E-001 +1.6812076629E+002  +5.2642728882E-003 +3.4482019977E+001  +5.6306880053E-003 -7.8999607549E+001  +1.6735477636E-001 -1.5431311945E+002 
2261613.267 +1.3299112685E-001 +1.6390576607E+002  +5.9365435666E-003 +6.8968298643E+001  +4.8351666655E-003 -5.5887985176E+001  +2.1649595676E-001 -1.6429056423E+002 
2386758.448 +1.2728596022E-001 +1.6203754230E+002  +1.3151874121E-002 +7.8073323767E+001  +1.4607895858E-002 -1.0324116119E+001  +1.9554083500E-001 +1.5916286580E+002 
2511903.630 +1.2989539829E-001 +1.6464154986E+002  +7.1685016669E-003 +7.2152717695E+001  +1.9367474539E-002 -3.7776874220E+001  +6.7176056086E-002 +1.6123647984E+002 
2637048.811 +1.2372936711E-001 +1.5824949765E+002  +1.1114903258E-002 +7.9704944389E+001  +1.5769267140E-002 -1.1447611155E+001  +2.0970186206E-001 +1.6842277610E+002 
2762193.992 +1.1633502970E-001 +1.7632067762E+002  +8.1498732738E-002 -2.6276722803E+001  +7.6442376376E-002 -1.2677599212E+002  +6.2633555607E-001 -5.0009341329E+001 
2887339.174 +1.3182057565E-001 +1.7347689199E+002  +3.5277010321E-002 -3.4031842013E+000  +2.6353842892E-002 -1.0084786936E+002  +1.1251341531E-001 +1.3633823113E+001 
3012484.355 +1.2274440130E-001 +1.6633918382E+002  +1.6812298862E-002 -2.0516673647E+001  +1.6610504361E-002 -1.0643387222E+002  +2.4279948183E-001 -1.2569812517E+002 
3137629.537 +1.1803694276E-001 +1.5985206892E+002  +5.6309520096E-002 +6.5893166971E+001  +4.9030398381E-002 -2.8836386783E+001  +4.2789737140E-001 +6.8093509099E+001 
3262774.718 +1.1324438940E-001 +1.5708241654E+002  +2.8234133035E-002 +6.8892853803E-001  +2.7769631799E-002 -1.0724713639E+002  +2.4263060779E-001 -9.6523276040E+001 
3387919.900 +1.1126799452E-001 +1.6670440307E+002  +2.9142219102E-002 +6.8263456327E+001  +5.4774358549E-002 -3.0950001420E+001  +3.8327854254E-001 +1.1750856376E+002 
3513065.081 +1.6630278358E-001 +1.1708338231E+002  +7.1558075473E-002 +1.0005893389E+002  +7.5523310985E-002 +2.2744944064E+001  +5.1845747617E-001 +1.1812172276E+002 
3638210.263 +1.9937200865E-001 +1.4078521979E+002  +6.5230996160E-002 +1.5579862711E+002  +5.6883586102E-002 +6.1557280610E+001  +6.3628551167E-001 +1.2548361999E+002 
3763355.444 +1.6975309084E-001 +1.4310881046E+002  +5.1852738119E-002 +1.3042235784E+002  +4.4700222863E-002 +8.7443174030E+000  +5.6161749755E-001 +1.2007937829E+002 
3888500.626 +1.8862323621E-001 +1.4683420298E+002  +3.1464063809E-002 +1.0937338954E+002  +2.1200668480E-002 +1.3637997731E+000  +3.1075961782E-001 +1.4497440823E+002 
4013645.807 +1.5102549290E-001 +1.5491234407E+002  +2.4932110159E-002 +6.0067767603E+001  +2.6492461735E-002 -4.6875223918E+000  +3.4299833992E-001 +1.4184654646E+002 
4138790.989 +2.1311911424E-001 +1.3790042270E+002  +3.4569491857E-002 +1.3423835333E+002  +2.4027846320E-002 +6.5255460774E+001  +4.9928328523E-001 +1.5743107039E+002 
4263936.170 +2.0499576628E-001 +1.4272362183E+002  +5.5093644630E-002 +1.0972616842E+002  +5.8971156224E-002 +5.8399363752E+001  +7.8367135850E-001 +1.2788069552E+002 
4389081.352 +2.2634848202E-001 +1.3410408620E+002  +6.2153984070E-002 +9.7184587814E+001  +4.8828496621E-002 +3.5010076814E+001  +6.0398788190E-001 +1.1945333533E+002 
4514226.533 +2.2257856224E-001 +1.4474850870E+002  +6.6118248024E-002 +7.1965938193E+001  +5.9461941006E-002 +2.3079255244E+001  +5.9876027015E-001 +1.0103911034E+002 
4639371.715 +2.5902168306E-001 +1.2854124646E+002  +1.0828424548E-001 +1.3959846138E+002  +7.9561669233E-002 +8.8605542193E+001  +1.2088265557E+000 +1.3144899224E+002 
4764516.896 +3.6322175546E-001 +1.3972230765E+002  +1.2783154242E-001 -1.5861621494E+002  +1.3510009044E-001 +1.4542407099E+002  +2.0822767688E+000 +1.5262414683E+002 
4889662.078 +4.4322128135E-001 +1.3084127556E+002  +2.4466352823E-001 +2.2974894424E+001  +2.6923053517E-001 -2.0966443828E+001  +2.5648339621E+000 -5.5160643203E+001 
5014807.259 +3.2663313211E-001 +1.3745967985E+002  +2.7978531813E-001 -1.6517600387E+002  +3.4517861824E-001 +1.5718289761E+002  +5.4575111450E+000 +1.6693132631E+002 
5139952.441 +3.6293060339E-001 +1.2898711918E+002  +1.6340394735E-001 +3.0353363046E+001  +1.6580290560E-001 +1.3947561635E+000  +2.1408660091E+000 -2.4952303296E+000 
5265097.622 +3.8832289303E-001 +1.3309701354E+002  +1.1276078665E-001 +1.1001409439E+002  +1.1271420767E-001 +6.6794285388E+001  +1.3472717979E+000 +9.7758370601E+001 
5390242.804 +4.8531825918E-001 +1.3452668356E+002  +1.6680961315E-001 +1.4701745658E+002  +1.7448844512E-001 +1.0139708561E+002  +2.1091926573E+000 +1.0284189978E+002 
5515387.985 +3.9621433692E-001 +1.3084571074E+002  +7.9070904160E-002 +9.7651591385E+001  +8.0866727534E-002 +6.3642557399E+001  +9.4261145343E-001 +1.0856460639E+002 
5640533.166 +4.6674127962E-001 +1.3006708906E+002  +1.2287848566E-001 +1.1129739569E+002  +1.3686663842E-001 +8.6016083108E+001  +1.5529545772E+000 +1.0383535344E+002 
5765678.348 +4.4280216519E-001 +1.2889341257E+002  +1.5187147514E-001 +8.9798271026E+001  +1.5639043163E-001 +6.4971297193E+001  +2.1285179931E+000 +8.7771082200E+001 
5890823.529 +5.1720406818E-001 +1.3411294400E+002  +1.1292707158E-001 +9.9278068051E+001  +1.0042964326E-001 +8.5727199792E+001  +1.8290552361E+000 +1.0328238822E+002 
6015968.711 +5.9656705111E-001 +1.1245269338E+002  +1.6286555155E-001 +5.6416867951E+001  +1.6573288660E-001 +3.3775696612E+001  +1.3952519908E+000 +3.0486407043E+001 
6141113.892 +7.2012582002E-001 +1.0254221209E+002  +2.0722266886E-001 +6.0390767385E+001  +1.6056563228E-001 +2.5778322476E+001  +1.5778598400E+000 +4.3016179458E+001 
6266259.074 +8.4735914800E-001 +1.0130423821E+002  +2.4471889839E-001 +5.2279611474E+001  +2.1829722872E-001 +3.4625596923E+001  +1.8199909051E+000 +2.9004013253E+001 
6391404.255 +7.9947329948E-001 +8.8593313872E+001  +1.9595600198E-001 +4.1876607038E+001  +1.9640549001E-001 +2.5954241250E+001  +1.6665357343E+000 +2.4237222747E+001 
6516549.437 +1.2890118568E+000 +7.2897218341E+001  +2.8542709412E-001 +4.0117712162E+001  +3.1028861448E-001 +2.4544334785E+001  +1.6677392564E+000 +2.2352051226E+001 
6641694.618 +1.2268805852E+000 +6.6745783239E+001  +2.2383690951E-001 +3.2063264849E+001  +1.7775279122E-001 +9.9144385517E+000  +1.1244764253E+000 +8.4145024965E+000 
6766839.800 +1.5086857526E+000 +5.7357165007E+001  +1.9703172128E-001 +2.0191456957E+001  +2.0759159651E-001 +1.6739648124E+001  +1.0994701564E+000 +3.7813984277E+000 
6891984.981 +1.4038007315E+000 +3.4121559068E+001  +1.8456559454E-001 +5.2041119985E+000  +1.8786969893E-001 +1.0613567066E+000  +1.2093165904E+000 -9.1105748793E-002 
7017130.163 +1.4537803553E+000 +2.0974892566E+001  +1.6879976140E-001 +4.5417678350E+000  +1.6315619367E-001 -7.6015338095E+000  +1.2001049084E+000 -4.0021548968E+000 
7142275.344 +1.3325459249E+000 +1.6847019377E+001  +1.5364723690E-001 +5.0488989353E+000  +1.4161855327E-001 -3.3606154958E+000  +1.1740687749E+000 -1.7716925975E+001 
7267420.526 +1.2710055391E+000 -5.4818969562E+000  +1.2532041411E-001 -7.3037249874E+000  +1.4834168623E-001 -5.4433232196E+000  +1.1736996970E+000 -1.0751230157E+001 
7392565.707 +1.2896120767E+000 -1.9339759492E+000  +1.1275859551E-001 +4.9580500752E+000  +1.0629417451E-001 +5.4732092126E+000  +1.2742051058E+000 -1.0240393226E+001 
7517710.889 +1.0799633437E+000 +2.6884410481E+000  +9.6149974830E-002 +7.0696037472E+000  +9.5986772832E-002 +1.1524645685E+001  +1.1660219345E+000 -4.9158959726E+000 
7642856.070 +8.1551111813E-001 +8.1863509272E+000  +9.8635629032E-002 +4.9973162168E+000  +8.0830577184E-002 +5.0323202869E+000  +1.0197670760E+000 -5.2175324704E+000 
7768001.252 +8.4077859336E-001 +5.6673232715E-003  +8.8851317956E-002 +1.2555155063E+000  +9.4264403610E-002 +8.3159792158E+000  +9.2259013681E-001 -5.9350281741E+000 
7893146.433 +8.2984922044E-001 +4.0296220673E+000  +8.7450899286E-002 +2.7144652058E+000  +8.3733273785E-002 +9.5119972001E+000  +7.5637744050E-001 -2.2731393950E+000 
8018291.615 +7.8336320731E-001 +8.8627103645E+000  +7.9386195575E-002 -3.5475085726E+000  +8.6087614667E-002 +8.9641152871E+000  +8.2309352273E-001 +1.6564828454E+000 
8143436.796 +7.4199655242E-001 +1.6777171628E+001  +8.1044574290E-002 +2.1336754520E+000  +8.0725715822E-002 +1.0047967650E+001  +7.3159085100E-001 +3.2108486217E-001 
8268581.977 +7.1392117712E-001 +1.3880337341E+001  +8.4452654852E-002 -2.1149511590E+000  +7.1176778749E-002 +1.2224535788E+001  +7.3884634444E-001 -8.2330431365E-001 
8393727.159 +6.2678608809E-001 +9.4481871886E+000  +8.1183721957E-002 -6.8191195115E-001  +7.9549910783E-002 +9.6363848002E+000  +6.8319641446E-001 +5.0403827146E+000 
8518872.340 +5.8648089012E-001 +8.5146811090E+000  +7.1802813413E-002 -2.0084575861E+000  +6.8989147555E-002 +9.1687158536E+000  +6.1130142103E-001 +4.3789924634E+000 
8644017.522 +5.6440622800E-001 +1.3845963402E+001  +7.6980240766E-002 -4.4659141848E+000  +7.7447028083E-002 +8.1558833613E+000  +6.2136446829E-001 +2.2363487783E+000 
8769162.703 +5.4305203608E-001 +1.3525766410E+001  +7.0767567882E-002 -2.3996524617E+000  +7.1001909181E-002 +9.6660798949E+000  +5.8401323398E-001 -4.3174281071E-001 
8894307.885 +5.4295333938E-001 +1.1152566534E+001  +7.2423208176E-002 -3.4556731787E+000  +7.4453344328E-002 +7.0398639737E+000  +5.7964118468E-001 +1.7647237508E+000 
9019453.066 +5.4222001487E-001 +8.8846349691E+000  +7.3425969363E-002 -2.0337564695E+000  +7.4593588928E-002 +1.1245846827E+001  +5.6450484256E-001 +1.9256948178E+000 
9144598.248 +4.3307143746E-001 +5.2178659474E+000  +6.8601875447E-002 -1.5813850727E+000  +7.1473798526E-002 +8.6718061562E+000  +4.9774571705E-001 +4.0070568522E+000 
9269743.429 +5.1379513177E-001 +1.0700118467E+001  +7.2733912204E-002 -5.0728322861E+000  +6.9538738113E-002 +1.1718906407E+001  +5.0722065182E-001 +6.2148570988E+000 
9394888.611 +4.6498450125E-001 +5.8404917138E+000  +7.5256499710E-002 -3.7449587632E+000  +7.5130366790E-002 +1.2960317267E+001  +5.3806621553E-001 -2.2466729276E+000 
9520033.792 +4.7417420587E-001 -2.6341396856E-001  +7.2978041588E-002 -1.8891770675E+000  +7.3636875125E-002 +1.1433408283E+001  +5.1205680560E-001 -5.0872596465E-001 
9645178.974 +4.5736475345E-001 +1.7152675748E+000  +7.4285510074E-002 -6.0884835076E+000  +7.7280992758E-002 +9.5575248063E+000  +5.1973843972E-001 -4.3464674383E+000 
9770324.155 +4.6335578952E-001 +5.6059131887E+000  +7.5002387727E-002 -2.7341988042E+000  +7.2011924781E-002 +1.2322909938E+001  +4.8762895584E-001 -6.6110527007E+000 
9895469.337 +5.1535159855E-001 +5.1777922856E+000  +7.5411523621E-002 -1.2119792455E+000  +7.1850775865E-002 +1.1708610335E+001  +5.1301137835E-001 -5.5623125575E+000 
10020614.518 +4.6159381151E-001 -1.9198479071E+000  +7.5978560084E-002 -2.3804145890E+000  +7.4685744149E-002 +1.0463760804E+001  +5.2183384791E-001 -4.8607334623E+000 
10145759.700 +4.7187773533E-001 +6.4743381422E+000  +7.3958656624E-002 -5.8509471072E+000  +7.6913013769E-002 +1.3624263526E+001  +5.1397788050E-001 -3.6604624343E+000 
10270904.881 +4.8923398202E-001 +6.3607956599E+000  +7.3373787843E-002 +4.8724668828E-001  +7.3001918589E-002 +1.3002694386E+001  +5.4310658424E-001 +6.5942762353E-001 
10396050.063 +4.7956866552E-001 +7.1384509408E+000  +7.4282861174E-002 -1.0731779922E+000  +7.3841301189E-002 +1.2691612720E+001  +5.2587290203E-001 +1.8993525836E+000 
10521195.244 +4.7668242991E-001 +4.5438236302E+000  +7.6481879597E-002 -2.7409740999E+000  +7.5360025950E-002 +1.5097959335E+001  +4.8158407859E-001 -1.7944136509E+000 
10646340.426 +4.7102440999E-001 +7.0726166141E+000  +7.5371507820E-002 -2.1527302491E+000  +7.3629946159E-002 +1.1718074523E+001  +5.2636893737E-001 +2.4487841575E+000 
10771485.607 +5.0473205399E-001 +5.8218224061E+000  +7.5644847226E-002 -1.0065095322E+000  +7.8376202831E-002 +1.3815327491E+001  +5.3922908021E-001 +2.1803673307E+000 
10896630.788 +5.1076434225E-001 +1.0636946710E+001  +7.9135874534E-002 -8.1224950674E-001  +7.6974499722E-002 +1.3608015659E+001  +5.1492268969E-001 +1.1757158731E-001 
11021775.970 +5.0492181328E-001 +9.7895624275E+000  +7.7143577642E-002 -1.8719601028E+000  +7.9802490245E-002 +1.2935327937E+001  +5.2767673089E-001 +1.0528019363E+000 
11146921.151 +5.2617951988E-001 +9.0832710275E+000  +7.9836855876E-002 +1.5734605523E-001  +7.6923503687E-002 +1.2078881043E+001  +5.0696622332E-001 +5.1690376552E+000 
11272066.333 +5.3636778122E-001 +6.4254895687E+000  +7.9631840751E-002 -3.9636133599E-001  +7.9707764244E-002 +1.2882388417E+001  +5.4225200620E-001 -4.9911525104E-003 
11397211.514 +5.3486347166E-001 +6.4566465441E+000  +7.9281741677E-002 +6.0501094831E-001  +7.9126846986E-002 +1.2368277906E+001  +5.3764672173E-001 +8.7804901076E-001 
11522356.696 +5.5972645395E-001 +1.0192075151E+001  +7.9643108998E-002 +9.5155308439E-001  +7.9401251231E-002 +1.2974591376E+001  +5.7629381101E-001 +3.1298147616E+000 
11647501.877 +5.5847793978E-001 +5.7697128821E+000  +8.0271008241E-002 -5.1489558539E-002  +8.1415535760E-002 +1.1326452588E+001  +5.7702927389E-001 +1.7118878315E+000 
11772647.059 +5.4410002240E-001 +7.9605691381E+000  +8.2638955533E-002 +2.0188830656E-001  +8.2671075811E-002 +1.1719968320E+001  +5.7107662868E-001 +3.4182634299E+000 
11897792.240 +6.2260161817E-001 +4.8792489225E+000  +8.3656039261E-002 +1.5959461819E+000  +8.2102702352E-002 +1.3565784894E+001  +6.0877367687E-001 +6.5651166380E-001 
12022937.422 +6.0160065272E-001 +3.6431820423E+000  +8.4614796709E-002 +1.3715551840E+000  +8.3099202877E-002 +1.1183291217E+001  +5.8700078709E-001 +1.8637867924E+000 
12148082.603 +5.6955169039E-001 +7.0065184148E+000  +8.5391110385E-002 +1.9152808754E+000  +8.5706926020E-002 +1.2144135823E+001  +6.3455471550E-001 +1.1168556748E+000 
12273227.785 +6.0505351724E-001 +3.7815599156E+000  +8.6436132077E-002 +1.9248736342E+000  +8.5981408365E-002 +9.9062786061E+000  +6.2066853974E-001 +5.1187755004E-002 
12398372.966 +6.2789558308E-001 +2.6545168230E+000  +8.6920674809E-002 +1.6316944719E+000  +8.7025796828E-002 +1.0925785917E+001  +6.3989933732E-001 +6.7274619885E-002 
12523518.148 +6.4699443507E-001 +3.7583439272E+000  +8.8623700831E-002 +2.4457984324E+000  +8.8553335046E-002 +9.4662332648E+000  +6.8008218277E-001 +1.4918661632E-001 
12648663.329 +6.7450166749E-001 +2.3744594077E+000  +8.9662047092E-002 +3.9832056219E+000  +8.8214767760E-002 +1.0921810821E+001  +6.9495898060E-001 +4.8743743886E-001 
12773808.511 +6.4679023237E-001 +1.6151812555E+000  +9.0400303580E-002 +2.4923149970E+000  +8.8019175631E-002 +9.2438522358E+000  +6.8271176573E-001 -9.1980152650E-002 
12898953.692 +6.9451794671E-001 +2.0446557567E+000  +9.1806670217E-002 +3.3991928108E+000  +8.9965335172E-002 +6.6761195994E+000  +6.9090351550E-001 -5.2224613698E-001 
13024098.874 +7.0806282318E-001 -2.3145283939E-001  +9.2205124567E-002 +2.5049344787E+000  +9.0428381737E-002 +7.9602360239E+000  +6.9121056753E-001 -1.9820338997E+000 
13149244.055 +7.1304120184E-001 +6.3124125010E-002  +9.2696356698E-002 +2.7597346276E+000  +9.0493199730E-002 +8.5152619334E+000  +7.2241700167E-001 -7.6456348813E-001 
13274389.237 +7.2503968759E-001 -2.6695029012E+000  +9.5559604648E-002 +2.8828873570E+000  +9.4204367415E-002 +6.5423093602E+000  +7.5869010712E-001 -9.9694165589E-001 
13399534.418 +7.4792969957E-001 -1.4600780971E+000  +9.3769000194E-002 +2.6514080883E+000  +9.3559594521E-002 +5.9457907218E+000  +7.6342775144E-001 -1.5965621406E+000 
13524679.599 +7.8078530546E-001 -2.6850786607E+000  +9.7920612807E-002 +3.0192292718E+000  +9.4511796723E-002 +6.1576438409E+000  +7.9076223181E-001 -4.7483315695E+000 
13649824.781 +7.6610011323E-001 -1.6106414477E+000  +9.5322121857E-002 +2.5736235519E+000  +9.3623966958E-002 +5.4704153721E+000  +7.9301544228E-001 -3.4765455283E+000 
13774969.962 +7.9923109434E-001 -3.7496914854E+000  +9.6290263193E-002 +2.4134008702E+000  +9.6988609204E-002 +4.9226887359E+000  +8.1132413715E-001 -2.6336454560E+000 
13900115.144 +8.1388706944E-001 -3.9500541969E+000  +9.6203654611E-002 +2.8425078266E+000  +9.5879008783E-002 +4.8943970816E+000  +8.1193551743E-001 -2.5449567362E+000 
14025260.325 +8.1981447916E-001 -4.2558464052E+000  +9.6515919148E-002 +2.2355565055E+000  +9.6073625373E-002 +3.6226307447E+000  +8.2913864684E-001 -4.8230599911E+000 
14150405.507 +8.4234468557E-001 -4.8890584340E+000  +9.8595242686E-002 +1.4978097755E+000  +9.8365103415E-002 +2.8114293638E+000  +8.4074348782E-001 -4.3601727157E+000 
14275550.688 +8.6328624571E-001 -5.2184451832E+000  +9.8441476887E-002 +2.3549112925E+000  +9.6616155814E-002 +3.1884525769E+000  +8.6855246327E-001 -4.9052602114E+000 
14400695.870 +8.7081380330E-001 -5.0063609792E+000  +9.8982261303E-002 +2.5734405061E+000  +9.6950939307E-002 +1.6661896516E+000  +8.9575198653E-001 -4.4709235587E+000 
