!  2-Port S-parameters saved by WinCal
! VAR MeasName=S-Parameters (CALIBRATED_DATA) read from VNA (P5004A)
! VAR MeasDate=29/08/2024 14:42:01
! VAR NAME=S2_r9c8_pristine_9k-100M_3
! VAR FILENAME=S2_r9c8_pristine_9k-100M_3.S2P
! VAR DATE=29/08/2024 14:42:01
! VAR PHYS_PORTS=1,2
! VAR ObjTypeName=DATASET
! VAR IndexType=Frequency
!
# Hz S MA R 50
9000.000 +1.1931006368E-001 -1.5757723599E+002  +5.7837948563E-003 -1.7131370400E+002  +9.8219497833E-003 +4.1565271077E+001  +2.5944154259E-001 -1.4279975093E+002 
134145.181 +1.1092001034E-001 +1.6966172731E+002  +3.1834359568E-004 -9.3678122302E+001  +3.3646673786E-004 -3.3407897033E+001  +2.4272713980E-001 -1.7121698328E+002 
259290.363 +1.1268581369E-001 +1.6956631575E+002  +4.5684028600E-004 -4.9611437803E+001  +7.9856970703E-004 +1.6379016294E+002  +2.4049235585E-001 -1.6942561122E+002 
384435.544 +1.1531864097E-001 +1.7054234494E+002  +9.0717663274E-004 -6.0940809645E+001  +6.7120693374E-004 +1.2175035705E+002  +2.4147316524E-001 -1.7016833202E+002 
509580.726 +1.1355338136E-001 +1.6987786393E+002  +1.5068544307E-003 -3.1659058764E+001  +1.5074564642E-003 +1.4785013777E+002  +2.4492805559E-001 -1.6671114314E+002 
634725.907 +1.1882818492E-001 +1.7188907382E+002  +2.1544887738E-003 -7.4068871443E+001  +1.2204219221E-003 +7.7900612649E+001  +2.5616560240E-001 -1.6555816214E+002 
759871.089 +1.2133624873E-001 +1.7041831984E+002  +8.1679543766E-004 -5.6789397917E+001  +1.1684692801E-003 +1.0286030479E+002  +2.4673386078E-001 -1.6742190663E+002 
885016.270 +1.2096465972E-001 +1.6905086542E+002  +4.8297434671E-004 -3.1838868957E+001  +1.0210110856E-003 +1.5020936553E+002  +2.4681446912E-001 -1.6729031808E+002 
1010161.452 +1.1811429552E-001 +1.7090838906E+002  +1.3478940099E-003 +1.2853421625E+001  +3.3536795101E-003 -1.4299138177E+002  +2.2421361316E-001 -1.6815067541E+002 
1135306.633 +1.1678186800E-001 +1.6957138607E+002  +5.4152973894E-003 +7.8849263049E+001  +4.9484002869E-003 -9.6361032001E+001  +1.8657751527E-001 -1.7682040315E+002 
1260451.815 +1.2016857674E-001 +1.7120109574E+002  +2.6578510142E-003 -3.0892816246E+000  +3.8122443719E-003 -1.3608961846E+002  +2.3241281254E-001 -1.6360773646E+002 
1385596.996 +1.2818799468E-001 +1.7151474246E+002  +3.2715019048E-003 -4.0543024387E+001  +4.9885292102E-003 +1.6650002734E+002  +2.7006330347E-001 -1.5584920424E+002 
1510742.178 +1.3022652477E-001 +1.7090775740E+002  +2.6181792909E-003 -5.6004996063E+000  +2.8406447030E-003 -1.4626733130E+002  +2.5230012575E-001 -1.6169900295E+002 
1635887.359 +1.3081240420E-001 +1.6962772504E+002  +3.5422371629E-003 +3.8730537082E+001  +3.0698843912E-003 -1.2284564244E+002  +2.4827064391E-001 -1.6061513722E+002 
1761032.541 +1.2823388590E-001 +1.7068676124E+002  +6.7324119156E-003 +4.9358896478E+001  +7.2516055153E-003 -8.6523824385E+001  +2.2956539124E-001 -1.6071157940E+002 
1886177.722 +1.3040950758E-001 +1.6890370206E+002  +9.2627437752E-003 +8.0106877939E+001  +9.8169112516E-003 -5.8557883936E+001  +2.1377765746E-001 -1.6502339771E+002 
2011322.904 +1.3045139928E-001 +1.6788549719E+002  +1.3207832441E-002 +7.6676642241E+001  +1.3832426821E-002 -5.2227381696E+001  +2.1322409773E-001 -1.5879591585E+002 
2136468.085 +1.2662134863E-001 +1.6740590203E+002  +1.9032998082E-002 +8.0593415693E+001  +2.4906039147E-002 -4.3305592998E+001  +2.0214686849E-001 -1.6513562330E+002 
2261613.267 +1.3638947895E-001 +1.6820856163E+002  +2.0826669561E-002 +8.6487362669E+001  +2.1799554314E-002 -3.8026285415E+001  +1.9553959566E-001 -1.7095961559E+002 
2386758.448 +1.3445139902E-001 +1.6882296403E+002  +2.4713189297E-002 +5.1914688599E+001  +2.6646027876E-002 -6.7733793876E+001  +2.1758776019E-001 -1.5278198014E+002 
2511903.630 +1.3255900732E-001 +1.6969227431E+002  +4.2010973177E-002 +6.5392982675E+001  +4.7536146748E-002 -5.2566463586E+001  +1.4572938977E-001 -1.6212302220E+002 
2637048.811 +1.2167998946E-001 +1.7324032239E+002  +7.5009452985E-002 +4.3617731341E+001  +7.8651065015E-002 -6.4905261621E+001  +1.0798744057E-001 -1.2765978993E+002 
2762193.992 +1.1878494822E-001 +1.7800352504E+002  +7.8030031453E-002 +1.5454585992E+001  +7.6415404167E-002 -9.2015001559E+001  +2.3784271278E-001 -1.2485717970E+002 
2887339.174 +1.3043390178E-001 +1.7681497846E+002  +7.0826286287E-002 +2.0233297239E+001  +7.1789884028E-002 -8.3468668557E+001  +2.0178804782E-001 -1.2507354986E+002 
3012484.355 +1.4401661225E-001 +1.7773554403E+002  +5.2457991178E-002 +1.7126249584E+001  +5.4510397959E-002 -8.4331149726E+001  +2.0877332615E-001 -1.3981413475E+002 
3137629.537 +1.3480198385E-001 +1.7796810093E+002  +6.8573111770E-002 +3.1718244515E+001  +6.6887843287E-002 -6.7201356855E+001  +1.7526306717E-001 -1.4446120492E+002 
3262774.718 +1.3545872632E-001 -1.7827298618E+002  +1.0771902824E-001 +6.1824728733E+000  +1.1010946851E-001 -8.6390970804E+001  +2.6264068720E-001 -1.0154726541E+002 
3387919.900 +1.0560836593E-001 -1.7981369612E+002  +1.5554061343E-001 +4.0612024168E+001  +1.4934263919E-001 -4.8271813242E+001  +4.2894618267E-002 -2.9326986365E+001 
3513065.081 +1.2366391996E-001 +1.5326662742E+002  +1.3233682294E-001 +8.5000661361E+001  +1.2628337361E-001 -2.0511032268E+000  +2.1633648879E-001 +1.4789602413E+002 
3638210.263 +1.9087654427E-001 +1.3445251612E+002  +2.1392111300E-001 +1.2928669171E+002  +2.0336433779E-001 +4.8590230221E+001  +5.1414113846E-001 +1.4707497832E+002 
3763355.444 +1.6873831292E-001 +1.4976615398E+002  +9.9425056219E-002 +1.0909057820E+002  +9.7113343093E-002 +3.3460467831E+001  +3.2829134781E-001 +1.7124629391E+002 
3888500.626 +1.5781330055E-001 +1.5231288785E+002  +1.2905121725E-001 +8.2410564788E+001  +1.2753478088E-001 +7.8353703968E+000  +1.9818764797E-001 +1.5145821296E+002 
4013645.807 +1.5928816952E-001 +1.5297991025E+002  +1.2631453603E-001 +8.1192952829E+001  +1.2109338360E-001 +1.0633773835E+001  +2.3035953907E-001 +1.6294258177E+002 
4138790.989 +1.7016923922E-001 +1.5407029188E+002  +1.2834711268E-001 +7.7184077425E+001  +1.2562235875E-001 +9.1390845706E+000  +1.9900258748E-001 +1.6132342615E+002 
4263936.170 +1.9390506142E-001 +1.5215422177E+002  +1.1769936905E-001 +1.0336908915E+002  +1.2056475787E-001 +4.1633010062E+001  +3.9408607815E-001 +1.6601742023E+002 
4389081.352 +1.7833327829E-001 +1.4365322631E+002  +1.8116722820E-001 +7.9333033807E+001  +1.7667699627E-001 +1.9645346758E+001  +2.3395366327E-001 +1.4358303611E+002 
4514226.533 +1.9745197834E-001 +1.4471392782E+002  +1.6950835927E-001 +9.0787122428E+001  +1.6254046070E-001 +3.1947343543E+001  +3.3337667220E-001 +1.5687417891E+002 
4639371.715 +1.9447084719E-001 +1.4150753209E+002  +2.1899582607E-001 +9.3845334469E+001  +2.0919959743E-001 +3.8961545200E+001  +4.6468612415E-001 +1.4630430672E+002 
4764516.896 +4.2511415945E-001 +1.3112784243E+002  +4.9554554079E-001 +1.4140475917E+002  +4.9063383014E-001 +8.9686466202E+001  +1.0989879027E+000 +1.5084383979E+002 
4889662.078 +4.7705906936E-001 +1.2663120854E+002  +5.3985994307E-001 +1.3416758874E+002  +5.2091814344E-001 +8.5771280149E+001  +1.0155511465E+000 +1.4534560785E+002 
5014807.259 +4.1970242510E-001 +9.9750582495E+001  +7.4572514617E-001 +1.1042893392E+002  +7.2224860805E-001 +6.4551125166E+001  +1.4055786069E+000 +1.2941288340E+002 
5139952.441 +3.2804225931E-001 +1.2938472266E+002  +4.2101411987E-001 +1.0902389894E+002  +4.0772652376E-001 +6.6286561122E+001  +9.2664543301E-001 +1.3332920095E+002 
5265097.622 +2.6488089204E-001 +1.2246159062E+002  +4.2948543813E-001 +8.8998624447E+001  +4.1370974923E-001 +4.8903038815E+001  +7.8904698273E-001 +1.2417758834E+002 
5390242.804 +3.0620715881E-001 +1.1997501842E+002  +4.4538844364E-001 +9.8410487963E+001  +4.3283439009E-001 +6.0707581386E+001  +9.0808539687E-001 +1.3853253222E+002 
5515387.985 +3.7310136030E-001 +1.3582636121E+002  +3.3736596337E-001 +1.0924746823E+002  +3.2554406438E-001 +7.4309588593E+001  +8.1844802766E-001 +1.5008442244E+002 
5640533.166 +3.6850729955E-001 +1.2974517430E+002  +4.2349977417E-001 +1.0676369010E+002  +4.1123458276E-001 +7.5541096472E+001  +1.0630579231E+000 +1.4872214787E+002 
5765678.348 +2.8574334422E-001 +1.3017838105E+002  +4.0366620923E-001 +8.1806332672E+001  +3.9232134808E-001 +5.2701512946E+001  +8.5861079464E-001 +1.3954974278E+002 
5890823.529 +3.3557657514E-001 +1.3169412278E+002  +3.9013695316E-001 +7.6556109966E+001  +3.8297460700E-001 +5.0682946113E+001  +7.0909415794E-001 +1.3528293031E+002 
6015968.711 +3.0814160725E-001 +1.1620876960E+002  +5.1528556486E-001 +7.3576889503E+001  +5.1479818476E-001 +4.9749717502E+001  +9.3563144285E-001 +1.3229515335E+002 
6141113.892 +4.3155641112E-001 +1.0688729272E+002  +7.3625884889E-001 +7.7987251406E+001  +7.1399996797E-001 +5.6734076574E+001  +1.3347493374E+000 +1.1729488700E+002 
6266259.074 +3.0758243723E-001 +1.1666760210E+002  +5.8553075485E-001 +5.3842224704E+001  +5.8202728493E-001 +3.4934540326E+001  +7.6150001329E-001 +1.0702551037E+002 
6391404.255 +4.1740627733E-001 +9.2744814865E+001  +8.3060272652E-001 +5.7249954463E+001  +8.1063915747E-001 +4.0996691158E+001  +1.1088290631E+000 +9.8430877376E+001 
6516549.437 +3.7575757806E-001 +8.1273536143E+001  +8.9463632451E-001 +4.6319323368E+001  +8.9669302422E-001 +3.2178599487E+001  +1.0904634137E+000 +8.7780884019E+001 
6641694.618 +1.5720700982E-001 +6.3672074870E+001  +8.8683009017E-001 +2.0377633917E+001  +8.8215787236E-001 +9.1716005818E+000  +7.1170371865E-001 +4.9197568779E+001 
6766839.800 +1.6896663897E-001 +4.2732860183E+001  +9.0108357699E-001 +1.7434123730E+001  +9.0664831722E-001 +6.9252354789E+000  +5.4950357353E-001 +5.2211537806E+001 
6891984.981 +1.4649505395E-001 +5.4122703497E+001  +9.1373601859E-001 +1.2561319749E+001  +9.1421351150E-001 +5.2817360124E+000  +5.4661943868E-001 +4.4213657220E+001 
7017130.163 +9.6899081717E-002 +6.8263248865E+001  +8.8423757641E-001 +6.1966054434E+000  +8.7967682901E-001 +6.5764225083E-001  +3.5657467054E-001 +1.3633509894E+001 
7142275.344 +9.1846814138E-002 -1.5917165372E+002  +8.8138269159E-001 -5.0077469795E-001  +8.8694251246E-001 -3.7920916987E+000  +3.0024015784E-001 +1.0764609260E+001 
7267420.526 +1.3136784698E-001 +2.2005233645E+001  +9.5091640251E-001 +3.1053292385E+000  +9.4635937178E-001 +1.0451742323E+000  +1.3847936546E-001 +2.9531622137E+001 
7392565.707 +5.4716590102E-002 -1.0202005072E+002  +9.6423267714E-001 -4.3250434319E-001  +9.5425648074E-001 -2.8502587909E-001  +1.4811167924E-001 +2.6233823465E+001 
7517710.889 +1.9099882971E-001 +1.4111923431E+002  +9.0317041852E-001 -2.9132744685E+000  +8.9659051090E-001 -7.9682984869E-001  +9.0813492172E-002 -1.7330128391E+002 
7642856.070 +2.0114534785E-001 +1.1571982813E+002  +8.7233215195E-001 -1.8157965151E+000  +8.7415335188E-001 +2.3803418977E+000  +1.7152145984E-002 +7.2455578851E+000 
7768001.252 +1.9486966478E-001 +1.2593778138E+002  +8.2913054080E-001 -2.6058303473E+000  +8.3118073338E-001 +2.1529535587E+000  +1.8282960705E-001 +1.1583247687E+002 
7893146.433 +1.6261641744E-001 +1.2922587364E+002  +8.2813130140E-001 -4.1959309941E+000  +8.2693990052E-001 +2.6035729593E+000  +1.2487947695E-001 +1.3838812085E+002 
8018291.615 +2.3673771643E-001 +1.4673728938E+002  +7.8603050596E-001 -5.5952062664E+000  +7.8324436625E-001 +2.2775893282E+000  +2.4787007796E-001 +1.1683089906E+002 
8143436.796 +1.8707781107E-001 +1.3612154513E+002  +7.9198743136E-001 -4.9882531153E+000  +7.8975698573E-001 +3.8440587551E+000  +1.4971298042E-001 +1.1667665163E+002 
8268581.977 +3.1393985328E-001 +1.3389537448E+002  +7.4545051586E-001 -6.7933749339E+000  +7.4105931324E-001 +3.7515743228E+000  +2.2175185851E-001 +1.3005418328E+002 
8393727.159 +2.1388893936E-001 +1.2178392164E+002  +7.4484144834E-001 -5.3440503945E+000  +7.4046002257E-001 +5.7104753089E+000  +2.9579906041E-001 +1.1166373537E+002 
8518872.340 +2.7141397370E-001 +1.3229334574E+002  +7.3572014743E-001 -6.8596709779E+000  +7.3395821723E-001 +5.2048725527E+000  +2.1551658569E-001 +1.2103826381E+002 
8644017.522 +3.1237318640E-001 +1.3965666047E+002  +7.1899011375E-001 -8.1202110443E+000  +7.1682360071E-001 +4.7329437379E+000  +2.4424207304E-001 +1.2346012621E+002 
8769162.703 +2.6123420888E-001 +1.3106680601E+002  +7.2366394180E-001 -7.4051020780E+000  +7.1453263415E-001 +6.0676822064E+000  +2.3274045373E-001 +1.1915905437E+002 
8894307.885 +2.8995075985E-001 +1.3689923343E+002  +7.1245810886E-001 -8.2733158988E+000  +7.0660021476E-001 +5.7201242709E+000  +2.2397840513E-001 +1.2615398941E+002 
9019453.066 +2.9294813560E-001 +1.3388222856E+002  +7.0061074273E-001 -8.4196830632E+000  +6.9854458548E-001 +5.9921850688E+000  +2.6572758708E-001 +1.3242883003E+002 
9144598.248 +3.1810343837E-001 +1.4254424174E+002  +6.9420446608E-001 -9.1726270097E+000  +6.9013485369E-001 +5.5695299068E+000  +2.9010072117E-001 +1.2476710521E+002 
9269743.429 +2.8763833761E-001 +1.3498933365E+002  +6.9703055851E-001 -8.8907515208E+000  +6.9599181062E-001 +6.3550374445E+000  +2.5673816141E-001 +1.3454593566E+002 
9394888.611 +2.3107613322E-001 +1.4246106442E+002  +7.1159008227E-001 -8.8935877221E+000  +7.0851769158E-001 +6.7489507374E+000  +2.1072864083E-001 +1.3398624896E+002 
9520033.792 +3.0061955748E-001 +1.3892986869E+002  +6.8605588806E-001 -9.5901358454E+000  +6.8638383449E-001 +6.3883233618E+000  +2.9600393498E-001 +1.3227947976E+002 
9645178.974 +2.6900293646E-001 +1.3879038717E+002  +6.9726170801E-001 -8.9932701938E+000  +6.9125539967E-001 +6.9855667612E+000  +2.6466396051E-001 +1.3124115187E+002 
9770324.155 +3.0325871522E-001 +1.4469863581E+002  +7.0102655387E-001 -9.9678756089E+000  +6.9254121511E-001 +5.8406501035E+000  +2.5847759461E-001 +1.4382221605E+002 
9895469.337 +2.6379456472E-001 +1.4611020308E+002  +6.9793000354E-001 -9.5764546677E+000  +6.9318190393E-001 +6.2578579611E+000  +3.0278405314E-001 +1.3728803651E+002 
10020614.518 +2.8253156231E-001 +1.4618591804E+002  +6.9881368888E-001 -9.5749909288E+000  +6.9013105151E-001 +6.1072942900E+000  +2.9703310406E-001 +1.3600338941E+002 
10145759.700 +2.8367537981E-001 +1.4207763323E+002  +6.9705105398E-001 -9.0497687904E+000  +6.9069178139E-001 +6.6032073207E+000  +2.9304426306E-001 +1.3345012389E+002 
10270904.881 +2.6749560458E-001 +1.4103370046E+002  +6.9774161957E-001 -8.6092658895E+000  +6.9320915574E-001 +7.0439492145E+000  +2.9597894928E-001 +1.2742442096E+002 
10396050.063 +2.5301518225E-001 +1.2715271645E+002  +6.9344329274E-001 -8.2969779582E+000  +6.9085429640E-001 +6.9177494640E+000  +3.3456039628E-001 +1.3573574474E+002 
10521195.244 +2.5962797537E-001 +1.3288715753E+002  +7.0181268399E-001 -7.9335284333E+000  +6.9708470260E-001 +6.9400407387E+000  +2.8806626532E-001 +1.3485421876E+002 
10646340.426 +2.5733387810E-001 +1.3368598739E+002  +7.0320042087E-001 -7.7220946252E+000  +6.9805661614E-001 +7.1607176312E+000  +2.9684793455E-001 +1.2533155894E+002 
10771485.607 +2.5541803429E-001 +1.3810177255E+002  +7.0829635714E-001 -7.6084940813E+000  +7.0153625311E-001 +6.8456689743E+000  +2.9191944381E-001 +1.2439088183E+002 
10896630.788 +2.6097981986E-001 +1.3545619670E+002  +7.1142786704E-001 -7.5084814756E+000  +7.0589461950E-001 +6.6173832994E+000  +3.0181284392E-001 +1.3015492077E+002 
11021775.970 +2.6862241403E-001 +1.2939132975E+002  +7.1498447378E-001 -7.0827867285E+000  +7.0787174690E-001 +6.6360166016E+000  +2.7913560830E-001 +1.3215992128E+002 
11146921.151 +2.6239742885E-001 +1.3151107233E+002  +7.2254112441E-001 -6.7797230590E+000  +7.1700465336E-001 +6.6109176616E+000  +2.5903994051E-001 +1.3441091163E+002 
11272066.333 +2.7081068758E-001 +1.3718466189E+002  +7.2900620324E-001 -6.6289505602E+000  +7.2222210600E-001 +6.3104159287E+000  +2.4083071594E-001 +1.2742016961E+002 
11397211.514 +2.5010504273E-001 +1.3672898160E+002  +7.3046492950E-001 -6.5505987527E+000  +7.2520200269E-001 +5.7818860834E+000  +2.8314398222E-001 +1.2876937824E+002 
11522356.696 +2.1887950688E-001 +1.3237216586E+002  +7.4232534265E-001 -5.3587618278E+000  +7.3641250631E-001 +6.4443469566E+000  +2.5391255807E-001 +1.2066343689E+002 
11647501.877 +2.1238975646E-001 +1.3448582925E+002  +7.5052723039E-001 -4.9887112899E+000  +7.4343352498E-001 +6.2749744175E+000  +2.2534859834E-001 +1.1970783312E+002 
11772647.059 +2.2817755754E-001 +1.2860469700E+002  +7.4763676532E-001 -5.1489181181E+000  +7.4554173817E-001 +5.6444444252E+000  +2.5870921844E-001 +1.2685829835E+002 
11897792.240 +2.4257585777E-001 +1.2663548007E+002  +7.5263463498E-001 -4.8019937317E+000  +7.4683768124E-001 +5.5083008383E+000  +2.4693419871E-001 +1.2373150413E+002 
12022937.422 +1.9377090810E-001 +1.2810610325E+002  +7.7248970389E-001 -4.5060569250E+000  +7.6609357002E-001 +5.1497270105E+000  +2.3565527760E-001 +1.3265418256E+002 
12148082.603 +2.0160982712E-001 +1.2627729457E+002  +7.7455918722E-001 -4.1480600447E+000  +7.7001621643E-001 +4.8480233190E+000  +2.3013881848E-001 +1.2981616250E+002 
12273227.785 +1.9323112198E-001 +1.3816864975E+002  +7.8516092923E-001 -4.3024236073E+000  +7.8171304793E-001 +4.0471479355E+000  +2.3446159557E-001 +1.2909831645E+002 
12398372.966 +1.9313167044E-001 +1.3056561050E+002  +7.9196833124E-001 -3.6355939735E+000  +7.8423736394E-001 +4.2749271684E+000  +2.1431451443E-001 +1.2656532801E+002 
12523518.148 +1.8735404000E-001 +1.2972145059E+002  +8.0407215437E-001 -3.4683741717E+000  +7.9701838330E-001 +3.9915550608E+000  +1.9440631726E-001 +1.3086208092E+002 
12648663.329 +1.5159768357E-001 +1.3254321461E+002  +8.1406820002E-001 -2.7863548027E+000  +8.0913141688E-001 +3.8189024382E+000  +1.8468797774E-001 +1.2458375621E+002 
12773808.511 +1.8788044374E-001 +1.2873357603E+002  +8.1728636676E-001 -3.0811697556E+000  +8.1425019372E-001 +3.1786573309E+000  +1.6944703326E-001 +1.3254279526E+002 
12898953.692 +1.4589559241E-001 +1.2054871569E+002  +8.2458727382E-001 -2.1842767715E+000  +8.1990420704E-001 +3.3405247131E+000  +1.8483085565E-001 +1.2471786341E+002 
13024098.874 +1.6103709399E-001 +1.1981855196E+002  +8.3554911680E-001 -1.9893740537E+000  +8.3177489062E-001 +3.0949418997E+000  +1.3871272430E-001 +1.2735754144E+002 
13149244.055 +1.4347129200E-001 +1.2254824220E+002  +8.4550555824E-001 -2.0367126242E+000  +8.4118059308E-001 +2.5800097716E+000  +1.5030096308E-001 +1.2905839618E+002 
13274389.237 +1.2297449598E-001 +1.2446411428E+002  +8.5816730684E-001 -1.7181847715E+000  +8.5268953017E-001 +2.0831655366E+000  +1.3809512295E-001 +1.3450081221E+002 
13399534.418 +1.3496038934E-001 +1.3676582395E+002  +8.7308816116E-001 -1.7441895043E+000  +8.6506284558E-001 +1.9427428426E+000  +8.6059881193E-002 +1.2435109553E+002 
13524679.599 +9.1672612217E-002 +1.1992102472E+002  +8.8530229837E-001 -1.2277503434E+000  +8.7263288531E-001 +1.6955886301E+000  +1.1807947784E-001 +1.3422099195E+002 
13649824.781 +8.1779773564E-002 +1.3530002970E+002  +8.9346467761E-001 -9.7400656072E-001  +8.9627888450E-001 +1.1164095563E+000  +1.0157796370E-001 +1.2021835342E+002 
13774969.962 +8.2787634461E-002 +1.1941455180E+002  +8.9654769712E-001 -1.8581506916E+000  +8.9990811055E-001 +1.3878094406E+000  +8.4722565736E-002 +1.2775352939E+002 
13900115.144 +8.0218714976E-002 +1.3660843476E+002  +9.0227373951E-001 -1.0407830042E+000  +8.9388877722E-001 +4.3994157436E-001  +7.3212388623E-002 +1.2745858503E+002 
14025260.325 +6.3549638594E-002 +1.2425911094E+002  +9.1962827661E-001 -1.2263872122E+000  +9.0986887318E-001 +6.5307432890E-001  +8.4247866043E-002 +1.2300231085E+002 
14150405.507 +4.9761276769E-002 +1.0997418276E+002  +9.4003746369E-001 -8.6579485825E-001  +9.2960874273E-001 -2.5185156532E-001  +5.0798925648E-002 +1.1789114364E+002 
14275550.688 +4.3185041632E-002 +1.1583308367E+002  +9.3921851447E-001 -1.3178378419E+000  +9.2746290850E-001 -2.3016234462E-001  +4.8059659469E-002 +1.4508889392E+002 
14400695.870 +2.1678294304E-002 +1.6018546200E+002  +9.4564375300E-001 -5.1121440976E-001  +9.4018644393E-001 -8.6776103196E-001  +6.0061625808E-002 +1.2025892741E+002 
