!  2-Port S-parameters saved by WinCal
! VAR MeasName=S-Parameters (CALIBRATED_DATA) read from VNA (P5004A)
! VAR MeasDate=29/08/2024 11:10:16
! VAR NAME=S2_r9c3_RESET1_9k-100M_1
! VAR FILENAME=S2_r9c3_RESET1_9k-100M_1.S2P
! VAR DATE=29/08/2024 11:10:17
! VAR PHYS_PORTS=1,2
! VAR ObjTypeName=DATASET
! VAR IndexType=Frequency
!
# Hz S MA R 50
9000.000 +9.5555631334E-002 -1.6482436442E+002  +3.0042897726E-003 +7.9987891612E+001  +1.3484604335E-002 -1.3345790676E+002  +2.5070966994E-001 -1.5065892878E+002 
134145.181 +1.1141620214E-001 +1.6981948744E+002  +7.1031032917E-004 +2.6653749272E+001  +3.5429601627E-004 +1.2810458395E+002  +2.4185267036E-001 -1.7087839073E+002 
259290.363 +1.1292683739E-001 +1.7030861647E+002  +2.6520473478E-004 +2.7527599224E+001  +1.2319523406E-003 +6.7579113146E+001  +2.4516879615E-001 -1.6739449533E+002 
384435.544 +1.1446084356E-001 +1.7023215996E+002  +7.3634816794E-004 -8.6689742296E+001  +4.7406345836E-004 -1.3024653738E+002  +2.3410798582E-001 -1.6927634743E+002 
509580.726 +1.1495763401E-001 +1.7024583907E+002  +4.7418919071E-004 -1.4711809118E+001  +1.2271664726E-003 +9.0105095699E+001  +2.4728371170E-001 -1.6481715220E+002 
634725.907 +1.1499086375E-001 +1.7099566702E+002  +2.6673787698E-004 +1.4575339755E+002  +1.0697952675E-003 +1.1825066156E+002  +2.4544394532E-001 -1.6774991266E+002 
759871.089 +1.1916030315E-001 +1.7056400750E+002  +9.9135459982E-004 -6.2260402984E+001  +8.9234096276E-004 +1.1289336754E+002  +2.4532745340E-001 -1.6706301498E+002 
885016.270 +1.2026657837E-001 +1.6901747004E+002  +9.0032353342E-004 -4.1102293118E+001  +9.1413395335E-004 +1.1792032412E+002  +2.4829949262E-001 -1.6687211634E+002 
1010161.452 +1.1739165111E-001 +1.6967867332E+002  +1.2699665815E-003 +2.1736917764E+001  +8.1590622135E-004 -1.7520899711E+002  +2.1916524264E-001 -1.7104980594E+002 
1135306.633 +1.1936650856E-001 +1.6922382900E+002  +1.6250356393E-003 +1.6307178145E+001  +4.3102376992E-003 +1.7799798392E+002  +1.5820968212E-001 -1.7204266969E+002 
1260451.815 +1.1950286723E-001 +1.7143635373E+002  +3.3430636513E-003 -3.0109722396E+001  +2.7893126563E-003 +1.6877625703E+002  +2.3779180337E-001 -1.5995357429E+002 
1385596.996 +1.2658805439E-001 +1.7119363183E+002  +1.4012989125E-003 -8.0515358464E+001  +2.4139461611E-003 +1.1611008630E+002  +2.5960661240E-001 -1.5675099115E+002 
1510742.178 +1.2885777307E-001 +1.7269135066E+002  +2.2128666355E-003 -1.1746611857E+002  +3.0600898955E-003 +1.0722083577E+002  +2.6106440695E-001 -1.5684609825E+002 
1635887.359 +1.3108881772E-001 +1.7145005666E+002  +1.2857348151E-003 -4.2777683021E+000  +1.4578518477E-003 -1.3034814650E+002  +2.3650462526E-001 -1.6198189625E+002 
1761032.541 +1.3197565596E-001 +1.6889793686E+002  +2.1578057864E-003 +3.2692102142E+001  +1.8661067525E-003 -9.4103466764E+001  +2.2604125042E-001 -1.6320539618E+002 
1886177.722 +1.3008559465E-001 +1.6870222910E+002  +2.5252469354E-003 +3.9874125807E+000  +2.6954324927E-003 -7.8975125158E+001  +2.2595746471E-001 -1.6336704971E+002 
2011322.904 +1.2828009073E-001 +1.6860808383E+002  +5.8290374420E-003 +6.1926495320E+001  +7.3063009742E-003 -7.5774634276E+001  +2.0413079073E-001 -1.6266937479E+002 
2136468.085 +1.3398167003E-001 +1.6969282889E+002  +1.3587104650E-002 +4.7489261730E+001  +1.4858745864E-002 -9.6167116332E+001  +1.6024189454E-001 -1.5632003141E+002 
2261613.267 +1.3842341101E-001 +1.6784557935E+002  +1.0989941287E-002 +8.7636725506E+001  +1.2688217494E-002 -4.3208131378E+001  +1.9772574129E-001 -1.7745082971E+002 
2386758.448 +1.3960438683E-001 +1.6717066858E+002  +9.0113167424E-003 +8.1563329319E+001  +1.0483833357E-002 -4.2920945921E+001  +2.2472781731E-001 -1.6999587064E+002 
2511903.630 +1.3429063110E-001 +1.6353741567E+002  +2.4569293026E-002 +8.9216981940E+001  +2.7955968079E-002 -3.7281074922E+001  +1.6199709273E-001 +1.6964168350E+002 
2637048.811 +1.2740560939E-001 +1.6890086550E+002  +3.3760874013E-002 +5.3100487846E+001  +3.5291212069E-002 -5.6061958845E+001  +1.3799856052E-001 -1.7845893158E+002 
2762193.992 +1.1318943343E-001 +1.6751501430E+002  +5.8641989036E-002 +2.3774860151E+001  +5.6077076641E-002 -7.2279025645E+001  +1.0861994320E-001 -1.2720219857E+002 
2887339.174 +1.2702630197E-001 +1.7710480418E+002  +5.0656270412E-002 -1.5943954600E+001  +4.9090622551E-002 -1.1637523256E+002  +1.9130775571E-001 -1.3127864244E+002 
3012484.355 +1.1317861542E-001 +1.7683923233E+002  +7.2865510041E-002 +7.8734107085E+000  +8.4597510942E-002 -8.9697057086E+001  +6.7138394298E-002 -8.5128098037E+001 
3137629.537 +1.3832476712E-001 +1.6673607157E+002  +4.0154424010E-002 +2.7966931096E+000  +3.1508992143E-002 -8.4468770315E+001  +1.9905708100E-001 -1.2818456576E+002 
3262774.718 +1.2790055415E-001 +1.6563423716E+002  +7.1251714355E-002 -1.9975173625E+000  +7.5023022268E-002 -8.7233974723E+001  +2.5295850385E-001 -8.5988224028E+001 
3387919.900 +1.3565777212E-001 +1.5833711422E+002  +6.3120686194E-002 +4.0055615294E+001  +5.4195229891E-002 -4.7194034022E+001  +9.4974817541E-002 -1.4172435100E+002 
3513065.081 +1.1432603110E-001 +1.5299472005E+002  +1.0318032102E-001 +5.4795758855E+001  +1.1263765587E-001 -2.6339825472E+001  +1.8474383794E-001 +8.0058602912E+001 
3638210.263 +1.7563965852E-001 +1.5393504493E+002  +7.4035744706E-002 +1.0727901997E+002  +6.2534231047E-002 +2.6027204950E+001  +3.8197692489E-001 +1.3152989465E+002 
3763355.444 +1.7353160070E-001 +1.5925215093E+002  +4.2238593767E-002 +7.9856035117E+001  +4.2249887458E-002 +2.1448614486E+000  +2.4939393963E-001 +1.5222451615E+002 
3888500.626 +1.6528124696E-001 +1.5300976539E+002  +8.9893772149E-002 +7.5149262460E+001  +8.2526322508E-002 -2.7744371083E+000  +2.6014820445E-001 +1.0990062321E+002 
4013645.807 +1.7070216492E-001 +1.5641408499E+002  +5.3288036182E-002 +5.4431456328E+001  +5.3980279142E-002 -1.9276636374E+001  +1.2697961773E-001 +1.7668604142E+002 
4138790.989 +1.9823641932E-001 +1.5533703050E+002  +5.7490879529E-002 +1.0420706709E+002  +5.7150126612E-002 +3.5412142096E+001  +4.0772635511E-001 +1.4873611143E+002 
4263936.170 +1.8763731031E-001 +1.5058497191E+002  +8.8458334347E-002 +9.7213350833E+001  +8.8170755664E-002 +3.0944343091E+001  +4.5490025921E-001 +1.3235690174E+002 
4389081.352 +2.0150386391E-001 +1.5178879301E+002  +7.6449467228E-002 +9.9775926679E+001  +7.5508467381E-002 +3.9444801051E+001  +4.5559975471E-001 +1.4341948728E+002 
4514226.533 +1.8928035184E-001 +1.4661618954E+002  +1.0817201596E-001 +7.3950919473E+001  +1.0757704862E-001 +1.3513767253E+001  +3.3489742293E-001 +1.1277251367E+002 
4639371.715 +2.4445536684E-001 +1.3750104100E+002  +1.4723263175E-001 +1.1170957897E+002  +1.4878514773E-001 +5.8151025784E+001  +6.8524198957E-001 +1.2936767959E+002 
4764516.896 +3.4670988813E-001 +1.2513526621E+002  +3.5704105895E-001 +1.4096669226E+002  +3.1639954582E-001 +8.5797649633E+001  +1.2870684560E+000 +1.3340855715E+002 
4889662.078 +7.5226771422E-001 +1.5070608964E+002  +2.1144722859E+000 +1.7309761716E+002  +2.1346770651E+000 +1.2443352391E+002  +9.4066326818E+000 +1.4018073137E+002 
5014807.259 +2.6486978332E-001 +1.2643143880E+002  +3.1090324270E-001 +7.8439754008E+001  +2.8515305893E-001 +3.3182143376E+001  +1.0604308695E+000 +7.3950190899E+001 
5139952.441 +4.9715003334E-001 +1.1797261895E+002  +5.4858926204E-001 +1.2691726045E+002  +5.4845910710E-001 +8.3069655488E+001  +1.7081819690E+000 +1.1318776071E+002 
5265097.622 +3.8853689391E-001 +1.3594389308E+002  +2.6889786194E-001 +1.3440308922E+002  +2.7456932139E-001 +8.9156812756E+001  +1.4412457145E+000 +1.2616724685E+002 
5390242.804 +3.5359304935E-001 +1.3367604120E+002  +2.0122280106E-001 +1.3098302421E+002  +1.9791858148E-001 +9.1803739440E+001  +1.2718978772E+000 +1.4444228038E+002 
5515387.985 +4.0071091273E-001 +1.2991527389E+002  +2.2906265900E-001 +1.0839717749E+002  +1.9998677496E-001 +7.4340889734E+001  +9.7293308299E-001 +1.2525902869E+002 
5640533.166 +3.6605963180E-001 +1.3583515973E+002  +2.1316508275E-001 +8.5970388114E+001  +2.1049727394E-001 +5.6924103551E+001  +1.0161807460E+000 +1.0236906665E+002 
5765678.348 +4.3067624892E-001 +1.2898308483E+002  +2.9617951043E-001 +9.5182913998E+001  +2.7929663155E-001 +6.8063391441E+001  +1.3932357676E+000 +1.0474444235E+002 
5890823.529 +5.0284959627E-001 +1.2529921798E+002  +3.0565044883E-001 +8.5057681192E+001  +2.9486942527E-001 +5.9159158565E+001  +1.1607444861E+000 +8.5061468394E+001 
6015968.711 +5.2152434420E-001 +1.1010369495E+002  +4.6969347018E-001 +7.8213120598E+001  +4.4854825693E-001 +5.4585080207E+001  +1.7452512599E+000 +8.3711505471E+001 
6141113.892 +5.8142510772E-001 +1.0233709010E+002  +4.6791506482E-001 +6.2638240112E+001  +4.7461890329E-001 +4.1617115994E+001  +1.4553995536E+000 +6.3551842172E+001 
6266259.074 +6.8830034424E-001 +9.4834617059E+001  +4.7602606178E-001 +6.8286790575E+001  +4.6026318283E-001 +4.8978072953E+001  +1.3095050940E+000 +7.8582774844E+001 
6391404.255 +5.8659620547E-001 +9.4619033312E+001  +5.0578102608E-001 +3.0836283186E+001  +4.9834181188E-001 +1.3570594378E+001  +1.8444469578E+000 +2.2303119282E+001 
6516549.437 +6.3652462499E-001 +8.6655082747E+001  +4.2329422536E-001 +3.2520541511E+001  +4.1480163938E-001 +2.0210782030E+001  +1.1259787092E+000 +3.0223103817E+001 
6641694.618 +6.8976219276E-001 +7.5856501387E+001  +4.2457188544E-001 +2.3205050896E+001  +4.0814076014E-001 +1.3460288170E+001  +9.8377056899E-001 +1.8883530437E+001 
6766839.800 +7.8541752037E-001 +5.5917462770E+001  +4.6416030168E-001 +1.3651627494E+001  +4.4069602646E-001 +6.7438330911E+000  +9.6927888371E-001 +9.9028689818E+000 
6891984.981 +9.3224966741E-001 +3.9928266614E+001  +4.4577456478E-001 +1.0168690742E+001  +4.5113550507E-001 +4.2109559858E+000  +8.0664196819E-001 +1.7347563026E+000 
7017130.163 +1.0019419644E+000 +2.5550878033E+001  +4.4889350935E-001 +2.2253709456E+000  +4.3687303697E-001 -9.8805248788E-001  +9.0966517522E-001 -4.1123346226E+000 
7142275.344 +8.0292171591E-001 +6.9990571518E-001  +3.9420088206E-001 -3.7594768037E+000  +3.9197416062E-001 -7.9589340407E+000  +9.2013256323E-001 -3.7051504729E+000 
7267420.526 +1.0435124293E+000 +8.1051378461E+000  +3.6365098910E-001 +2.3361408673E+000  +3.6343098651E-001 -1.2526485519E+000  +9.3532684150E-001 -1.4355354376E+001 
7392565.707 +9.2167419641E-001 -8.4866526632E+000  +3.2465513006E-001 +2.1901098916E+000  +3.2228071602E-001 +2.1397700671E+000  +9.4855320020E-001 -5.4364386085E+000 
7517710.889 +7.9044121235E-001 -2.5460345415E+000  +3.0432411744E-001 +1.1379445334E+000  +2.9479483921E-001 +3.5234916496E+000  +8.8181482446E-001 -2.5527853020E+000 
7642856.070 +6.1031001049E-001 -4.8426884705E+000  +2.8300428692E-001 -5.9562044779E-001  +2.7461858787E-001 +3.3564553652E+000  +6.9492310782E-001 +1.7078582801E+000 
7768001.252 +6.5496351288E-001 +1.1836034748E+001  +2.6093733322E-001 +1.2247609720E-001  +2.6892774246E-001 +6.5852533633E+000  +7.1082386329E-001 -1.2938319328E+000 
7893146.433 +5.4717210981E-001 +3.7484287144E+000  +2.6067972926E-001 -5.9222308011E-001  +2.6312814035E-001 +5.5131733873E+000  +6.2600547581E-001 -2.1060140008E+000 
8018291.615 +5.0991263988E-001 +5.7033924984E+000  +2.5256624216E-001 -1.3336801090E+000  +2.5348656449E-001 +5.9632926910E+000  +6.2600143337E-001 +7.7378860837E+000 
8143436.796 +5.0099049212E-001 +1.4500746731E+001  +2.4052255747E-001 -2.4799623186E+000  +2.4351395706E-001 +6.9799091545E+000  +4.9025040443E-001 +6.4726952557E+000 
8268581.977 +4.6272816609E-001 +2.1494134566E+001  +2.3365931975E-001 -2.8752850256E+000  +2.3565679930E-001 +7.1040819004E+000  +5.0767094957E-001 +2.3545997934E+000 
8393727.159 +4.5957344191E-001 +1.0774994445E+001  +2.3070876985E-001 -3.1400004489E+000  +2.3632086482E-001 +6.3675335505E+000  +4.5623877924E-001 +5.9372540666E+000 
8518872.340 +4.6589654471E-001 +2.3692031135E+001  +2.2320284284E-001 -4.1716004495E+000  +2.2300819032E-001 +8.9151257076E+000  +4.0814316668E-001 +1.1472576671E+001 
8644017.522 +4.2707337202E-001 +1.8974973834E+001  +2.2507344710E-001 -3.6088228112E+000  +2.2033842699E-001 +7.9836055816E+000  +4.4497132911E-001 +1.2166147948E+001 
8769162.703 +3.7191016563E-001 +1.2862050601E+001  +2.2218246587E-001 -5.1788243810E+000  +2.1890165046E-001 +9.0580521715E+000  +4.1260799226E-001 +1.4390780138E+001 
8894307.885 +3.5776678217E-001 +1.2558933711E+001  +2.2033900825E-001 -4.1395971862E+000  +2.2037709636E-001 +1.0222844849E+001  +4.6100285996E-001 +5.2891542017E+000 
9019453.066 +3.7407022257E-001 +1.7579222708E+001  +2.2025671092E-001 -4.4943257676E+000  +2.1814684220E-001 +9.6160046220E+000  +4.2048701073E-001 +6.8116419305E+000 
9144598.248 +3.3649127016E-001 +2.2361374247E+001  +2.1784913848E-001 -5.0751242718E+000  +2.1742220963E-001 +9.5331394123E+000  +3.5461547345E-001 +6.7175543373E+000 
9269743.429 +3.4137554689E-001 +1.7726712006E+001  +2.2016587360E-001 -5.7732584957E+000  +2.2029801014E-001 +9.7724407906E+000  +3.3836173016E-001 -2.5183070324E-001 
9394888.611 +3.1432571723E-001 +9.3531594551E+000  +2.2011303547E-001 -5.3173975778E+000  +2.2037670465E-001 +1.0524849824E+001  +3.6888448255E-001 +4.2843327410E+000 
9520033.792 +2.9181671897E-001 +9.8423018582E+000  +2.2134578796E-001 -5.5001728352E+000  +2.2172509644E-001 +1.0174624073E+001  +3.4333139587E-001 +2.7573557808E+000 
9645178.974 +3.3022759304E-001 +1.3737055845E+001  +2.1958143977E-001 -5.5353423805E+000  +2.2012678310E-001 +1.0548779076E+001  +3.0595463743E-001 +2.5997303350E+000 
9770324.155 +2.8471428902E-001 +1.2129635085E+001  +2.2272629757E-001 -5.6108783524E+000  +2.2017737456E-001 +1.0872550205E+001  +3.1578507146E-001 -6.1011004014E+000 
9895469.337 +2.7069775822E-001 +7.1383602597E+000  +2.2028334836E-001 -5.3238058918E+000  +2.2052506100E-001 +1.1460732295E+001  +3.4031558654E-001 -1.4184618905E+000 
10020614.518 +2.8356470445E-001 +6.4340117501E+000  +2.2282417011E-001 -4.7702811949E+000  +2.2124134139E-001 +1.0511268773E+001  +3.4362946055E-001 +2.2244049335E+000 
10145759.700 +3.0713363549E-001 +7.6451288566E+000  +2.2235193545E-001 -4.3825782402E+000  +2.2365932291E-001 +1.1739584750E+001  +3.6567406675E-001 +7.8851685060E+000 
10270904.881 +3.0853050352E-001 +1.1004147202E+001  +2.2491381852E-001 -4.0705754777E+000  +2.2223188535E-001 +1.1273552347E+001  +3.5922166552E-001 +8.9519420448E+000 
10396050.063 +3.6022600957E-001 +1.6625129286E+001  +2.2396159383E-001 -4.1465815574E+000  +2.1880174903E-001 +1.2177550084E+001  +3.3571645426E-001 +9.2870408405E+000 
10521195.244 +3.3666470127E-001 +1.2690411360E+001  +2.2730691914E-001 -3.1537127112E+000  +2.2482534522E-001 +1.1469560268E+001  +3.7873651495E-001 +5.9219119970E+000 
10646340.426 +3.6000444556E-001 +2.0158380519E+001  +2.2530146823E-001 -3.2509417175E+000  +2.2290783369E-001 +1.1449080320E+001  +3.2659011534E-001 +5.4984094101E+000 
10771485.607 +3.5731267045E-001 +1.3720929795E+001  +2.3146533568E-001 -2.6155012192E+000  +2.2614336997E-001 +1.2140943250E+001  +3.6939030154E-001 +6.0727237966E+000 
10896630.788 +3.3268025982E-001 +9.5895102681E+000  +2.3128525678E-001 -3.3104807798E+000  +2.2868959819E-001 +1.1253461952E+001  +3.6276805459E-001 +1.1159387052E+001 
11021775.970 +3.5791092314E-001 +1.3620121176E+001  +2.3515878641E-001 -2.0940703913E+000  +2.2872023745E-001 +1.0900331397E+001  +3.5855811618E-001 +7.9154469037E+000 
11146921.151 +3.3513729303E-001 +8.6463231871E+000  +2.3550948985E-001 -2.5117476162E+000  +2.2972769027E-001 +1.1260615772E+001  +3.8513473147E-001 +1.1747284262E+001 
11272066.333 +3.8342496964E-001 +1.5923615370E+001  +2.3545801204E-001 -1.4491307628E+000  +2.3434138415E-001 +1.1293504506E+001  +3.8039778579E-001 +6.1973125581E+000 
11397211.514 +3.8183221606E-001 +9.7157435989E+000  +2.3890940752E-001 -1.7607362268E+000  +2.3729895648E-001 +1.0901243564E+001  +3.8782942585E-001 +8.0781913480E+000 
11522356.696 +4.0463575451E-001 +1.2770875457E+001  +2.4099386994E-001 -6.4470881528E-001  +2.3696946670E-001 +1.1340846577E+001  +4.0839050082E-001 +8.6420764737E+000 
11647501.877 +3.8569070588E-001 +1.4144659403E+001  +2.4235775298E-001 -7.8216478984E-001  +2.3903641342E-001 +1.0382148466E+001  +4.1854091437E-001 +6.0241767996E+000 
11772647.059 +3.9870122725E-001 +8.5853784440E+000  +2.4740869896E-001 -1.2214858204E-001  +2.4045860467E-001 +1.0245371178E+001  +4.2268300636E-001 +5.8876799670E+000 
11897792.240 +4.2214328948E-001 +1.2249808825E+001  +2.4711413767E-001 -4.7046604115E-001  +2.4346748800E-001 +1.0505490091E+001  +4.3293676847E-001 +6.1461090264E+000 
12022937.422 +4.0475164316E-001 +5.2605624493E+000  +2.4915054900E-001 -1.1940477096E-001  +2.4913447166E-001 +8.9465904401E+000  +4.0747537929E-001 +7.9471349722E+000 
12148082.603 +4.3220644649E-001 +5.0885474401E+000  +2.5495274137E-001 +4.3927524656E-001  +2.5134739334E-001 +9.1254299061E+000  +4.4804393204E-001 +3.9677408514E+000 
12273227.785 +4.7110308488E-001 +7.0593220464E+000  +2.5683557071E-001 +7.5272266283E-001  +2.5218819348E-001 +9.2315713024E+000  +4.4945885890E-001 +6.6738659904E+000 
12398372.966 +4.3184393623E-001 +8.2333314812E+000  +2.5759413797E-001 +5.0141925338E-001  +2.5535537927E-001 +8.9043285664E+000  +4.8927584679E-001 +4.9782122461E+000 
12523518.148 +4.6849805865E-001 +6.6875110713E+000  +2.6046206796E-001 +9.5293508072E-001  +2.5684317269E-001 +8.5013039162E+000  +4.9166315761E-001 +6.4029085213E+000 
12648663.329 +4.6830878350E-001 +4.6376299939E+000  +2.6441245300E-001 +8.3078859422E-001  +2.6197353960E-001 +8.0866917398E+000  +5.0452924769E-001 +4.8890981059E-001 
12773808.511 +4.7478256485E-001 +6.3405076907E+000  +2.6766181521E-001 +1.0781983403E+000  +2.6364593754E-001 +7.3021890578E+000  +4.9198234102E-001 +4.7904879147E-001 
12898953.692 +4.9962543232E-001 +5.2424378914E+000  +2.6888989893E-001 +1.1810677749E+000  +2.6728299099E-001 +6.7255077600E+000  +5.1093212841E-001 +5.7100423055E-001 
13024098.874 +5.2443370685E-001 +5.1222025188E+000  +2.7142012028E-001 +1.6811195121E+000  +2.6660380963E-001 +6.7147954434E+000  +5.3301238350E-001 +3.2185952323E+000 
13149244.055 +5.2227845828E-001 +1.6875749655E+000  +2.7518489622E-001 +1.3006087713E+000  +2.7193446668E-001 +5.8223294979E+000  +5.2856676616E-001 +7.3053319803E-001 
13274389.237 +5.3146782991E-001 +6.5271418123E-001  +2.7820359971E-001 +1.7743221662E+000  +2.7510519511E-001 +5.5459736895E+000  +5.5485659701E-001 -1.5472302675E+000 
13399534.418 +5.6115720081E-001 -2.8755408028E-001  +2.7981852856E-001 +2.0191720844E+000  +2.7800628347E-001 +4.9262196774E+000  +5.5484713330E-001 -1.7006290597E+000 
13524679.599 +5.7731775643E-001 +3.2730580078E+000  +2.8031223705E-001 +1.8326232190E+000  +2.7809776056E-001 +4.9185718652E+000  +5.8160494249E-001 -1.9639408310E+000 
13649824.781 +5.8745833989E-001 +6.5597006991E-002  +2.8447947193E-001 +1.4358164830E+000  +2.8120516595E-001 +4.4164586638E+000  +5.8060209447E-001 -3.8973676384E+000 
13774969.962 +6.1657679033E-001 -1.9831757387E+000  +2.8813774590E-001 +2.0713595899E+000  +2.8564834289E-001 +3.8664801206E+000  +6.0829360501E-001 -3.0439769303E+000 
13900115.144 +6.2459068230E-001 -3.8524083107E+000  +2.9036544780E-001 +1.5590391786E+000  +2.8677998257E-001 +3.5850952698E+000  +6.2368625025E-001 -2.2192155770E+000 
14025260.325 +6.1583081000E-001 -5.2910721158E+000  +2.9316182250E-001 +1.5407412083E+000  +2.8956794152E-001 +2.8634876835E+000  +6.4675536454E-001 -3.4339538226E+000 
14150405.507 +6.5037687668E-001 -5.0231263511E+000  +2.9274693667E-001 +1.2485505016E+000  +2.8863324490E-001 +2.5641016817E+000  +6.4043787842E-001 -2.0985981619E+000 
14275550.688 +6.5963196586E-001 -5.3841423843E+000  +2.9614518511E-001 +1.2248335134E+000  +2.9257427207E-001 +2.0724645751E+000  +6.6292768010E-001 -4.1020214416E+000 
14400695.870 +6.9924079341E-001 -6.3169302738E+000  +2.9812648233E-001 +1.6662360728E+000  +2.9316784083E-001 +2.0716325161E+000  +7.0009028550E-001 -4.9009921543E+000 
