!  2-Port S-parameters saved by WinCal
! VAR MeasName=S-Parameters (CALIBRATED_DATA) read from VNA (P5004A)
! VAR MeasDate=29/08/2024 13:50:51
! VAR NAME=S2_r9c6_RESET3_9k-100M_1
! VAR FILENAME=S2_r9c6_RESET3_9k-100M_1.S2P
! VAR DATE=29/08/2024 13:50:51
! VAR PHYS_PORTS=1,2
! VAR ObjTypeName=DATASET
! VAR IndexType=Frequency
!
# Hz S MA R 50
9000.000 +8.9231367214E-002 -1.5111015978E+002  +4.2630245292E-003 -3.1013797584E+001  +1.9383449920E-002 +1.0890486289E+001  +2.6698612158E-001 -1.4706010727E+002 
134145.181 +1.1191074226E-001 +1.6930715784E+002  +2.6557698988E-004 -2.7756922719E+000  +5.6529248327E-004 -1.1834155706E+002  +2.3803235776E-001 -1.7085312401E+002 
259290.363 +1.1234621653E-001 +1.7060166316E+002  +4.9469390239E-004 +1.4113077776E+002  +9.8547847034E-004 -4.6393675233E+001  +2.4710641912E-001 -1.6763220919E+002 
384435.544 +1.1479059753E-001 +1.6977032762E+002  +2.2911786226E-004 +1.5100746569E+002  +2.1776082517E-004 +1.0573767733E+002  +2.4954696226E-001 -1.6939515361E+002 
509580.726 +1.1429826974E-001 +1.7007417352E+002  +6.5113875380E-004 -8.5446175271E+001  +6.3129608650E-004 +6.6804507544E+000  +2.3320462971E-001 -1.6731324575E+002 
634725.907 +1.1615231219E-001 +1.7028315698E+002  +3.4252915664E-004 -1.0764546287E+002  +7.7424414416E-005 +8.1499058057E+001  +2.4259958403E-001 -1.6593449006E+002 
759871.089 +1.2081289184E-001 +1.7101448007E+002  +2.2115858724E-004 +1.3814867685E+002  +2.8238552555E-004 +4.0292946564E+001  +2.5525375849E-001 -1.6712296811E+002 
885016.270 +1.1952082841E-001 +1.6935380946E+002  +3.4956391513E-004 +1.6905799822E+002  +4.9611049184E-004 -1.3656384313E+002  +2.4658823249E-001 -1.6682418949E+002 
1010161.452 +1.1245388059E-001 +1.6933231164E+002  +8.9579731176E-004 -1.0346999338E+002  +6.8577658188E-004 +8.2861257632E+000  +2.1789296925E-001 -1.6618220118E+002 
1135306.633 +1.1810405956E-001 +1.6852019931E+002  +9.6631512696E-004 +2.3741353278E+001  +9.3654031608E-004 +5.1241576898E+001  +1.8907019726E-001 -1.6335177932E+002 
1260451.815 +1.2010509515E-001 +1.6908266026E+002  +8.3959679917E-004 -1.2871369227E+002  +7.8348751311E-004 +9.5958996331E+001  +2.0648623029E-001 -1.5696132528E+002 
1385596.996 +1.2248300531E-001 +1.7252756849E+002  +9.9570653799E-005 -3.9985324315E+001  +9.7544724820E-004 +1.4023534878E+002  +2.6772194371E-001 -1.5859911940E+002 
1510742.178 +1.2642580677E-001 +1.7302883821E+002  +1.3269789763E-003 +1.9316184435E+001  +4.9554735843E-004 +1.1669218226E+002  +2.6205782612E-001 -1.5903850155E+002 
1635887.359 +1.2851358943E-001 +1.7244593458E+002  +4.2589575637E-004 -1.5654389790E+001  +5.5223460050E-004 -3.2912348393E+001  +2.4376409092E-001 -1.6006585809E+002 
1761032.541 +1.2980842788E-001 +1.7010527819E+002  +5.0303794910E-004 -1.0017547131E+002  +2.3684358872E-003 -1.4236266773E+002  +2.0320557867E-001 -1.5383288237E+002 
1886177.722 +1.2927297198E-001 +1.6796904207E+002  +2.7108979174E-003 +1.2381891013E+002  +1.3984925496E-003 -5.1793961082E+001  +2.1114166771E-001 -1.6266498457E+002 
2011322.904 +1.2835453996E-001 +1.6611930902E+002  +1.8434920028E-003 +6.3529463957E+001  +2.8079098507E-003 -7.1386729726E+001  +1.9750195104E-001 -1.6824971328E+002 
2136468.085 +1.3113561308E-001 +1.6627898672E+002  +3.6228404968E-003 +1.2012419190E+002  +2.2071005892E-003 -1.7915378789E+002  +1.7792680178E-001 -1.5736876973E+002 
2261613.267 +1.3415721465E-001 +1.6735036865E+002  +3.7970530127E-003 +3.1619807295E+001  +6.1088545972E-003 -4.8510563811E+001  +1.6730665162E-001 +1.6764897169E+002 
2386758.448 +1.3213110771E-001 +1.6690652859E+002  +3.7520915115E-003 +9.4003450862E+001  +6.9628305206E-003 +2.6908308036E+000  +1.6045443523E-001 +1.5668186700E+002 
2511903.630 +1.3312205029E-001 +1.6400676393E+002  +1.9098054855E-003 +5.9429043976E+001  +2.6023453293E-003 -1.1615019341E+002  +2.1411081381E-001 +1.6849852171E+002 
2637048.811 +1.0647531275E-001 +1.5107577084E+002  +1.1615496676E-002 +1.0624145428E+002  +2.8717957755E-002 -1.0620065732E+001  +1.2360613131E-001 +1.3731035586E+002 
2762193.992 +1.2567013803E-001 +1.6516499822E+002  +1.3203606829E-002 +9.9367401729E+001  +9.4882777170E-003 +1.3672336901E+001  +4.9981233713E-001 +1.5052762491E+002 
2887339.174 +1.2806237405E-001 +1.7138799619E+002  +1.9572952275E-003 -6.8188381293E+001  +6.2976239827E-003 -1.2117940367E+002  +2.2778722074E-001 -8.4630538189E+001 
3012484.355 +1.2391400336E-001 +1.7653271446E+002  +2.0700956423E-002 -6.4496618444E+001  +7.5043494197E-003 +1.3195740335E+002  +3.4945564445E-001 -9.1307420259E+001 
3137629.537 +1.2219241511E-001 +1.6994543304E+002  +9.6052415924E-003 +6.1073378777E+001  +9.5978719746E-003 -2.9505492093E+001  +8.3310031136E-002 +1.6340164485E+001 
3262774.718 +7.9114467375E-002 +1.6491328307E+002  +1.4789170994E-002 +1.4355432858E+001  +2.3922001500E-002 -1.0677293539E+002  +9.2951971043E-002 -5.8768892057E+001 
3387919.900 +1.0264471624E-001 +1.4913391982E+002  +2.1515123618E-002 +6.9395887849E+001  +3.4164536727E-002 -5.1184303228E+000  +3.6292908972E-001 +1.0707971720E+002 
3513065.081 +8.2475233732E-002 +1.4504409736E+002  +2.6613504792E-002 +6.7632527704E+001  +1.8078885875E-002 -7.4639084346E+001  +4.5059434205E-001 +1.3837710397E+002 
3638210.263 +1.7399982992E-001 +1.5154821737E+002  +9.9185834850E-003 +9.6305151116E+001  +1.1280355031E-002 +6.9163633580E+001  +3.9781793687E-001 +1.2586490240E+002 
3763355.444 +1.9056569566E-001 +1.4406371653E+002  +2.3049903827E-002 +1.0755074493E+002  +2.1055442155E-002 +2.9769531015E+001  +6.3984798921E-001 +1.3652488319E+002 
3888500.626 +1.8153877159E-001 +1.4466360725E+002  +8.2252296928E-003 +9.2276637787E+001  +4.6358381500E-003 -1.4686577504E+001  +4.2316507699E-001 +1.3330285247E+002 
4013645.807 +1.9647738377E-001 +1.3641606496E+002  +2.2266041839E-002 +1.1182864034E+002  +2.1220595210E-002 +4.5664808906E+001  +5.3995591549E-001 +1.3481347857E+002 
4138790.989 +1.7906480124E-001 +1.4590422921E+002  +3.9447290042E-002 +8.2737350150E+001  +3.2048180406E-002 +7.3533447884E+001  +1.1036723978E+000 +1.3341941282E+002 
4263936.170 +2.0104387633E-001 +1.4140886790E+002  +1.4717906643E-002 +6.1396481461E+001  +1.2393787395E-002 +4.7382410755E+001  +5.6460800812E-001 +9.6178243877E+001 
4389081.352 +1.8743162273E-001 +1.3789851890E+002  +2.5063105438E-002 +9.6867371025E+001  +2.7463856850E-002 +4.0924975087E+001  +5.8419236890E-001 +1.0948848813E+002 
4514226.533 +2.4303791431E-001 +1.0249461445E+002  +5.4244197830E-002 +7.1113156366E+001  +3.3454092529E-002 +4.6081516531E+001  +4.5949467159E-001 +9.0380905468E+001 
4639371.715 +3.0609366853E-001 +1.3692468568E+002  +5.5422556796E-002 +1.2054395023E+002  +5.4507714049E-002 +6.5550774592E+001  +1.2607137492E+000 +8.3638059935E+001 
4764516.896 +2.8511173147E-001 +1.1972966402E+002  +3.0191081601E-001 +3.2911948001E+001  +1.9152682431E-001 +1.3813714895E+001  +6.5171198266E+000 +8.8060419564E+000 
4889662.078 +3.8529279044E-001 +1.1066260544E+002  +1.2565490747E-001 -7.0130199084E+001  +8.3872939252E-002 -6.6583296504E+001  +2.7175878226E+000 -9.9990046653E+001 
5014807.259 +3.5463865327E-001 +1.3953945904E+002  +3.8866720774E-002 +2.8275241950E+001  +3.7343868827E-002 +5.1355499459E+001  +2.7979331206E+000 -7.1703370627E+000 
5139952.441 +3.6880420039E-001 +1.2548343771E+002  +5.2592624895E-002 +1.7839739205E+002  +1.0456995705E-001 +1.5978878468E+002  +2.9669975402E+000 +1.5403239662E+002 
5265097.622 +3.9508353477E-001 +1.2202529125E+002  +1.1590063762E-001 +5.5670747957E+001  +1.2447635848E-001 +7.2485934759E+000  +3.2496064322E+000 +1.1322379887E+001 
5390242.804 +4.1254718037E-001 +1.2806573186E+002  +4.0429949472E-002 +1.0903201932E+002  +7.0548152917E-002 +8.6121976733E+001  +2.8151823493E+000 +8.5317516800E+001 
5515387.985 +3.7762365904E-001 +1.1745863189E+002  +5.8923845076E-002 +1.6330129702E+002  +7.5757769502E-002 +7.0183400846E+001  +2.6846074552E+000 +1.1412492847E+002 
5640533.166 +4.8480802248E-001 +1.2651343666E+002  +3.7721661621E-002 +1.1404834330E+002  +5.8516194160E-002 +6.4489239058E+001  +1.6763622458E+000 +8.3953918232E+001 
5765678.348 +4.4194414029E-001 +1.1908278424E+002  +3.2943198613E-002 +7.2184981266E+001  +4.8590596614E-002 +6.9026758352E+001  +1.7743387085E+000 +8.2718537046E+001 
5890823.529 +4.8071568613E-001 +1.2297254683E+002  +7.2871812401E-002 +9.1599108541E+001  +7.8103452256E-002 +6.5789606109E+001  +2.8433559701E+000 +7.4052334457E+001 
6015968.711 +5.0169858332E-001 +1.1666312051E+002  +6.6772218462E-002 +3.9514485619E+001  +6.6241975381E-002 +2.8612028843E+001  +2.2032872440E+000 +3.6830356530E+001 
6141113.892 +7.1595826438E-001 +1.1806526002E+002  +5.9499182547E-002 +4.1219808300E+001  +4.7366730840E-002 +3.3240705282E+001  +2.1588943389E+000 +1.2529058042E+001 
6266259.074 +7.1443183421E-001 +8.8715244925E+001  +7.8444336904E-002 +4.8722815054E+001  +6.2524761536E-002 +2.0334010883E+001  +2.3181299012E+000 +4.1325700764E+001 
6391404.255 +8.6128525627E-001 +1.0530214242E+002  +5.7550755894E-002 +5.5401112363E+001  +5.4569105537E-002 +6.6931731776E+000  +1.3888265602E+000 +1.2859854547E+001 
6516549.437 +1.1357232971E+000 +8.7804510398E+001  +8.5719012328E-002 +4.2561154189E+001  +1.0486980017E-001 +1.4967805491E+001  +1.8084017222E+000 +4.6941147676E+000 
6641694.618 +1.2324721343E+000 +7.1605799647E+001  +7.6119532007E-002 +1.4474379236E+001  +6.6290765529E-002 +1.6393801024E+001  +1.2181306040E+000 +7.9229688083E+000 
6766839.800 +1.4771442988E+000 +5.3511882392E+001  +6.2535669408E-002 +4.0313284772E+001  +9.9230715238E-002 +1.1144054772E+000  +1.2001426722E+000 +2.4095610095E+000 
6891984.981 +1.7717891972E+000 +2.5170243867E+001  +7.6059919472E-002 -1.5356722639E+000  +8.6397800491E-002 -2.2324592738E+001  +1.3809982521E+000 -1.4632788447E+001 
7017130.163 +1.8702006273E+000 +1.5197735165E+001  +7.0369729014E-002 +1.2456092214E+001  +5.6860123414E-002 +7.3938720282E+000  +1.2737004956E+000 -7.9463644655E+000 
7142275.344 +1.6149786997E+000 +1.4623298599E+001  +6.3358161048E-002 +5.4644324954E+000  +6.2360083565E-002 -2.7421308165E+000  +1.3089803147E+000 -9.7724274994E+000 
7267420.526 +1.5641080680E+000 +1.1056873331E+001  +4.3343761557E-002 +4.1460879358E+000  +5.2377371238E-002 -1.5137208837E+000  +1.3010422135E+000 -4.9196849670E+000 
7392565.707 +1.2483561619E+000 -4.4223364705E+000  +3.2960677362E-002 +3.8858248723E+000  +4.0588560106E-002 +3.0666679796E+000  +1.3040324312E+000 -9.9007479271E+000 
7517710.889 +1.1189291995E+000 +3.8985168540E+000  +3.7107610484E-002 -2.2909111785E+000  +3.8891556815E-002 +5.1231005289E+000  +1.1292719025E+000 -7.0642185631E+000 
7642856.070 +9.9849723434E-001 +2.7668394457E+000  +3.4050304488E-002 +1.1351708358E+001  +3.4227327926E-002 -2.6934711235E+000  +1.1216475266E+000 -3.3741139312E+000 
7768001.252 +9.4886940829E-001 +4.8798334078E+000  +2.4636305085E-002 -2.1016035119E+000  +3.0499322691E-002 +1.0655443128E+001  +8.8026006651E-001 -1.8235605110E+000 
7893146.433 +8.1441887304E-001 +3.7759636234E+000  +2.5886752280E-002 -1.3449678770E+001  +3.1019203669E-002 +7.1650490235E+000  +9.3637356818E-001 -4.0579028152E+000 
8018291.615 +7.2919396610E-001 +1.3511642533E+001  +2.7353982309E-002 -2.7306876572E+000  +2.8779554416E-002 +6.6410041170E+000  +8.4690739026E-001 +1.6784387835E+000 
8143436.796 +7.0662921517E-001 -6.3495400927E-001  +3.5147650394E-002 +2.3763281804E+000  +2.5800785278E-002 +7.2496773043E+000  +8.6773960426E-001 -2.5552082257E-001 
8268581.977 +7.5278079408E-001 +9.8003218042E+000  +3.3658227646E-002 -7.3592742652E+000  +2.4825510073E-002 +8.6319442173E+000  +7.0682564612E-001 -3.3595486176E+000 
8393727.159 +6.8750477401E-001 +1.2407849813E+001  +3.0598078238E-002 +2.8879637019E+000  +2.8114637854E-002 +1.2937276806E+001  +7.1606870638E-001 +5.0792566135E+000 
8518872.340 +6.8914073681E-001 +6.1204887573E+000  +2.7831094313E-002 +6.0282125200E-001  +2.8606760601E-002 +1.3508612358E+001  +6.6960850143E-001 +5.1180483278E+000 
8644017.522 +6.5442643600E-001 +1.0068589029E+001  +2.7039472740E-002 +9.9246901912E+000  +2.9605334322E-002 +7.2166048733E+000  +6.6623416802E-001 +3.1937588194E+000 
8769162.703 +5.9206621990E-001 +5.1169643771E+000  +2.3130206844E-002 -2.4005072589E+000  +2.6280750793E-002 +8.7666651007E+000  +6.1854414800E-001 +1.9156589366E+000 
8894307.885 +5.6053824112E-001 +3.2968382673E+000  +2.5904749334E-002 -2.0375782599E+000  +2.7051331364E-002 +5.0538154068E+000  +6.2916778755E-001 +1.4266052162E+000 
9019453.066 +5.3578627139E-001 +3.5249384174E+000  +2.4679270451E-002 -2.9077209576E+000  +2.5508120624E-002 +1.1851243024E+001  +6.1291060549E-001 -5.3101107477E-001 
9144598.248 +6.0497992151E-001 +3.4614370503E+000  +2.8272003881E-002 -8.5318308375E+000  +2.6345401799E-002 +5.6448142983E+000  +5.8528179674E-001 -2.5640885509E+000 
9269743.429 +5.2088547632E-001 +7.4248189141E+000  +2.3807479943E-002 -4.7357030004E+000  +2.8593477505E-002 +2.0193430769E+001  +5.7178909018E-001 +3.2433900077E+000 
9394888.611 +5.2525943622E-001 +4.4800973931E+000  +2.4435476317E-002 -2.7211547751E+000  +2.6535376954E-002 +9.2082304770E+000  +5.9562222520E-001 +2.7601140430E+000 
9520033.792 +5.0767487293E-001 +2.2572561271E+000  +2.4807855831E-002 +5.1220128428E-001  +2.7111063764E-002 +1.7462012551E+001  +5.4778601555E-001 +2.0388879442E+000 
9645178.974 +4.9825259747E-001 +1.5072953876E+000  +2.7776000734E-002 -4.4246272075E+000  +2.6183458434E-002 +1.1446271995E+001  +5.8095768139E-001 -5.5501823135E+000 
9770324.155 +5.1359256273E-001 +1.3624349634E-001  +2.4127434351E-002 -7.4205639163E+000  +2.5608447954E-002 +1.6057939521E+001  +6.0524650558E-001 -4.1761736896E+000 
9895469.337 +5.0605833284E-001 +1.8286752839E+000  +2.3183867407E-002 -1.5911122787E+000  +2.8035141613E-002 +6.9208807919E+000  +5.5216951421E-001 -4.4484504112E+000 
10020614.518 +5.0839649368E-001 +8.1306084902E-001  +2.4002346147E-002 +2.8333118365E+000  +2.7078077145E-002 +1.9181262489E+001  +5.8374334527E-001 -7.8824345719E+000 
10145759.700 +4.8730786828E-001 +7.8968061510E+000  +2.5607897138E-002 +2.3070016705E+000  +2.5368443211E-002 +2.0554241151E+001  +5.5366124475E-001 -2.3656333143E+000 
10270904.881 +4.8290439391E-001 +2.3104579739E+000  +2.7043050726E-002 -3.2374859472E+000  +2.6342155442E-002 +1.7291033258E+001  +5.6121743950E-001 -2.0683062347E+000 
10396050.063 +5.1309105161E-001 +8.4034654429E+000  +2.6239103031E-002 -1.9687258464E+000  +2.6400643246E-002 +1.2182623311E+001  +6.0307385874E-001 -2.8638664256E-001 
10521195.244 +5.5033995163E-001 +8.9105671162E+000  +2.5942410341E-002 -3.3354546382E+000  +2.5689218923E-002 +9.3613964107E+000  +5.5816741742E-001 -1.4064781641E+000 
10646340.426 +5.6524355231E-001 +7.5356025610E+000  +2.4015883679E-002 -4.3952913769E-001  +2.7526089255E-002 +1.1471822178E+001  +5.4679023690E-001 +3.1876773809E+000 
10771485.607 +5.4882993110E-001 +6.3984540111E+000  +2.7383344462E-002 -2.4424878254E+000  +2.5154710142E-002 +1.6240296330E+001  +5.7947256555E-001 +8.1577581344E-001 
10896630.788 +5.6460525584E-001 +4.2906721111E+000  +2.8922125550E-002 +1.0002146706E+000  +2.7689528266E-002 +1.5632744026E+001  +5.7924324916E-001 +1.1327369338E+000 
11021775.970 +5.5401359493E-001 +9.5774497390E+000  +2.7113499159E-002 +2.0477718811E+000  +2.7358476215E-002 +1.6200418333E+001  +6.0682962705E-001 +2.2355637487E+000 
11146921.151 +5.7127465660E-001 +6.6085895497E+000  +2.8403334375E-002 +1.2830126706E+000  +2.4013620746E-002 +9.6033672240E+000  +5.8678813516E-001 +4.4867361988E+000 
11272066.333 +5.6882730757E-001 +5.7642129345E+000  +2.7502558403E-002 -1.0668651149E+000  +2.8299813715E-002 +1.6450863926E+001  +6.0976741850E-001 +2.3138013800E+000 
11397211.514 +5.7208931592E-001 +6.6374133980E+000  +2.9093027420E-002 +1.9368159188E+000  +2.8139356929E-002 +1.1036856873E+001  +5.9958600618E-001 +4.8130689998E+000 
11522356.696 +6.0001771453E-001 +5.2795611212E+000  +2.8761226597E-002 -1.3408308447E+000  +2.7208226007E-002 +9.3319007160E+000  +6.5306407231E-001 +1.6909096170E+000 
11647501.877 +6.1115624361E-001 +7.6688898406E+000  +2.9813627263E-002 +1.4092413121E+000  +2.9431970471E-002 +1.4448517910E+001  +6.2457651101E-001 +2.3080759374E+000 
11772647.059 +6.3272748452E-001 +5.2575026128E+000  +2.8925890226E-002 -1.5532760727E-001  +2.8479739009E-002 +1.1861577268E+001  +6.4418253486E-001 +2.0256353662E+000 
11897792.240 +6.4500264162E-001 +7.9677890958E+000  +3.0136973947E-002 +4.3807193697E+000  +3.0027213733E-002 +1.1618713777E+001  +6.5799333629E-001 +2.9279672600E+000 
12022937.422 +6.4683819584E-001 +3.8950746196E+000  +3.1110329101E-002 +2.9161714125E+000  +2.8655142086E-002 +1.5126359784E+001  +6.6478529383E-001 +1.7556248989E+000 
12148082.603 +6.6621364756E-001 +5.0794542264E+000  +3.0060592276E-002 +3.1267621972E+000  +2.9711626045E-002 +1.3990119477E+001  +6.9803778468E-001 +2.4747810244E+000 
12273227.785 +7.1609469656E-001 +2.7293294508E+000  +2.8631459192E-002 -2.3346437820E-001  +3.0502783575E-002 +1.1875663641E+001  +7.1250001880E-001 -6.4426815767E-001 
12398372.966 +6.9312310803E-001 +2.4316507557E+000  +3.0691997228E-002 +3.8961086842E+000  +3.0763396623E-002 +1.3228146875E+001  +7.1632009368E-001 +1.0171342998E-001 
12523518.148 +7.0164001053E-001 +3.6127301086E+000  +3.2181037017E-002 +1.5715538848E+000  +3.0504362501E-002 +9.6375909247E+000  +7.1531494694E-001 -1.5136047221E+000 
12648663.329 +7.3475306748E-001 +8.7300918565E-001  +3.1167143337E-002 +3.5008271394E+000  +2.9830946865E-002 +9.1722163833E+000  +6.9911837934E-001 +1.0824294230E+000 
12773808.511 +7.3643167943E-001 +2.5172561132E+000  +3.1344848783E-002 +6.3070548163E-001  +3.1725396266E-002 +8.5745453598E+000  +7.5186279933E-001 +9.4027984242E-001 
12898953.692 +7.3164164037E-001 +1.1348773833E+000  +3.1151855967E-002 +1.8615287907E+000  +3.1811931509E-002 +1.1339180179E+001  +7.6120636856E-001 +5.2182992909E-001 
13024098.874 +7.6146027932E-001 -1.3561872444E+000  +3.2882331665E-002 +4.1294044874E+000  +3.2075890793E-002 +2.3589159851E+000  +7.7833595020E-001 -1.8952439500E+000 
13149244.055 +7.7064003301E-001 +8.2469485785E-001  +3.2235413920E-002 +7.4104051528E+000  +3.2767952021E-002 +8.0801172844E+000  +7.8473512604E-001 -9.6897660709E-001 
13274389.237 +8.0216942640E-001 +1.1016747642E+000  +3.3491292890E-002 +3.1440895545E+000  +3.3098636699E-002 +4.1472056714E+000  +8.0354922802E-001 -2.6920502117E+000 
13399534.418 +8.1659912855E-001 -1.1400461802E+000  +3.2721970916E-002 +4.9110778538E+000  +3.2953639117E-002 +7.5850223888E+000  +8.2625588059E-001 -1.5567366461E+000 
13524679.599 +8.1960962912E-001 -9.3980869192E-001  +3.3157231317E-002 +2.1769117936E+000  +3.3969117539E-002 +5.9281198633E+000  +8.4370766436E-001 -1.7021158276E+000 
13649824.781 +8.4436847184E-001 -3.8049096240E+000  +3.3074063748E-002 +1.7077508671E+000  +3.2454418420E-002 +3.6402709338E+000  +8.5876745639E-001 -2.6660806986E+000 
13774969.962 +8.5995420900E-001 -2.9537314817E+000  +3.3204223862E-002 +2.7948431645E+000  +3.4356674724E-002 +2.1415875979E+000  +8.6548857717E-001 -3.2370336611E+000 
13900115.144 +8.5947877716E-001 -5.6317448847E+000  +3.4219365560E-002 +2.8205518529E+000  +3.3751986376E-002 +1.7256184668E+000  +8.8273914994E-001 -2.0000660727E+000 
14025260.325 +9.0742037008E-001 -5.7144799093E+000  +3.3982095189E-002 +8.1472878163E-001  +3.2757968126E-002 +2.4089776567E+000  +8.9900335688E-001 -3.4302413284E+000 
14150405.507 +9.4393309090E-001 -4.8279051404E+000  +3.3307619597E-002 +4.7969279611E+000  +3.4806405459E-002 +4.1540950994E+000  +9.3197219138E-001 -4.2207228647E+000 
14275550.688 +9.2678930946E-001 -5.6792884353E+000  +3.4420839084E-002 +2.8794322707E+000  +3.2133742967E-002 +2.0095544972E+000  +9.2655997412E-001 -4.1771964937E+000 
14400695.870 +9.5175998590E-001 -7.6076643169E+000  +3.5424588375E-002 +1.4503736131E+000  +3.5774146129E-002 +6.5172037231E-001  +9.8070308062E-001 -4.8383741238E+000 
