!  2-Port S-parameters saved by WinCal
! VAR MeasName=S-Parameters (CALIBRATED_DATA) read from VNA (P5004A)
! VAR MeasDate=29/08/2024 12:30:34
! VAR NAME=S2_r9c5_SET2_9k-100M_1
! VAR FILENAME=S2_r9c5_SET2_9k-100M_1.S2P
! VAR DATE=29/08/2024 12:30:34
! VAR PHYS_PORTS=1,2
! VAR ObjTypeName=DATASET
! VAR IndexType=Frequency
!
# Hz S MA R 50
9000.000 +9.0207930631E-002 -1.6147077651E+002  +1.8362035520E-002 +7.2342035802E+001  +9.0614954767E-003 -1.2541797445E+001  +1.9841597365E-001 -1.3931658870E+002 
134145.181 +1.1124673935E-001 +1.6932297956E+002  +1.1161994755E-004 -1.3203712583E+002  +3.0790653042E-004 +2.0598030756E+001  +2.4197378148E-001 -1.7029589320E+002 
259290.363 +1.1216872896E-001 +1.6961658541E+002  +3.3856966211E-004 -1.0886991777E+002  +1.5681389466E-004 -6.8686246579E+001  +2.3993317212E-001 -1.6956960257E+002 
384435.544 +1.1387980236E-001 +1.7025276281E+002  +1.0435230237E-003 -1.1071213172E+002  +2.8861175659E-004 -1.9773019716E+001  +2.3783022149E-001 -1.7024895630E+002 
509580.726 +1.1362809011E-001 +1.7103987786E+002  +6.5696619236E-004 +6.7647004747E+000  +2.0810824827E-003 +1.7821048944E+002  +2.3143311693E-001 -1.6232913309E+002 
634725.907 +1.1697732321E-001 +1.7101923815E+002  +1.8146600344E-003 -1.0173796897E+002  +2.0752018860E-003 +1.1213976049E+002  +2.4496975601E-001 -1.6455758254E+002 
759871.089 +1.1881629426E-001 +1.7101710549E+002  +1.1528444250E-003 -7.2154247448E+001  +1.2058442779E-003 +6.1574348768E+001  +2.4906469999E-001 -1.6577599950E+002 
885016.270 +1.2032329904E-001 +1.6960377485E+002  +5.4900019457E-004 -1.1758759287E+002  +1.0912682305E-003 +9.7022129499E+001  +2.3916588409E-001 -1.6791662588E+002 
1010161.452 +1.1565159480E-001 +1.7019985946E+002  +4.0247829893E-003 -3.7317172446E+001  +2.3848985733E-003 -1.7590774014E+002  +2.0125537463E-001 -1.6630258989E+002 
1135306.633 +1.1717909360E-001 +1.6910452536E+002  +2.3193362708E-003 -2.9978631730E+001  +6.6495898310E-004 +1.3833903003E+002  +2.0747858914E-001 -1.6520959091E+002 
1260451.815 +1.1752295309E-001 +1.7070514320E+002  +2.6883962433E-003 +1.0525605401E+001  +4.2178831623E-003 +1.6310287935E+002  +2.0551326193E-001 -1.6378257927E+002 
1385596.996 +1.2669188089E-001 +1.7189326559E+002  +2.6733589633E-004 +1.2956926189E+002  +9.0537147153E-004 +3.6828582787E+001  +2.5356473873E-001 -1.6068808689E+002 
1510742.178 +1.2717869825E-001 +1.7196497454E+002  +1.2912671855E-003 -1.7006277244E+001  +3.1172773649E-004 +1.3126737567E+002  +2.5557650746E-001 -1.6097595618E+002 
1635887.359 +1.2739164400E-001 +1.6948313674E+002  +1.3307979787E-003 +9.5367924268E+000  +2.3752997157E-003 -1.5055942060E+002  +2.2822552957E-001 -1.5572736355E+002 
1761032.541 +1.3035983726E-001 +1.7003179784E+002  +2.4220782395E-003 +2.8303949668E+001  +1.6558204190E-003 -9.4958871981E+001  +2.0718335100E-001 -1.6430214186E+002 
1886177.722 +1.2898985231E-001 +1.7026899503E+002  +1.7563338844E-003 +2.5038811625E+001  +3.1266758849E-003 -1.0450029425E+002  +2.3334508863E-001 -1.6164258253E+002 
2011322.904 +1.3007591406E-001 +1.6741856929E+002  +3.2168842048E-003 +7.1525426627E+001  +6.9385867737E-003 -6.6919769128E+001  +1.9317572938E-001 -1.6324452299E+002 
2136468.085 +1.3702733652E-001 +1.6569247622E+002  +4.0560241811E-003 +6.5965433417E+001  +4.3380732853E-003 -4.1043739172E+001  +2.0391318148E-001 -1.6570933639E+002 
2261613.267 +1.3594872023E-001 +1.6714897189E+002  +5.3800807318E-003 +8.1016976730E+001  +5.6229063725E-003 -6.1223289044E+001  +2.2587127689E-001 -1.6768917355E+002 
2386758.448 +1.3693933506E-001 +1.6600887859E+002  +9.0131178871E-003 +7.1242172288E+001  +9.8855272391E-003 -4.3027566662E+001  +2.1836515734E-001 -1.7018247680E+002 
2511903.630 +1.3797282769E-001 +1.6457971920E+002  +8.7802798579E-003 +5.5900142095E+001  +9.7119507702E-003 -5.1435017464E+001  +1.9753238457E-001 -1.7245402850E+002 
2637048.811 +1.0777806878E-001 +1.5959806987E+002  +3.2692215564E-002 +9.8070007209E+001  +4.2813493939E-002 -1.9776004532E+001  +2.5070029292E-001 +1.5895367544E+002 
2762193.992 +8.1540943974E-002 -1.5677408655E+002  +1.1361065582E-001 -4.9923077087E+000  +1.0621975794E-001 -1.1388765382E+002  +8.6720131374E-002 -8.6977077264E+001 
2887339.174 +1.2134752616E-001 +1.7294669835E+002  +8.2599938022E-002 -1.4003421605E+000  +8.0089486511E-002 -1.1504536689E+002  +2.5618873676E-001 -5.5541370307E+001 
3012484.355 +1.3169820813E-001 +1.7672624091E+002  +4.0176207725E-002 -2.3501943525E+001  +3.3551771930E-002 -1.1636105997E+002  +1.8220805474E-001 -1.0118004347E+002 
3137629.537 +1.4201840422E-001 +1.6796407587E+002  +1.0138076739E-001 -6.8279973171E+001  +8.7742986998E-002 -1.5980854953E+002  +9.5067111159E-001 -9.0071973519E+001 
3262774.718 +1.2005998047E-001 +1.6519514314E+002  +9.4135784383E-002 +3.1516643360E+001  +1.0198821289E-001 -5.9703277403E+001  +3.9367834029E-001 +1.4077332690E+001 
3387919.900 +1.1506125567E-001 +1.6031212449E+002  +9.8283515504E-002 +3.2467817232E+001  +8.4502714336E-002 -5.0200796112E+001  +2.9514113297E-001 +2.8719469227E+001 
3513065.081 +1.4409161264E-001 +1.5675431290E+002  +6.5823225354E-002 +7.5818615923E+001  +6.5413175006E-002 -1.7619633159E+001  +3.8081092094E-001 +9.4635145744E+001 
3638210.263 +1.7648312733E-001 +1.5155509409E+002  +4.6649863098E-002 +1.0574544525E+002  +4.0095147066E-002 +1.8640757573E+001  +2.9447512015E-001 +1.3784056030E+002 
3763355.444 +1.7257836281E-001 +1.4847177350E+002  +4.7718463599E-002 +9.5799152686E+001  +3.4162112705E-002 +2.1312154459E+001  +2.9243883160E-001 +1.5204788135E+002 
3888500.626 +1.8501184923E-001 +1.4898375490E+002  +3.6294701946E-002 +1.1909705896E+002  +4.1865629601E-002 +3.7620741249E+001  +4.0021178232E-001 +1.5574589501E+002 
4013645.807 +1.5818441955E-001 +1.5180795750E+002  +8.6686168171E-002 +6.7553830709E+001  +8.5321868879E-002 -5.0872110118E-001  +3.9045819284E-001 +9.7402062704E+001 
4138790.989 +2.0639042031E-001 +1.4019860254E+002  +6.0629712655E-002 +9.2368475643E+001  +5.4904939316E-002 +2.2448298182E+001  +2.1960819595E-001 +1.4203811372E+002 
4263936.170 +2.0085967702E-001 +1.4344505281E+002  +8.0674909998E-002 +1.1133188641E+002  +7.6458228059E-002 +5.6567281893E+001  +5.7552185160E-001 +1.3713644492E+002 
4389081.352 +1.9788315867E-001 +1.4985528192E+002  +1.1242840073E-001 +1.0708762761E+002  +1.2020348322E-001 +5.4080484952E+001  +1.0363300076E+000 +1.2182319211E+002 
4514226.533 +2.3406527686E-001 +1.4554721631E+002  +7.5915798937E-002 +1.0103941737E+002  +8.4197298834E-002 +4.0321438377E+001  +5.6678876594E-001 +1.2164381375E+002 
4639371.715 +1.9770674679E-001 +1.2822235541E+002  +3.2678672727E-001 +3.8343483492E+001  +2.8228185228E-001 -4.9225088483E+000  +1.8501720173E+000 +1.6271580014E+001 
4764516.896 +3.2405123443E-001 +1.0585706641E+002  +1.0810824063E+000 +7.8391204831E+001  +1.0447093958E+000 +2.3826535533E+001  +6.8757422782E+000 +4.9051906930E+001 
4889662.078 +2.2041992146E-001 +1.0882536127E+002  +4.8466447531E-001 -4.5754430775E+001  +4.5682885179E-001 -8.8784602940E+001  +2.3717798647E+000 -8.9677308137E+001 
5014807.259 +3.8761878922E-001 +4.3445442631E+001  +3.5340617962E+000 +1.4661973419E+001  +3.4014664313E+000 -3.0622885716E+001  +2.4111021192E+001 -2.0292940213E+001 
5139952.441 +3.7523126819E-001 +1.3067019160E+002  +3.4013510153E-001 +8.7258202673E+001  +2.9639809744E-001 +5.1701583032E+001  +2.0838263537E+000 +6.0285538848E+001 
5265097.622 +3.5131573183E-001 +1.3748077604E+002  +2.2225761196E-001 +9.8180954931E+001  +2.1093249880E-001 +5.5582967415E+001  +1.5140907071E+000 +7.9502473231E+001 
5390242.804 +3.6614827830E-001 +1.3214778801E+002  +2.0450573090E-001 +7.6267828201E+001  +1.7533358343E-001 +4.2051745950E+001  +9.4554551690E-001 +6.0698378224E+001 
5515387.985 +4.4529631198E-001 +1.3709017403E+002  +1.6688241228E-001 +1.3446360934E+002  +1.6304412319E-001 +1.0585292217E+002  +1.3664557699E+000 +1.2699518042E+002 
5640533.166 +4.2388333542E-001 +1.1910274249E+002  +2.2233983686E-001 +9.7833249907E+001  +2.0192083207E-001 +7.2941750313E+001  +1.2397472237E+000 +1.1812738104E+002 
5765678.348 +5.3168585914E-001 +1.2810884708E+002  +3.0887185999E-001 +1.0212984071E+002  +3.0467160029E-001 +7.9375435911E+001  +1.9293364462E+000 +8.6973940209E+001 
5890823.529 +4.7620429520E-001 +1.1254692177E+002  +3.1758149391E-001 +6.0090338096E+001  +3.1675545830E-001 +4.2269903791E+001  +1.5995897484E+000 +5.5836624017E+001 
6015968.711 +5.0994423273E-001 +1.2433016378E+002  +2.7177799221E-001 +5.0727098391E+001  +2.5800471420E-001 +2.7619536907E+001  +1.8382073399E+000 +3.0607420762E+001 
6141113.892 +6.1978398881E-001 +1.0654088978E+002  +2.9291337598E-001 +5.4695606371E+001  +2.6921161893E-001 +3.7290125761E+001  +1.0520375093E+000 +4.4567902480E+001 
6266259.074 +5.8775145490E-001 +1.0256562878E+002  +2.6374488730E-001 +4.7068044666E+001  +2.7490411992E-001 +2.6448240345E+001  +1.1876095832E+000 +4.4450763044E+001 
6391404.255 +7.1381758550E-001 +1.0640979458E+002  +2.4445497446E-001 +4.7099613603E+001  +2.3502675426E-001 +2.8064986977E+001  +1.0297385865E+000 +2.9418813574E+001 
6516549.437 +9.3700568301E-001 +7.1094736121E+001  +3.8140082056E-001 +3.4106529466E+001  +3.5829759104E-001 +1.6674677969E+001  +1.1119863399E+000 +2.6421472890E+001 
6641694.618 +1.0739771142E+000 +7.7843928720E+001  +3.5605499882E-001 +3.4021802728E+001  +3.4152991114E-001 +2.6330823015E+001  +1.2828740142E+000 +1.7617130084E+001 
6766839.800 +1.1301768417E+000 +7.0196929884E+001  +2.9836453003E-001 +2.5867616666E+001  +2.9446241382E-001 +1.8238243581E+001  +9.0716384264E-001 +4.1487968342E+000 
6891984.981 +9.8337268230E-001 +3.7839371514E+001  +3.0859103895E-001 +6.7837973178E+000  +3.2535371671E-001 -3.6880473453E-001  +1.0398046372E+000 +8.3199092145E+000 
7017130.163 +1.1531901418E+000 +1.0849259568E+001  +3.0759943654E-001 -5.3487316964E+000  +3.1191914304E-001 -8.0382469976E+000  +9.9001849764E-001 -1.4948554957E+001 
7142275.344 +1.1838731060E+000 +6.3585283536E+000  +2.8081229425E-001 -7.3012540834E-001  +2.7533306583E-001 -4.9682202954E+000  +9.9118366286E-001 -1.6995572545E+000 
7267420.526 +1.1067406827E+000 +4.2880886590E+000  +2.3343489681E-001 +1.7602918178E+000  +2.3796618769E-001 -1.5629767857E+000  +1.1203332855E+000 -8.6362022945E+000 
7392565.707 +1.0461698860E+000 -3.9533435304E+000  +2.2029777511E-001 +2.4005929861E+000  +2.0803176733E-001 +5.7171435749E+000  +1.2259820591E+000 -1.0967650501E+001 
7517710.889 +1.0666489083E+000 -1.4729057456E-001  +2.0763183803E-001 +4.5604987926E+000  +1.9475333661E-001 +5.7999439103E+000  +9.8053842331E-001 -7.0790863478E+000 
7642856.070 +8.3148631946E-001 +1.1458479124E+000  +1.7842968118E-001 +5.4020214836E-001  +1.7631165925E-001 +5.2831699783E+000  +9.3467027357E-001 -5.8940989960E+000 
7768001.252 +7.6314712535E-001 +1.1616017092E+001  +1.7586757504E-001 +1.2172025804E+000  +1.7462492324E-001 +5.4347704872E+000  +7.5509176693E-001 -8.3991010289E+000 
7893146.433 +7.1037545474E-001 +4.1422366738E+000  +1.6251678522E-001 -4.5297371555E-001  +1.6882088284E-001 +9.0945282326E+000  +7.7241008325E-001 -1.7721074796E+000 
8018291.615 +6.1567181312E-001 +5.6126375402E+000  +1.5704006309E-001 -1.9489212845E+000  +1.5745626792E-001 +6.0756609679E+000  +6.6797116963E-001 -2.8006632681E+000 
8143436.796 +5.3025592565E-001 +8.5666217152E+000  +1.6348036970E-001 -4.5911372992E+000  +1.5434612631E-001 +7.2817756657E+000  +6.2114250117E-001 +2.8998126942E+000 
8268581.977 +5.2222412610E-001 +1.6004805826E+001  +1.5169850522E-001 -2.4263976851E+000  +1.5075928852E-001 +7.1209823033E+000  +6.1373106100E-001 +5.8279478376E+000 
8393727.159 +4.9733076143E-001 +1.4305650158E+001  +1.4925759475E-001 -1.9125034292E+000  +1.4708944134E-001 +8.6844990164E+000  +5.5298563201E-001 -2.9907692802E-001 
8518872.340 +4.9814905386E-001 +1.5543200967E+001  +1.4432916780E-001 -1.2679159283E+000  +1.4685423666E-001 +8.0243448369E+000  +5.1824689199E-001 +8.8095092938E+000 
8644017.522 +5.1493812064E-001 +1.1729045215E+001  +1.4251910066E-001 -1.1699710980E+000  +1.4722675505E-001 +1.0625780687E+001  +5.8202168944E-001 +1.9144784180E+000 
8769162.703 +5.0922017379E-001 +1.2466152660E+001  +1.4196659012E-001 -4.3101541420E+000  +1.4757611767E-001 +9.3752357302E+000  +5.1342609094E-001 +1.1639709897E+000 
8894307.885 +4.6089100533E-001 +1.7570515111E+001  +1.3757035533E-001 -3.2765866924E+000  +1.4317393223E-001 +1.0476940990E+001  +4.9797790333E-001 +7.7503504821E-001 
9019453.066 +4.1672127513E-001 +9.7588829765E+000  +1.4344711479E-001 -5.6955038629E+000  +1.4173243498E-001 +9.4427528731E+000  +4.4411833763E-001 +3.3326389526E+000 
9144598.248 +3.4522921050E-001 +1.5719826657E+001  +1.3891232694E-001 -6.1547802987E+000  +1.4091984763E-001 +7.9022107334E+000  +4.2122939496E-001 -5.7390877356E+000 
9269743.429 +3.9965312230E-001 +9.3678319525E+000  +1.4286611968E-001 -5.9374273930E+000  +1.4243282843E-001 +1.0738661024E+001  +4.7045608836E-001 -5.4914249465E+000 
9394888.611 +4.0224054237E-001 +9.7573352840E+000  +1.4537067432E-001 -5.6807867386E+000  +1.3825843548E-001 +1.3158395993E+001  +4.3648627561E-001 +2.3203925689E+000 
9520033.792 +4.5001632466E-001 +3.6385104338E+000  +1.4228414912E-001 -5.6918734876E+000  +1.4361881256E-001 +1.2046968489E+001  +4.4453247995E-001 -6.1127078213E-001 
9645178.974 +4.2681132040E-001 +4.8268531513E+000  +1.4290607875E-001 -3.5312575891E+000  +1.4267038987E-001 +1.1385858039E+001  +4.5225227419E-001 -2.2413041077E+000 
9770324.155 +4.2530651135E-001 +7.0760243323E+000  +1.4377304172E-001 -4.3676148479E+000  +1.4244871458E-001 +1.2552268307E+001  +4.2890968876E-001 -7.1534162119E+000 
9895469.337 +3.9535797574E-001 +5.9458448208E-001  +1.4572157169E-001 -4.3641429387E+000  +1.4308709284E-001 +1.2517679251E+001  +4.2380867761E-001 -3.4667815785E+000 
10020614.518 +4.0096477160E-001 +7.3413357827E+000  +1.4176628689E-001 -4.5208817578E+000  +1.4315925495E-001 +1.1742514622E+001  +4.5600997211E-001 -1.6705820930E+000 
10145759.700 +4.3412713425E-001 +6.4988650503E+000  +1.4511521811E-001 -2.6988088060E+000  +1.4296500600E-001 +1.4058282324E+001  +4.6848658797E-001 +1.4177647815E+000 
10270904.881 +3.9570974689E-001 +5.2313576989E+000  +1.4459437302E-001 -3.6058581361E+000  +1.4228333391E-001 +1.3166474568E+001  +4.4317915104E-001 +9.5501531884E-001 
10396050.063 +4.1135971056E-001 +7.5819648682E+000  +1.4443525906E-001 -2.8475372435E+000  +1.4477023727E-001 +1.2982553414E+001  +4.3936626173E-001 +5.8514311103E+000 
10521195.244 +4.0052824998E-001 +5.8307666986E+000  +1.4822394702E-001 -2.5700921674E+000  +1.4422244306E-001 +1.2756044399E+001  +4.4322022001E-001 +6.1941417507E+000 
10646340.426 +4.0871817954E-001 +1.1958653675E+001  +1.4640594645E-001 -2.1656740654E+000  +1.4491533549E-001 +1.2411025439E+001  +4.8254280471E-001 +7.9759274065E+000 
10771485.607 +4.1269329765E-001 +1.2365098381E+001  +1.4555665322E-001 -1.6238118020E+000  +1.4618247118E-001 +1.2447544868E+001  +4.6742624763E-001 +4.5599906021E+000 
10896630.788 +4.4184894942E-001 +1.1395602935E+001  +1.4832942420E-001 -1.1082782818E+000  +1.4550248367E-001 +1.3471927697E+001  +4.2763910700E-001 +2.2591991181E+000 
11021775.970 +4.1969262608E-001 +1.2104367402E+001  +1.5219003987E-001 -1.3200912288E+000  +1.5022306066E-001 +1.2195960575E+001  +4.5237898039E-001 +3.3420033779E+000 
11146921.151 +4.5694270501E-001 +1.2504843173E+001  +1.5284622288E-001 -6.0317509484E-001  +1.4933705657E-001 +1.2028398559E+001  +5.0013674202E-001 +4.5935276008E+000 
11272066.333 +4.4772337629E-001 +1.1725751279E+001  +1.5187891300E-001 -6.0131921700E-001  +1.5015142047E-001 +1.2385127538E+001  +4.6362119361E-001 +6.4355913350E+000 
11397211.514 +4.5415320869E-001 +8.8758868247E+000  +1.5678758718E-001 -5.1002440436E-001  +1.5269906509E-001 +1.1459713972E+001  +4.8155684373E-001 +1.0043324020E+000 
11522356.696 +4.7296426932E-001 +7.4941050247E+000  +1.5643152523E-001 -3.8251623066E-001  +1.5219225351E-001 +1.1203716140E+001  +4.7551044780E-001 +4.7047687811E+000 
11647501.877 +4.9592691256E-001 +5.8180661591E+000  +1.5747400526E-001 +7.2008852666E-001  +1.5640816503E-001 +1.1456452391E+001  +5.2634517454E-001 +1.9415723392E+000 
11772647.059 +5.0137856303E-001 +8.2934929513E+000  +1.5670483078E-001 +9.3997601948E-001  +1.5789776068E-001 +1.0995599616E+001  +4.9166830534E-001 +3.6294361738E+000 
11897792.240 +5.1938229332E-001 +8.3659165460E+000  +1.5772007622E-001 +1.2925378214E+000  +1.5784098727E-001 +1.1383354643E+001  +5.3629726987E-001 +4.1443278782E+000 
12022937.422 +5.0008511587E-001 +8.5700647461E+000  +1.5956119439E-001 +6.4499957660E-001  +1.6121687370E-001 +9.8177225264E+000  +5.2701873625E-001 +3.3241896252E+000 
12148082.603 +5.0809577300E-001 +8.0000647557E+000  +1.6366585733E-001 +1.1061370692E+000  +1.6223575479E-001 +1.0355222791E+001  +5.0844070437E-001 +2.6291913980E+000 
12273227.785 +5.5150543245E-001 +5.7651132907E+000  +1.6574654823E-001 +7.1106296416E-001  +1.6311213700E-001 +9.9916402396E+000  +5.3673997580E-001 +1.9639240457E+000 
12398372.966 +5.3838816546E-001 +3.9297706333E+000  +1.6718695609E-001 +1.4433265219E+000  +1.6681941995E-001 +8.4237855238E+000  +5.4270711763E-001 +2.3730714150E+000 
12523518.148 +5.7800050820E-001 +6.4711316626E+000  +1.6888667085E-001 +1.6721961263E+000  +1.6715837230E-001 +9.2015830705E+000  +5.6416263554E-001 -9.8561260153E-001 
12648663.329 +5.7605642321E-001 +4.3948197072E+000  +1.7036553881E-001 +1.8235008101E+000  +1.6819716446E-001 +8.5772285221E+000  +5.6563139466E-001 +8.2220615275E-001 
12773808.511 +5.9457902692E-001 +3.9860799867E+000  +1.7166408219E-001 +2.0454798488E+000  +1.7049146918E-001 +7.9820622928E+000  +5.8879551647E-001 -1.8690539208E-001 
12898953.692 +5.9572613824E-001 +2.2782385970E+000  +1.7532445204E-001 +1.5951948785E+000  +1.7299690124E-001 +7.9488962074E+000  +6.0557700835E-001 -1.2266433486E+000 
13024098.874 +6.1453112874E-001 +3.3247579412E+000  +1.7487051831E-001 +2.0331557514E+000  +1.7369826921E-001 +7.1575998450E+000  +6.2024575859E-001 -8.9448063668E-001 
13149244.055 +6.4129849234E-001 +1.1023652017E+000  +1.7768366623E-001 +2.4281185437E+000  +1.7352998197E-001 +6.6476929481E+000  +6.6546349587E-001 -1.2433795257E+000 
13274389.237 +6.2682717302E-001 -7.8215492538E-001  +1.7899934702E-001 +2.0351138574E+000  +1.7685147175E-001 +5.6214650437E+000  +6.5423142969E-001 -6.5809199151E-001 
13399534.418 +6.4448515993E-001 -1.6785466969E+000  +1.8267507906E-001 +2.4115470881E+000  +1.7972329106E-001 +5.3470735270E+000  +6.7162123276E-001 -2.5757806652E+000 
13524679.599 +6.6422116940E-001 -2.4142054839E+000  +1.8208801880E-001 +2.0378206580E+000  +1.8066551655E-001 +5.5245930879E+000  +6.7694697028E-001 -2.0729684907E+000 
13649824.781 +6.9137927448E-001 -3.9793280881E+000  +1.8521758666E-001 +2.2364513099E+000  +1.8267833737E-001 +4.7560938225E+000  +6.8687433308E-001 -3.2646934496E+000 
13774969.962 +7.1002225544E-001 -2.6461349101E+000  +1.8553947329E-001 +2.2692273598E+000  +1.8123629464E-001 +4.6592258351E+000  +7.0903313070E-001 -2.5622767796E+000 
13900115.144 +7.1452040216E-001 -3.5604452543E+000  +1.8628259198E-001 +2.5304690434E+000  +1.8442392494E-001 +3.7080107787E+000  +7.4716334981E-001 -3.4682613338E+000 
14025260.325 +7.3607377141E-001 -3.4288869010E+000  +1.8732300394E-001 +1.9341483483E+000  +1.8707260638E-001 +3.6012495180E+000  +7.6257503174E-001 -3.8116224728E+000 
14150405.507 +7.3973286592E-001 -2.9196848806E+000  +1.8916333896E-001 +1.2676340225E+000  +1.8676048325E-001 +3.0097185378E+000  +7.5483505733E-001 -4.8135661390E+000 
14275550.688 +7.5226174432E-001 -2.5031736714E+000  +1.8912743195E-001 +1.6687926193E+000  +1.8782504624E-001 +2.8935538200E+000  +7.9188019577E-001 -5.6990291102E+000 
14400695.870 +7.7158104354E-001 -6.0704231401E+000  +1.9295823506E-001 +1.5338604910E+000  +1.8880660937E-001 +1.5439544181E+000  +7.9961107810E-001 -5.5740807752E+000 
