!  2-Port S-parameters saved by WinCal
! VAR MeasName=S-Parameters (CALIBRATED_DATA) read from VNA (P5004A)
! VAR MeasDate=29/08/2024 11:24:03
! VAR NAME=S2_r9c3_RESET4_9k-100M_2
! VAR FILENAME=S2_r9c3_RESET4_9k-100M_2.S2P
! VAR DATE=29/08/2024 11:24:03
! VAR PHYS_PORTS=1,2
! VAR ObjTypeName=DATASET
! VAR IndexType=Frequency
!
# Hz S MA R 50
9000.000 +6.5130785103E-002 -1.5431996666E+002  +1.0633976937E-002 +4.0773912765E+001  +6.2743474110E-003 -8.9799539648E+001  +2.3848313007E-001 -1.4819140845E+002 
134145.181 +1.1062342318E-001 +1.6923900712E+002  +4.0304607097E-004 +3.7951254503E+001  +1.1604471976E-004 +4.9323597004E+001  +2.3645732789E-001 -1.6930498232E+002 
259290.363 +1.1142868637E-001 +1.7027594101E+002  +7.5506211599E-004 +5.5516242700E+000  +1.5006387439E-003 -1.4772281112E+002  +2.4020208244E-001 -1.6581958241E+002 
384435.544 +1.1395317428E-001 +1.7017220352E+002  +3.0047326858E-004 +4.8638450622E+001  +4.2903923145E-005 +4.2490397013E+001  +2.4576496626E-001 -1.6958894351E+002 
509580.726 +1.1298737078E-001 +1.7173601914E+002  +5.1377228777E-004 -9.3181109999E+001  +6.6357093856E-004 -1.6798924244E+002  +2.5027309383E-001 -1.6611472760E+002 
634725.907 +1.1625643577E-001 +1.7191301256E+002  +8.3987802604E-004 +6.8361481714E+001  +1.3036507911E-003 -7.9576392878E+001  +2.6248100276E-001 -1.6658865833E+002 
759871.089 +1.1997082151E-001 +1.7098967577E+002  +6.1869501051E-004 -1.2376936254E+002  +2.3837193454E-004 -1.2728437659E+002  +2.4672669206E-001 -1.6791739702E+002 
885016.270 +1.2061138424E-001 +1.6887199664E+002  +4.6031577106E-004 -3.2505568420E+001  +3.2709675173E-004 +2.7355229399E+001  +2.4670164678E-001 -1.6665128287E+002 
1010161.452 +1.1897249227E-001 +1.7083127704E+002  +1.0769693089E-003 +1.6801173406E+002  +1.1142063108E-004 +2.7574958145E+001  +2.0967453954E-001 -1.6848762404E+002 
1135306.633 +1.1687601373E-001 +1.6956111440E+002  +3.6256930939E-003 -4.9429601496E+001  +2.2220893908E-003 -1.4992165351E+002  +1.5628709983E-001 -1.7066426291E+002 
1260451.815 +1.2065979807E-001 +1.7068760733E+002  +4.9248146969E-004 -1.0353110728E+000  +2.4759176590E-003 -2.7081956735E+001  +2.1925283508E-001 -1.5975983718E+002 
1385596.996 +1.2627070625E-001 +1.7275506341E+002  +7.6647327673E-004 +1.3554543420E+002  +2.2092993976E-004 +8.7592217542E+001  +2.7842399692E-001 -1.5781725297E+002 
1510742.178 +1.2701241135E-001 +1.7227913207E+002  +6.0192337286E-004 -7.8469812366E-001  +7.3786714262E-004 -9.0782434574E+001  +2.5536863168E-001 -1.5880367066E+002 
1635887.359 +1.2895563069E-001 +1.7221669761E+002  +1.2052184273E-003 +8.5749901403E+001  +3.8063666401E-004 +5.9668148229E+000  +2.2610791717E-001 -1.5669732285E+002 
1761032.541 +1.2921435712E-001 +1.7043439786E+002  +1.3410604570E-003 -1.6870800331E+002  +2.0446093130E-003 -4.7960624816E+001  +2.0219141704E-001 -1.6170275850E+002 
1886177.722 +1.3151813467E-001 +1.6975060963E+002  +1.5138360422E-003 -3.8265640973E+001  +3.9601449730E-003 -5.2988496988E+001  +2.0858900195E-001 -1.6110044734E+002 
2011322.904 +1.2753964485E-001 +1.6778937998E+002  +2.3244046346E-003 -1.3002603237E+001  +2.3611384354E-003 -5.3296490662E+001  +2.0831406353E-001 -1.5784482345E+002 
2136468.085 +1.3085680780E-001 +1.6619800292E+002  +2.2704785227E-003 -9.2540832149E+001  +8.9774387674E-004 +1.5048418827E+002  +2.0476855817E-001 -1.7794505757E+002 
2261613.267 +1.2853703439E-001 +1.6633124119E+002  +5.4623224998E-004 +1.3276226513E+002  +7.7844881009E-004 -4.0591064032E+001  +2.4957269898E-001 +1.4710540318E+002 
2386758.448 +1.3783182430E-001 +1.6383538005E+002  +2.9587352112E-003 -2.1186307140E+001  +2.3105107511E-003 -9.4293958137E+001  +2.0267364785E-001 -1.7890997808E+002 
2511903.630 +1.2615413440E-001 +1.6090658228E+002  +6.3898095888E-003 +1.7612480342E+002  +7.1332831209E-003 -6.4000849481E+001  +2.0645302357E-001 +1.6546850450E+002 
2637048.811 +1.1230254100E-001 +1.6263354178E+002  +3.9311302437E-003 -3.0405030477E+001  +1.7836910307E-002 +4.8457401912E+001  +3.3323012800E-001 +1.3779801093E+002 
2762193.992 +1.1238023364E-001 +1.7889566720E+002  +4.7895530177E-003 -6.5753927415E+001  +5.2894418904E-003 -1.4959175642E+002  +6.6937551603E-001 -1.2279927010E+002 
2887339.174 +9.4557943567E-002 -1.7870724069E+002  +2.9495997892E-002 -1.9843258371E+001  +2.4083941908E-002 -1.1041404270E+002  +6.9329448134E-001 -9.6645369826E+001 
3012484.355 +1.2589956577E-001 +1.7168971976E+002  +8.1239086004E-003 -1.0510014809E+002  +3.8369418398E-003 -1.7178712200E+002  +5.1048466457E-001 -9.8907849838E+001 
3137629.537 +1.1337480747E-001 +1.7700058814E+002  +4.1153428527E-003 -8.9050116811E+001  +1.6194121308E-002 -1.0522109260E+002  +1.0353107983E-001 -6.8563493317E+001 
3262774.718 +1.3150944005E-001 +1.5995256336E+002  +9.3167281063E-003 +9.1100315820E+001  +1.3835371015E-002 -9.8503166831E+001  +1.2288628525E-001 -3.7530544911E+001 
3387919.900 +9.9953760405E-002 +1.6966896409E+002  +8.7733948541E-003 -1.3097017366E+002  +2.8929969265E-003 +1.1878692439E+002  +1.6695996178E-001 +1.1726271415E+002 
3513065.081 +1.3364641690E-001 +1.5192482791E+002  +8.4613952979E-003 -2.3356582852E+001  +7.6337017497E-003 +9.7344842907E+001  +3.5458685843E-001 +1.3875717682E+002 
3638210.263 +2.0330879786E-001 +1.4532851864E+002  +8.3603965481E-003 -1.0991298091E+002  +4.0552311816E-003 +1.3125126755E+002  +6.0325887507E-001 +1.5991843956E+002 
3763355.444 +1.7261643199E-001 +1.4960312531E+002  +5.1359121474E-003 -9.7165937418E+001  +6.6282378651E-003 +1.5387998199E+002  +2.4689557504E-001 +1.2998631549E+002 
3888500.626 +1.7157970852E-001 +1.4949062252E+002  +6.5143747108E-003 +1.0223832467E+002  +3.8102218193E-003 -1.3070502619E+002  +4.1144118519E-001 +1.5793335536E+002 
4013645.807 +1.9024815544E-001 +1.4129382434E+002  +8.7729178596E-003 +6.5934494293E+000  +8.7575168403E-003 -1.6515624350E+002  +4.9296863783E-001 +1.5038826741E+002 
4138790.989 +1.9055151289E-001 +1.4776459694E+002  +4.7984497786E-003 -7.1555475501E+001  +8.3302192330E-003 +2.3226448889E+001  +5.8772760937E-001 +1.4925322335E+002 
4263936.170 +2.0598372972E-001 +1.4074034974E+002  +4.4623628647E-003 +9.3590318649E+000  +9.0984084073E-003 +1.5243106192E+002  +4.2225576725E-001 +1.5098331228E+002 
4389081.352 +1.9837604479E-001 +1.3597905405E+002  +5.4427217909E-003 +6.9452213769E+001  +8.6607075967E-003 +1.4211843779E+002  +7.2132561912E-001 +1.4130048781E+002 
4514226.533 +2.7293609439E-001 +1.3005477681E+002  +2.9771016759E-003 -5.1261625289E+001  +8.5224553225E-003 -6.2639214168E+001  +9.7871631656E-001 +1.3199433328E+002 
4639371.715 +3.1554741663E-001 +1.3285484934E+002  +9.0105055853E-002 +8.2851346073E+001  +1.4004660719E-002 +1.4134145565E+002  +3.0217548410E+000 +6.9330052102E+001 
4764516.896 +3.9959712859E-001 +1.3512839951E+002  +1.1058381871E-001 -1.5281918071E+002  +4.7282543255E-002 -9.7337802876E+001  +5.6625129491E+000 +1.0777312839E+002 
4889662.078 +3.5801219414E-001 +1.3102491202E+002  +3.1346542846E-002 +4.1986429528E+001  +2.2606374976E-002 +6.0348205049E+001  +2.6954822922E+000 -1.0587934147E+002 
5014807.259 +5.2695989940E-001 +1.2961965889E+002  +8.5185143793E-002 -1.1747875385E+002  +5.2599856872E-002 +3.2544079058E+001  +3.4796288280E+000 -1.3201143452E+002 
5139952.441 +3.7237077138E-001 +1.2954419875E+002  +2.9026098158E-002 +7.6197263612E+001  +3.4932850963E-002 +1.0408650422E+002  +3.5544888385E+000 +8.9544679859E+001 
5265097.622 +3.6299886957E-001 +1.3297336693E+002  +2.1184741919E-002 -1.7677143207E+001  +3.0999493716E-002 +8.9556996878E+001  +3.2880931558E+000 +1.1545667876E+002 
5390242.804 +4.2919376622E-001 +1.2689727052E+002  +3.0478702009E-002 +1.0553459219E+002  +2.9841990672E-003 -8.4320269543E+001  +2.1396541765E+000 +1.0771782279E+002 
5515387.985 +5.0825744545E-001 +1.3468648764E+002  +1.7053177437E-002 +9.7460513678E+001  +1.2028500025E-002 +1.1831051516E+001  +2.2766465466E+000 +6.8443217499E+001 
5640533.166 +4.5268113771E-001 +1.2815858038E+002  +3.9712677403E-004 -8.0771438737E+001  +2.8333372862E-002 -1.2079700167E+002  +1.8528394932E+000 +7.6539709534E+001 
5765678.348 +4.8012355903E-001 +1.2993129516E+002  +8.4402901579E-003 -1.0899685681E+002  +2.6790559872E-002 -2.3380534821E+001  +3.4828669610E+000 +7.0165395706E+001 
5890823.529 +6.1498279302E-001 +1.2796200942E+002  +2.2895966166E-002 +2.8795237745E-001  +1.1299044188E-002 +3.5498781230E+001  +1.5527386657E+000 +4.2092426431E+001 
6015968.711 +5.6552289981E-001 +1.1897787256E+002  +2.0014990022E-002 +5.5038902464E+000  +1.3078368268E-002 +4.8519722289E+001  +1.3192119133E+000 +4.7556643809E+001 
6141113.892 +7.9583475835E-001 +1.1787857837E+002  +3.6024406252E-002 -1.2068096461E+001  +1.8949770444E-002 +7.4080899779E+001  +2.1147230515E+000 +4.2013697384E+001 
6266259.074 +8.1544111093E-001 +9.1548736964E+001  +1.6964357502E-002 +9.0500930111E+001  +6.3995037875E-002 +1.6257758011E+000  +2.7115559247E+000 +2.0947150912E+001 
6391404.255 +1.0162785578E+000 +1.0755861682E+002  +1.2483395411E-002 -1.6486710523E+002  +2.4040259796E-002 -1.4926676327E+002  +1.9074817821E+000 +2.1198298471E+001 
6516549.437 +1.0592420010E+000 +9.1589707535E+001  +1.8467626206E-002 -4.1823613832E+001  +1.6794206513E-002 +5.9992159187E+001  +1.3775036013E+000 +6.9317227549E+000 
6641694.618 +1.4800542969E+000 +6.8515379559E+001  +2.3832825914E-002 +3.3236118622E+001  +1.2209103637E-002 -1.1121382525E+001  +1.3563709115E+000 -7.8301160922E+000 
6766839.800 +1.8506860178E+000 +5.5186530089E+001  +2.7686630867E-002 -5.4917969050E+000  +1.9818759222E-002 +8.9050716071E+001  +1.3043311850E+000 -1.6046857520E+001 
6891984.981 +1.6587288733E+000 +4.1219524257E+001  +2.2526486578E-002 -1.6330978873E+002  +1.9535566739E-002 +8.4131878648E+000  +1.3396615470E+000 -1.1583110165E+001 
7017130.163 +1.5288494190E+000 +1.8071286374E+001  +6.3040909286E-003 +2.4818921365E+001  +1.3704848124E-002 -1.4222683343E+002  +1.2246052768E+000 -1.7831530276E+001 
7142275.344 +1.4699389841E+000 +1.3226227775E+001  +1.2820012488E-002 +4.4397260421E+001  +1.4195953527E-002 +1.0407409384E+002  +1.3769433680E+000 -1.1563513420E+001 
7267420.526 +1.4351521606E+000 +7.8393803972E+000  +8.6827631681E-003 -6.2579499794E+001  +9.2265138626E-003 +1.2434374783E+002  +1.2379188266E+000 -9.4713332454E+000 
7392565.707 +1.3014198335E+000 +1.3290241902E+000  +4.9232512374E-003 -5.5275053897E+001  +4.3351338428E-003 -4.0916436730E+001  +1.4245155794E+000 -4.8740630783E+000 
7517710.889 +1.1749112833E+000 +5.0200786915E+000  +4.7198140546E-003 +8.3669657959E+001  +9.0040908620E-003 -1.6071579096E+002  +1.3578620965E+000 -2.3212776058E+000 
7642856.070 +9.1227352185E-001 -4.8770774441E+000  +7.7799692043E-003 +8.0133395273E+000  +6.9042457825E-003 +8.0249777737E+000  +1.1141901029E+000 -8.6624756666E+000 
7768001.252 +9.5173948324E-001 -5.6081385947E-001  +5.2322914720E-003 +3.0322239972E+001  +5.0125873309E-003 +4.4930405275E+001  +1.0095936032E+000 -9.8355781629E+000 
7893146.433 +8.9660548711E-001 +3.2580226192E+000  +9.6509994647E-003 +7.2233565365E+001  +2.2366780166E-003 +7.2189293548E+001  +9.7593573775E-001 -3.4085168073E+000 
8018291.615 +7.9767310744E-001 +4.9006060389E+000  +3.4787043056E-003 +1.3762634316E+002  +2.7495287719E-003 +1.0684634055E+002  +8.9272971384E-001 +4.3062465978E+000 
8143436.796 +7.0936101720E-001 +1.0967156795E+001  +2.5708784982E-003 +4.4020981078E+001  +5.2591342625E-003 +3.1668374171E+001  +8.5329319945E-001 -2.0843979459E+000 
8268581.977 +7.0030358103E-001 +1.0077480391E+001  +2.6113325094E-003 +6.4808781900E+001  +5.0140032077E-003 +2.2824404682E+001  +7.8125934421E-001 +8.5423931228E-001 
8393727.159 +7.2894074561E-001 +1.7757897077E+000  +5.6252525318E-003 -6.7658414821E+001  +3.2643865857E-003 -6.8422151887E+001  +7.0614869156E-001 -1.3313345016E+000 
8518872.340 +6.9031362764E-001 +1.0447172478E+001  +6.0088365584E-004 -4.9308720336E+001  +4.6736258907E-003 +2.1282451006E+001  +7.2322686718E-001 +6.9872935543E+000 
8644017.522 +6.5092642322E-001 +4.2354769392E+000  +2.6237787981E-003 +7.4675276963E+001  +4.7520341630E-003 -1.0213154768E+001  +6.7125755663E-001 +1.9895663505E+000 
8769162.703 +6.4925684527E-001 +1.1620887697E+001  +2.1024665793E-003 -4.5437390752E+001  +4.8210617628E-003 -2.4566503780E+001  +6.7010847292E-001 +1.0056195291E+000 
8894307.885 +5.9606882024E-001 +8.6043643823E+000  +4.8954998930E-003 -3.0495054823E+001  +2.4389312250E-003 +1.6203906498E+000  +6.5080411978E-001 -3.5740636864E+000 
9019453.066 +5.8997590947E-001 +6.4850266594E+000  +3.4390991550E-003 +7.4312117979E+001  +2.6283676015E-003 +1.5631723260E+002  +6.2333964043E-001 +3.4436995107E+000 
9144598.248 +5.8183040474E-001 +1.3012562411E+000  +1.4097982748E-003 -3.4813241025E+001  +3.6319829980E-003 +6.9619983913E+001  +5.9007835950E-001 -5.2986936639E+000 
9269743.429 +5.6449041508E-001 +5.3760883369E+000  +3.1766228139E-003 -1.9591340949E+001  +4.6642166027E-003 +2.0078298302E+001  +5.7247754840E-001 -2.1355133255E+000 
9394888.611 +5.3214222769E-001 +1.0597913371E+001  +5.5733188497E-003 +8.8684264565E+000  +4.4237819205E-003 +3.7753289483E+001  +6.1004390246E-001 -2.7646328392E+000 
9520033.792 +5.2570336887E-001 +6.7727813101E+000  +9.1617942266E-004 -2.4815656901E+001  +1.0289924641E-003 -1.0952067774E+002  +5.8535531336E-001 -1.5385620895E+000 
9645178.974 +5.2246151369E-001 +1.8866578493E+000  +5.2841598826E-003 -2.3802242994E+001  +3.3795307084E-003 +2.9077038053E+001  +5.6754753508E-001 -4.6859695197E+000 
9770324.155 +5.1710294046E-001 +8.1641947438E-001  +3.0082215570E-003 -4.9231693871E+001  +1.2125837580E-003 +1.3962521304E+002  +5.9269390299E-001 -4.5857951950E+000 
9895469.337 +5.7091942804E-001 +1.0913576536E+000  +2.6925330823E-003 -1.7047704433E+000  +1.6490584222E-003 -1.1466797493E+002  +5.8825810807E-001 -5.8899203576E+000 
10020614.518 +5.5543294390E-001 +3.1072977807E+000  +4.2529816179E-003 -5.1559930027E+001  +1.2498053509E-003 -1.0700420041E+001  +5.8134289621E-001 -6.2250711055E+000 
10145759.700 +5.0043240883E-001 +3.8566293303E+000  +3.4553364138E-003 +2.4413264548E+001  +1.8895717869E-003 +1.0996369051E+002  +6.0184027789E-001 -5.9821107518E-001 
10270904.881 +5.6811546153E-001 +9.4879533690E+000  +3.6699063100E-003 +1.2323167658E+001  +1.0215202097E-003 -1.4731103179E+002  +5.7423139291E-001 +9.6666491494E-001 
10396050.063 +5.6630969656E-001 +7.0645433617E+000  +4.1240709367E-003 -3.2121710334E+001  +4.6328455690E-003 +1.7660255831E+001  +5.6075365098E-001 -6.6808352685E+000 
10521195.244 +5.5787953697E-001 +8.4096794178E+000  +3.3992464579E-003 -1.9121044762E+001  +5.3957301813E-003 +1.1193967585E+001  +5.9060231376E-001 +3.3024006546E-001 
10646340.426 +5.6656946102E-001 +8.6222414107E+000  +1.1031854438E-003 -4.1015517305E-001  +2.7028755346E-003 +5.8779529834E+001  +5.9831083179E-001 +2.0057467877E+000 
10771485.607 +5.4075444825E-001 +1.2788658913E+001  +3.1864749741E-003 -2.1788856168E+001  +2.0866613981E-003 +6.6899384074E+001  +6.0779743329E-001 +1.5785469900E+000 
10896630.788 +5.7525274418E-001 +7.3505507479E+000  +2.6870472000E-003 +1.6113237200E+001  +3.0384409895E-003 +5.7749901003E+001  +6.3131515183E-001 +1.2979618665E+000 
11021775.970 +5.8921908105E-001 +5.5583560977E+000  +3.7749486636E-003 -6.8309357369E+000  +2.8142472907E-003 +2.5088003661E+001  +6.1391519665E-001 +4.6339282198E-001 
11146921.151 +5.8649164813E-001 +1.0314472746E+001  +3.8175717420E-003 +2.7825483511E+000  +3.3734306693E-003 +1.2315155089E+001  +6.2585448831E-001 +2.1711667239E+000 
11272066.333 +5.5974652651E-001 +7.6154669543E+000  +3.0427556455E-003 -4.7381326435E+000  +3.5463133824E-003 +8.6406625822E-001  +6.2174980003E-001 +1.4533580213E+000 
11397211.514 +6.2494683452E-001 +8.1104802343E+000  +3.0629512822E-003 +1.6585565452E+001  +3.0514917384E-003 +3.8484092923E+001  +6.0538072442E-001 +4.2633740558E-001 
11522356.696 +6.2151590981E-001 +7.3202333782E+000  +2.6476626803E-003 +4.7321041932E+001  +4.9371277786E-003 +2.0274480387E+000  +6.4194580805E-001 +9.6245706750E-001 
11647501.877 +6.3211177377E-001 +6.4036861536E+000  +1.5367115363E-003 +2.0590984659E+001  +2.8608742649E-003 +4.4250146043E+001  +6.6510674788E-001 +3.1624923029E+000 
11772647.059 +6.5413631433E-001 +5.9333684868E+000  +2.4785913225E-003 -3.0794540810E+001  +3.4888628313E-003 +5.7648282063E+001  +6.5941635158E-001 +3.0725368611E+000 
11897792.240 +6.7539094269E-001 +7.4514943767E+000  +2.9291400335E-003 +1.7423321781E+001  +2.6016164181E-003 +1.5663867407E+001  +6.6832814664E-001 +1.0113337428E+000 
12022937.422 +6.6973962517E-001 +6.9477213888E+000  +3.2040935845E-003 -3.7881152216E+000  +2.1650233288E-003 +1.8961329110E+001  +6.7857044003E-001 +5.8225465949E-001 
12148082.603 +6.8076251899E-001 +5.4248738937E+000  +9.4849764043E-004 +4.6448847603E+001  +2.2115689129E-003 +2.1475222163E+001  +6.8755192181E-001 +1.9688372800E-001 
12273227.785 +6.6865570768E-001 +4.9122488939E+000  +2.0784863846E-003 -1.3608296019E+001  +3.4670418178E-003 +5.4932028187E+000  +7.1211308089E-001 +1.5005823456E-001 
12398372.966 +6.9755659912E-001 +1.5643398708E+000  +1.3800006408E-003 +8.6052052039E+000  +3.3702185475E-003 +4.3746495491E+001  +7.2894541085E-001 +1.1782008693E+000 
12523518.148 +7.4167292069E-001 +2.3137825874E+000  +1.2752470624E-003 +2.7025955010E+001  +3.7345925989E-003 +2.0183939125E+001  +7.2328836677E-001 -1.8252842634E+000 
12648663.329 +7.3969270557E-001 +4.3695642722E+000  +3.8985741615E-003 +8.9916193301E+000  +2.2908651253E-003 -1.8389040658E+001  +7.5508706259E-001 -1.2791107066E+000 
12773808.511 +7.3068229279E-001 +2.3684961325E+000  +3.0593242061E-003 +2.0765107098E+000  +3.3929785496E-003 +1.8400034010E+001  +7.6631326633E-001 -2.4682467047E-002 
12898953.692 +7.9942328038E-001 +8.7193928516E-001  +2.9048592918E-003 +1.1832930069E+001  +3.1760589354E-003 +2.5452507224E+001  +7.8078564238E-001 -1.1111778559E+000 
13024098.874 +7.8108717146E-001 +8.4086183485E-001  +2.4818950707E-003 -2.2731299746E+001  +3.6237535601E-003 +7.2035239788E+000  +7.8901183688E-001 -9.4907485876E-001 
13149244.055 +7.8707924336E-001 -3.6125438610E-001  +3.1565452160E-003 +1.8352307108E+001  +3.1982000570E-003 +2.7187484220E+001  +8.1570654772E-001 -2.3790756513E+000 
13274389.237 +8.0570601224E-001 +8.1870343684E-002  +4.2034453971E-003 +8.6410343295E+000  +3.1743877277E-003 +2.3863494760E+001  +8.3851735715E-001 -2.9338349017E+000 
13399534.418 +8.4404061885E-001 +2.7217683036E-001  +4.0633722571E-003 +3.0664116045E+001  +4.4552123042E-003 +1.4197927032E+001  +8.3219490537E-001 -1.9049005367E+000 
13524679.599 +8.5858266795E-001 -1.5933944774E+000  +2.2114967190E-003 -1.8133257052E+001  +3.3413753547E-003 +2.5483661840E+001  +8.5706772918E-001 -3.0423532747E+000 
13649824.781 +8.6299642843E-001 -2.8501758742E+000  +3.5115886919E-003 -4.5787314371E-001  +2.2877720266E-003 +8.5630826827E+000  +8.7288991058E-001 -3.6578369443E+000 
13774969.962 +8.7606566352E-001 -3.3857037993E+000  +3.7182434691E-003 +4.4471367276E+000  +3.3455293136E-003 -1.0766188599E+001  +9.1854822655E-001 -3.3418631316E+000 
13900115.144 +9.1182533238E-001 -3.7892279649E+000  +3.8592158616E-003 +1.6836519639E+001  +1.5203990672E-003 +3.9296402332E+001  +9.2331994097E-001 -3.5249778629E+000 
14025260.325 +9.2480652480E-001 -3.7413834122E+000  +3.3622265392E-003 -4.0531883623E+000  +4.2864368910E-003 +1.2907235380E+001  +9.2821245395E-001 -4.0224704226E+000 
14150405.507 +9.3565351780E-001 -4.9371155981E+000  +3.1428921323E-003 +5.7979651603E+000  +2.7735648203E-003 +5.9026193676E+001  +9.5127838614E-001 -3.6744124943E+000 
14275550.688 +9.6113012131E-001 -5.3798359311E+000  +3.7074434768E-003 +1.6824432670E+001  +1.6374536587E-003 -5.3891726119E+000  +9.6111866811E-001 -5.4701751701E+000 
14400695.870 +9.5820473865E-001 -6.7094687369E+000  +3.8951468387E-003 +2.4490565365E+001  +2.7216363178E-003 +1.2772323418E+001  +9.9143719378E-001 -4.5941225509E+000 
