!  2-Port S-parameters saved by WinCal
! VAR MeasName=S-Parameters (CALIBRATED_DATA) read from VNA (P5004A)
! VAR MeasDate=29/08/2024 11:24:10
! VAR NAME=S2_r9c3_RESET4_9k-100M_3
! VAR FILENAME=S2_r9c3_RESET4_9k-100M_3.S2P
! VAR DATE=29/08/2024 11:24:10
! VAR PHYS_PORTS=1,2
! VAR ObjTypeName=DATASET
! VAR IndexType=Frequency
!
# Hz S MA R 50
9000.000 +7.5706646111E-002 -1.5909566559E+002  +1.2889563493E-002 +1.2038153766E+002  +9.0445383918E-003 -5.3872601930E+001  +2.6997684450E-001 -1.5238089319E+002 
134145.181 +1.1072728740E-001 +1.6975748318E+002  +1.5678338921E-005 +1.6844239904E+002  +2.6796338692E-004 +1.1595012564E+002  +2.3768778917E-001 -1.7118604244E+002 
259290.363 +1.1212537432E-001 +1.6981729296E+002  +3.6165354461E-004 +5.6076089277E+001  +2.5795015239E-004 +9.0771148046E+001  +2.3705901067E-001 -1.6817014581E+002 
384435.544 +1.1446602841E-001 +1.7093309725E+002  +1.4390055248E-004 +1.1235912047E+002  +5.0844694349E-004 +9.8187841877E+001  +2.4729914757E-001 -1.6952239926E+002 
509580.726 +1.1376263976E-001 +1.7166224538E+002  +1.9065050724E-003 -1.7526803450E+002  +6.3031963748E-004 -1.0555768941E+002  +2.4649354937E-001 -1.6416410509E+002 
634725.907 +1.1673182847E-001 +1.7305903904E+002  +1.4468824473E-003 -1.3927522206E+002  +2.1108971186E-003 -1.7644476934E+002  +2.5974082660E-001 -1.6548176133E+002 
759871.089 +1.1954484285E-001 +1.7055617599E+002  +4.4581206943E-004 +6.2071399668E+001  +3.6803859244E-004 -1.4196584912E+002  +2.5060069207E-001 -1.6731101863E+002 
885016.270 +1.2052618086E-001 +1.6925682616E+002  +1.6155234412E-004 -1.7716748616E+002  +2.3591253207E-004 +1.2721588278E+001  +2.4305383402E-001 -1.6670769031E+002 
1010161.452 +1.1898132916E-001 +1.6976264715E+002  +1.5336242421E-003 +1.0756715116E+002  +7.4412361604E-004 +1.1224948128E+002  +2.0075575036E-001 -1.6529323977E+002 
1135306.633 +1.1626500081E-001 +1.6910553257E+002  +1.9989232457E-003 +9.1153221408E+001  +1.9249763991E-003 +1.0284143438E+002  +1.7809516162E-001 -1.6148709429E+002 
1260451.815 +1.1866441441E-001 +1.6902561997E+002  +5.4646589735E-004 +1.7733251480E+002  +6.3267027810E-004 +3.6367037253E+001  +2.1917370846E-001 -1.5962145830E+002 
1385596.996 +1.2572578124E-001 +1.7205036660E+002  +1.0699548453E-003 +9.7467658160E+000  +7.7639518647E-004 -1.3670624077E+002  +2.7934425831E-001 -1.5861840747E+002 
1510742.178 +1.2669829723E-001 +1.7321113679E+002  +7.3429514924E-004 +1.1577914705E+002  +2.8349419024E-004 -8.7879833881E+001  +2.5156314507E-001 -1.5817822096E+002 
1635887.359 +1.2827573938E-001 +1.7131958189E+002  +3.2492573291E-004 +2.3980324957E+001  +7.0927979482E-004 +1.3596017438E+002  +2.6524561263E-001 -1.5823566182E+002 
1761032.541 +1.2862705122E-001 +1.6895404248E+002  +2.0668873177E-003 +9.4810770798E+001  +1.9632197249E-003 +1.5766527614E+002  +2.2673222032E-001 -1.5099059869E+002 
1886177.722 +1.2947995234E-001 +1.6848138761E+002  +1.2463759399E-003 +2.8936324240E+001  +9.9965879588E-004 +1.1213979470E+002  +1.9538991367E-001 -1.5738591434E+002 
2011322.904 +1.3116842410E-001 +1.6655270390E+002  +1.8630238294E-003 -5.5712029464E+001  +2.7376098841E-003 -7.0119077846E+001  +1.7889931818E-001 -1.6791513676E+002 
2136468.085 +1.3071399098E-001 +1.6719852885E+002  +2.0570811638E-003 -5.9154456294E+001  +6.2345633611E-004 +6.5710299862E+001  +2.1207562376E-001 -1.7112506390E+002 
2261613.267 +1.2959571429E-001 +1.5929125068E+002  +9.3804223285E-004 +8.0960359114E+001  +2.9532779086E-003 -1.1439441037E+002  +1.6098474821E-001 +1.7019464991E+002 
2386758.448 +1.3166684489E-001 +1.6577575109E+002  +1.4803105886E-003 +5.1995562175E+001  +3.1994066748E-003 -3.7413048214E+001  +2.1241149287E-001 -1.7425832047E+002 
2511903.630 +1.4215792343E-001 +1.6039832498E+002  +1.0441997926E-003 +1.3523155305E+001  +4.7741146763E-003 +1.6685615422E+002  +2.3669690449E-001 +1.6864604936E+002 
2637048.811 +1.2147299998E-001 +1.5812732448E+002  +5.0467795305E-003 -6.5682498316E+000  +4.0797486770E-003 -2.6908343158E+001  +3.2092122780E-001 +1.4898471435E+002 
2762193.992 +9.5646886053E-002 +1.6955275065E+002  +2.7583261399E-002 +4.3608864602E+001  +3.7746428246E-002 +1.2843368952E+001  +2.3180043119E-001 +5.6435123741E+001 
2887339.174 +1.1224579340E-001 +1.6233580055E+002  +3.5359084768E-003 +1.0220052192E+002  +8.6222586645E-003 +2.3868788667E+001  +1.5151194876E-001 -8.7907238580E+001 
3012484.355 +1.1232998809E-001 +1.7350632307E+002  +5.7478194629E-003 +1.5478853937E+002  +7.3171843067E-003 -1.1589769931E+000  +7.2093466660E-002 +8.5722986527E+000 
3137629.537 +1.1657945371E-001 +1.6961949684E+002  +6.4763527263E-003 -3.8129282847E+001  +4.2854395225E-003 -1.7875823064E+002  +1.7851165546E-001 -1.0249426100E+002 
3262774.718 +1.2460366920E-001 +1.6055176789E+002  +8.0143072084E-003 +1.1006638453E+001  +1.4905187012E-002 -1.3888540219E+000  +5.0740800203E-001 -6.0493754612E+001 
3387919.900 +1.1896112362E-001 +1.6380871965E+002  +4.9998626711E-003 -1.1423002952E+002  +3.6364886101E-003 +1.6584276088E+002  +4.0036598338E-002 -6.3984989548E+001 
3513065.081 +1.3947678483E-001 +1.5082381226E+002  +1.4869967261E-003 +1.3852655927E+002  +3.6989008769E-003 +1.3520980328E+002  +1.5119490630E-001 +1.2292161123E+002 
3638210.263 +1.8633760899E-001 +1.3638152258E+002  +1.3596527850E-002 +1.5437957198E+002  +1.6907665108E-002 -1.5001562746E+002  +4.2742078307E-001 +1.4649418784E+002 
3763355.444 +2.1693045602E-001 +1.4579479088E+002  +5.2603674097E-003 +3.3686988235E+001  +3.0994301692E-003 +1.7457097620E+002  +5.0228439211E-001 +1.4047648723E+002 
3888500.626 +1.8670745611E-001 +1.4785099280E+002  +5.1424321408E-003 -1.0560456245E+002  +9.5815277935E-003 -2.3294499812E+001  +5.1135623391E-001 +1.0547771191E+002 
4013645.807 +1.7501420059E-001 +1.4505898193E+002  +1.0875676729E-002 -1.6454032445E+002  +3.9435857198E-003 -3.5395284151E+001  +3.9170253963E-001 +1.4683287491E+002 
4138790.989 +1.9476804829E-001 +1.3947670773E+002  +1.5908640648E-003 -1.7914901014E+002  +1.0047103355E-002 +1.6276416416E+002  +3.6928620594E-001 +1.2114051173E+002 
4263936.170 +2.0687709896E-001 +1.3999352908E+002  +5.5760876310E-003 -1.2716995532E+002  +5.5298670378E-003 +1.6230458723E+002  +5.0505107045E-001 +1.3260096816E+002 
4389081.352 +2.0689509131E-001 +1.3908927802E+002  +5.6504980623E-003 -1.1346327525E+002  +7.0312504315E-003 +4.5680720829E+001  +5.7600906617E-001 +1.4057615201E+002 
4514226.533 +1.9857370662E-001 +1.3577025254E+002  +1.1681296636E-002 -1.4729187882E+002  +9.2920641400E-003 -1.1856255130E+001  +1.1907286394E+000 +8.7671453166E+001 
4639371.715 +3.1651417575E-001 +1.2184452412E+002  +3.9373535034E-002 +4.2303097342E+001  +3.2474957221E-002 +8.8195731262E+001  +1.8778291030E+000 +1.2526093132E+002 
4764516.896 +3.9445015637E-001 +1.3170223657E+002  +1.0680922114E-002 +1.2713931771E+002  +2.5613547008E-002 +1.0692850872E+002  +2.1391140523E+000 +1.7103344386E+002 
4889662.078 +5.3149398627E-001 +1.2944840512E+002  +4.4370017708E-002 -5.8544333939E+001  +6.2435268914E-002 +1.3106935379E+002  +3.5451983093E+000 -7.2211691076E+001 
5014807.259 +3.9191155776E-001 +1.3584180306E+002  +2.1228402841E-002 -1.3143367979E+001  +2.5506288639E-002 +1.3592264687E+002  +3.0530695852E+000 -1.0562085306E+002 
5139952.441 +3.7884870981E-001 +1.2714419252E+002  +2.2965620451E-002 -5.5391453654E+001  +4.0731351320E-002 -1.1555135262E+002  +3.5532862242E+000 +5.7390567596E+001 
5265097.622 +4.2832075880E-001 +1.2770132930E+002  +3.6013445886E-002 -5.2095520129E+001  +3.5888088394E-002 +1.0223760863E+002  +2.3389788730E+000 +1.0494283876E+002 
5390242.804 +4.4384010992E-001 +1.2806819708E+002  +1.1130136577E-002 -9.5198414813E+001  +1.3497107383E-002 -5.8208401896E+001  +1.9914945844E+000 +1.0767492162E+002 
5515387.985 +4.4565094819E-001 +1.2718756715E+002  +1.3689445368E-002 -1.2516545531E+002  +2.1121623183E-002 -1.6302214923E+002  +6.3251650439E+000 +1.4230194489E+002 
5640533.166 +4.3163533408E-001 +1.2074804531E+002  +2.3483796178E-002 +1.2428634363E+002  +7.8541561124E-003 -2.4490595426E+001  +1.0696786747E+000 +6.9933828370E+001 
5765678.348 +5.2818799222E-001 +1.2466825605E+002  +2.0107465858E-002 +3.2497396111E+001  +8.5224202301E-003 -9.5652850145E+001  +2.3583211976E+000 +6.8588278908E+001 
5890823.529 +5.4335263018E-001 +1.2116732950E+002  +3.7084623502E-002 +8.7688130117E-001  +1.5804307343E-002 -8.6111802916E+001  +2.5803729070E+000 +6.3564606643E+001 
6015968.711 +7.6431770996E-001 +1.1255553751E+002  +1.2052843015E-002 +1.0223794836E+001  +1.4018534557E-002 +1.3641499010E+002  +1.1454301116E+000 +6.7305293534E+001 
6141113.892 +6.7251328760E-001 +1.1972321783E+002  +2.0929232002E-002 -1.7968217413E+002  +8.2422116242E-003 -1.1211018816E+002  +1.9653692716E+000 +3.7897201537E+001 
6266259.074 +8.8265263189E-001 +9.6998218345E+001  +7.9655575728E-003 -1.5396090498E+002  +2.2016160495E-002 +5.5007970668E+001  +2.1837732335E+000 +3.1313347449E+001 
6391404.255 +1.0279339123E+000 +1.0090649169E+002  +1.8314910658E-002 -2.2280799649E+001  +1.0208343562E-002 -1.7222235729E+002  +1.4467410588E+000 +1.7901142050E+001 
6516549.437 +1.1976251281E+000 +9.3226961939E+001  +4.8719764724E-003 +5.8940166405E+001  +1.6938681966E-002 +1.5599428604E+002  +1.3361937412E+000 +1.2320087269E+001 
6641694.618 +1.6465721535E+000 +8.0675963974E+001  +2.2470844174E-002 +1.1858803460E+002  +1.6045262177E-002 +6.1796704654E+001  +1.2989985032E+000 +4.9023816176E+000 
6766839.800 +2.1637059926E+000 +5.6500336857E+001  +9.1602822058E-003 +1.3366957404E+002  +4.3593293945E-003 +4.2187742435E+001  +1.1010598314E+000 -7.4970041804E+000 
6891984.981 +1.8593724018E+000 +3.8182456781E+001  +2.8290347889E-002 +1.5570073914E+002  +7.8119636480E-003 +6.3984729098E+001  +1.4301288585E+000 -1.2093494199E+001 
7017130.163 +1.7701335400E+000 +2.5356690398E+001  +1.2821524718E-002 +1.6565253308E+002  +2.0062096290E-002 +9.5359200470E+001  +1.2288127655E+000 -1.1385798457E+001 
7142275.344 +1.3616356692E+000 +1.6953423117E+001  +2.9083804032E-002 +5.3995590873E+001  +1.0113112386E-002 -1.4983593555E+001  +1.2685034795E+000 -1.5107283087E+001 
7267420.526 +1.8413574817E+000 +9.4703479030E+000  +5.2992542852E-003 -7.4596788609E+001  +5.1185544348E-003 -5.0130901254E+001  +1.2944413721E+000 -9.5134056362E+000 
7392565.707 +1.3252265064E+000 +6.1680910662E+000  +8.9536758105E-003 +1.6989211750E+001  +5.9743293950E-003 -9.1861226890E+001  +1.2710004263E+000 -3.8407115420E+000 
7517710.889 +1.0562650750E+000 +4.9515720131E+000  +8.0125311994E-003 -6.2721940973E+001  +8.3029533428E-003 +7.3170655401E+001  +1.2183930110E+000 -4.2028807266E+000 
7642856.070 +1.0482569322E+000 +2.9013212584E+000  +7.4957545020E-003 -2.4774388804E+001  +2.8551021743E-003 -4.6066366953E+001  +1.0936739604E+000 -9.8455874276E+000 
7768001.252 +9.0585921129E-001 +7.2653243099E+000  +8.4983759643E-003 -2.7901837091E+001  +5.3575216469E-003 -2.6446332175E+001  +9.3311159196E-001 -3.5048509769E+000 
7893146.433 +8.7079162355E-001 +5.0656165534E+000  +7.9106275090E-003 -7.5490410197E+001  +3.3873640595E-003 +4.7824131562E+001  +8.9116726380E-001 -5.0438409133E+000 
8018291.615 +8.2566249633E-001 +8.8283116789E+000  +7.5301115005E-003 +2.6104304588E+001  +5.9078490086E-003 +1.1676215832E+002  +8.2065623808E-001 -6.9687872700E+000 
8143436.796 +7.7586458336E-001 +8.7665714910E+000  +7.2548853228E-003 +1.7429231722E+002  +4.5348762316E-003 +1.2629083672E+002  +8.5868365484E-001 -3.8720152452E+000 
8268581.977 +7.2814421952E-001 +6.2893689347E+000  +7.8529726674E-003 -7.8413478594E+001  +4.0553404090E-003 -1.4544736665E+001  +8.2483254258E-001 -8.6107491554E-001 
8393727.159 +7.6263114270E-001 +1.1975566952E+001  +2.2958374296E-003 -4.8034914346E+001  +3.7121571009E-003 +6.2596131199E+001  +7.0379738345E-001 +5.7351211524E+000 
8518872.340 +6.6098013804E-001 +6.1466789660E+000  +5.5989584007E-003 -6.4109827516E+001  +3.6442747294E-003 +1.6852389530E+001  +7.7849579656E-001 +1.0670942318E+000 
8644017.522 +6.2250534887E-001 +1.5423563321E+001  +2.1793202578E-003 +1.4677427587E+002  +2.4550025913E-003 +3.2443775504E+001  +7.4099218725E-001 +3.0561559961E+000 
8769162.703 +5.4553647451E-001 +9.3310204863E+000  +3.1613761267E-003 -8.4303333256E+001  +4.4606001247E-003 +5.5038672168E+001  +6.8793544229E-001 -4.0130483787E+000 
8894307.885 +6.0438751347E-001 +8.1805036255E+000  +3.6478018283E-003 +1.1613126035E+001  +2.3425709626E-003 +5.9166943682E+001  +6.5546605855E-001 +1.8870776417E-001 
9019453.066 +6.3710303970E-001 +1.0412814006E+001  +1.6770703156E-003 -6.7758483819E+001  +5.4412062121E-003 +3.1179330693E+001  +6.3161505705E-001 +1.3162800249E+000 
9144598.248 +5.9845513526E-001 +9.4400278793E+000  +3.5521370001E-003 -2.0653825014E+000  +1.6137117372E-003 +3.8747568426E+001  +6.4265800518E-001 -1.5901535734E+000 
9269743.429 +5.5803344680E-001 +8.6860949492E+000  +2.2215560692E-003 +9.6548890288E+000  +6.9715033528E-003 +2.6148003756E+001  +6.1159487284E-001 -8.4439967902E-001 
9394888.611 +5.9539750215E-001 +6.7490012910E+000  +3.6752441054E-003 +5.9038702330E+001  +1.9131287788E-003 -7.2521603365E+000  +5.7165820542E-001 +4.2105736080E+000 
9520033.792 +5.3543027416E-001 +6.0383435800E+000  +4.3327524679E-003 +2.3471930762E-001  +2.2296092011E-003 -6.5792627644E+001  +5.8973784550E-001 -1.4015894277E+000 
9645178.974 +5.4918001385E-001 -6.9134052747E-001  +1.2413371615E-003 +3.0495650825E+000  +4.5632618161E-003 -6.9242382589E+001  +5.9287765934E-001 -2.6349361927E+000 
9770324.155 +5.4580203998E-001 +7.0631008215E+000  +9.8748991199E-004 +1.7733984837E+002  +3.8397053045E-003 +4.9759816376E+001  +5.8350981217E-001 -5.0766723836E+000 
9895469.337 +5.2751032655E-001 +1.6042396965E-001  +4.1067050620E-003 -5.7352523148E+001  +1.9413421402E-003 +4.1077931868E+001  +5.5469578485E-001 -2.6233559701E+000 
10020614.518 +5.3090804076E-001 -1.2105165860E+000  +3.7596059111E-003 -4.3369230493E+001  +4.5554696313E-003 +2.7218488732E+001  +5.6787831866E-001 -7.1984012201E+000 
10145759.700 +5.7011978347E-001 +7.9404526389E+000  +5.9656892570E-003 -1.6180075154E+001  +2.6115469993E-003 +1.5285949306E+002  +5.8946745731E-001 -6.9957253029E+000 
10270904.881 +5.4349605196E-001 +8.1359926431E+000  +1.5785482428E-003 -3.9976232093E+001  +4.0230659258E-003 -2.8363152643E+001  +5.8612398361E-001 -6.2158816147E-001 
10396050.063 +5.3620129383E-001 +5.7156260193E+000  +1.8258109906E-003 +5.4576446778E+001  +1.5399005559E-003 +1.3631264217E+002  +5.9903074494E-001 -2.1586912178E+000 
10521195.244 +5.4039554187E-001 +1.0770316328E+001  +2.5932867333E-003 -1.6590042199E+001  +1.5504211044E-003 +1.2533779896E+001  +5.4908028932E-001 +5.9971089638E-001 
10646340.426 +5.6129163070E-001 +9.3938203218E+000  +5.6771181440E-004 +8.6472601353E+000  +3.6580784637E-003 +2.1845644241E+001  +5.8781990500E-001 -3.2414009855E+000 
10771485.607 +5.8261446300E-001 +6.7605789174E+000  +4.1100824336E-003 -1.9939912676E+001  +8.8544428974E-004 +2.5592706462E+001  +6.1560899162E-001 -6.1882441648E-002 
10896630.788 +5.8860433613E-001 +9.9004915334E+000  +4.4374934261E-003 +1.6412820497E+000  +1.8079396081E-003 +6.9668060247E+000  +6.4143149824E-001 +3.5045800114E+000 
11021775.970 +6.0389812454E-001 +5.3459063980E+000  +1.8531289357E-003 +5.6370170349E+000  +4.4511396204E-003 +7.8001126203E+001  +6.1158320534E-001 +2.9726310628E+000 
11146921.151 +5.8191722811E-001 +7.3317939597E+000  +3.8732457987E-003 +2.6786332979E+001  +4.1851382593E-003 +8.3952374443E+000  +5.8751307700E-001 +1.9957408886E-001 
11272066.333 +6.0034338212E-001 +7.1666611019E+000  +2.8474384874E-003 +4.8845705779E+001  +1.6869169486E-003 +1.5244688800E+001  +6.3781896510E-001 +4.8163046306E+000 
11397211.514 +6.1664573773E-001 +1.0824496095E+001  +1.8773287953E-003 +2.9985355614E+001  +1.6021580070E-003 +4.3675948498E+001  +6.2439216049E-001 +1.7313180981E+000 
11522356.696 +6.4861379055E-001 +6.4916703197E+000  +1.8300466693E-003 -1.4138575689E+001  +1.5144419497E-003 +3.8645126970E+001  +6.4824919754E-001 +3.0532683349E+000 
11647501.877 +6.3675971297E-001 +3.4452081893E+000  +3.6060866767E-003 +4.0921290318E+001  +2.9031217231E-003 +9.4445634597E+000  +6.6439702158E-001 +3.7132383511E-002 
11772647.059 +6.2921666728E-001 +7.5465769815E+000  +2.9317136684E-003 -2.7544472982E+001  +3.9067953392E-003 +1.7221602023E+001  +6.6273283889E-001 +1.1072039962E+000 
11897792.240 +6.6810539421E-001 +5.2277280318E+000  +3.8200363809E-003 +1.8908202287E+000  +3.7154931579E-003 -1.1035907481E-001  +6.9811240659E-001 +1.2217413427E+000 
12022937.422 +6.9190642742E-001 +7.5154608687E+000  +1.2928973910E-003 -1.9138966548E+001  +1.5314184536E-003 +1.3408640673E+001  +7.0081838847E-001 +1.5988298919E+000 
12148082.603 +6.9002011132E-001 +3.8166835769E+000  +2.0842458221E-003 -3.7803342920E+000  +1.1429994363E-003 -9.6261342875E+001  +7.0774081433E-001 -8.2016800918E-001 
12273227.785 +6.9375388085E-001 +3.6959588141E+000  +3.3275297231E-003 +2.1064981625E+001  +1.4862344393E-003 +4.1090953856E+001  +7.0377750793E-001 +1.3475016687E+000 
12398372.966 +7.1382964178E-001 +6.0185491784E+000  +3.6180625957E-003 -9.3776503925E+000  +1.3760935209E-003 +3.2680409256E+001  +7.3037189998E-001 -1.8824723153E+000 
12523518.148 +7.4811271700E-001 +2.2865723808E+000  +4.3912802820E-003 -7.2126721827E+000  +2.3442770973E-003 +2.5574070392E+001  +7.5475175108E-001 +3.9712153782E-001 
12648663.329 +7.4569711283E-001 +2.8965370247E+000  +3.3463107428E-003 -1.2212157292E+001  +2.2871646809E-003 -3.5346921587E+001  +7.4515618458E-001 -1.3333986070E+000 
12773808.511 +7.6235653167E-001 +3.6876578491E+000  +2.8522689340E-003 -3.7964032562E+001  +2.2144853973E-003 +1.2828283811E+001  +7.7647781134E-001 -2.0222058805E+000 
12898953.692 +7.7365674553E-001 +1.4366881914E+000  +1.5362468722E-003 -2.9652718287E+001  +2.5636341055E-003 -9.1064311066E+000  +7.7041558233E-001 -1.5617918326E+000 
13024098.874 +7.7600301000E-001 +2.5451704893E+000  +3.5179963897E-003 +1.4256196887E+001  +3.3851706452E-003 -9.6926795869E+000  +7.8942373757E-001 -2.4619126093E+000 
13149244.055 +8.2242940859E-001 +6.1614989521E-001  +1.2555298722E-003 +7.0885167340E+000  +2.6715874575E-003 +5.2469716115E+001  +8.2160206196E-001 +3.1115219423E-001 
13274389.237 +8.4271273309E-001 -1.6679635374E+000  +2.4580309742E-003 +2.4373074061E+001  +3.0036965699E-003 +1.3677686276E+001  +8.4608145190E-001 -1.7778838192E+000 
13399534.418 +8.2045745687E-001 +1.2154557226E-001  +3.5781688004E-003 +3.2558636154E+001  +1.8635088327E-003 +4.1194471659E+001  +8.6024268022E-001 -1.9096160606E+000 
13524679.599 +8.6734203418E-001 -2.5075502509E+000  +2.9845859286E-003 +4.7961511364E+000  +2.8594541254E-003 +3.2596740293E+001  +8.7114589464E-001 -3.0182171197E+000 
13649824.781 +8.5197513163E-001 -2.7775919092E+000  +2.5484275894E-003 -1.0715214841E+001  +2.4982298655E-003 +2.8992885599E+001  +9.1872703724E-001 -2.6550281404E+000 
13774969.962 +8.8867395217E-001 -2.5921593109E+000  +3.5677157772E-003 +4.2268061475E+000  +3.2558128998E-003 -1.2314612745E+001  +9.1119488312E-001 -2.5603832318E+000 
13900115.144 +8.9207098474E-001 -5.5366231571E+000  +3.7818882907E-003 +6.8576607863E+000  +3.6387212774E-003 +1.4669324042E+000  +9.1065072045E-001 -3.4353916872E+000 
14025260.325 +9.2191808027E-001 -2.9897534818E+000  +2.8951512859E-003 -1.5921335341E+001  +3.4104308549E-003 +3.2022312880E+001  +9.5453262820E-001 -3.8145972807E+000 
14150405.507 +9.3961305280E-001 -3.7690137998E+000  +3.6081779977E-003 +1.6414370665E+001  +2.7845948698E-003 +3.6612166602E+001  +9.4968002048E-001 -4.0564572583E+000 
14275550.688 +9.5069449156E-001 -5.5531949892E+000  +3.8110242244E-003 +5.3242096553E+000  +3.3728769247E-003 +1.3885692680E+001  +9.6974910988E-001 -5.0331927925E+000 
14400695.870 +9.7304790561E-001 -4.3900143150E+000  +3.2883231927E-003 +1.0163218978E+001  +3.1588598706E-003 +1.2769812315E+001  +9.9269557717E-001 -4.8710062224E+000 
