!  2-Port S-parameters saved by WinCal
! VAR MeasName=S-Parameters (CALIBRATED_DATA) read from VNA (P5004A)
! VAR MeasDate=29/08/2024 10:23:41
! VAR NAME=S2_r9c1_SET2_9k-100M_3
! VAR FILENAME=S2_r9c1_SET2_9k-100M_3.S2P
! VAR DATE=29/08/2024 10:23:41
! VAR PHYS_PORTS=1,2
! VAR ObjTypeName=DATASET
! VAR IndexType=Frequency
!
# Hz S MA R 50
9000.000 +8.7000709863E-002 -1.6560165737E+002  +6.9444594592E-003 -6.7591103296E+001  +6.0850959837E-003 -1.2975862138E+002  +3.0621846464E-001 -1.4329863271E+002 
134145.181 +1.1167587502E-001 +1.6991792875E+002  +3.7385659303E-004 -5.7613967973E+000  +4.8205180340E-004 +1.2931960236E+002  +2.4083520767E-001 -1.7123912691E+002 
259290.363 +1.1305685690E-001 +1.6989166894E+002  +5.9016196332E-004 -5.9746639408E+000  +1.5021358243E-003 +1.0440571615E+002  +2.4598805847E-001 -1.6645823489E+002 
384435.544 +1.1474210199E-001 +1.7001146486E+002  +1.0177791095E-004 +2.7808521628E+001  +4.4471855546E-004 -5.9394049919E+001  +2.4273737843E-001 -1.7028786511E+002 
509580.726 +1.1369050966E-001 +1.7025568355E+002  +1.3773792389E-003 +9.4632945094E+001  +1.6403654507E-003 +1.8113628531E+000  +2.5775485672E-001 -1.6519409225E+002 
634725.907 +1.1826542116E-001 +1.7193214969E+002  +6.9589552832E-004 +7.9026159007E+000  +1.3058473586E-003 +4.8801099984E+000  +2.6508585094E-001 -1.6421108562E+002 
759871.089 +1.2132470329E-001 +1.7086552876E+002  +3.2029184390E-004 -2.0093824675E+001  +5.7158543051E-004 +7.1547713626E+001  +2.5933276806E-001 -1.6718819813E+002 
885016.270 +1.2040576947E-001 +1.6900378588E+002  +8.0607971944E-004 -5.9303880682E+001  +3.3300109285E-004 -1.7647204983E+002  +2.4366179029E-001 -1.6636125130E+002 
1010161.452 +1.1817460143E-001 +1.7093885767E+002  +1.6554189011E-003 -3.7913840556E+001  +7.4158462246E-004 -1.1534393203E+002  +2.0734288980E-001 -1.6706862184E+002 
1135306.633 +1.1812912511E-001 +1.6986746548E+002  +1.1140077729E-003 -5.3674598211E+001  +7.7779342822E-004 +6.8098927723E+001  +1.8679886649E-001 -1.6478716802E+002 
1260451.815 +1.1491859034E-001 +1.6933725919E+002  +2.0906124984E-003 -4.3628164858E-001  +1.4787571024E-003 -1.3316479306E+002  +1.8921671272E-001 -1.6472812798E+002 
1385596.996 +1.2692853148E-001 +1.7281330319E+002  +1.1329945827E-003 +1.7761691805E+001  +2.0179357615E-003 +1.1294725165E+002  +2.7990383015E-001 -1.5505623347E+002 
1510742.178 +1.2634701647E-001 +1.7335930023E+002  +5.9198662547E-004 -1.3071479280E+001  +7.2630298876E-004 -6.4180785442E+001  +2.6947485767E-001 -1.5860072507E+002 
1635887.359 +1.2975983894E-001 +1.7194415268E+002  +1.0331443169E-003 -1.2330088431E+002  +2.0675327651E-003 -7.2607124160E+000  +2.3561541536E-001 -1.5837446208E+002 
1761032.541 +1.3035261291E-001 +1.7053750551E+002  +8.5220593257E-004 -4.3984073706E+001  +7.6341716421E-004 +1.6580717256E+002  +2.3109148394E-001 -1.5220068436E+002 
1886177.722 +1.2778151827E-001 +1.6768164739E+002  +2.1302878410E-003 +6.8773553943E+001  +9.9730465206E-004 -1.1390196571E+002  +2.2636521640E-001 -1.6238213788E+002 
2011322.904 +1.2758829468E-001 +1.6979457954E+002  +1.1145938310E-003 +1.0163965435E+002  +2.1532303450E-003 +1.7268556807E+002  +1.9044408314E-001 -1.6624725034E+002 
2136468.085 +1.2859432471E-001 +1.6731218861E+002  +2.8091218817E-003 +1.5110948044E+002  +1.7594416246E-003 -2.6816563304E+001  +1.7014841546E-001 -1.7012535904E+002 
2261613.267 +1.3595006683E-001 +1.6587812424E+002  +2.8594856479E-003 +6.6240086798E+001  +3.2720258839E-003 -5.6217163479E+001  +1.8790313818E-001 -1.7807665596E+002 
2386758.448 +1.3575554058E-001 +1.6231247210E+002  +4.6095368840E-003 -1.2763640708E+000  +9.4924862818E-004 -8.1695883822E+001  +2.2222330447E-001 +1.6397904653E+002 
2511903.630 +1.3165213342E-001 +1.6179566233E+002  +3.5032620202E-003 +1.1678341240E+002  +6.4344671883E-003 -2.3433602812E+001  +2.4626748979E-001 +1.6991523964E+002 
2637048.811 +1.1543869457E-001 +1.6466233588E+002  +9.8978363618E-003 +8.6413894002E+001  +5.8402004463E-003 -1.1087099957E+002  +2.1648036455E-001 +1.7128865519E+002 
2762193.992 +9.9082508827E-002 +1.7979730348E+002  +2.6998581542E-002 +3.5085163157E+001  +2.3605245054E-002 -9.8959133300E+001  +1.6397801312E-001 +2.3186381288E+001 
2887339.174 +1.1152357122E-001 +1.6157694927E+002  +3.2758948076E-002 -2.9791019430E+001  +1.0546645166E-002 -1.1892089711E+002  +3.6131967573E-001 -3.4632424914E+001 
3012484.355 +1.3777190187E-001 +1.7251219034E+002  +2.4344696753E-002 -4.3915492617E+001  +1.9366428379E-002 -1.6584869324E+002  +4.2621468522E-001 -7.4972262077E+001 
3137629.537 +1.2175933224E-001 +1.7207310587E+002  +3.2407339274E-003 -4.8876943125E+000  +7.0094011743E-003 -1.0313166465E+002  +2.1847076224E-001 -1.4128772864E+002 
3262774.718 +1.3795284818E-001 +1.6380484836E+002  +1.2831319181E-002 -1.7608130519E-001  +9.1198976897E-003 -8.8164106050E+001  +1.0685069636E-001 +1.6874951967E+002 
3387919.900 +1.4085895554E-001 +1.5855716490E+002  +1.6540368078E-002 -1.5023748903E+001  +8.7034129260E-003 -9.9395208370E+001  +2.5953977932E-001 -9.7780803893E+001 
3513065.081 +1.6213856434E-001 +1.5855911413E+002  +1.3510890296E-002 -5.0680403382E+000  +1.2862278445E-002 -2.8113587675E+001  +3.1519153081E-001 -1.2934373084E+001 
3638210.263 +1.3208194185E-001 +1.4735330803E+002  +5.1204513920E-002 +8.8270844591E+001  +4.0271411232E-002 +4.3011907438E+001  +1.0600688251E+000 +1.1334388707E+002 
3763355.444 +1.8029881027E-001 +1.4006145405E+002  +1.5767448288E-002 +1.0617381541E+002  +8.3851368691E-003 -2.4721838328E+001  +2.3967628169E-001 +1.3601082501E+002 
3888500.626 +1.9069033807E-001 +1.5089959869E+002  +2.1306570003E-002 +7.0655197566E+001  +1.5230160608E-002 -1.4033425680E+001  +9.4137305209E-002 +9.2034830212E+001 
4013645.807 +1.7672384308E-001 +1.5002349760E+002  +1.7842638733E-002 +6.0930842746E+001  +6.3158621811E-003 +3.7542936920E+001  +2.5063806809E-001 +1.4141956474E+002 
4138790.989 +1.9555367542E-001 +1.4430254551E+002  +1.2069597570E-002 +8.3148802586E+001  +2.4611380412E-002 -2.9661072341E+001  +1.4769125920E-001 +2.0929591313E+001 
4263936.170 +1.5399846440E-001 +1.3101479401E+002  +2.7956530235E-002 +8.7473223598E+001  +2.4700319900E-002 +1.1338776314E+001  +5.2229548863E-001 +1.3599845976E+002 
4389081.352 +2.0979235157E-001 +1.2800741858E+002  +4.3834552994E-002 +8.6670793977E+001  +3.6036492476E-002 +1.1890418325E+001  +7.7359622585E-001 +9.9037694764E+001 
4514226.533 +2.0204568261E-001 +1.4330837929E+002  +3.0984677665E-002 +9.0287319278E+001  +4.3664133950E-002 +2.4344819863E+001  +9.7352795238E-001 +1.1753059044E+002 
4639371.715 +3.3086644167E-001 +1.2728067064E+002  +3.9886890740E-002 +1.4909840841E+002  +2.6286262538E-002 +9.5495905496E+001  +9.2260795311E-001 +9.7840117763E+001 
4764516.896 +2.9235248220E-001 +1.1818192945E+002  +8.5050941513E-002 -6.7881623313E+000  +9.3555787853E-002 -3.9349104456E+001  +1.8622148916E+000 -6.2050171823E+001 
4889662.078 +4.7380854744E-001 +1.2978873770E+002  +2.6064596517E-001 -1.2331080751E+002  +2.8798936308E-001 -1.5594974786E+002  +4.9849607134E+000 -1.7457118327E+002 
5014807.259 +5.0712499458E-001 +1.3593215494E+002  +3.1261719442E-001 +1.7730237552E+002  +3.1230900741E-001 +1.1045758619E+002  +7.3422946090E+000 +1.0832211213E+002 
5139952.441 +4.1848961371E-001 +1.2857681031E+002  +6.7455734541E-002 +1.4502063447E+002  +9.9834128808E-002 +1.1970155874E+002  +2.3820270933E+000 +1.2437184435E+002 
5265097.622 +3.5855224176E-001 +1.3195000511E+002  +1.3944054475E-001 +1.2654380816E+002  +8.9739209235E-002 +3.3019764236E+001  +4.1730334283E+000 +7.4645827653E+001 
5390242.804 +4.0347485707E-001 +1.2678002466E+002  +5.0894723290E-002 +9.4461457960E+001  +3.8689966698E-002 +2.8552129727E+001  +1.1292990292E+000 +4.0221264516E+001 
5515387.985 +4.2882351111E-001 +1.2448447079E+002  +3.8331463642E-002 +1.5231014925E+002  +5.6617466512E-002 +5.3305533669E+001  +1.7275862508E+000 +1.1638490753E+002 
5640533.166 +4.5834124147E-001 +1.2931344214E+002  +6.8817334675E-002 +8.6345467274E+001  +4.9048098275E-002 +9.7505050763E+001  +2.3962055333E+000 +9.2937112041E+001 
5765678.348 +5.2223194469E-001 +1.2224403512E+002  +6.8143079214E-002 +8.8919832421E+001  +9.6890361888E-002 +4.4087005026E+001  +1.9333073287E+000 +5.5402365097E+001 
5890823.529 +5.2715960119E-001 +1.2353468304E+002  +6.1836063821E-002 +9.2213459566E+001  +6.3778182605E-002 +2.4315738045E+001  +1.5260409970E+000 +5.5523675332E+001 
6015968.711 +5.4605224001E-001 +1.1246794272E+002  +1.0845095061E-001 +5.7979919148E+001  +7.1362481212E-002 +4.4669615112E+001  +2.4970525271E+000 +4.5910376748E+001 
6141113.892 +5.9220385322E-001 +1.1610670636E+002  +5.2039541225E-002 +6.3478287227E+001  +5.6842346150E-002 +2.9896512167E+001  +1.4159402647E+000 +3.2765727145E+001 
6266259.074 +6.8115275578E-001 +9.1182296473E+001  +5.7275812487E-002 +2.9016987216E+001  +5.1604722314E-002 +9.3161996700E+000  +1.0439060415E+000 +2.7336515216E+001 
6391404.255 +6.9638271979E-001 +9.1182771295E+001  +8.3190978918E-002 +3.1728378031E+001  +6.9484753210E-002 +1.5824045635E+001  +1.0546847558E+000 +1.4022021030E+001 
6516549.437 +1.1211990467E+000 +7.9426919785E+001  +9.0391347108E-002 +4.3715214566E+001  +1.1029174137E-001 +1.8990422572E+001  +1.5334578615E+000 +8.4696190591E+000 
6641694.618 +1.8496368111E+000 +6.7947245977E+001  +1.0976126616E-001 +2.8451519084E+001  +1.1420424885E-001 +2.7142218337E+001  +1.1263244702E+000 -6.1472226509E+000 
6766839.800 +1.5191529031E+000 +4.4727974914E+001  +1.0223995972E-001 +1.7510478726E+001  +1.1225382457E-001 -2.5008166362E+000  +1.3262298431E+000 +1.2584162429E+000 
6891984.981 +1.7908533454E+000 +3.1358216528E+001  +1.1593717565E-001 +7.7571816546E+000  +9.6670711528E-002 +5.2841310643E+000  +1.2956383790E+000 +2.0686996374E+000 
7017130.163 +1.2958864866E+000 +2.2874009754E+001  +6.3815602113E-002 +3.5012412372E+000  +8.4959125679E-002 -1.5320006361E+001  +1.2833509521E+000 -4.3051459205E+000 
7142275.344 +1.6694197005E+000 +9.5147020828E+000  +9.5827761360E-002 -3.4984372449E+000  +7.9894619660E-002 +4.5541590584E+000  +1.2202618358E+000 -5.1781333749E+000 
7267420.526 +1.5911308104E+000 +1.0423181955E+001  +5.5776056269E-002 -1.9766476484E-001  +8.0723225703E-002 -7.5878279528E+000  +1.4178986381E+000 -1.7014181230E+001 
7392565.707 +1.3217170300E+000 -7.7765082469E+000  +5.3548366849E-002 -3.0355716882E+000  +4.7874551899E-002 +5.2994832792E+000  +1.2759768758E+000 -9.1077598649E+000 
7517710.889 +1.1787785505E+000 +1.4201129469E+000  +4.2483808675E-002 +2.0653427967E+001  +4.5317376196E-002 +1.9721508658E+000  +1.2218306554E+000 -2.6847947623E+000 
7642856.070 +1.1242658370E+000 +4.4984271372E+000  +4.5377078506E-002 +8.8335679403E+000  +4.5893564426E-002 +3.3086313176E+000  +1.0614011508E+000 -4.4517710362E+000 
7768001.252 +9.4907313131E-001 +7.2007421518E+000  +3.7419388925E-002 +4.6083537581E+000  +3.3436639046E-002 +6.5265131041E+000  +8.8249005688E-001 +3.0317433892E+000 
7893146.433 +8.6251440645E-001 +8.3877080817E+000  +4.6527026825E-002 -5.4723687198E-001  +3.5546292906E-002 +9.4450202534E+000  +7.8973141877E-001 -8.1991105214E-001 
8018291.615 +7.7247412682E-001 +5.0226583814E+000  +4.1407231976E-002 +8.2813955590E+000  +3.7907012984E-002 +1.8218300284E+001  +8.4786115993E-001 +1.8475571311E+000 
8143436.796 +8.2780296221E-001 +8.4489915344E+000  +3.6370145530E-002 -6.3157671082E+000  +3.1474616300E-002 +4.0301089805E+000  +7.4361657167E-001 +1.8755768727E-001 
8268581.977 +7.0756401635E-001 +5.7362463401E+000  +3.6515316430E-002 -1.0259963167E+001  +3.7390814638E-002 +1.8277218401E+000  +6.7659825628E-001 -1.0527528026E+000 
8393727.159 +6.1244025115E-001 +7.6108568092E+000  +3.3682756444E-002 -5.7367154154E+000  +3.4577680594E-002 +4.5752578751E+000  +6.3733394158E-001 -3.9247314829E+000 
8518872.340 +6.7574575441E-001 +9.0556086559E+000  +3.2975776763E-002 -1.1611422137E+000  +3.7318643692E-002 +1.1914185600E+001  +6.6766382452E-001 -3.4852283732E+000 
8644017.522 +6.4366828138E-001 +8.2055667352E+000  +3.1911361807E-002 -5.9042632968E+000  +3.2891312208E-002 +1.4570116447E+001  +6.6230304520E-001 +1.4264107173E+000 
8769162.703 +5.7923780925E-001 +5.5195946927E+000  +3.2965976129E-002 -3.2283828135E+000  +3.3012341860E-002 +9.1122635103E+000  +6.5152327706E-001 +3.3221933062E-001 
8894307.885 +5.7233255457E-001 +8.8952839050E+000  +3.1839473500E-002 +5.2498636659E-002  +3.3585795633E-002 +1.6036747498E+001  +5.5172032574E-001 +2.1825788106E+000 
9019453.066 +5.4194983700E-001 +9.6769180978E+000  +3.0936153268E-002 -3.6636255749E+000  +3.5355299339E-002 +1.4128118378E+001  +5.9952503878E-001 -4.2534146485E+000 
9144598.248 +5.2820546043E-001 +6.9162333928E+000  +3.1346203497E-002 -1.6852236158E+000  +3.1513928866E-002 +1.2173582394E+001  +5.8788394203E-001 +7.0841102539E-001 
9269743.429 +5.9297881028E-001 +4.1535499739E+000  +3.1577424699E-002 +2.9812983710E+000  +3.4374685251E-002 +1.7837940884E+001  +5.7274337051E-001 +4.4224562572E-001 
9394888.611 +5.6600432057E-001 +6.3223456427E+000  +3.4594216564E-002 -9.0875451380E+000  +3.5051317834E-002 +9.6305861173E+000  +5.3728320192E-001 +1.5208394145E+000 
9520033.792 +5.0484047623E-001 +7.4499902201E+000  +3.3616297814E-002 -3.9189618276E+000  +3.1828293228E-002 +1.3254402292E+001  +5.7700919754E-001 -3.5242172403E+000 
9645178.974 +5.4935135534E-001 +7.9196956728E+000  +3.2884848817E-002 -2.7453377356E+000  +3.0934944874E-002 +1.7112716800E+001  +5.6946464534E-001 -4.4276834152E+000 
9770324.155 +5.3689766750E-001 +2.3462185083E+000  +3.7950223933E-002 -4.1719337690E+000  +3.4655469092E-002 +1.3452156582E+001  +5.6273665888E-001 -6.2252814934E+000 
9895469.337 +5.3095584314E-001 +3.6199240428E+000  +3.3810608150E-002 -4.7790056208E+000  +3.3302963969E-002 +1.1860903655E+001  +5.4412371173E-001 -7.3487081834E+000 
10020614.518 +5.1950499133E-001 +3.9600402011E+000  +3.1740288621E-002 -7.2869017754E+000  +3.1899972872E-002 +1.8516217419E+001  +5.6045455583E-001 -5.0854339451E+000 
10145759.700 +5.3171386357E-001 +3.4231417083E+000  +3.3440837769E-002 -1.4971792595E+000  +3.5662885253E-002 +1.4723003740E+001  +5.3723028920E-001 -4.5802128793E+000 
10270904.881 +5.5535965936E-001 +4.6797827348E+000  +3.4274000425E-002 -1.1251511811E+000  +3.1810881797E-002 +1.5110081427E+001  +5.5868821946E-001 +2.8863383922E-001 
10396050.063 +5.1301730493E-001 +6.1085018498E+000  +3.2900595027E-002 -3.5483745830E+000  +2.9242814102E-002 +1.4648143964E+001  +5.4046292343E-001 -4.8379348324E+000 
10521195.244 +5.5806498134E-001 +5.5024491062E+000  +3.2267911820E-002 +1.7527393119E+000  +3.3703789761E-002 +1.4606294784E+001  +5.7153027741E-001 -1.7659064521E+000 
10646340.426 +5.4821643830E-001 +8.0437339787E+000  +3.4337656972E-002 -1.2926150965E+000  +3.2087635693E-002 +1.9191953369E+001  +5.6586378596E-001 -6.1952114847E-001 
10771485.607 +5.3174121792E-001 +5.3883821144E+000  +3.4222496262E-002 -2.0522525005E+000  +3.4770634273E-002 +9.6234074660E+000  +5.4158688137E-001 +1.2765407381E+000 
10896630.788 +5.2839912143E-001 +6.5204226911E+000  +3.7547900594E-002 -1.2393342464E+000  +3.3030921661E-002 +1.5490971619E+001  +5.6835761246E-001 +3.0398520041E+000 
11021775.970 +5.5184531412E-001 +7.4874205237E+000  +3.5591598602E-002 -2.4026218311E-001  +3.4338431784E-002 +1.2180988589E+001  +5.6041327159E-001 -1.7024819040E-001 
11146921.151 +5.8887074640E-001 +6.7370482170E+000  +3.3595108861E-002 +2.0326431019E+000  +3.4955515854E-002 +1.3405051083E+001  +5.7013345121E-001 -6.4033010363E-003 
11272066.333 +5.4767619489E-001 +4.3931744010E+000  +3.5610499988E-002 -1.0033950580E+000  +3.4821565178E-002 +1.3056636220E+001  +5.9972329534E-001 +1.6157012445E+000 
11397211.514 +5.9240825024E-001 +9.9644495429E+000  +3.5945695962E-002 +2.4640042834E+000  +3.4123001862E-002 +1.5922946551E+001  +6.2890581052E-001 -2.1258531067E-001 
11522356.696 +6.1083667414E-001 +6.0058510237E+000  +3.7644106653E-002 +1.5039369170E+000  +3.3536192836E-002 +1.5754521684E+001  +6.4797294677E-001 +1.3420526714E+000 
11647501.877 +6.2333938395E-001 +5.8560294467E+000  +3.3471258340E-002 +3.3840028706E+000  +3.6744019131E-002 +1.6075069625E+001  +6.5769994173E-001 +2.7582831987E+000 
11772647.059 +6.2192827718E-001 +3.3416322749E+000  +3.7002081119E-002 +3.2064151748E+000  +3.4964651609E-002 +1.5939206334E+001  +6.4077723774E-001 +1.5696847154E+000 
11897792.240 +6.1853701471E-001 +8.4299401509E+000  +3.8609045618E-002 +2.3970601424E+000  +3.6870370591E-002 +1.3613483317E+001  +6.3115324049E-001 -5.3070942624E-001 
12022937.422 +6.4895373490E-001 +7.6945518989E+000  +3.6926784967E-002 +4.2939036551E-001  +3.7208626474E-002 +1.3685119672E+001  +6.5959124584E-001 +2.2928796375E+000 
12148082.603 +6.2519662745E-001 +6.2381194213E+000  +3.7022039357E-002 +1.2053406834E+000  +3.7611010707E-002 +1.3926943824E+001  +6.4491978840E-001 +1.9030244938E+000 
12273227.785 +6.7960844444E-001 +5.1666173335E+000  +3.8334571439E-002 +3.1064774337E+000  +3.6976010924E-002 +1.1496743647E+001  +6.8197203553E-001 +4.0379975235E-001 
12398372.966 +6.9466599223E-001 +6.3570865200E+000  +3.9253331962E-002 +3.4600886802E+000  +3.7490963008E-002 +1.0632563471E+001  +7.0842532173E-001 +2.0025365514E+000 
12523518.148 +6.8254148356E-001 +2.3281049914E+000  +3.7566423031E-002 +3.5030611715E+000  +3.6536385549E-002 +7.6343020080E+000  +7.0035074126E-001 +4.9112618234E-001 
12648663.329 +7.0690524928E-001 +2.5729277371E+000  +3.9120566852E-002 +5.5093893620E+000  +3.9430558724E-002 +1.3976874979E+001  +7.2595547374E-001 -3.7205906372E-001 
12773808.511 +7.2276697246E-001 +2.9226544123E+000  +4.0109714205E-002 +4.2285132418E+000  +3.9445334881E-002 +7.9743619859E+000  +7.2719005988E-001 -9.4138410666E-001 
12898953.692 +7.4843437308E-001 +8.6354674533E-001  +4.2598148937E-002 +4.4207975623E+000  +3.9333560499E-002 +9.7030272535E+000  +7.4558684227E-001 -4.1460529542E-001 
13024098.874 +7.6285737588E-001 +6.9404088414E-001  +4.1345410775E-002 +3.6394695403E+000  +3.9828417577E-002 +7.7053810055E+000  +7.4604064472E-001 -7.6958147443E-001 
13149244.055 +7.7367802006E-001 -2.6444875508E-001  +4.2168095953E-002 +2.4174655854E+000  +4.2623372577E-002 +8.1739048104E+000  +7.9634317299E-001 -5.8543364824E-001 
13274389.237 +7.8458230375E-001 -7.4568607749E-001  +4.0382308428E-002 +6.5746990519E+000  +4.1559590447E-002 +8.1535464302E+000  +7.9612454009E-001 -1.5411166380E+000 
13399534.418 +8.0249095519E-001 -1.2946802010E+000  +4.1281546220E-002 +3.3285865296E+000  +4.2427679678E-002 +6.9912417646E+000  +8.4188222264E-001 -2.1041841083E+000 
13524679.599 +8.1433011035E-001 -3.3972329386E-001  +4.2569825838E-002 +4.1859742229E+000  +4.4060857582E-002 +6.3073512333E+000  +8.2367946445E-001 -2.6603139796E+000 
13649824.781 +8.4882275886E-001 -1.8959135397E+000  +4.1577079300E-002 +4.8091250207E+000  +4.1484863578E-002 +8.1129761347E+000  +8.2877455142E-001 -2.9442091303E+000 
13774969.962 +8.5594510452E-001 -3.2444839387E+000  +4.4171545720E-002 +5.4099164507E+000  +4.2030114167E-002 +6.6774842152E+000  +8.4495716566E-001 -2.9875502638E+000 
13900115.144 +8.7717501183E-001 -2.6617461241E+000  +4.1906160400E-002 +4.3009892215E+000  +4.1639995615E-002 +4.3610693879E+000  +8.9965278640E-001 -3.0600201954E+000 
14025260.325 +8.8630375002E-001 -3.4432690298E+000  +4.2132595121E-002 +4.2104621072E+000  +4.4075886074E-002 +7.5638104544E+000  +8.9606960946E-001 -4.5675465582E+000 
14150405.507 +9.0077478595E-001 -3.9319669706E+000  +4.2958931566E-002 +3.9094253936E+000  +4.2661361905E-002 +2.2785180548E+000  +9.1036948242E-001 -4.0037117369E+000 
14275550.688 +9.3147468549E-001 -5.9541802615E+000  +4.4809178271E-002 +2.4665630854E+000  +4.4374049194E-002 +4.8895075971E+000  +9.3740161542E-001 -4.0090367757E+000 
14400695.870 +9.3460195380E-001 -5.0638920267E+000  +4.3650990895E-002 +2.5989568286E+000  +4.2438841395E-002 +4.5019054458E+000  +9.5839052667E-001 -3.4739915251E+000 
