!  2-Port S-parameters saved by WinCal
! VAR NAME=S2_r9c3_SET1_9k-100M_1
! VAR DATE=29/08/2024 11:20:26
! VAR FILENAME=S2_r9c3_SET1_9k-100M_1.S2P
! VAR MeasName=S-Parameters (CALIBRATED_DATA) read from VNA (P5004A)
! VAR MeasDate=29/08/2024 11:19:53
! VAR PHYS_PORTS=1,2
! VAR ObjTypeName=DATASET
! VAR IndexType=Frequency
!
# Hz S MA R 50
9000.000 +9.9711874787E-002 -1.7049053415E+002  +6.1829029980E-003 -3.3058631923E+001  +1.1006881737E-002 +2.9598387059E+001  +2.4137990246E-001 -1.2654325039E+002 
134145.181 +1.1130866746E-001 +1.6984925327E+002  +6.3346466848E-004 +2.7680788294E+001  +8.8476531623E-004 -1.1732007395E+002  +2.4206937486E-001 -1.7088104117E+002 
259290.363 +1.1138523835E-001 +1.6982118883E+002  +4.5943626967E-004 -1.2096049487E+002  +7.8266162519E-004 +4.7147485125E+001  +2.4463774797E-001 -1.6970640009E+002 
384435.544 +1.1473197937E-001 +1.7039597025E+002  +4.9566013814E-004 -1.4049901397E+002  +3.0750900117E-004 -2.4166327541E+001  +2.4541901992E-001 -1.6928036243E+002 
509580.726 +1.1521898745E-001 +1.7003067977E+002  +7.9234872293E-004 -1.2464538608E+002  +1.8036930770E-003 +9.2879592157E+001  +2.5120672674E-001 -1.6552940802E+002 
634725.907 +1.1759180065E-001 +1.7168698741E+002  +1.0607928273E-003 -3.7201709995E+001  +1.7610681699E-003 +1.2060695559E+002  +2.5964080484E-001 -1.6263823223E+002 
759871.089 +1.2036258084E-001 +1.7082872348E+002  +6.7532516436E-004 -1.7204689998E+002  +4.5505607727E-004 +6.6255393666E+001  +2.4710940443E-001 -1.6790913985E+002 
885016.270 +1.2112208677E-001 +1.6924047850E+002  +5.2469005709E-004 -8.2953331110E+001  +7.8926520412E-004 +1.1007585118E+002  +2.4053833759E-001 -1.6758129341E+002 
1010161.452 +1.1880129830E-001 +1.6864636901E+002  +1.4701199742E-003 +3.3601235385E+001  +1.1531774142E-003 -1.7495926389E+002  +2.1130755152E-001 -1.6447653135E+002 
1135306.633 +1.1499765388E-001 +1.6867565476E+002  +1.4139659526E-003 +3.6781522704E+001  +1.6661875847E-003 -1.5359829887E+002  +2.0943885178E-001 -1.6681470858E+002 
1260451.815 +1.2150510141E-001 +1.7015090010E+002  +4.5412029609E-004 -3.5130200540E+001  +1.1642104330E-003 +1.7194778975E+002  +2.1854841775E-001 -1.6280539708E+002 
1385596.996 +1.2721715735E-001 +1.7186602010E+002  +5.8808677383E-004 -4.6967990712E+001  +1.0935324305E-003 +6.6592726488E+001  +2.5703534415E-001 -1.5905507443E+002 
1510742.178 +1.2858268929E-001 +1.7060085874E+002  +1.0918096125E-003 -2.5213236057E+001  +2.0454733326E-004 +7.7960951191E+001  +2.5007130771E-001 -1.5907217001E+002 
1635887.359 +1.3008532734E-001 +1.7093506596E+002  +1.6342258478E-003 -2.2929616214E+001  +8.0371660611E-004 +1.7577507978E+002  +2.4910020375E-001 -1.5613721250E+002 
1761032.541 +1.2858055677E-001 +1.6998961252E+002  +1.2170900368E-003 -3.0195950638E+001  +1.3605790381E-003 -1.3453583278E+002  +2.2776245713E-001 -1.5934509046E+002 
1886177.722 +1.3049321290E-001 +1.6841642343E+002  +2.6536080832E-003 +1.2766729530E+002  +3.2735668185E-003 -6.1613035314E+001  +2.0486708915E-001 -1.7392072533E+002 
2011322.904 +1.2630409073E-001 +1.6887972941E+002  +5.6158243850E-003 +2.1926098669E+001  +8.0294230926E-003 -7.9550806783E+001  +1.9129040569E-001 -1.5920763480E+002 
2136468.085 +1.2936387063E-001 +1.6502976797E+002  +7.0943021331E-003 +9.4348065735E+001  +6.1517469942E-003 -6.4100899731E+001  +2.1303404509E-001 -1.7812350023E+002 
2261613.267 +1.3563389019E-001 +1.6529137889E+002  +6.0098819887E-003 +6.7023244555E+001  +4.3215594817E-003 -5.5213779417E+001  +2.0723434918E-001 -1.7660816653E+002 
2386758.448 +1.3799973320E-001 +1.6208599866E+002  +9.4525885820E-003 +1.1234291460E+002  +7.1370378184E-003 -3.4949592391E+001  +2.0590051123E-001 +1.7962156167E+002 
2511903.630 +1.3684698826E-001 +1.6700134036E+002  +1.0112627614E-002 +8.5634318957E+001  +9.0717771162E-003 -1.2053010597E+001  +2.5663506304E-001 +1.7102214106E+002 
2637048.811 +1.3022344725E-001 +1.6002592273E+002  +3.1780322870E-002 +7.6568840210E+001  +3.4225087023E-002 -3.4236141040E+001  +1.0904012769E-001 +1.1832869213E+002 
2762193.992 +1.1132153815E-001 +1.7479588080E+002  +5.8254044049E-002 -8.0570931957E+001  +5.6496185320E-002 +1.5982082799E+002  +5.0150093319E-001 -1.1881541683E+002 
2887339.174 +1.3244445072E-001 +1.6948236490E+002  +2.7538632716E-002 +1.1703144756E+002  +5.4414847682E-002 +2.2524621556E+001  +8.1407045418E-001 +1.5572357636E+002 
3012484.355 +1.2311286762E-001 +1.6699545142E+002  +7.1155837109E-002 -3.6546755618E+001  +6.6478505133E-002 -1.2626690752E+002  +4.6856800632E-001 -5.0748449877E+001 
3137629.537 +1.3295893964E-001 +1.6678498484E+002  +2.2475017715E-002 +1.5634695410E+001  +2.4879727243E-002 -1.0167689443E+002  +1.4788955630E-001 -1.1715581042E+002 
3262774.718 +1.4121942044E-001 +1.7436334369E+002  +3.5624982283E-002 +6.1010802020E+001  +3.4076951261E-002 -3.3992216144E+001  +4.2712112307E-001 +1.2925747852E+002 
3387919.900 +9.8189383287E-002 +1.2761036525E+002  +8.5321733293E-002 +9.0395040065E+001  +7.4061742652E-002 +1.0969136342E+001  +4.6534069062E-001 +1.2976896133E+002 
3513065.081 +1.6826084238E-001 +1.3915077429E+002  +1.7256762843E-001 +1.1967589625E+002  +1.7499218844E-001 +3.1787181481E+001  +1.5568114109E+000 +9.0992083624E+001 
3638210.263 +1.9158303616E-001 +1.4409224494E+002  +6.9376723797E-002 +1.5469169881E+002  +6.6288709221E-002 +5.9868420697E+001  +8.0562364974E-001 +1.2957250616E+002 
3763355.444 +1.7627099108E-001 +1.5064580756E+002  +4.8234327802E-002 +1.3254431378E+002  +4.8405881174E-002 +4.6482705575E+001  +7.1090720096E-001 +1.4458691763E+002 
3888500.626 +1.6733148231E-001 +1.5443401377E+002  +2.8644099006E-002 +1.2241064275E+002  +3.0978423568E-002 +5.4997764555E+001  +5.7488241468E-001 +1.5862054183E+002 
4013645.807 +1.8470087355E-001 +1.5480692889E+002  +2.2210288818E-002 +8.3589261603E+001  +2.6668003785E-002 +7.1867216111E+000  +2.4774937312E-001 +1.5636110789E+002 
4138790.989 +1.8883992507E-001 +1.4542729020E+002  +6.0310837298E-002 +7.3374603608E+001  +5.3284888496E-002 +1.1384852162E+001  +3.3784964311E-001 +8.6526902750E+001 
4263936.170 +2.1371388300E-001 +1.4664688054E+002  +3.1259878041E-002 +1.0881216227E+002  +2.8986539716E-002 +4.2576175478E+001  +4.3933125952E-001 +1.4607618089E+002 
4389081.352 +2.0228274976E-001 +1.4624407980E+002  +5.3659927895E-002 +9.2255775393E+001  +7.1741260850E-002 +3.7241792833E+001  +5.2395384450E-001 +1.0622056943E+002 
4514226.533 +1.9249024731E-001 +1.4291906229E+002  +8.7878304163E-002 +4.5379998923E+001  +9.2864137327E-002 -4.9219217784E+000  +5.0285675590E-001 +4.3010605614E+001 
4639371.715 +2.8890213679E-001 +1.4427905170E+002  +6.6611065948E-002 +1.2308441970E+002  +7.1641224198E-002 +7.4647531208E+001  +6.5922634482E-001 +1.1780556834E+002 
4764516.896 +3.0090336844E-001 +1.1438365558E+002  +3.0104248626E-001 -5.5363249774E+001  +2.1836319916E-001 -1.0577664424E+002  +2.3185150614E+000 -1.0832381896E+002 
4889662.078 +3.7033445274E-001 +1.1082240538E+002  +5.0305042467E-001 -4.0335324519E+001  +4.6802680878E-001 -8.2329558957E+001  +3.1095845895E+000 -1.0004927579E+002 
5014807.259 +3.1280038892E-001 +9.9486107016E+001  +4.9567644767E-001 +5.3660430350E+001  +4.3181841047E-001 +7.2445407279E+000  +2.6875405943E+000 +3.1978252326E+001 
5139952.441 +3.6216152233E-001 +1.2610871671E+002  +3.2029975149E-001 +1.0101071860E+002  +3.5036651320E-001 +6.2677305032E+001  +2.8578912644E+000 +8.6662650504E+001 
5265097.622 +3.9831586619E-001 +1.3263301766E+002  +2.0582248466E-001 +1.5651372175E+002  +1.6872893804E-001 +1.1017753941E+002  +2.1786912868E+000 +1.3715824366E+002 
5390242.804 +4.1399310537E-001 +1.3230973132E+002  +3.1829868555E-001 +1.2081862835E+002  +2.9771194344E-001 +9.4717338341E+001  +3.6480574782E+000 +1.0505962248E+002 
5515387.985 +4.1215346753E-001 +1.3266513498E+002  +1.2191959609E-001 +1.2580361970E+002  +1.2776581667E-001 +8.8756639451E+001  +1.6059913246E+000 +1.2451043650E+002 
5640533.166 +4.8128855465E-001 +1.2908096488E+002  +2.9770050851E-001 +9.8953984853E+001  +2.5996784610E-001 +7.8224593597E+001  +2.7010742059E+000 +7.9951291615E+001 
5765678.348 +4.0062706429E-001 +1.1978606253E+002  +2.0923330356E-001 +6.2826611209E+001  +1.9679204665E-001 +4.2378194417E+001  +1.7035589402E+000 +7.0962499533E+001 
5890823.529 +5.0366269599E-001 +1.1232217639E+002  +2.5315110284E-001 +7.7496318287E+001  +2.5120847917E-001 +5.0708975188E+001  +1.9010699705E+000 +7.0623521050E+001 
6015968.711 +5.9238716107E-001 +1.1196078966E+002  +2.3664282009E-001 +7.7602903137E+001  +2.5108962700E-001 +4.6297583772E+001  +1.8870568885E+000 +6.9426918092E+001 
6141113.892 +6.5468061155E-001 +1.1054218970E+002  +2.0171860792E-001 +6.1621484561E+001  +2.3890621175E-001 +4.3544517749E+001  +1.5912958760E+000 +5.2571275868E+001 
6266259.074 +5.4911826500E-001 +8.2195849496E+001  +2.1104733447E-001 +3.0961643270E+001  +2.0430364388E-001 +1.5602092687E+001  +9.8631181416E-001 +2.9428104636E+001 
6391404.255 +8.6408361003E-001 +9.0088689048E+001  +2.4887612692E-001 +3.6059466687E+001  +2.5699452579E-001 +2.9799244187E+001  +1.4795047291E+000 +2.8930164653E+001 
6516549.437 +1.0382142925E+000 +8.8458526307E+001  +2.4416518196E-001 +3.3307929862E+001  +2.4158946721E-001 +2.7292268819E+001  +1.4919978435E+000 +1.5225279522E+001 
6641694.618 +1.2852198718E+000 +6.8291300538E+001  +2.6718852801E-001 +2.6171327299E+001  +2.6924938451E-001 +2.5457166395E+000  +1.1478118231E+000 -1.2655879138E+001 
6766839.800 +1.3835647120E+000 +5.7893765075E+001  +2.7486678744E-001 +2.2606381928E+001  +2.6261200555E-001 +1.1238178077E+001  +1.2156501706E+000 +6.7858313197E+000 
6891984.981 +9.9733400020E-001 +3.0196172053E+001  +2.2329057712E-001 +3.6391217902E+000  +2.3176911627E-001 -5.4407499095E+000  +1.3215897691E+000 +7.6436046640E-001 
7017130.163 +1.3890700034E+000 +2.2918358929E+001  +2.3651758857E-001 +2.7592974948E+000  +2.2845176476E-001 -5.7028090334E+000  +1.1733421375E+000 -4.1369291343E+000 
7142275.344 +1.1436110643E+000 +9.2549441620E+000  +1.8569461761E-001 -1.2740646114E+000  +1.7692710223E-001 -5.6651919049E+000  +1.1425887288E+000 -1.3698989791E+001 
7267420.526 +1.2869910540E+000 +3.5794780045E+000  +1.8088217558E-001 -6.9082142894E-001  +1.7221692314E-001 -1.6382602567E+000  +1.2150351346E+000 -5.4831660913E+000 
7392565.707 +1.2445237541E+000 -5.0213614714E-001  +1.4452017657E-001 +4.1366953677E+000  +1.4056545034E-001 +6.3190809371E+000  +1.2356362059E+000 -9.4091884315E+000 
7517710.889 +1.0094637584E+000 +6.0663194473E+000  +1.2870179657E-001 +1.9829946126E+000  +1.2519292389E-001 +5.0431978292E+000  +1.0965976770E+000 -4.3201632525E+000 
7642856.070 +8.9759574208E-001 -1.8684515145E+000  +1.2033185165E-001 +1.7980060024E+000  +1.2096609983E-001 +6.7643955379E+000  +9.9456202725E-001 -4.7363792200E+000 
7768001.252 +8.2843445576E-001 +1.0593549151E+001  +1.2132747421E-001 +3.1939352136E+000  +1.1920203942E-001 +7.6541558344E+000  +9.1385719259E-001 -6.1454079454E+000 
7893146.433 +7.1786819998E-001 +1.3762476085E+001  +1.0721399566E-001 -1.6113436427E-001  +1.0828478773E-001 +7.3494168786E+000  +8.1656383004E-001 -6.5060307802E+000 
8018291.615 +6.8158371348E-001 +8.6815262447E+000  +1.0822708216E-001 +4.1611033799E-001  +1.0732825953E-001 +6.4760798911E+000  +7.4327559492E-001 -3.5831538943E+000 
8143436.796 +6.2529050436E-001 +5.3119437755E+000  +1.0792329148E-001 -3.0709972323E+000  +1.1032956624E-001 +7.8699088039E+000  +6.7293205847E-001 +9.1872587941E+000 
8268581.977 +5.9216998039E-001 +6.0052886653E+000  +1.0499489362E-001 -1.6301131694E+000  +1.0649930506E-001 +8.4966493891E+000  +7.0136791081E-001 -2.3950270310E+000 
8393727.159 +5.9061196857E-001 +6.0361244044E+000  +9.8622753480E-002 -1.9505630024E+000  +1.0240759199E-001 +7.6060390555E+000  +6.5738514327E-001 +4.6843120923E+000 
8518872.340 +5.7453632374E-001 +1.1894017986E+001  +1.0026044717E-001 -5.2775435975E+000  +1.0033016137E-001 +1.0557338277E+001  +6.6245605913E-001 +4.8390971294E-001 
8644017.522 +4.9793021076E-001 +9.1772604980E+000  +9.8723556586E-002 -3.3539288415E+000  +9.7534548779E-002 +9.2043274024E+000  +5.3908156725E-001 -1.0857653302E+000 
8769162.703 +5.3324592150E-001 +8.7653376004E+000  +9.9849455253E-002 -5.5545896204E+000  +9.5990481987E-002 +8.2637417113E+000  +5.3456602932E-001 +1.4502296501E+000 
8894307.885 +4.9193374693E-001 +1.3064856549E+001  +9.5199385155E-002 -3.9987479651E-001  +9.9394430139E-002 +9.7552299062E+000  +5.6418834875E-001 +1.8668122906E+000 
9019453.066 +4.5147251381E-001 +9.1069499516E+000  +9.3782969500E-002 -5.6764811750E+000  +9.8352128905E-002 +1.0064619245E+001  +5.0921838171E-001 +6.8244388874E+000 
9144598.248 +4.3508798769E-001 +7.2069105005E+000  +9.6316507033E-002 -5.2908409786E+000  +9.6465881462E-002 +1.1184556643E+001  +5.5051581222E-001 +2.0478295014E+000 
9269743.429 +4.6093175598E-001 +9.6976422817E+000  +9.8529761158E-002 -4.0022732094E+000  +9.0414806120E-002 +1.0516429770E+001  +5.0954679831E-001 -1.8712220661E+000 
9394888.611 +4.4236436675E-001 -4.5888730556E-001  +1.0290347756E-001 -3.4828190373E+000  +9.6744514440E-002 +1.2456800899E+001  +5.5530013059E-001 -2.0241623700E+000 
9520033.792 +4.2980670058E-001 +3.0760824320E+000  +9.4283691674E-002 -2.9398136817E+000  +9.7882189383E-002 +1.0159122144E+001  +4.8851928227E-001 -6.8252923657E-001 
9645178.974 +4.9004043860E-001 +4.9345605077E+000  +9.8504640200E-002 -2.2367191059E+000  +9.6635489210E-002 +1.2357440893E+001  +4.9786070886E-001 -4.0261556904E+000 
9770324.155 +4.2033883448E-001 +8.5158528250E-001  +9.7658454814E-002 -6.0959077524E+000  +9.2655990126E-002 +1.1353575111E+001  +5.3028776590E-001 +2.8799667170E-001 
9895469.337 +4.2852182551E-001 +4.7225153026E+000  +9.7265936854E-002 -3.4413635875E+000  +9.4223035963E-002 +1.4045671444E+001  +4.6061012490E-001 -2.7937212964E+000 
10020614.518 +4.6625480604E-001 +4.5878834131E+000  +9.6398614203E-002 -2.0296317950E+000  +9.5969357957E-002 +1.4169362323E+001  +4.8639417312E-001 +2.5585139164E+000 
10145759.700 +4.2592566385E-001 +1.4067945030E+000  +9.7666859902E-002 -5.0094075531E+000  +9.6524668947E-002 +1.0871478402E+001  +4.5256232404E-001 -4.4978828996E+000 
10270904.881 +4.8093952660E-001 +1.1640191396E+001  +9.5772848086E-002 -3.7381767574E+000  +9.5122734964E-002 +1.4066556486E+001  +4.4494662601E-001 -2.9074541422E+000 
10396050.063 +4.4820221774E-001 +7.7196411617E+000  +9.7188951266E-002 -2.0016204670E+000  +9.9319293997E-002 +1.4264108746E+001  +4.8296632553E-001 -8.5177150852E-001 
10521195.244 +4.8034899239E-001 +8.7997342982E+000  +9.8816785382E-002 -2.5516615355E+000  +9.8684805482E-002 +1.3420425087E+001  +4.6805149478E-001 +2.3419672117E+000 
10646340.426 +4.2902130130E-001 +9.7825292297E+000  +9.9259140259E-002 -2.5766555453E+000  +1.0030366413E-001 +1.2881910143E+001  +5.0149146791E-001 -2.6747416372E-001 
10771485.607 +4.7672123006E-001 +1.1029779438E+001  +1.0101231980E-001 -1.2798098537E+000  +9.7764730320E-002 +1.2578233798E+001  +5.0361172103E-001 +1.2059993052E+000 
10896630.788 +4.8919239039E-001 +8.8964602271E+000  +9.7779281590E-002 -1.1337051933E+000  +9.8527115209E-002 +1.3515896754E+001  +5.1223693438E-001 +4.2276331509E+000 
11021775.970 +4.9921595434E-001 +9.9305807277E+000  +1.0104603440E-001 +9.2860134653E-001  +1.0240765481E-001 +1.3987688649E+001  +5.1044019952E-001 +3.1046816935E+000 
11146921.151 +5.3392217182E-001 +9.7253326527E+000  +1.0026715874E-001 -2.3400529130E-001  +1.0014669857E-001 +1.2761353347E+001  +5.0318307135E-001 +2.6718137236E+000 
11272066.333 +5.0226680196E-001 +9.0406016764E+000  +1.0129898292E-001 -6.3892131631E-001  +1.0395752568E-001 +1.2863701443E+001  +5.1460149992E-001 +3.3174152906E+000 
11397211.514 +4.9626274072E-001 +5.2655008089E+000  +1.0606076747E-001 -3.8611616083E-001  +1.0372790339E-001 +1.1722179853E+001  +5.3084896109E-001 +4.0044894551E+000 
11522356.696 +5.3282858026E-001 +6.9221216244E+000  +1.0539275117E-001 +9.5402039732E-002  +1.0567904946E-001 +1.2025608218E+001  +5.6174539050E-001 +9.9663379818E-001 
11647501.877 +5.1274619852E-001 +8.7317305360E+000  +1.0557106851E-001 +2.7309746729E-001  +1.0627157210E-001 +1.1812512942E+001  +5.6131753754E-001 +2.9987706374E+000 
11772647.059 +5.5480878703E-001 +6.6271282824E+000  +1.1005572926E-001 +4.5751799167E-001  +1.0551120035E-001 +1.2360345924E+001  +5.5428285064E-001 +3.4711173365E+000 
11897792.240 +5.4263505298E-001 +4.8911072270E+000  +1.0758056802E-001 +1.3949825498E+000  +1.0863109533E-001 +1.0947402454E+001  +5.7547148196E-001 +3.7221008556E+000 
12022937.422 +5.5673013389E-001 +6.1453173440E+000  +1.1116323634E-001 +9.3855958235E-002  +1.0875256319E-001 +1.1053619670E+001  +5.6931886744E-001 +4.4463588194E-001 
12148082.603 +5.6489463379E-001 +5.2322685558E+000  +1.1069032558E-001 +9.7068371128E-001  +1.1031726628E-001 +1.0867207547E+001  +5.8335480521E-001 +1.6327380646E+000 
12273227.785 +5.9826062078E-001 +3.0371918716E+000  +1.1445272681E-001 +2.4856903806E+000  +1.1241848402E-001 +1.0117933074E+001  +6.0426675578E-001 +2.0329491293E+000 
12398372.966 +5.9096354031E-001 +5.9835065761E+000  +1.1344733681E-001 +1.4804676417E+000  +1.1348574276E-001 +1.0163127183E+001  +6.0902235972E-001 +7.7208117369E-001 
12523518.148 +6.2286701774E-001 +5.3750732169E+000  +1.1468302486E-001 +2.2013068991E+000  +1.1153947929E-001 +8.9607181799E+000  +6.4008223022E-001 +2.8986572000E+000 
12648663.329 +6.1419267565E-001 +3.2326178986E+000  +1.1544570757E-001 +1.8540241578E+000  +1.1396255902E-001 +9.2282752149E+000  +6.3333342134E-001 +6.1925983765E-001 
12773808.511 +6.4726080466E-001 +2.1355801626E+000  +1.1552554891E-001 +1.6774395874E+000  +1.1505462873E-001 +8.1661030671E+000  +6.2732572917E-001 +2.1915627545E+000 
12898953.692 +6.7341053106E-001 +4.8808699644E-001  +1.1850787200E-001 +2.4347751600E+000  +1.1768038544E-001 +8.8493643476E+000  +6.5348860653E-001 -1.1699231362E+000 
13024098.874 +6.7610631976E-001 +1.6260603540E+000  +1.1867265488E-001 +2.1156275708E+000  +1.1845844548E-001 +7.9621652135E+000  +6.7573204462E-001 +5.9069096208E-001 
13149244.055 +6.6579095704E-001 -1.2699473115E+000  +1.2069808668E-001 +2.1563888724E+000  +1.2005095164E-001 +6.8632974254E+000  +6.9928023931E-001 -1.5604182762E+000 
13274389.237 +7.1275666311E-001 -4.6422002041E-001  +1.2195925256E-001 +2.8179516845E+000  +1.2074952320E-001 +6.6427362264E+000  +7.0458508344E-001 -1.8859357941E+000 
13399534.418 +7.2672486721E-001 -1.9307729646E+000  +1.2406761402E-001 +2.4377927278E+000  +1.2155061540E-001 +6.1932589570E+000  +7.1245492899E-001 -1.4695194141E+000 
13524679.599 +7.3582308509E-001 -5.4954618158E-001  +1.2443033606E-001 +2.6175423759E+000  +1.2206010568E-001 +5.6806457120E+000  +7.5446079363E-001 -1.8488894789E+000 
13649824.781 +7.4019342405E-001 -7.7634123768E-001  +1.2448851960E-001 +2.5808772503E+000  +1.2191773749E-001 +5.1951298058E+000  +7.5042592376E-001 -2.2427244989E+000 
13774969.962 +7.9058961121E-001 -2.4286084976E+000  +1.2598412888E-001 +3.2637065036E+000  +1.2281466031E-001 +5.4043019236E+000  +7.6373549471E-001 -2.7420037704E+000 
13900115.144 +8.0165902947E-001 -2.3790647197E+000  +1.2668066705E-001 +2.1977897911E+000  +1.2560625429E-001 +4.4961292317E+000  +7.9001080033E-001 -3.1402348903E+000 
14025260.325 +7.9233024603E-001 -2.2876909727E+000  +1.2706674454E-001 +1.8968972113E+000  +1.2320118988E-001 +3.5343527918E+000  +8.0851176119E-001 -5.2385890165E+000 
14150405.507 +8.0637305856E-001 -4.5089800631E+000  +1.2803946168E-001 +2.0118968199E+000  +1.2555797208E-001 +2.7828711217E+000  +8.1405406502E-001 -5.3336693113E+000 
14275550.688 +8.4366440043E-001 -4.8737685293E+000  +1.2920097499E-001 +1.9003467644E+000  +1.2780810438E-001 +2.6993035865E+000  +8.4861993196E-001 -4.3823671292E+000 
14400695.870 +8.6855397856E-001 -5.7100813932E+000  +1.2974566640E-001 +2.1087002708E+000  +1.2702335209E-001 +2.4612582661E+000  +8.6257972215E-001 -3.7088729231E+000 
