!  2-Port S-parameters saved by WinCal
! VAR MeasName=S-Parameters (CALIBRATED_DATA) read from VNA (P5004A)
! VAR MeasDate=29/08/2024 10:26:15
! VAR NAME=S2_r9c2_pristine_9k-100M_2
! VAR FILENAME=S2_r9c2_pristine_9k-100M_2.S2P
! VAR DATE=29/08/2024 10:26:15
! VAR PHYS_PORTS=1,2
! VAR ObjTypeName=DATASET
! VAR IndexType=Frequency
!
# Hz S MA R 50
9000.000 +9.8280402666E-002 -1.7064096121E+002  +5.6347597143E-003 -1.5017991215E+002  +8.3608184714E-003 -1.1426627272E+002  +2.7704699338E-001 -1.5127346636E+002 
134145.181 +1.1103827371E-001 +1.6948902288E+002  +7.3025853280E-004 -5.4056331780E+001  +7.3244569337E-004 +1.1023536511E+002  +2.4144511670E-001 -1.7104276967E+002 
259290.363 +1.1293486912E-001 +1.6969393067E+002  +9.0691317592E-004 -1.0264498515E+002  +6.7571736727E-004 +4.5218022948E+001  +2.4563711818E-001 -1.6954095808E+002 
384435.544 +1.1386416280E-001 +1.6939166374E+002  +7.6300211531E-004 -1.6038902348E+001  +6.5250856563E-004 +3.3094390535E+001  +2.4502815868E-001 -1.6969029961E+002 
509580.726 +1.1382000609E-001 +1.7112085933E+002  +5.6146456749E-004 -9.6535931148E+001  +1.7262727639E-003 +1.6300617095E+002  +2.4532349018E-001 -1.6720414618E+002 
634725.907 +1.1707316252E-001 +1.7154100159E+002  +1.9708308247E-003 -6.5169804811E+001  +3.4648492737E-003 +1.1254200853E+002  +2.4988455596E-001 -1.6317912080E+002 
759871.089 +1.2028693711E-001 +1.7073111062E+002  +1.1804390641E-003 -8.2273689072E+001  +1.8747025253E-003 +1.2693946849E+002  +2.5100144508E-001 -1.6730746928E+002 
885016.270 +1.2113262602E-001 +1.6890098388E+002  +5.8113888563E-004 -2.1729585791E+001  +1.2114750362E-003 +1.7643511456E+002  +2.4451889037E-001 -1.6702559717E+002 
1010161.452 +1.1862892922E-001 +1.6945841188E+002  +1.6780635737E-003 +5.5957637474E+001  +1.9126083462E-003 -1.4398514414E+002  +2.1391016611E-001 -1.6930730551E+002 
1135306.633 +1.1622103175E-001 +1.6954491244E+002  +6.1527406653E-003 +4.4515353228E+001  +4.4102029873E-003 -1.1428147757E+002  +1.7611940532E-001 -1.6837857361E+002 
1260451.815 +1.2130202256E-001 +1.7045436426E+002  +5.2597477892E-003 +9.3004634079E+000  +4.8644838157E-003 -1.3807829232E+002  +2.1485414028E-001 -1.6194172396E+002 
1385596.996 +1.2960167625E-001 +1.7243954581E+002  +3.0844683281E-003 -3.7865528421E+001  +2.8628503136E-003 +1.4090612529E+002  +2.5862728344E-001 -1.6012473639E+002 
1510742.178 +1.2801987328E-001 +1.7239150225E+002  +2.4701522202E-003 -1.1016282248E+001  +3.6282936246E-003 -1.7980585972E+002  +2.5478200546E-001 -1.6103719787E+002 
1635887.359 +1.3045777738E-001 +1.7124012199E+002  +4.2321016287E-003 +1.4888409632E+001  +3.8758758004E-003 -1.1948484445E+002  +2.4650188507E-001 -1.5935644643E+002 
1761032.541 +1.3080742710E-001 +1.6989998088E+002  +5.6753999632E-003 +3.0471872370E+001  +5.7241391674E-003 -1.1816850435E+002  +2.4318448094E-001 -1.5315784583E+002 
1886177.722 +1.3147133895E-001 +1.7069178149E+002  +6.6309792879E-003 +3.5881309756E+001  +7.5098049499E-003 -8.6124298297E+001  +2.3961679872E-001 -1.5940415040E+002 
2011322.904 +1.2991951524E-001 +1.6904036631E+002  +1.0190396133E-002 +7.9837617349E+001  +1.1958618634E-002 -4.5022376672E+001  +2.2877253360E-001 -1.6543440939E+002 
2136468.085 +1.3090049272E-001 +1.6939271557E+002  +1.7335804208E-002 +6.1043927987E+001  +1.7291372845E-002 -6.4193309869E+001  +2.1442154070E-001 -1.5846220649E+002 
2261613.267 +1.3164018739E-001 +1.6542448824E+002  +2.2209432976E-002 +8.0176140067E+001  +2.3137046048E-002 -4.2724495756E+001  +2.1277313190E-001 -1.6226139456E+002 
2386758.448 +1.3703262809E-001 +1.6682512948E+002  +2.8373328603E-002 +8.2031029339E+001  +2.7969821206E-002 -3.3607453560E+001  +1.9481281181E-001 -1.6714249518E+002 
2511903.630 +1.3561846942E-001 +1.6735727273E+002  +2.8739053257E-002 +8.2353339949E+001  +3.2537629088E-002 -3.3563669125E+001  +2.0805241710E-001 -1.6933029097E+002 
2637048.811 +1.0410792815E-001 +1.7458371404E+002  +7.2664024630E-002 +4.2438611925E+001  +7.2082572565E-002 -6.8672119212E+001  +1.7646328410E-001 -1.4170266680E+002 
2762193.992 +1.4689724272E-001 -1.7574756055E+002  +8.1004281058E-002 -1.1329735199E+001  +8.1517456798E-002 -1.2124597081E+002  +2.8027796881E-001 -1.1769522371E+002 
2887339.174 +1.4857188130E-001 -1.7635347072E+002  +6.3550524899E-002 +3.8947439227E-001  +6.3886179399E-002 -1.0368376192E+002  +2.1217805096E-001 -1.3382303495E+002 
3012484.355 +1.4733577520E-001 +1.7792482093E+002  +5.0782544063E-002 -2.6355540805E+000  +5.0903268649E-002 -1.0352082063E+002  +2.7295752627E-001 -1.3525645128E+002 
3137629.537 +1.4289723763E-001 +1.7776297350E+002  +6.3764556078E-002 +1.8261736435E+001  +6.4072559793E-002 -8.0304512646E+001  +2.0324746304E-001 -1.3291221101E+002 
3262774.718 +1.5009647082E-001 -1.7931320292E+002  +8.8465209251E-002 -1.7968461076E+000  +8.1316653571E-002 -9.3560483038E+001  +2.6665593967E-001 -1.1291320937E+002 
3387919.900 +1.1744625007E-001 -1.6655873536E+002  +1.4724389631E-001 +8.3133670423E+000  +1.5481370656E-001 -8.3169651733E+001  +2.5035439518E-001 -9.1961953162E+001 
3513065.081 +1.1403339262E-001 +1.4447577088E+002  +1.5069042555E-001 +7.1460582650E+001  +1.5130152414E-001 -1.4967794131E+001  +7.6097226919E-002 +1.4414757191E+002 
3638210.263 +1.6822158671E-001 +1.4404892689E+002  +1.2965806627E-001 +1.0950211772E+002  +1.3407818450E-001 +2.9731045631E+001  +3.0726991336E-001 +1.5427150165E+002 
3763355.444 +1.3367708072E-001 +1.5757419060E+002  +1.5295202864E-001 +7.5707441102E+001  +1.5127249264E-001 -9.9642947598E-001  +2.2520372652E-001 +1.2246930915E+002 
3888500.626 +1.8225157101E-001 +1.4169056700E+002  +1.7024798526E-001 +9.3177043913E+001  +1.6541640065E-001 +1.9984905879E+001  +2.0560332310E-001 +1.2740850679E+002 
4013645.807 +1.6580248865E-001 +1.4928156190E+002  +1.5319264223E-001 +8.9189261442E+001  +1.4908542814E-001 +1.5770580254E+001  +2.5592840424E-001 +1.3876774103E+002 
4138790.989 +1.7965702069E-001 +1.5176050996E+002  +1.2385857622E-001 +9.8912384476E+001  +1.1865633188E-001 +3.0467641715E+001  +3.4412054777E-001 +1.6234646633E+002 
4263936.170 +1.5112765409E-001 +1.5465757421E+002  +1.4314068775E-001 +6.5519797086E+001  +1.4137706742E-001 -2.9221253599E-001  +1.7470412649E-001 +1.6481685872E+002 
4389081.352 +1.9342097857E-001 +1.3850967620E+002  +2.1276084920E-001 +8.3646993660E+001  +1.9763744737E-001 +2.3380845358E+001  +2.3852895089E-001 +1.2727622364E+002 
4514226.533 +1.8827093070E-001 +1.3738121226E+002  +2.0507354930E-001 +9.4038712599E+001  +1.9882768929E-001 +3.6600073044E+001  +4.0225497853E-001 +1.5013740882E+002 
4639371.715 +2.7955849196E-001 +1.2347158259E+002  +3.7158667709E-001 +1.1277596279E+002  +3.5757620902E-001 +5.6964077247E+001  +7.1894821054E-001 +1.3395484541E+002 
4764516.896 +4.5951324550E-001 +1.0015930835E+002  +9.5816251536E-001 +9.9551375657E+001  +9.3781162264E-001 +4.8673452225E+001  +1.9197493628E+000 +8.9172910608E+001 
4889662.078 +4.7471253431E-001 +1.0529252630E+002  +7.9039591930E-001 +1.2060005763E+002  +7.8686154786E-001 +7.3277717080E+001  +1.5843555148E+000 +1.3417993792E+002 
5014807.259 +3.3909758080E-001 +1.0476790718E+002  +5.3856338492E-001 +8.6254623925E+001  +5.2608687182E-001 +4.1973704156E+001  +6.8100790739E-001 +9.6927011846E+001 
5139952.441 +3.0960406212E-001 +1.1338021821E+002  +5.4933111965E-001 +9.3184990932E+001  +5.3171291955E-001 +5.0225748802E+001  +1.0054213860E+000 +1.1030119093E+002 
5265097.622 +3.2372044771E-001 +1.3737742273E+002  +2.8984812715E-001 +1.1205041191E+002  +2.8368940415E-001 +7.2554672282E+001  +7.5246150359E-001 +1.5309602223E+002 
5390242.804 +2.4597500453E-001 +1.3926216597E+002  +2.7526010244E-001 +7.2710031528E+001  +2.6736206296E-001 +3.6369045249E+001  +4.1932950891E-001 +1.3938164899E+002 
5515387.985 +4.0479397947E-001 +1.2737147738E+002  +4.1875036594E-001 +1.1300913914E+002  +4.1451751548E-001 +7.8576254684E+001  +9.5438062972E-001 +1.4884790150E+002 
5640533.166 +2.9206333697E-001 +1.3490188955E+002  +3.4820350799E-001 +8.4070786945E+001  +3.3813275472E-001 +5.3643019651E+001  +7.5168088585E-001 +1.3955181415E+002 
5765678.348 +3.5929422161E-001 +1.2444781821E+002  +4.2646360357E-001 +8.9851618227E+001  +4.1850970120E-001 +6.1990065532E+001  +8.5654878981E-001 +1.3943323950E+002 
5890823.529 +3.5917819767E-001 +1.2562760215E+002  +4.6618393782E-001 +8.8857966905E+001  +4.5856487008E-001 +6.1004441598E+001  +1.0305026376E+000 +1.3672374589E+002 
6015968.711 +3.5904203884E-001 +1.2250654668E+002  +4.8317661580E-001 +7.1529337081E+001  +4.7403903063E-001 +4.8322263307E+001  +7.5533944672E-001 +1.2164443226E+002 
6141113.892 +4.5305158153E-001 +1.0931923766E+002  +6.4104513595E-001 +7.9098943007E+001  +6.2865573536E-001 +5.8104036217E+001  +1.0981942843E+000 +1.2298393264E+002 
6266259.074 +3.1077528525E-001 +1.1421956964E+002  +6.0211193418E-001 +5.0613779942E+001  +5.9143955039E-001 +3.2302401813E+001  +7.1319483870E-001 +9.6308683474E+001 
6391404.255 +3.9008302078E-001 +9.2074221829E+001  +8.3570772039E-001 +5.0461862220E+001  +8.1623175516E-001 +3.4423112589E+001  +1.0539533695E+000 +8.3245342756E+001 
6516549.437 +2.7495087282E-001 +9.6611428407E+001  +7.6566180789E-001 +3.9365035698E+001  +7.4906029861E-001 +2.5191015270E+001  +8.5893049751E-001 +8.5072404111E+001 
6641694.618 +2.2100639362E-001 +8.0666646788E+001  +8.6923172346E-001 +3.0890764312E+001  +8.5281772464E-001 +1.8394593450E+001  +9.6266481385E-001 +7.5354419638E+001 
6766839.800 +1.9024725249E-001 +5.8383742306E+001  +9.2695236632E-001 +1.8171095063E+001  +9.2499370483E-001 +8.6534001759E+000  +8.0077794602E-001 +4.6198582569E+001 
6891984.981 +1.7790986319E-001 +5.9998531025E+001  +9.0474174089E-001 +1.2708569725E+001  +9.0055353862E-001 +5.4831748963E+000  +6.1081019342E-001 +3.4401732801E+001 
7017130.163 +1.9424565550E-001 +4.7061188456E+001  +8.8826266677E-001 +9.5161708353E+000  +8.9337311842E-001 +4.1837000757E+000  +3.3798051510E-001 +3.7342142821E+001 
7142275.344 +3.2847804631E-002 +6.7719684948E+001  +8.8947796042E-001 +2.6203788641E+000  +8.8685556087E-001 -8.2524129170E-001  +3.5935699926E-001 +2.4353279047E+001 
7267420.526 +1.3803736242E-001 +3.2009475906E+001  +9.1848829023E-001 +2.7283275970E+000  +9.2122853904E-001 +1.0572454560E+000  +1.8659928584E-001 +4.2938338402E+000 
7392565.707 +9.3454811063E-002 +8.9919398115E+001  +9.2035135296E-001 -1.7183824337E-001  +9.2118973589E-001 +3.0583599642E-001  +1.4553448609E-001 -5.5580088244E+001 
7517710.889 +1.5125982654E-001 +1.1639684180E+002  +8.8718920953E-001 -1.0146721940E+000  +8.8440623525E-001 +7.5242799959E-001  +6.7959559508E-002 -3.3914098086E+001 
7642856.070 +1.5278063273E-001 +7.2524089001E+001  +8.5611172048E-001 -1.0555262901E+000  +8.5045688162E-001 +2.0916685420E+000  +1.1566690140E-001 +1.1685360643E+002 
7768001.252 +1.5412766126E-001 +1.3465462153E+002  +8.2104320088E-001 -5.1404786913E+000  +8.1664208987E-001 +2.3953845890E-001  +1.7883747542E-001 +1.6069223845E+002 
7893146.433 +1.8347675932E-001 +9.7409986801E+001  +7.9174227168E-001 -2.7655059703E+000  +7.9226559124E-001 +3.8276750121E+000  +1.6303909873E-001 +9.8745410090E+001 
8018291.615 +2.5446528032E-001 +1.1045710076E+002  +7.6125256414E-001 -3.9493549648E+000  +7.5607319330E-001 +3.5272373538E+000  +1.7942199067E-001 +1.1620279061E+002 
8143436.796 +2.3633829781E-001 +1.3418605527E+002  +7.4823759963E-001 -5.7670995876E+000  +7.4878098797E-001 +3.0124323677E+000  +1.8681578756E-001 +1.0973957355E+002 
8268581.977 +2.6452059843E-001 +1.1824070916E+002  +7.2374456415E-001 -5.9768626183E+000  +7.2983920947E-001 +4.4311172020E+000  +2.2217076240E-001 +1.2956656129E+002 
8393727.159 +2.6581031401E-001 +1.3394416026E+002  +7.0442948396E-001 -6.8220913613E+000  +7.0446688044E-001 +3.9574192552E+000  +2.8792207456E-001 +1.1401065651E+002 
8518872.340 +2.4488938321E-001 +1.3315438569E+002  +7.1381647012E-001 -7.1358503509E+000  +7.0908399585E-001 +4.7483138649E+000  +2.0148309254E-001 +1.2138810438E+002 
8644017.522 +2.8616056479E-001 +1.2688668845E+002  +6.9273875035E-001 -7.3069032817E+000  +6.9105310452E-001 +5.8658609359E+000  +2.2268404255E-001 +1.1916028314E+002 
8769162.703 +2.1027047120E-001 +1.2605201770E+002  +6.9646387810E-001 -7.3111330145E+000  +6.9682722876E-001 +6.1876400017E+000  +2.5254727637E-001 +1.1811007538E+002 
8894307.885 +2.3273711961E-001 +1.3201083583E+002  +6.9191111535E-001 -8.0450788614E+000  +6.8791079924E-001 +5.4870119958E+000  +2.5821212587E-001 +1.3073206181E+002 
9019453.066 +2.8124466271E-001 +1.3787082833E+002  +6.7966074944E-001 -8.6297972276E+000  +6.7553069149E-001 +5.8179174235E+000  +2.5356604862E-001 +1.2169748372E+002 
9144598.248 +2.2363922676E-001 +1.4044708526E+002  +6.8400406628E-001 -8.6859751623E+000  +6.7727745506E-001 +6.2511270756E+000  +2.7807561413E-001 +1.2139073747E+002 
9269743.429 +3.0018462493E-001 +1.3520578289E+002  +6.6714004724E-001 -9.1633980511E+000  +6.6472916998E-001 +6.1940810154E+000  +2.8818972787E-001 +1.2454303718E+002 
9394888.611 +2.5288106062E-001 +1.4701461511E+002  +6.7719208488E-001 -9.2581982588E+000  +6.7478228980E-001 +6.2485690616E+000  +2.5267007364E-001 +1.2575362247E+002 
9520033.792 +2.3242852896E-001 +1.3311501738E+002  +6.7715864997E-001 -8.7059947983E+000  +6.7387122019E-001 +6.8597160784E+000  +2.5012016649E-001 +1.2964318351E+002 
9645178.974 +2.1241890438E-001 +1.4263950798E+002  +6.8354354693E-001 -8.9990783131E+000  +6.7561956593E-001 +7.0107718221E+000  +2.5560293248E-001 +1.3093701719E+002 
9770324.155 +2.8245020887E-001 +1.5030302323E+002  +6.6977251946E-001 -9.9145493471E+000  +6.6372326842E-001 +5.8352358558E+000  +2.9340721615E-001 +1.2872049285E+002 
9895469.337 +2.3352084920E-001 +1.3755492356E+002  +6.8075497778E-001 -9.1117035676E+000  +6.7649597825E-001 +6.9258371333E+000  +2.4382384278E-001 +1.4280444337E+002 
10020614.518 +2.4493259704E-001 +1.4259555842E+002  +6.7876819487E-001 -9.1629642903E+000  +6.7432903511E-001 +6.6734667175E+000  +2.4471836497E-001 +1.3696339688E+002 
10145759.700 +2.5106612894E-001 +1.4506390707E+002  +6.7894122234E-001 -9.3912949497E+000  +6.7403383690E-001 +6.4363210507E+000  +2.8290382485E-001 +1.3605975089E+002 
10270904.881 +2.4679405140E-001 +1.3485617271E+002  +6.7724689554E-001 -7.9057931922E+000  +6.7473549179E-001 +7.9874741879E+000  +2.2640887294E-001 +1.2043005623E+002 
10396050.063 +2.2610064829E-001 +1.3242232792E+002  +6.8179593792E-001 -8.0619426571E+000  +6.7514412342E-001 +7.2529071588E+000  +2.8015982924E-001 +1.2827551499E+002 
10521195.244 +2.5848988841E-001 +1.3083429545E+002  +6.8117517788E-001 -7.7872577755E+000  +6.7822063095E-001 +7.3897913053E+000  +2.3884714690E-001 +1.2953305353E+002 
10646340.426 +2.4418049790E-001 +1.3402559448E+002  +6.8913998091E-001 -7.6270689993E+000  +6.8275815836E-001 +7.2789769907E+000  +2.2777780254E-001 +1.2795126247E+002 
10771485.607 +2.5209875841E-001 +1.3200062611E+002  +6.8606571055E-001 -7.3586244569E+000  +6.8178876638E-001 +7.2010899287E+000  +2.4411744121E-001 +1.2687796612E+002 
10896630.788 +2.4996821081E-001 +1.2962537745E+002  +6.8864603134E-001 -7.2511747048E+000  +6.8384796021E-001 +6.9289732952E+000  +2.6121608178E-001 +1.2644110406E+002 
11021775.970 +2.4477646900E-001 +1.3000613603E+002  +6.9404380024E-001 -6.7474463215E+000  +6.8774355149E-001 +6.9590318133E+000  +2.4825074695E-001 +1.2167515152E+002 
11146921.151 +2.4075309364E-001 +1.2993096956E+002  +6.9965980062E-001 -6.4401294526E+000  +6.9673545088E-001 +6.7635146703E+000  +2.3526964639E-001 +1.2444943366E+002 
11272066.333 +2.1955082998E-001 +1.2739424716E+002  +7.0192641158E-001 -6.2239026377E+000  +7.0097195592E-001 +6.6624091911E+000  +2.6163702278E-001 +1.2451699926E+002 
11397211.514 +2.1225775636E-001 +1.3195177278E+002  +7.1349592194E-001 -5.8295675946E+000  +7.0955645366E-001 +6.3813553595E+000  +2.3529533423E-001 +1.2360538748E+002 
11522356.696 +1.7421368577E-001 +1.2297283891E+002  +7.2374785210E-001 -5.3447297773E+000  +7.1944078241E-001 +6.3210682406E+000  +2.4767276149E-001 +1.2917546371E+002 
11647501.877 +2.0086967855E-001 +1.2438416129E+002  +7.2483087998E-001 -5.0859373518E+000  +7.2203633329E-001 +6.1478720707E+000  +2.2217761068E-001 +1.2641580785E+002 
11772647.059 +2.2352679972E-001 +1.2340504798E+002  +7.2330819120E-001 -4.6409774539E+000  +7.1787755670E-001 +6.0515081664E+000  +2.2925308834E-001 +1.1655796118E+002 
11897792.240 +2.1229993262E-001 +1.2476489998E+002  +7.3607677150E-001 -4.7686925490E+000  +7.3307121178E-001 +5.6547943145E+000  +2.0815769360E-001 +1.2558715036E+002 
12022937.422 +1.8145868142E-001 +1.2270082513E+002  +7.4334049768E-001 -4.0868462202E+000  +7.4084695684E-001 +5.4426202792E+000  +2.0803744878E-001 +1.2269305631E+002 
12148082.603 +1.9041410625E-001 +1.2674918542E+002  +7.5353654687E-001 -4.1361722745E+000  +7.4739862193E-001 +4.8885821571E+000  +2.0891691264E-001 +1.2303996839E+002 
12273227.785 +1.7493057929E-001 +1.2624757907E+002  +7.5799801805E-001 -3.4186521989E+000  +7.5308747220E-001 +5.0656646402E+000  +1.9473998205E-001 +1.1184831666E+002 
12398372.966 +1.8734646744E-001 +1.2564384495E+002  +7.7129112853E-001 -3.2901993544E+000  +7.6604156969E-001 +4.5255715323E+000  +1.4602922117E-001 +1.2045300175E+002 
12523518.148 +1.8736683107E-001 +1.2547205817E+002  +7.7839626623E-001 -3.8924160460E+000  +7.7555673101E-001 +3.5755976908E+000  +1.6228693499E-001 +1.3987191804E+002 
12648663.329 +1.7102926763E-001 +1.1794425785E+002  +7.8113294739E-001 -2.7083153045E+000  +7.7799117028E-001 +4.0014227185E+000  +1.5699321921E-001 +1.2213047100E+002 
12773808.511 +1.3789759361E-001 +1.2345060172E+002  +7.9868314782E-001 -2.4284114799E+000  +7.9071893966E-001 +3.7336394164E+000  +1.4115117418E-001 +1.1499584821E+002 
12898953.692 +1.4107932433E-001 +1.1391431578E+002  +8.0235346483E-001 -2.1198527409E+000  +7.9705681962E-001 +3.6429423755E+000  +1.3181374618E-001 +1.1505839877E+002 
13024098.874 +1.3083732943E-001 +1.1824949250E+002  +8.1379373045E-001 -2.0900848453E+000  +8.0745120436E-001 +2.9692846768E+000  +1.2246115336E-001 +1.1788891637E+002 
13149244.055 +1.0916212681E-001 +1.2117557170E+002  +8.2509804276E-001 -1.9545827150E+000  +8.1888909626E-001 +2.6392571943E+000  +1.2276949972E-001 +1.1827995508E+002 
13274389.237 +7.0905834565E-002 +1.2117431431E+002  +8.3696529782E-001 -1.6777327616E+000  +8.3154514867E-001 +2.0920258279E+000  +1.2862978463E-001 +1.2713330574E+002 
13399534.418 +9.8695240528E-002 +1.2936337149E+002  +8.4469910663E-001 -1.8304393064E+000  +8.4048832344E-001 +1.6622879362E+000  +9.4725499082E-002 +1.2201492087E+002 
13524679.599 +8.5686188340E-002 +1.0643360874E+002  +8.5378759286E-001 -9.9476572682E-001  +8.5202587271E-001 +1.7611159387E+000  +6.1391269302E-002 +1.1394070792E+002 
13649824.781 +8.1538795971E-002 +1.2256360574E+002  +8.6806755539E-001 -1.2536195517E+000  +8.6153701196E-001 +5.0324650779E-001  +6.9411621993E-002 +1.1317808978E+002 
13774969.962 +5.2740269194E-002 +1.1224812366E+002  +8.7089993883E-001 -7.9242019702E-001  +8.6643483330E-001 +6.5378891991E-001  +8.4816852686E-002 +1.0359883106E+002 
13900115.144 +5.5449130959E-002 +8.0363999196E+001  +8.8901540710E-001 -8.9692807134E-001  +8.7421238977E-001 +6.1397587895E-001  +6.4049754056E-002 +1.0062599315E+002 
14025260.325 +5.4927772818E-002 +1.1460183841E+002  +8.9505485778E-001 -1.2653245200E+000  +8.8886642818E-001 +2.3837284243E-001  +6.2264481274E-002 +1.0720613392E+002 
14150405.507 +4.3530676298E-002 +7.6538921446E+001  +8.9706698104E-001 -8.5444299942E-001  +8.8860497616E-001 +8.0996308350E-001  +3.0042118619E-002 +8.9425555301E+001 
14275550.688 +4.6101913306E-002 +5.7802321117E+001  +9.0375689616E-001 -9.7973029397E-001  +8.9925901956E-001 +2.8588835253E-001  +3.1555785141E-002 +8.1087491115E+001 
14400695.870 +3.1127010489E-002 +2.3780677915E+001  +9.1475203163E-001 -7.1213957561E-001  +9.0705216385E-001 +2.1593681635E-001  +4.9162326194E-002 +2.9060791404E+001 
