!  2-Port S-parameters saved by WinCal
! VAR MeasName=S-Parameters (CALIBRATED_DATA) read from VNA (P5004A)
! VAR MeasDate=29/08/2024 11:23:54
! VAR NAME=S2_r9c3_RESET4_9k-100M_1
! VAR FILENAME=S2_r9c3_RESET4_9k-100M_1.S2P
! VAR DATE=29/08/2024 11:23:54
! VAR PHYS_PORTS=1,2
! VAR ObjTypeName=DATASET
! VAR IndexType=Frequency
!
# Hz S MA R 50
9000.000 +8.8801627124E-002 -1.7527615415E+002  +5.2884021949E-003 -1.5080924519E+002  +2.0488283353E-003 -1.1727214431E+002  +2.1154070685E-001 -1.3792116844E+002 
134145.181 +1.1128432654E-001 +1.6926729247E+002  +3.0018941790E-004 +8.7280781737E+001  +4.7567341873E-004 -1.1510045720E+002  +2.4112469032E-001 -1.6966551862E+002 
259290.363 +1.1248592594E-001 +1.7028240153E+002  +6.0650350597E-004 +4.0497664752E+001  +6.4319576258E-004 -6.7945234780E+001  +2.4391504219E-001 -1.6711886134E+002 
384435.544 +1.1425873350E-001 +1.6990751497E+002  +3.2140553210E-004 +1.4276144891E+002  +2.6902798810E-004 +1.1819390392E+002  +2.3664989069E-001 -1.6788704470E+002 
509580.726 +1.1143697820E-001 +1.7266029144E+002  +2.0738672013E-003 +9.6225162428E+001  +2.7263878984E-003 -1.6908309140E+002  +2.3133635401E-001 -1.6563541738E+002 
634725.907 +1.1591153840E-001 +1.7154749996E+002  +7.9872863773E-004 -1.4643049609E+002  +2.0556426552E-003 +5.8974383464E+001  +2.5033330580E-001 -1.6471063883E+002 
759871.089 +1.1967763054E-001 +1.7100330213E+002  +1.2609052231E-003 +9.1002350973E+001  +6.0307618449E-004 +5.7723930820E+001  +2.5084893676E-001 -1.6524007949E+002 
885016.270 +1.2046702441E-001 +1.6878077195E+002  +2.9385374217E-004 +1.0521662240E+002  +1.2623957949E-004 -1.5395472836E+002  +2.4451973483E-001 -1.6695820844E+002 
1010161.452 +1.1351353807E-001 +1.6956813616E+002  +9.7273024095E-004 -4.4841153943E+001  +8.8824655152E-004 -1.0915249716E+002  +2.1586022460E-001 -1.6704720958E+002 
1135306.633 +1.1377074952E-001 +1.7105159954E+002  +1.8168474253E-003 -9.8514902455E+001  +2.5342094223E-003 -1.5679977824E+002  +1.6882885418E-001 -1.7676902125E+002 
1260451.815 +1.1949557959E-001 +1.6959462923E+002  +1.4659050846E-004 +3.6242760658E+001  +4.4775000092E-004 +1.0404063077E+001  +2.4067879676E-001 -1.6169350381E+002 
1385596.996 +1.2230382711E-001 +1.7357209645E+002  +9.3594922849E-004 -8.6422079495E+001  +1.8623796033E-003 +1.3882851989E+002  +2.5565013408E-001 -1.5971070288E+002 
1510742.178 +1.2665390109E-001 +1.7156387406E+002  +4.4763947157E-004 -9.0350094856E+001  +1.0440770307E-003 -3.6048903892E+001  +2.4622819012E-001 -1.5376986024E+002 
1635887.359 +1.2704679925E-001 +1.7189626099E+002  +1.2949967054E-003 +8.7228237238E+001  +1.3986377313E-003 -2.1669741887E+000  +2.5059664227E-001 -1.6035269237E+002 
1761032.541 +1.2831861869E-001 +1.6717761690E+002  +1.9553132045E-003 +8.5250137148E+001  +9.7559506474E-004 +1.1430552974E+002  +1.9635350882E-001 -1.5946667057E+002 
1886177.722 +1.3196324086E-001 +1.6966147594E+002  +3.2876753231E-003 +1.7308760398E+002  +2.5193845545E-003 +1.3945518434E+002  +1.7368384581E-001 -1.5349378347E+002 
2011322.904 +1.3255593969E-001 +1.6703147954E+002  +2.2151624233E-003 -4.8672554840E+001  +2.7496744397E-003 -3.1592631002E+001  +1.3518658713E-001 +1.7298786593E+002 
2136468.085 +1.3168999014E-001 +1.6710185766E+002  +4.3010374772E-003 -2.0648983667E+001  +1.8208141983E-003 +4.3557979508E+000  +1.1026688443E-001 +1.7394323060E+002 
2261613.267 +1.3395888597E-001 +1.6526933026E+002  +2.0649725833E-003 +3.6818904401E+001  +2.6498149281E-003 +1.5476165074E+002  +2.0522678242E-001 +1.5654724263E+002 
2386758.448 +1.3688862938E-001 +1.6823635129E+002  +1.5829902410E-003 +6.3957037979E+001  +1.0342948948E-003 +1.4529524590E+002  +1.9168280879E-001 +1.7616491284E+002 
2511903.630 +1.3286454130E-001 +1.6366165329E+002  +3.0432952010E-003 +2.8903849660E+001  +3.5040850274E-003 +8.6775305032E+000  +2.2602154447E-001 +1.7296146191E+002 
2637048.811 +1.2356571486E-001 +1.6204661033E+002  +1.1763535248E-002 -8.8528081376E+001  +4.4411481732E-003 +4.7648248117E+001  +2.0166540365E-001 +1.4204052098E+002 
2762193.992 +1.2343495427E-001 +1.7108235102E+002  +4.8027346220E-003 -2.1246061474E+000  +4.4716488377E-003 +1.4145127436E+002  +1.2974483919E-001 -1.1878552430E+002 
2887339.174 +1.2273971491E-001 +1.7632574965E+002  +5.3945456770E-003 -1.1042049832E+002  +5.2160935085E-003 -1.7587215688E+002  +5.8144201091E-002 -9.1378041063E+001 
3012484.355 +8.8599975554E-002 +1.6251426805E+002  +1.5198839835E-002 +1.5364832905E+002  +1.8373068382E-002 -2.2306859675E+001  +7.0682122649E-001 -4.5855241892E+001 
3137629.537 +1.2097818611E-001 +1.7566050259E+002  +5.1496075490E-003 -1.3804560925E+002  +5.5066270519E-003 +1.0698126674E+002  +4.8399814866E-001 -5.9115997850E+001 
3262774.718 +1.2713513928E-001 +1.6633610375E+002  +1.0189461390E-002 +4.8991593340E+000  +1.2838993555E-002 +1.5395886485E+002  +2.3053666922E-001 +1.1881277139E+001 
3387919.900 +1.3044359375E-001 +1.6099443634E+002  +4.2470160928E-003 -5.4356497128E+001  +9.3671286407E-003 -8.9344713528E+001  +4.3738349068E-001 -6.1246506757E+001 
3513065.081 +1.5122120018E-001 +1.5938851317E+002  +1.7524173274E-003 +1.0729562873E+001  +4.2907278066E-003 -1.3495514060E+002  +4.3601543592E-001 +1.1918892409E+002 
3638210.263 +2.1112000976E-001 +1.4893037776E+002  +6.2633904796E-003 -9.3168026000E+001  +1.0944537775E-002 +4.6511231965E+000  +8.9912448578E-001 +1.3660080298E+002 
3763355.444 +1.5243192367E-001 +1.5186954814E+002  +6.7280060744E-003 -1.2074142135E+002  +9.4333057867E-003 -1.2102478885E+002  +4.1572538075E-001 +9.5826757026E+001 
3888500.626 +1.7090532698E-001 +1.4872884507E+002  +1.0499604836E-002 +1.3524059504E+002  +5.6733971987E-003 -9.3739715847E+000  +4.9840891204E-001 +1.1964293072E+002 
4013645.807 +1.8282309030E-001 +1.5359164845E+002  +1.4099821592E-002 +8.7804438145E+001  +1.2644659131E-002 -6.0722538877E+001  +7.9945071426E-001 +1.1562846270E+002 
4138790.989 +1.7885579230E-001 +1.4772421400E+002  +2.9944714066E-003 -2.0278038626E+001  +8.9430312345E-003 -1.2422707298E+002  +5.5355559899E-001 +1.1718171603E+002 
4263936.170 +1.7760745911E-001 +1.5329145647E+002  +6.8578284207E-003 -1.2895985100E+002  +9.1659255643E-003 +1.7915053853E+002  +1.0336703037E+000 +7.6365975787E+001 
4389081.352 +2.0178984379E-001 +1.2764106711E+002  +2.7905448527E-002 -4.3003520791E+001  +2.0253379112E-002 +1.4797917742E+002  +1.9341402422E+000 +1.1022634203E+002 
4514226.533 +2.0562386717E-001 +1.3780984755E+002  +6.3894676879E-003 -1.2488513340E+002  +2.5561526710E-002 -4.8174104232E+001  +1.2970748486E+000 +1.0492163627E+002 
4639371.715 +2.9958238735E-001 +1.1927837197E+002  +2.5225162782E-002 -8.5915024963E+001  +4.1653145781E-002 -6.0063407976E+001  +3.0159143508E+000 -1.5868814788E+002 
4764516.896 +3.3111181856E-001 +1.2753399939E+002  +5.5423504193E-002 -1.0963257426E+002  +6.0597060314E-002 +1.0299249369E+002  +4.1699292612E+000 +1.4203109359E+002 
4889662.078 +4.2912794208E-001 +1.3627215263E+002  +4.2146860972E-002 +1.0991304299E+002  +1.7727848615E-002 -6.6530084153E+000  +3.7369280320E+000 -1.1731715968E+002 
5014807.259 +4.6283744064E-001 +1.2810033842E+002  +5.6608962674E-002 +9.1557586234E+001  +3.6929343822E-002 +7.0578622425E+001  +2.0565124689E+000 +4.6418153109E+001 
5139952.441 +3.7316632524E-001 +1.1611991300E+002  +2.3148866980E-002 +3.9791455725E+001  +2.5867397842E-002 +9.2745308704E+001  +2.0817171778E+000 +8.1407126889E+001 
5265097.622 +3.4741675143E-001 +1.3639843486E+002  +3.5684759455E-002 +1.2639815736E+002  +2.6868585478E-002 -4.0501591040E+001  +4.2006233915E+000 -6.6057129889E+001 
5390242.804 +3.9832913137E-001 +1.3689983311E+002  +1.4235123804E-002 -3.8787592093E+001  +1.1201781143E-002 +5.2738231871E+001  +1.7574943665E+000 +9.3141230018E+001 
5515387.985 +4.3865239750E-001 +1.2723095449E+002  +4.2461449019E-002 +1.0518526665E+002  +1.4857220550E-002 -6.8855768051E+001  +1.8772655585E+000 +4.4442573470E+001 
5640533.166 +5.6086071778E-001 +1.2760484112E+002  +4.1279157890E-002 -1.4546774327E+002  +6.2333857561E-002 -4.3434580609E+001  +5.3693572434E+000 +4.9595084157E+001 
5765678.348 +5.1011792497E-001 +1.2181672725E+002  +3.0164103717E-002 -7.9626973855E+001  +2.6352749058E-003 +4.4365362120E+001  +2.1257079873E+000 +8.0205275822E+001 
5890823.529 +5.3478184438E-001 +1.2634137802E+002  +1.3670321790E-002 -9.9444161953E+001  +2.8284065997E-002 +1.5065345680E+002  +2.0197334198E+000 +5.3109239121E+001 
6015968.711 +5.9592041706E-001 +1.2120511040E+002  +2.1487423974E-002 -7.5802221464E+001  +1.7184202605E-002 +3.4698309744E+001  +2.2566422295E+000 +4.6507018113E+001 
6141113.892 +6.7739681789E-001 +1.1313520217E+002  +1.0180774622E-002 -6.8766840268E+001  +3.1376808160E-002 +7.5331196766E+000  +1.9440310770E+000 -2.5979865226E-001 
6266259.074 +8.8120578729E-001 +1.1587305013E+002  +1.8302766428E-002 -1.1612600357E+001  +7.5977815822E-003 -1.2390171982E+002  +2.3040688188E+000 +2.4998355643E+001 
6391404.255 +9.3116782595E-001 +9.4248368025E+001  +3.0673307396E-002 -1.9553329136E+001  +3.0839543501E-002 -3.7835551009E+001  +1.9798407601E+000 +1.0775389720E+001 
6516549.437 +1.0697619239E+000 +9.3905495484E+001  +1.1214001784E-002 +1.6085009563E+001  +2.6571170458E-002 +1.1351057953E+002  +1.4247948938E+000 +6.8152576374E+000 
6641694.618 +1.1037002819E+000 +6.6908951013E+001  +1.8956842763E-002 +9.1919781070E+001  +1.0913347503E-002 -7.6688325280E+001  +1.3738102601E+000 -1.1752692772E+001 
6766839.800 +1.5499334400E+000 +3.6407910533E+001  +5.9602933433E-003 -4.0718475099E+001  +3.8155614930E-002 +3.9143686351E+001  +1.3785960218E+000 -1.0447315822E+001 
6891984.981 +1.6144386932E+000 +4.5403285128E+001  +1.0784425754E-002 +1.4790896092E+001  +1.7557276355E-002 -2.0112570985E+001  +1.3703362188E+000 -1.1283956504E+001 
7017130.163 +1.8391842910E+000 +2.0392288208E+001  +1.4995810020E-002 +1.0367300344E+002  +2.0225869436E-002 +4.8524418828E+001  +1.5091785987E+000 -7.0630582123E+000 
7142275.344 +1.4971033222E+000 +8.1119031305E+000  +2.1287428585E-002 +1.4179185986E+001  +2.2104110758E-002 -1.9305272103E+001  +1.2918162305E+000 -1.5448414636E+001 
7267420.526 +1.4402387939E+000 +2.3150380813E+000  +1.3837901331E-002 -1.5439093100E+002  +9.3388563391E-003 -1.7527038896E+002  +1.3251022435E+000 -6.7598988578E+000 
7392565.707 +1.2933568799E+000 -2.4485717748E+000  +7.0290363757E-003 +1.2606896376E+001  +1.3393615853E-002 +4.7706991945E+001  +1.4050306429E+000 -2.8345302180E+000 
7517710.889 +1.1414964877E+000 +4.8218108716E+000  +1.2250059573E-003 +1.6891080989E+002  +3.6006346809E-003 +3.8630923074E+001  +1.1295248959E+000 -3.4391017573E+000 
7642856.070 +1.0583661843E+000 -1.7840812344E-001  +7.8433340394E-003 -2.9394450685E+001  +1.2584724543E-002 +2.4968277839E+001  +1.0568892177E+000 -1.8729192114E+000 
7768001.252 +8.8940797474E-001 +3.4985253108E+000  +4.2471292822E-003 +1.7858769179E+002  +4.9323332444E-003 +2.6336289990E+001  +1.0366096266E+000 -2.1739866632E+000 
7893146.433 +9.6386971200E-001 +6.3641430973E+000  +4.4487062496E-003 +5.0794973799E+001  +9.5493005824E-003 +6.2620304964E+001  +8.8911812582E-001 -9.0364309316E+000 
8018291.615 +7.8330613538E-001 +6.4772956372E+000  +1.5666611633E-003 +1.4398791341E+002  +8.0751463766E-003 -6.6849366247E+001  +8.6169799294E-001 -5.0949800760E+000 
8143436.796 +7.8116815208E-001 +9.3031677237E+000  +3.4728796485E-003 +6.8091653160E+000  +6.4486122675E-003 -4.5319073832E+001  +8.0290907278E-001 -2.9199355880E+000 
8268581.977 +6.6614066164E-001 +9.6240920169E+000  +5.3940285231E-003 +3.8597115645E+001  +4.9341213472E-003 +4.9134684606E+001  +7.4007146439E-001 -1.7691939061E+000 
8393727.159 +6.9795698817E-001 +7.5106910912E+000  +4.4271605326E-003 +1.4876907402E+002  +4.5267770504E-003 +1.5516975057E+002  +7.3158954184E-001 +1.4612963175E+000 
8518872.340 +6.8716428233E-001 +1.1777522600E+001  +9.0076703683E-004 -2.2330469529E+001  +5.4325582826E-003 +7.4564859491E+001  +7.2604995045E-001 -4.3049333097E+000 
8644017.522 +7.2182310817E-001 +1.5359326651E+001  +4.2905536665E-003 +3.4956518129E+001  +4.9781473513E-003 +4.8643454704E+001  +7.2133239620E-001 -1.6039308101E-001 
8769162.703 +5.9927592571E-001 +4.8621994187E+000  +4.6401899360E-003 +1.6467967886E+002  +1.9803947366E-003 +7.9997712836E+001  +6.4726070400E-001 -2.7996696708E-001 
8894307.885 +5.4248880681E-001 +4.9911886927E+000  +2.2477923172E-003 +1.5553866794E+002  +3.6811839650E-003 +7.0069399625E+001  +6.4040660187E-001 -7.4659488553E+000 
9019453.066 +5.7215853817E-001 +6.1057838094E+000  +1.8045479715E-003 -4.2434011257E+001  +2.4928060338E-003 +8.2572522844E+001  +6.1151450292E-001 +2.6844916512E+000 
9144598.248 +5.9504365528E-001 +9.3712987386E+000  +8.8873068443E-005 +1.2808469025E+002  +3.2198030640E-003 -2.1615398349E+000  +6.3326676786E-001 -3.3555611822E+000 
9269743.429 +5.3724267416E-001 +8.9130730276E+000  +4.0950364069E-003 +7.5614272417E+000  +4.2027179915E-003 -3.1788576934E+001  +5.8154819116E-001 -4.1058234657E+000 
9394888.611 +5.3438536277E-001 +1.3959045146E+000  +1.3396327345E-003 +1.7755682857E+001  +5.8347163117E-004 -7.9807503959E+001  +5.8012220031E-001 +2.3969208470E+000 
9520033.792 +5.8595672823E-001 +2.3541028577E+000  +2.4217967041E-003 -1.0949412374E+002  +6.8608244216E-004 -1.1262598346E+002  +5.6422010691E-001 -4.1692538262E+000 
9645178.974 +5.1394149226E-001 +3.6650133671E+000  +3.0097541556E-003 +1.0459832439E+002  +3.8051379352E-003 -2.0036909034E+001  +5.9972225637E-001 -3.5884118932E+000 
9770324.155 +5.3098578138E-001 +2.3083897802E+000  +9.3272855962E-004 +2.2029641503E+001  +4.7603305304E-003 +1.0501949141E+001  +5.5320088090E-001 -4.2448462620E+000 
9895469.337 +5.6799613957E-001 +2.4913077076E+000  +2.6546944409E-003 -6.4105705653E+001  +2.0471442712E-003 +1.1469113912E+001  +5.5725622524E-001 -6.5990756333E+000 
10020614.518 +5.4346423667E-001 +3.1844340333E+000  +2.4310503548E-003 +2.3806848398E+001  +1.7766983435E-003 +2.1907396437E-001  +5.3165896504E-001 -5.1337465502E+000 
10145759.700 +5.2455424103E-001 +7.4581753392E+000  +4.8262248104E-003 +1.6081163766E+001  +1.2432862139E-003 +1.1896061601E+001  +5.7428062500E-001 -1.3902287874E+000 
10270904.881 +5.7064334749E-001 +5.5892418184E+000  +3.2860953785E-003 +6.3228985209E+000  +2.3683693313E-003 +3.1233225078E+001  +6.0780738157E-001 -3.7095838124E-001 
10396050.063 +5.3991457458E-001 +7.8355707376E+000  +4.5134784398E-003 +7.4649301652E+000  +1.4629778338E-003 +6.6964441285E+001  +5.8694008277E-001 -2.3914900408E+000 
10521195.244 +5.6662670371E-001 +1.0782610492E+001  +3.8065493935E-003 +4.4347820696E+001  +2.0090550961E-003 +6.9256674061E+001  +5.6942507420E-001 +3.9013370136E-001 
10646340.426 +5.7448561055E-001 +6.9102099739E+000  +3.6922789924E-003 +1.5928209832E+001  +6.3416853989E-004 -9.2721108787E+001  +5.6984329133E-001 -3.7244319343E-001 
10771485.607 +5.6856625659E-001 +3.8635631813E+000  +2.2262563860E-003 +9.3984210478E+001  +1.2738198846E-003 +4.5001623601E+001  +5.8727141852E-001 -3.6364077853E-001 
10896630.788 +5.9568363757E-001 +9.9548017970E+000  +2.8924655047E-003 +1.1003732003E+001  +2.6184981680E-003 +3.3311938999E+001  +6.3756402305E-001 +4.1298243776E+000 
11021775.970 +5.7863247902E-001 +5.8971210152E+000  +4.3135534111E-003 +3.5165551119E+001  +7.4316183022E-004 +8.7481419768E+001  +5.8162766396E-001 +1.5098583525E+000 
11146921.151 +6.1365021371E-001 +6.5988638802E+000  +3.0331290616E-003 +2.9187961177E+001  +5.4584594134E-003 -2.4776104302E+001  +6.3093176752E-001 +6.4635642490E-001 
11272066.333 +6.0203026492E-001 +5.6337695216E+000  +4.2862408024E-003 -6.7431506031E+000  +3.6940522904E-003 +1.7830413929E+001  +6.4838525189E-001 +2.3280430337E+000 
11397211.514 +6.2660222186E-001 +8.2352333712E+000  +1.8775756447E-003 +1.6815750978E+001  +2.9414101942E-003 +2.8668942205E+001  +6.3961855709E-001 +3.0375330766E+000 
11522356.696 +6.1907844014E-001 +7.2811359938E+000  +2.4644659810E-003 -1.7733263340E+001  +2.5914004566E-003 +8.9880489353E+001  +6.5776415097E-001 -7.5466750106E-001 
11647501.877 +6.4743904436E-001 +7.7420170817E+000  +2.8227891672E-003 +2.3815538812E+001  +1.6840125942E-003 +4.1626747591E+001  +6.4010717502E-001 +2.4039744502E+000 
11772647.059 +6.4467273615E-001 +7.8641468672E+000  +1.4605491482E-003 +3.5920026381E+001  +1.1860357320E-003 -6.2135535181E+000  +6.4704952410E-001 +8.5179739121E-001 
11897792.240 +6.5996905743E-001 +6.7555146469E+000  +1.0335218954E-003 +1.0944197755E+002  +2.7015483737E-003 +3.5403505751E+001  +6.5851793771E-001 +1.5297731334E+000 
12022937.422 +6.6960569561E-001 +5.8750503614E+000  +2.2289277335E-003 +4.1049191918E+001  +3.8711612667E-003 +1.4125238398E+001  +6.9452939185E-001 -9.4671935721E-001 
12148082.603 +6.8441431005E-001 +3.1696142758E+000  +3.8323896403E-003 +3.3823254706E+001  +3.1809261899E-003 +4.0074876150E+001  +6.8678589091E-001 +5.0369107539E-001 
12273227.785 +7.0458036781E-001 +3.8817222964E+000  +2.6535980834E-003 +2.0674029514E+001  +2.9646168584E-003 -1.9648649979E+000  +7.0315300569E-001 +1.4554279055E+000 
12398372.966 +7.2211130675E-001 +3.3530947879E+000  +1.3781927161E-003 +3.8608507376E+001  +3.4170704119E-003 +2.1083715896E+001  +7.2400077248E-001 -1.1473491231E+000 
12523518.148 +7.1460083154E-001 +3.7176445482E+000  +3.0676900684E-003 -2.1126187557E+001  +3.8688542593E-003 +3.5108308420E+001  +7.5475088541E-001 +2.3402994173E-001 
12648663.329 +7.2156793030E-001 +3.1212902480E+000  +3.9444636918E-003 +2.0239843292E+001  +2.5920023393E-003 +3.4593340952E+001  +7.5456799567E-001 -1.1256916162E+000 
12773808.511 +7.6138866440E-001 +2.1119611847E+000  +3.6774027088E-003 -2.5252933898E+000  +2.0413343485E-003 -2.3428342027E+001  +7.9399001104E-001 +8.4972941434E-001 
12898953.692 +7.5665248356E-001 +2.2917058836E+000  +3.9102830961E-003 +8.6515812921E+000  +4.2573187577E-003 +9.2705396578E+000  +7.9748736894E-001 -1.4940966735E+000 
13024098.874 +7.9449141692E-001 +1.7883137016E+000  +3.3173500323E-003 +3.4616665678E+001  +2.7184641910E-003 +1.5206182003E+001  +7.9034219703E-001 -2.9500037561E-001 
13149244.055 +7.9783600951E-001 -1.6876220923E-001  +3.9079078386E-003 +1.3432346243E+001  +3.0542744789E-003 -4.7120033328E+001  +8.3069585140E-001 -9.7497468051E-001 
13274389.237 +8.2286641657E-001 +1.8454393271E-001  +2.5241965075E-003 -2.3771646017E+001  +2.8197337913E-003 +5.3020314992E+000  +8.1715607885E-001 -2.4183322351E+000 
13399534.418 +8.4970041928E-001 -1.4960687079E+000  +1.7905480984E-003 +3.6314702285E+000  +4.9462726203E-003 -2.6118292750E+001  +8.6102261643E-001 -2.3221309947E+000 
13524679.599 +8.6343797903E-001 -1.7015422393E+000  +3.2156257510E-003 +4.7840117689E+001  +2.1182043414E-003 +1.1095588464E+001  +8.4800337461E-001 -2.5101081231E+000 
13649824.781 +8.8190257034E-001 -2.3719479476E+000  +2.3143158375E-003 +1.9620456635E+001  +3.4344290462E-003 +1.1869759360E+001  +8.8902287021E-001 -1.6826758858E+000 
13774969.962 +8.7948268179E-001 -3.9574579910E+000  +2.9139440013E-003 +2.4030486193E+001  +4.7407426436E-003 +1.1998302665E+001  +9.0489856008E-001 -3.1953846639E+000 
13900115.144 +8.9809776728E-001 -3.5730593706E+000  +2.5507705224E-003 +1.1063245390E+001  +4.3887495173E-003 +1.5445841038E+001  +9.4944761007E-001 -1.9065064138E+000 
14025260.325 +9.3286128326E-001 -5.5570744483E+000  +3.1476955254E-003 +2.0550777373E+001  +1.2842473195E-003 -3.4363216302E+000  +9.3478047529E-001 -5.4643774100E+000 
14150405.507 +9.5112790113E-001 -4.1925712441E+000  +4.4264475469E-003 +1.4957020190E+001  +2.6122894270E-003 -1.6531589747E+001  +9.5531445846E-001 -4.5444117673E+000 
14275550.688 +9.5811587030E-001 -4.1367139551E+000  +2.4233718756E-003 -1.6997851853E+000  +1.9179980209E-003 +2.8405412491E+001  +9.7907144859E-001 -3.7147228144E+000 
14400695.870 +9.7457167377E-001 -6.7677930303E+000  +3.2405227746E-003 +1.9871269363E+001  +2.1987397587E-003 +9.2327476231E+000  +1.0032922297E+000 -5.0862301858E+000 
