!  2-Port S-parameters saved by WinCal
! VAR MeasName=S-Parameters (CALIBRATED_DATA) read from VNA (P5004A)
! VAR MeasDate=29/08/2024 14:17:28
! VAR NAME=S2_r9c6_RESET5_9k-100M_1
! VAR FILENAME=S2_r9c6_RESET5_9k-100M_1.S2P
! VAR DATE=29/08/2024 14:17:28
! VAR PHYS_PORTS=1,2
! VAR ObjTypeName=DATASET
! VAR IndexType=Frequency
!
# Hz S MA R 50
9000.000 +7.8209269004E-002 -1.6742946041E+002  +5.3042044824E-003 -1.2813732673E+002  +7.8691054329E-003 -5.8271519733E+001  +2.2502659230E-001 -1.5067347011E+002 
134145.181 +1.1091023995E-001 +1.6963593794E+002  +3.9942345385E-004 -1.4275001766E+002  +6.2848219562E-004 +1.6897804677E+002  +2.3879511015E-001 -1.6999413918E+002 
259290.363 +1.1182715664E-001 +1.6999978856E+002  +6.7076511346E-004 +5.7533157594E+000  +4.1738685223E-004 +1.0527832262E+002  +2.4930091447E-001 -1.6943176312E+002 
384435.544 +1.1464685778E-001 +1.7031004062E+002  +7.6488320570E-004 -6.1960513591E+001  +7.6534502278E-004 +4.0151123932E+001  +2.3807759645E-001 -1.6838489653E+002 
509580.726 +1.1392489565E-001 +1.7060986893E+002  +7.5801314418E-004 -6.8898318436E+001  +1.7570724383E-003 +1.5506707639E+002  +2.3732114190E-001 -1.6426576472E+002 
634725.907 +1.1595929812E-001 +1.7218685967E+002  +1.6995558679E-003 -1.3008694674E+002  +7.0527498845E-004 +2.0488878927E+001  +2.4608552481E-001 -1.6495488682E+002 
759871.089 +1.1840430948E-001 +1.7072732434E+002  +2.1018938575E-004 +1.1944513112E+000  +4.9457643060E-004 -1.6620048539E+002  +2.6157113471E-001 -1.6475904296E+002 
885016.270 +1.2101495871E-001 +1.6887692478E+002  +7.0143710270E-004 -8.3183081901E+001  +8.2168922875E-004 +1.6784385605E+002  +2.4889589130E-001 -1.6663879493E+002 
1010161.452 +1.1528280704E-001 +1.6950750703E+002  +1.0058135821E-003 -4.7174290181E+001  +3.9789990133E-004 +1.3345971347E+002  +2.0422659221E-001 -1.7103968595E+002 
1135306.633 +1.1813330278E-001 +1.6820453133E+002  +1.2586884492E-003 +1.5607852123E+002  +6.2453253560E-004 -1.1629409475E+002  +2.0558357938E-001 -1.7065877768E+002 
1260451.815 +1.1850507718E-001 +1.7169805780E+002  +1.1634585025E-003 +1.7440358973E+002  +2.9799385958E-004 -8.2519572066E+001  +2.1370985375E-001 -1.5819946516E+002 
1385596.996 +1.2295687996E-001 +1.7192780311E+002  +1.2616793812E-003 -2.0253801757E+001  +2.1400672901E-003 -1.5754746003E+002  +2.5326254135E-001 -1.5773203329E+002 
1510742.178 +1.2770443029E-001 +1.7134392373E+002  +3.9072474534E-004 +1.4245661967E+001  +2.3349889472E-004 +7.5767730871E+001  +2.4494773886E-001 -1.5569030380E+002 
1635887.359 +1.2820120116E-001 +1.7195300744E+002  +2.3590344009E-003 -5.7602216960E+001  +7.2503291861E-004 +1.5077110650E+002  +2.3084070717E-001 -1.5910662568E+002 
1761032.541 +1.2811095045E-001 +1.6972919170E+002  +1.1787647852E-003 -4.3508278897E+001  +3.7598939691E-004 -1.0445063860E+002  +2.3742756327E-001 -1.6004236335E+002 
1886177.722 +1.2831085491E-001 +1.6966236777E+002  +5.2037619260E-004 -1.0527750336E+002  +1.3954175913E-003 +1.6943835468E+002  +2.1518536137E-001 -1.6406958136E+002 
2011322.904 +1.2946539352E-001 +1.6620309238E+002  +8.6968194887E-004 -1.6013730566E+002  +3.6370979994E-003 -1.0830029639E+002  +1.2338927063E-001 -1.4533466708E+002 
2136468.085 +1.3222068489E-001 +1.6793928857E+002  +3.3043140511E-003 +1.9061642448E+001  +1.6484845008E-003 -3.9857109092E+001  +1.0270395272E-001 -1.7198813648E+002 
2261613.267 +1.3000901316E-001 +1.6601766600E+002  +3.6956608521E-003 +8.5533705421E+001  +4.1679840876E-003 -5.8107639281E+001  +3.3654627244E-001 +1.6438318100E+002 
2386758.448 +1.3504667574E-001 +1.6624765753E+002  +3.7221713078E-003 +2.6200554226E+001  +5.5700354647E-003 -4.4470087281E+001  +1.9826060353E-001 +1.7174486595E+002 
2511903.630 +1.3703593424E-001 +1.6234132960E+002  +7.1008927734E-003 +1.0723694396E+002  +3.8158097667E-003 +3.6857960077E+001  +2.5625767901E-001 +1.5945595849E+002 
2637048.811 +1.2554750250E-001 +1.5569713561E+002  +1.0193519976E-002 +1.0358324937E+002  +2.3036329661E-002 +4.8394034126E+000  +2.5600631536E-001 +1.4179870746E+002 
2762193.992 +6.0946294587E-002 -1.7887664137E+002  +2.6555357848E-002 -1.4538992522E+001  +3.0222753160E-002 -1.3947559832E+002  +2.1999631741E-001 -9.4775568903E+001 
2887339.174 +1.2972990935E-001 +1.7786494362E+002  +1.0815200108E-002 -4.1543931660E+001  +1.8939411245E-003 +5.7648039805E+001  +2.7098021547E-001 -1.0030526791E+002 
3012484.355 +1.3069576849E-001 +1.6574101565E+002  +7.7579537227E-003 -2.2148670876E+001  +5.7433349799E-003 -7.5184695623E+001  +1.8677206527E-001 -1.0263535164E+002 
3137629.537 +1.3695853985E-001 +1.7191261242E+002  +8.5072094401E-003 -7.4771291718E+001  +5.6439534646E-003 -1.6878417711E+002  +4.9470777201E-001 -9.0728100870E+001 
3262774.718 +1.1041962489E-001 +1.6538193864E+002  +1.4257400498E-002 +4.7508802898E+001  +1.2286096824E-002 +6.1560899724E+000  +1.6789414798E-001 +1.1733313513E+002 
3387919.900 +1.1486991011E-001 +1.6552146145E+002  +1.0389839508E-002 +1.7946561280E+002  +4.4515232957E-002 -2.0277750628E+000  +5.3389987072E-001 +5.9772749079E+001 
3513065.081 +1.5121348752E-001 +1.3525480366E+002  +3.4508102649E-002 +1.0606290645E+002  +4.7037850290E-002 +3.4573890247E+001  +5.4396579833E-001 +1.0258132217E+002 
3638210.263 +1.5191874073E-001 +1.4948413202E+002  +1.2552348955E-002 +4.7292241814E+001  +1.5598688371E-002 -3.6922667764E+001  +2.2872670073E-001 +1.0066771690E+002 
3763355.444 +1.7189573878E-001 +1.4008936730E+002  +1.0299797660E-002 +1.1844388944E+002  +2.9786397368E-002 -5.8433212294E+000  +4.2062267272E-001 +1.1741007855E+002 
3888500.626 +1.9124147085E-001 +1.5236724703E+002  +2.2276512125E-002 +1.0149064023E+002  +1.1787244071E-002 +4.7512170930E+001  +6.6271305839E-001 +1.2016130660E+002 
4013645.807 +1.6864571313E-001 +1.4322126738E+002  +4.0975688187E-003 +1.0418689629E+002  +3.5218646100E-003 -1.7497459647E+001  +4.5094510799E-001 +1.5714649090E+002 
4138790.989 +1.6911409887E-001 +1.3301778847E+002  +1.4986934481E-002 +5.2741162669E+001  +1.8381299833E-002 +6.5840147485E+001  +5.1872784010E-001 +1.1432478023E+002 
4263936.170 +1.9350297871E-001 +1.4174625015E+002  +3.1946973154E-002 -4.5344654105E+000  +1.7063478482E-002 -9.8822367359E+001  +6.5911361939E-001 -1.7835880783E+001 
4389081.352 +2.1619933531E-001 +1.3787708482E+002  +2.8208564736E-002 +7.2742757198E+001  +1.1453857604E-002 +7.6587954209E+001  +4.8137055293E-001 +1.1394059767E+002 
4514226.533 +2.3652438813E-001 +1.4304625704E+002  +1.8974987941E-002 -1.4977265849E+002  +1.4704899096E-002 +7.9213508574E+001  +8.8179716217E-001 +1.6105488323E+002 
4639371.715 +2.7298144203E-001 +1.3314716808E+002  +1.7041794574E-001 +7.2949272494E+001  +9.4706675629E-002 -1.1642121320E+001  +3.7512553458E+000 +2.6535100513E+001 
4764516.896 +2.7361727645E-001 +1.3439746079E+002  +2.0526007159E-002 +1.4151755935E+002  +1.6709328893E-002 +1.4427839506E+002  +2.1625909545E+000 +1.6049156448E+002 
4889662.078 +5.3829787032E-001 +1.3204293913E+002  +1.2739287321E-001 -2.7791473385E+001  +1.1056203835E-001 -6.8830756264E+001  +3.2473648002E+000 -1.0945795829E+002 
5014807.259 +4.7228537723E-001 +1.3001796910E+002  +2.1335018753E-001 -1.2102498324E+002  +1.6417267645E-001 -1.5681416725E+002  +5.4330208617E+000 -1.5490734264E+002 
5139952.441 +3.5782992104E-001 +1.2607384455E+002  +1.6957534916E-001 +1.1115706686E+002  +1.7553804481E-001 +7.0394181318E+001  +4.3408559697E+000 +9.8087384638E+001 
5265097.622 +3.2714434024E-001 +1.2685608984E+002  +8.9564150049E-002 +5.9176746299E+001  +4.7744615391E-002 +3.0420083491E+001  +2.2222328953E+000 +7.4607487290E+001 
5390242.804 +4.5394495984E-001 +1.2556180745E+002  +1.1107393648E-001 +1.5284957664E+002  +1.2761799173E-001 +1.1021162827E+002  +4.6989004597E+000 +1.2271921502E+002 
5515387.985 +4.6207088624E-001 +1.3047146816E+002  +3.7799379643E-002 +1.1679257126E+002  +5.9730358210E-002 +7.8727492242E+001  +1.7448782570E+000 +8.9085914418E+001 
5640533.166 +4.8838609168E-001 +1.2931683480E+002  +9.0424277030E-002 +6.3888890278E+001  +5.1475516015E-002 +7.1029923908E+001  +3.1113949117E+000 +5.1220965162E+001 
5765678.348 +4.4817772242E-001 +1.3387493349E+002  +2.6478663801E-002 +1.1583145393E+002  +4.2068568585E-002 +8.2275862611E+001  +2.0142783411E+000 +1.0455087968E+002 
5890823.529 +5.9551168569E-001 +1.2172639827E+002  +1.2017033396E-001 +8.2084883465E+001  +5.6728549338E-002 +7.3136430368E+001  +2.7861729628E+000 +6.4121054711E+001 
6015968.711 +6.3396798413E-001 +1.1518636564E+002  +6.4316530073E-002 +6.7570516336E+001  +8.2367781887E-002 +4.0493189363E+001  +2.3444565277E+000 +3.2141348440E+001 
6141113.892 +5.5414811999E-001 +9.8730124343E+001  +3.7778439054E-002 +3.6147017799E+001  +8.3845309619E-002 +2.3747147989E+001  +2.0655835753E+000 +3.9643414079E+001 
6266259.074 +6.7255311181E-001 +8.6180013335E+001  +7.0136324593E-002 +5.6859435046E+001  +1.1203025901E-001 +1.2955879326E+001  +2.3295846688E+000 +1.6645541416E+001 
6391404.255 +9.7410606693E-001 +8.6271733499E+001  +1.1030542697E-001 +2.9350275945E+001  +8.2854412609E-002 +1.8834031198E+001  +2.1689790057E+000 +1.3821015842E+001 
6516549.437 +1.1755255126E+000 +8.2045260961E+001  +5.1569392326E-002 +4.2136875123E+001  +5.5832999090E-002 -2.9637439185E+000  +1.3010034335E+000 +1.7654786610E-001 
6641694.618 +1.5117437498E+000 +8.0009049122E+001  +7.7771487861E-002 +3.5482567281E+001  +5.9965260991E-002 +2.6641322377E+001  +1.2338700647E+000 -5.4869820249E+000 
6766839.800 +1.8327477302E+000 +6.5360639901E+001  +9.1581221754E-002 +2.0924845062E+001  +6.9521704217E-002 +3.9971143322E+000  +1.4264212393E+000 -4.1009257725E+000 
6891984.981 +1.5758352077E+000 +2.9299923624E+001  +8.3315510165E-002 +1.5927580900E+000  +5.7765986489E-002 +3.4538968173E+000  +1.0382309499E+000 -6.6318502463E+000 
7017130.163 +1.5454701947E+000 +2.1002891280E+001  +6.0464567072E-002 +1.5123217530E+001  +5.8705065584E-002 +8.0853725969E+000  +1.2317215803E+000 -6.1238384794E+000 
7142275.344 +1.8529077157E+000 +7.4877124692E+000  +5.4479892767E-002 -4.7087069890E-001  +6.0106402518E-002 +2.5160460931E-001  +1.2103990451E+000 -1.4552468235E+001 
7267420.526 +1.4365760037E+000 -1.1303703824E+001  +3.7294947422E-002 +1.1948083489E-002  +4.3565266764E-002 -7.9066105608E+000  +1.2538480203E+000 -1.1151436523E+001 
7392565.707 +1.2472227766E+000 +2.5834794176E+000  +3.7243709793E-002 -7.6849065341E+000  +3.7730063306E-002 +1.3683933815E+001  +1.3592048944E+000 -9.8308417276E+000 
7517710.889 +1.1164958479E+000 +3.1503474020E+000  +4.0430240423E-002 +1.6034987878E+001  +3.5793941909E-002 +1.1752125271E+000  +1.1937675816E+000 -3.6315582142E+000 
7642856.070 +9.6318483769E-001 +1.7088930989E+000  +2.7773234422E-002 +4.4097729982E+000  +2.6077969503E-002 +1.7612001920E+001  +1.0439540808E+000 -6.0760710767E+000 
7768001.252 +8.3803802600E-001 +4.4699234934E+000  +2.3767020185E-002 -4.7439894133E+000  +2.8124744731E-002 +8.4100848412E+000  +9.8388637712E-001 -1.3861219308E+000 
7893146.433 +8.1117048440E-001 +7.3016041479E+000  +2.7987279332E-002 +4.9951587888E+000  +2.9498680901E-002 +2.2199401853E+000  +9.2122733558E-001 -2.9613304945E+000 
8018291.615 +8.1432079551E-001 +3.0824877206E+000  +2.2764140761E-002 +9.8124425899E+000  +2.8445659442E-002 +2.9014532249E+000  +8.2634864620E-001 +1.5150711493E+000 
8143436.796 +7.6016798616E-001 +5.5041656188E+000  +3.2087842880E-002 -1.0101838977E+000  +2.8360957620E-002 +1.1540232618E+001  +8.9996138773E-001 -2.1282994087E+000 
8268581.977 +7.2032950392E-001 +8.9332540325E+000  +2.3359223540E-002 -3.5745945184E+000  +2.4379870214E-002 +1.5676612010E+001  +6.9576009759E-001 -1.0457123992E-001 
8393727.159 +7.2296426283E-001 +1.4382428468E+001  +2.4334809834E-002 +3.9546478913E+000  +2.3001867823E-002 +1.7478661220E+001  +8.0187980348E-001 +3.0882467372E+000 
8518872.340 +6.7680740471E-001 +1.0749385028E+001  +2.8266794987E-002 +2.1383859620E+000  +2.2713905067E-002 +1.2035772332E+001  +6.0889380290E-001 -3.3523031343E-001 
8644017.522 +6.5691722040E-001 +8.4679435494E+000  +2.2258630455E-002 -1.0766651567E+001  +2.5556090999E-002 +2.3340033139E+001  +6.8498911757E-001 +3.1806783060E+000 
8769162.703 +5.9350876619E-001 +6.6958078114E+000  +2.5873507784E-002 -6.3258442222E+000  +2.4219609861E-002 +1.2266075638E+001  +6.7143207835E-001 -6.9762913370E-001 
8894307.885 +5.9369018969E-001 +1.0117696272E+001  +2.5814971642E-002 -6.1378995926E+000  +2.8354929254E-002 +7.6044510793E+000  +6.1876752900E-001 +1.0943387771E+000 
9019453.066 +5.4963988356E-001 +6.9506753671E+000  +2.3857085140E-002 -1.6491681592E-001  +2.5300494962E-002 +1.1473927055E+001  +6.1092973132E-001 -9.3716404278E-001 
9144598.248 +5.3391968204E-001 +6.7935178823E+000  +2.6404261898E-002 -5.7609313797E-002  +2.6414056075E-002 +1.2829235415E+001  +5.8421138505E-001 -2.8037098935E+000 
9269743.429 +6.0185946848E-001 +1.3166376835E+001  +2.3301523425E-002 -1.4707103439E+001  +2.5077489163E-002 +1.6332296925E+001  +5.5553334759E-001 -2.3186866308E+000 
9394888.611 +5.2314070742E-001 -8.4860554828E-001  +2.4276313972E-002 +5.2801530589E+000  +2.5453760001E-002 +9.9136856480E+000  +5.9585961557E-001 -4.8254847537E+000 
9520033.792 +5.4822216493E-001 +3.4022307940E+000  +2.8710086972E-002 -4.9686020607E+000  +2.3039779187E-002 +1.2677067839E+001  +5.5353266891E-001 -9.1224217170E+000 
9645178.974 +5.4513679431E-001 +3.1592457476E+000  +2.6072986877E-002 -3.7534917316E+000  +2.5901573136E-002 +6.7131105139E+000  +5.7437577218E-001 -8.6618504978E+000 
9770324.155 +5.0938404717E-001 +2.3454013389E+000  +2.2152461963E-002 -6.7325384107E+000  +2.4101031593E-002 +1.8727603824E+001  +5.3250028296E-001 -5.4096974025E+000 
9895469.337 +5.2784997043E-001 +1.3870725324E+000  +2.3854611534E-002 -4.5271637739E+000  +2.5685246074E-002 +6.6761345924E+000  +5.5398923264E-001 -3.4634670085E+000 
10020614.518 +5.2947108518E-001 +4.1232189943E+000  +2.4602732058E-002 -3.6513950683E+000  +2.5979306234E-002 +1.0792404598E+001  +5.1284929436E-001 -3.1633388593E+000 
10145759.700 +5.2778825318E-001 +3.1577339197E+000  +2.4302097979E-002 -1.6601516984E+000  +2.3734688101E-002 +1.3247190722E+001  +5.7952361607E-001 -2.3305098990E+000 
10270904.881 +5.3817671181E-001 +1.8033546955E+000  +2.4207581272E-002 -1.5362286119E+000  +2.3845762215E-002 +1.6088813216E+001  +5.9587784543E-001 -3.4273908511E+000 
10396050.063 +5.5061641015E-001 +4.4992378422E+000  +2.5046237819E-002 +4.7634233617E+000  +2.2455643812E-002 +1.3596541579E+001  +5.5606915943E-001 -1.1658877400E+000 
10521195.244 +5.4605067878E-001 +5.0733753437E+000  +2.2863122326E-002 +4.6930896651E+000  +2.3345231241E-002 +1.8333298092E+001  +5.8775052393E-001 +1.0792625323E-001 
10646340.426 +5.4541059351E-001 +4.5724003765E+000  +2.5103145795E-002 -8.9569562987E-001  +2.5061919652E-002 +1.6363862865E+001  +5.7583792933E-001 +9.5120468750E-001 
10771485.607 +5.8860196180E-001 +8.1238423031E+000  +2.3603374764E-002 -3.4935925710E+000  +2.4466756517E-002 +1.6231270960E+001  +5.7890162447E-001 +4.2927589443E-001 
10896630.788 +5.9856715528E-001 +9.8634291669E+000  +2.5225602115E-002 +2.6667184260E+000  +2.2792578998E-002 +1.3638906779E+001  +5.8559817099E-001 +1.2194146791E+000 
11021775.970 +5.6387318106E-001 +6.0969699160E+000  +2.5728639953E-002 +2.4974806852E+000  +2.7847935323E-002 +9.9298184822E+000  +5.9040845856E-001 +2.6285358518E-001 
11146921.151 +5.9462740845E-001 +7.1753604479E+000  +2.3924674908E-002 +2.3931036641E-001  +2.3629554780E-002 +1.6193547670E+001  +5.9253494751E-001 +2.0398915710E+000 
11272066.333 +6.0176315342E-001 +8.6287515626E+000  +2.6762769818E-002 +1.6765357073E+000  +2.6222056715E-002 +1.2648994272E+001  +6.1305072768E-001 +1.4677247174E+000 
11397211.514 +5.7222262615E-001 +7.6597439587E+000  +2.7074988182E-002 +4.2968622548E+000  +2.6762173028E-002 +1.1256832763E+001  +6.2394450251E-001 +2.5620248036E+000 
11522356.696 +5.8975671191E-001 +8.5329027836E+000  +2.6101495066E-002 +3.8200785423E-001  +2.7489083160E-002 +1.2441218266E+001  +6.2925965002E-001 +2.6218193551E+000 
11647501.877 +6.3556199195E-001 +9.1325149686E+000  +2.7459589988E-002 -1.0147269038E-001  +2.7547203153E-002 +1.2986102734E+001  +6.1778651299E-001 +2.5315894643E+000 
11772647.059 +6.1225268079E-001 +6.5833435831E+000  +2.7297980060E-002 -8.0024978494E-001  +2.5888794659E-002 +1.0204945319E+001  +6.5945934802E-001 +1.6965514953E+000 
11897792.240 +6.1272256416E-001 +5.9598268662E+000  +2.7976972508E-002 +1.5376717686E+000  +2.6336673682E-002 +1.1061999287E+001  +6.3571681728E-001 +1.0784733520E+000 
12022937.422 +6.6075331563E-001 +6.6791309909E+000  +2.6220927013E-002 +1.2893078351E+000  +2.8961951345E-002 +1.3783492958E+001  +6.5527351131E-001 -1.5308109256E-001 
12148082.603 +6.5101363294E-001 +4.2488191727E+000  +2.9858860479E-002 +1.2422535004E+000  +2.5181611658E-002 +1.1170337602E+001  +6.5893693480E-001 -8.9849478922E-001 
12273227.785 +6.8081775095E-001 +3.3099467849E+000  +2.8232306428E-002 +3.8495213635E-001  +2.9416903531E-002 +1.1482136567E+001  +7.3345614077E-001 -5.7936514458E-001 
12398372.966 +7.0752630953E-001 +2.8516155814E+000  +2.9539139712E-002 +2.0074586112E+000  +2.7808232023E-002 +1.3199024244E+001  +7.0669835076E-001 -3.2169159310E-001 
12523518.148 +7.2405939259E-001 +3.5656670911E+000  +2.8934510278E-002 +5.1960823670E+000  +2.7139981562E-002 +8.6446059360E+000  +7.2543206492E-001 +9.2131890358E-001 
12648663.329 +7.2588495673E-001 +2.0563648747E+000  +2.9583402051E-002 +1.5783682842E+000  +2.8281214524E-002 +5.3108142102E+000  +7.4421133657E-001 -2.3084869118E-001 
12773808.511 +7.4607273540E-001 +1.9891598713E-001  +2.8750694091E-002 +2.3483762273E+000  +2.9126010924E-002 +7.6299527809E+000  +7.3233892006E-001 +5.5587874161E-001 
12898953.692 +7.5717642069E-001 +1.9750104850E+000  +2.9277121758E-002 +3.1007677932E+000  +3.1523563246E-002 +8.5596568656E+000  +7.4065808662E-001 +1.0457519253E+000 
13024098.874 +7.6886358753E-001 -7.3044486140E-002  +3.0983427021E-002 -2.3315213367E-001  +2.8602643546E-002 +8.0329219032E+000  +7.5506748745E-001 -1.1629388696E+000 
13149244.055 +7.9355088859E-001 +1.8067309344E+000  +3.0393797961E-002 +1.0893222983E+000  +3.0533535628E-002 +8.5358662816E+000  +8.0366118732E-001 -1.3906564532E+000 
13274389.237 +7.9874506317E-001 -8.4908442158E-001  +3.0094267883E-002 +1.8776562600E+000  +2.8869388828E-002 +5.4120616187E+000  +8.1306717852E-001 -1.2654021753E+000 
13399534.418 +8.0851653353E-001 +3.5984396693E-001  +3.0200515468E-002 +2.3303878981E+000  +3.0393917573E-002 +7.3199499609E+000  +8.3351791787E-001 -2.5497004764E+000 
13524679.599 +8.4748710462E-001 -1.1216012259E+000  +3.1191724193E-002 +3.5451550058E+000  +3.1399831948E-002 +7.9565804467E+000  +8.6453880162E-001 -2.4842921889E+000 
13649824.781 +8.5723221577E-001 -1.3362408630E+000  +3.1973089215E-002 +1.1717607735E+000  +3.0459314375E-002 +6.9530438026E+000  +8.4635399037E-001 -2.6165236524E+000 
13774969.962 +8.8976444942E-001 -3.7186991498E+000  +3.2584889537E-002 +1.3894048484E+000  +3.0823772234E-002 +2.6219879207E+000  +8.7367921992E-001 -3.5039061249E+000 
13900115.144 +8.8873977292E-001 -3.0738151615E+000  +3.0442583113E-002 +3.5784813536E+000  +3.1611518698E-002 +6.2322111371E+000  +8.9884372757E-001 -2.9090840505E+000 
14025260.325 +8.9175944545E-001 -3.8252877238E+000  +3.0752784070E-002 +2.9593723898E-001  +3.1029592485E-002 +5.6012834499E+000  +9.0629011130E-001 -3.4533038315E+000 
14150405.507 +9.0451280401E-001 -4.6750207660E+000  +3.1960316715E-002 +3.9118595849E+000  +3.1939925919E-002 +2.6490995696E+000  +9.2113655622E-001 -4.8679403554E+000 
14275550.688 +9.1964456976E-001 -5.3494850135E+000  +3.2194371090E-002 +1.6928215313E+000  +3.0846401904E-002 +2.5017412994E+000  +9.4256305884E-001 -3.2710589397E+000 
14400695.870 +9.5374042951E-001 -6.1090919927E+000  +3.2387808740E-002 +5.3369413431E+000  +3.2391172928E-002 +2.3092732446E+000  +9.6420786932E-001 -4.3992095350E+000 
