!  2-Port S-parameters saved by WinCal
! VAR MeasName=S-Parameters (CALIBRATED_DATA) read from VNA (P5004A)
! VAR MeasDate=29/08/2024 10:14:56
! VAR NAME=S2_r9c1_RESET3_9k-100M_3
! VAR FILENAME=S2_r9c1_RESET3_9k-100M_3.S2P
! VAR DATE=29/08/2024 10:14:56
! VAR PHYS_PORTS=1,2
! VAR ObjTypeName=DATASET
! VAR IndexType=Frequency
!
# Hz S MA R 50
9000.000 +8.7767611341E-002 -1.7117726304E+002  +6.7334835050E-003 -1.2015452705E+002  +3.7685360253E-003 +4.3947182803E+000  +2.4512063184E-001 -1.4703925171E+002 
134145.181 +1.1147798164E-001 +1.6954506450E+002  +5.0631096358E-004 -1.4660254856E+002  +4.2450407952E-004 +4.2830864644E+001  +2.3807540712E-001 -1.7181783915E+002 
259290.363 +1.1157583832E-001 +1.6957297359E+002  +9.5389035347E-005 -5.6327599609E+001  +1.6776826465E-004 -9.6990628167E+001  +2.4015105008E-001 -1.6949945717E+002 
384435.544 +1.1394404934E-001 +1.7053413567E+002  +1.3094961731E-003 -5.4467686260E+001  +4.7045617948E-004 +2.1322450184E+001  +2.4289799305E-001 -1.6848960525E+002 
509580.726 +1.1492481971E-001 +1.7102897955E+002  +1.2791540302E-003 -7.6687608244E+001  +1.5213286216E-003 +1.6768490682E+001  +2.3885889165E-001 -1.6545420364E+002 
634725.907 +1.1589697516E-001 +1.7110349475E+002  +5.9653829967E-004 -9.0273723412E+001  +1.2673512049E-003 +1.1891888900E+002  +2.4719765210E-001 -1.6412990197E+002 
759871.089 +1.1990263223E-001 +1.7075720915E+002  +6.1076151472E-004 +1.7681665602E+002  +1.2749933305E-003 +3.7636586067E+001  +2.4919679780E-001 -1.6699508821E+002 
885016.270 +1.1962732803E-001 +1.6913969515E+002  +5.7622755180E-004 -5.2249026528E+001  +5.6247717368E-004 +9.2127064502E+001  +2.4132568197E-001 -1.6628009099E+002 
1010161.452 +1.1770181483E-001 +1.7029349520E+002  +2.1830334141E-003 -3.6841897681E+001  +3.5656493476E-003 +8.6705246536E+001  +1.8840161920E-001 -1.6646583872E+002 
1135306.633 +1.1344473663E-001 +1.6969741931E+002  +6.9368637048E-004 +6.7226455198E+001  +2.8383310431E-003 +1.5498889859E+002  +2.0038179388E-001 -1.6756549324E+002 
1260451.815 +1.1960485221E-001 +1.6984087133E+002  +1.4525087972E-003 -3.2508465284E+001  +2.8439603919E-003 +1.5030595539E+002  +2.0317231005E-001 -1.5789956919E+002 
1385596.996 +1.2543349276E-001 +1.7242669177E+002  +3.7919322451E-004 -1.4294284405E+002  +8.3225299071E-004 -1.2291463942E+002  +2.5811396505E-001 -1.6012302707E+002 
1510742.178 +1.2823517673E-001 +1.7093539476E+002  +1.5023157953E-003 -5.6446912535E+001  +1.8440859358E-003 +1.1286582374E+002  +2.5273303043E-001 -1.5485879415E+002 
1635887.359 +1.2909794379E-001 +1.7137893186E+002  +1.4480078270E-003 -7.9969356864E+001  +1.8029187646E-003 +1.7170531606E+002  +2.5531897190E-001 -1.5456424790E+002 
1761032.541 +1.3027042544E-001 +1.7127787130E+002  +1.1573976051E-003 +7.3260612036E+001  +7.3134784687E-004 +1.1886509974E+002  +2.3013434940E-001 -1.5961246282E+002 
1886177.722 +1.2891493497E-001 +1.6799008429E+002  +1.2819219105E-003 +4.6502601674E+001  +3.4892846973E-003 -7.3173061425E+001  +2.0821812572E-001 -1.5597116207E+002 
2011322.904 +1.2841086417E-001 +1.6750571836E+002  +4.5266175098E-003 +8.7592936506E+001  +4.5609861938E-003 -5.2443985686E+001  +1.7123838998E-001 -1.6976498203E+002 
2136468.085 +1.3236428545E-001 +1.7010500210E+002  +1.4027801157E-003 +1.4003462693E+001  +3.1893173072E-003 -9.0816399656E+001  +2.0726884307E-001 -1.6191219693E+002 
2261613.267 +1.3350890169E-001 +1.6609730591E+002  +7.3967848339E-003 +9.0119378359E+001  +6.9100112824E-003 -6.6349212160E+001  +1.5817390791E-001 +1.7300830351E+002 
2386758.448 +1.3642707173E-001 +1.6560347285E+002  +7.5359894310E-003 +6.8995706765E+001  +7.7586729672E-003 -6.4020993022E+001  +1.6801823882E-001 -1.6091034711E+002 
2511903.630 +1.2842266421E-001 +1.6619142679E+002  +1.1731815232E-002 +8.9956171725E+001  +1.4170010336E-002 -1.5752562070E+001  +2.2666221769E-001 +1.6909852352E+002 
2637048.811 +1.0296143376E-001 +1.6199434575E+002  +1.9638273031E-002 +8.4187819001E+001  +1.7757120236E-002 -1.5601625158E+001  +2.3473211224E-001 +1.7184068824E+002 
2762193.992 +1.2515173945E-001 +1.6721040626E+002  +5.7205834678E-002 +7.4994857595E+001  +5.7542550390E-002 -5.2369516996E+001  +6.3363831337E-001 +9.3114878872E+001 
2887339.174 +1.1192698339E-001 +1.6883398955E+002  +2.8634843515E-002 +3.1988037368E+000  +4.4439299442E-002 -1.1803678444E+002  +1.6236686566E-001 -6.0044489685E+001 
3012484.355 +1.1958668400E-001 +1.6721841449E+002  +2.7156756433E-002 -4.2478671970E+001  +1.9182289165E-002 -1.5765307207E+002  +3.9279439600E-001 -1.0563080966E+002 
3137629.537 +1.1779640718E-001 +1.6990899858E+002  +2.6081403943E-002 -8.2500640772E+000  +2.5927985661E-002 -9.6525969799E+001  +1.5948427824E-001 -1.0630653081E+002 
3262774.718 +1.1807319557E-001 +1.5213265412E+002  +5.2606412124E-002 +4.3032249035E+001  +4.6860889287E-002 -3.1385812511E+001  +2.8281308776E-001 +7.1782152959E+001 
3387919.900 +1.1381104915E-001 +1.6522238799E+002  +2.8947691472E-002 +4.5500147308E+001  +2.9163047391E-002 -4.5899632084E+001  +1.7500317763E-001 +1.1826255968E+002 
3513065.081 +1.3221801393E-001 +1.6073130308E+002  +3.2823263863E-002 +7.3195613856E+001  +3.2997186753E-002 -3.0357316391E+000  +4.0085593754E-001 +1.2230379137E+002 
3638210.263 +1.5119344452E-001 +1.5396121274E+002  +4.3192820414E-002 +5.0586195391E+001  +5.5844065963E-002 -1.8552418996E+001  +3.6074844157E-001 +6.7332155300E+001 
3763355.444 +1.6318476525E-001 +1.4502952684E+002  +2.6960495737E-002 +8.6446944366E+001  +4.2360814304E-002 +1.6601860183E+001  +3.1099940183E-001 +1.3604975370E+002 
3888500.626 +1.7462628591E-001 +1.5404846867E+002  +3.7959600849E-002 +1.1153186557E+002  +3.4328976371E-002 +4.4170327609E+001  +5.9179634178E-001 +1.3645499217E+002 
4013645.807 +1.7092790592E-001 +1.5321473333E+002  +2.7016340644E-002 +7.0673946439E+001  +3.1081854646E-002 +8.7351545904E+000  +3.1938564391E-001 +1.4421017491E+002 
4138790.989 +1.7834088829E-001 +1.5485165370E+002  +3.2317351357E-002 +8.8916559836E+001  +2.4822895100E-002 +1.6302847486E+001  +4.1870941152E-001 +1.3092922225E+002 
4263936.170 +2.0269022203E-001 +1.4915148898E+002  +3.9815103918E-002 +9.0543345921E+001  +3.3693314325E-002 +3.0133121120E+001  +4.7915422512E-001 +1.3250033826E+002 
4389081.352 +2.0292810006E-001 +1.4679272493E+002  +4.8286144924E-002 +6.8744343802E+001  +3.9915090229E-002 -1.3126602757E+001  +2.5662679085E-001 +8.1174714695E+001 
4514226.533 +1.8850179201E-001 +1.4557496976E+002  +7.9486919236E-002 +7.8963320575E+001  +1.0577188834E-001 +1.7242865118E+001  +1.0057909013E+000 +8.3228749372E+001 
4639371.715 +2.4623141545E-001 +1.2093632602E+002  +2.2415108114E-001 +4.4723872350E+001  +2.4278445116E-001 -2.2178295645E+000  +1.8000743188E+000 +1.0532078132E+001 
4764516.896 +2.8501265322E-001 +1.1114905661E+002  +5.5077870836E-001 +6.2373857051E+001  +4.0861642085E-001 +8.8306090804E+000  +4.4515230047E+000 +3.0591857427E+001 
4889662.078 +4.5745489049E-001 +1.2044265630E+002  +4.8692043130E-001 -1.9373917098E+001  +4.8609322495E-001 -5.9906898391E+001  +3.8620232404E+000 -8.9495265514E+001 
5014807.259 +3.2844448551E-001 +1.2100151501E+002  +2.0448174102E-001 +3.4490249175E+001  +1.7999676301E-001 -7.9350373648E+000  +1.5688646673E+000 -5.8788977802E+000 
5139952.441 +3.6700114475E-001 +1.3176299960E+002  +2.5711984678E-001 +1.6171581235E+002  +2.4499886333E-001 +1.3005748012E+002  +3.4017443660E+000 +1.4149798707E+002 
5265097.622 +4.6074989657E-001 +1.1931624951E+002  +1.2661283736E-001 +8.2899598581E+001  +1.5880327760E-001 +4.4920396029E+001  +7.5358236529E-001 +6.4497910645E+001 
5390242.804 +3.9431143887E-001 +1.3348844296E+002  +2.1822178579E-001 +1.1415188039E+002  +2.0333740403E-001 +7.3465516358E+001  +2.8911785901E+000 +9.6757902216E+001 
5515387.985 +4.5767722833E-001 +1.3257931604E+002  +1.1762038961E-001 +1.3223787603E+002  +1.4573889888E-001 +9.6729577847E+001  +1.7602183307E+000 +1.1092297374E+002 
5640533.166 +3.7845341358E-001 +1.2670922475E+002  +1.7081806461E-001 +8.6133490293E+001  +2.0964971209E-001 +5.4460722810E+001  +2.3777741782E+000 +8.0781321645E+001 
5765678.348 +4.8487965539E-001 +1.3062394471E+002  +1.1035731510E-001 +9.1265029456E+001  +1.0379195881E-001 +7.2931307870E+001  +1.2511562224E+000 +9.5884031756E+001 
5890823.529 +5.7509216750E-001 +1.2723127672E+002  +1.4644446434E-001 +1.0212135467E+002  +1.5304605370E-001 +7.8014918129E+001  +1.6274217078E+000 +8.7124017431E+001 
6015968.711 +5.8585975363E-001 +1.1696854239E+002  +2.1295052511E-001 +6.6657800861E+001  +1.8446356622E-001 +4.5891931443E+001  +1.9511187986E+000 +5.2995801793E+001 
6141113.892 +6.5754674745E-001 +1.1495170479E+002  +2.1978104963E-001 +7.2621051126E+001  +2.1450567256E-001 +5.0557967152E+001  +2.1748525313E+000 +5.7482631692E+001 
6266259.074 +7.8317343185E-001 +1.0413530971E+002  +1.7429304412E-001 +5.3271054737E+001  +1.6968796375E-001 +3.7120681175E+001  +1.3117823417E+000 +3.3440746054E+001 
6391404.255 +8.6973297869E-001 +9.9765810174E+001  +2.0612357704E-001 +5.1801911257E+001  +1.9207567236E-001 +3.2231593225E+001  +1.8544871431E+000 +3.0319628338E+001 
6516549.437 +8.7806462396E-001 +9.8610701824E+001  +1.6557891084E-001 +4.1578616647E+001  +1.5168694252E-001 +2.9238416558E+001  +1.1827747812E+000 +1.2259217786E+001 
6641694.618 +1.1940718194E+000 +7.7832077429E+001  +2.2139978425E-001 +2.8558289142E+001  +1.7801500881E-001 +2.2204004180E+001  +1.4530456858E+000 +6.7958313412E+000 
6766839.800 +1.1498990362E+000 +5.8506871789E+001  +1.8506912394E-001 +1.4474540704E+001  +1.7083117304E-001 +3.3400482376E+000  +1.0857152098E+000 -8.3400389699E+000 
6891984.981 +1.3487716401E+000 +4.5201491680E+001  +1.8281277564E-001 +1.3810132686E+001  +1.7406081285E-001 +9.4709565443E+000  +1.0035575158E+000 -2.0824718440E-001 
7017130.163 +1.1899551587E+000 +3.2613533782E+001  +1.6628924544E-001 +6.0788854031E+000  +1.7250950373E-001 -1.7505257084E+000  +1.1682686514E+000 -3.8137210343E+000 
7142275.344 +1.1767230214E+000 +8.7264579283E+000  +1.5845155140E-001 -6.2976137301E+000  +1.4838301149E-001 -3.8083052136E+000  +1.2414552639E+000 -1.1209343335E+001 
7267420.526 +1.4315671732E+000 +1.3676142557E+000  +1.5401098584E-001 -4.3017548047E-001  +1.4525458686E-001 -1.7358576080E+000  +1.2136484059E+000 -1.0204862672E+001 
7392565.707 +1.2300177019E+000 -2.9510799769E+000  +1.1346534825E-001 +9.9693181413E-001  +1.2561859611E-001 +1.0639026762E+000  +1.2080875870E+000 -5.6651979093E+000 
7517710.889 +9.9268372955E-001 -3.3841627552E+000  +1.1406127751E-001 +7.3817178778E-001  +1.0882146839E-001 +5.6307389654E+000  +1.1113447029E+000 -9.9212733059E+000 
7642856.070 +9.4419421784E-001 +3.5722924183E+000  +1.0612571030E-001 -7.9661502909E-001  +9.6616052273E-002 +6.8024489437E+000  +9.2923409449E-001 -4.5319952207E+000 
7768001.252 +7.1701232994E-001 +1.8615599977E+000  +9.8094105168E-002 -5.0873402625E+000  +9.7471133489E-002 +4.3629172461E+000  +9.0611578169E-001 -2.5038989731E+000 
7893146.433 +7.3839510467E-001 +4.8172665245E+000  +8.5883667623E-002 +3.8794960793E+000  +8.6503718497E-002 +3.1350096709E+000  +7.8736902002E-001 -2.6053003830E+000 
8018291.615 +6.5654336825E-001 +5.8320852315E+000  +8.9717244158E-002 -8.3545684857E+000  +8.4253761119E-002 +5.4543274783E-001  +7.0681954111E-001 -5.6174711786E+000 
8143436.796 +6.3890587195E-001 +9.0734864959E+000  +8.4666522265E-002 +9.5492790085E-001  +8.2779575312E-002 +8.8264255802E+000  +7.5220708959E-001 +7.9461707257E+000 
8268581.977 +6.9397918782E-001 +6.4451528957E+000  +8.3554298754E-002 +3.5830317834E+000  +7.9250132627E-002 +6.2140430989E+000  +6.7567918255E-001 -3.0981549173E+000 
8393727.159 +6.7310380976E-001 +8.9890245240E+000  +8.5171622462E-002 -4.3139745999E+000  +8.4450416311E-002 +3.1867942746E+000  +6.2841643945E-001 +1.6321332752E+000 
8518872.340 +5.9282489142E-001 +1.3386034407E+001  +7.9511293967E-002 -1.6379007939E+000  +7.9224183042E-002 +8.8029164840E+000  +6.4492889189E-001 +6.3678307575E+000 
8644017.522 +6.0338435258E-001 +1.5306315046E+001  +7.7425382192E-002 -2.1305698980E+000  +7.8810981775E-002 +1.1194414801E+001  +6.3222774616E-001 +2.8286185740E+000 
8769162.703 +4.9384168235E-001 +8.9282537663E+000  +8.7065132671E-002 -4.0866120200E+000  +8.0821720134E-002 +1.1011888481E+001  +5.9697846088E-001 +9.1229213424E-001 
8894307.885 +4.9708535822E-001 +6.1896331694E+000  +8.5715475743E-002 -3.2485347446E+000  +8.3589332446E-002 +1.0210639590E+001  +5.6235641378E-001 +9.5115732926E-001 
9019453.066 +4.9343922081E-001 +1.3998354334E+001  +7.9716963570E-002 -2.9525097160E+000  +7.6400400132E-002 +9.5592887738E+000  +5.8521689748E-001 +5.1348977149E-001 
9144598.248 +5.0590197657E-001 +8.4989259463E+000  +7.8948898773E-002 -3.9986560838E+000  +7.7966940567E-002 +1.2083828662E+001  +5.6791657163E-001 -4.7830028060E-001 
9269743.429 +4.6266269619E-001 +9.3554027664E+000  +7.5283623309E-002 -7.1369144844E+000  +7.9118582656E-002 +1.0908382110E+001  +5.7779270080E-001 -1.0577804911E+000 
9394888.611 +4.9039051202E-001 +3.1587658437E+000  +7.9927790130E-002 -5.4520400465E+000  +7.5901875347E-002 +1.1100600917E+001  +5.1351002985E-001 +2.6369565933E+000 
9520033.792 +4.7979917775E-001 +7.9185448688E+000  +8.0811851794E-002 -5.3089470426E+000  +7.4763420230E-002 +1.1777350957E+001  +5.1888523542E-001 -8.1128159251E-001 
9645178.974 +4.3801772557E-001 +7.8828055930E+000  +7.8332524555E-002 -5.1207871606E+000  +7.8616720344E-002 +1.2532292017E+001  +5.0475914414E-001 -4.1334178177E+000 
9770324.155 +4.4958566059E-001 -7.1890552878E-001  +7.8743554356E-002 -3.3441550681E+000  +8.0163340091E-002 +1.2595473207E+001  +4.7862153263E-001 -3.6218190542E+000 
9895469.337 +4.7834095440E-001 -8.9656673824E-001  +7.9980363176E-002 -1.6952840401E+000  +8.1223404462E-002 +1.1819134192E+001  +4.7682665714E-001 -1.4585176224E+000 
10020614.518 +4.7288374147E-001 +2.7241636135E-001  +8.2337938909E-002 -1.7230885046E+000  +7.9345242367E-002 +1.3975791418E+001  +5.2001634073E-001 -9.0331592268E+000 
10145759.700 +5.0564358604E-001 +3.1921725581E-001  +8.1037846701E-002 -4.5756619565E+000  +8.0660483483E-002 +1.3760197942E+001  +4.7342353987E-001 +1.2386505274E+000 
10270904.881 +4.8748786347E-001 +7.2849799856E+000  +7.7211954762E-002 -2.5389462922E+000  +7.7345583633E-002 +1.1206168562E+001  +4.9000622295E-001 -2.6547239532E-001 
10396050.063 +4.5069887667E-001 +7.1030379036E+000  +8.1478568054E-002 -3.8805292431E+000  +8.0937346220E-002 +1.1527750976E+001  +5.1427134382E-001 -4.5133569402E+000 
10521195.244 +4.7147832875E-001 +5.4321914404E+000  +8.3285285893E-002 -3.2771328176E+000  +8.0762495950E-002 +1.3447263086E+001  +5.0676832863E-001 +2.0554733053E-001 
10646340.426 +5.2330318671E-001 +8.1278162797E+000  +8.4111071578E-002 -2.3216846358E-002  +8.2053357019E-002 +1.3835757529E+001  +4.9956744721E-001 +2.4326881998E+000 
10771485.607 +5.1159634205E-001 +8.0351097219E+000  +8.2014072697E-002 +1.5153981567E-001  +8.0754208788E-002 +1.2986848382E+001  +4.8569982355E-001 +3.5579039810E+000 
10896630.788 +4.6253639434E-001 +8.6273451394E+000  +8.1856095342E-002 -1.7936708075E+000  +8.2066595457E-002 +1.4029589787E+001  +5.3095987081E-001 +3.4975939861E+000 
11021775.970 +4.9216823767E-001 +1.0468694620E+001  +8.4745832249E-002 -9.9266700422E-001  +8.3792323451E-002 +1.3678405074E+001  +5.2734646696E-001 +2.3184943094E+000 
11146921.151 +5.2851457934E-001 +8.3389593973E+000  +8.3357586374E-002 -1.9052254797E-001  +8.4292239404E-002 +1.4333320097E+001  +5.3530097672E-001 +5.5373493142E+000 
11272066.333 +5.3010449696E-001 +8.4809441560E+000  +8.5466927311E-002 -6.4497704131E-001  +8.5301286775E-002 +1.2189166352E+001  +5.6305904824E-001 -2.7646862574E+000 
11397211.514 +5.3347869382E-001 +7.6124699311E+000  +8.6155688997E-002 +2.1726931629E-002  +8.5110563833E-002 +1.3111214111E+001  +5.5925010988E-001 +8.6404998390E-001 
11522356.696 +5.9478538382E-001 +8.2430215458E+000  +8.6494021068E-002 +1.6089555799E+000  +8.6250491610E-002 +1.3237602161E+001  +5.5456467974E-001 +2.3222998104E+000 
11647501.877 +5.7230160253E-001 +6.7418470065E+000  +8.9771561161E-002 +1.9644057349E+000  +8.7366065513E-002 +1.1537789542E+001  +5.6227132072E-001 +6.1296281450E-002 
11772647.059 +5.5944531467E-001 +8.5310212723E+000  +8.8590181119E-002 +2.0627422396E+000  +8.6268985354E-002 +1.4634574464E+001  +5.9044154765E-001 +4.1440042595E+000 
11897792.240 +5.4950939812E-001 +7.5437730250E+000  +8.9352764194E-002 +4.7492921129E-001  +8.9854424201E-002 +1.1123717610E+001  +5.7012710860E-001 +2.7326281962E+000 
12022937.422 +6.0151829837E-001 +7.1794751096E+000  +9.2631117322E-002 +6.1271795081E-002  +8.9312607179E-002 +9.8933734858E+000  +5.5374754952E-001 +6.4804899875E-001 
12148082.603 +5.9737996631E-001 +7.1949501174E+000  +9.0543466600E-002 +1.6387526019E+000  +9.0771379153E-002 +1.0956063675E+001  +6.2218539993E-001 +1.6766059349E+000 
12273227.785 +6.2602094471E-001 +6.4597107291E+000  +9.2843466745E-002 +2.6533940675E+000  +9.1630883278E-002 +1.1814043099E+001  +6.3235604906E-001 +1.8342396154E+000 
12398372.966 +6.4467328380E-001 +5.7576784193E+000  +9.2819086375E-002 +2.9495457621E+000  +9.3392379200E-002 +1.0222361657E+001  +6.3493947310E-001 +8.5523144531E-001 
12523518.148 +6.4510346511E-001 +3.0569719709E+000  +9.4491174363E-002 +2.8049624950E+000  +9.3942251754E-002 +1.0491605514E+001  +6.6123066382E-001 +2.0086748957E+000 
12648663.329 +6.6309098189E-001 +4.5007562438E+000  +9.8431448311E-002 +3.3160603304E+000  +9.5613976947E-002 +9.3306706001E+000  +6.7698393545E-001 -1.0627354576E+000 
12773808.511 +6.6106497994E-001 +9.6498235104E-001  +9.6675818491E-002 +2.8457818522E+000  +9.5464437993E-002 +8.4332743813E+000  +6.7095218813E-001 +4.2093655331E-001 
12898953.692 +6.5113354447E-001 +2.0337380943E+000  +9.8331010450E-002 +2.6356097638E+000  +9.5401783919E-002 +7.4862909317E+000  +6.9871025726E-001 -2.1056029702E+000 
13024098.874 +6.9570519964E-001 +1.8132320933E+000  +9.8885307434E-002 +3.2955437443E+000  +9.8575736105E-002 +7.8114663896E+000  +7.1172330289E-001 -1.9596678396E+000 
13149244.055 +6.8530672448E-001 +3.1876891689E-001  +9.9295874596E-002 +1.5790126578E+000  +9.8678624046E-002 +6.1826165252E+000  +7.3096357128E-001 -8.0710375115E-001 
13274389.237 +7.4091482375E-001 -1.3996996231E+000  +1.0174956909E-001 +2.8651079252E+000  +9.9998567419E-002 +6.7669495538E+000  +7.1694921975E-001 -1.0223854502E+000 
13399534.418 +7.5421742609E-001 -9.5747946725E-002  +1.0343336429E-001 +3.4021152373E+000  +9.9422453863E-002 +7.1614745998E+000  +7.4424146737E-001 -1.7361407490E+000 
13524679.599 +7.6276251045E-001 -2.0258488877E+000  +1.0194648693E-001 +2.3877207218E+000  +1.0122699969E-001 +5.4256934834E+000  +7.6936843358E-001 -1.5652546225E+000 
13649824.781 +7.5810467643E-001 -3.4191995752E+000  +1.0327498656E-001 +3.1931777828E+000  +1.0208786702E-001 +5.3963374061E+000  +7.7225091530E-001 -1.7186596410E+000 
13774969.962 +7.7747303850E-001 -1.5541145429E+000  +1.0373497595E-001 +3.5305008446E+000  +1.0269722617E-001 +3.9670757454E+000  +7.9106586780E-001 -3.2240343347E+000 
13900115.144 +8.0018136257E-001 -4.6150673622E+000  +1.0468544037E-001 +2.6111950384E+000  +1.0506582030E-001 +4.5901313486E+000  +8.0899805079E-001 -4.0032387961E+000 
14025260.325 +8.3436889614E-001 -4.1839414706E+000  +1.0510169819E-001 +2.7319847166E+000  +1.0402085275E-001 +4.5229067684E+000  +8.5683436264E-001 -3.9072598576E+000 
14150405.507 +8.1770321116E-001 -5.1534044468E+000  +1.0532857657E-001 +2.1101255156E+000  +1.0554709086E-001 +2.6928968376E+000  +8.3269137752E-001 -4.3746054621E+000 
14275550.688 +8.5435391755E-001 -5.5891463232E+000  +1.0692433581E-001 +1.4314233722E+000  +1.0513455029E-001 +2.9899710394E+000  +8.6567268477E-001 -4.7452539183E+000 
14400695.870 +8.7204264661E-001 -6.1359530168E+000  +1.0642769992E-001 +2.3795259027E+000  +1.0548337846E-001 +2.4040222947E+000  +9.0790151459E-001 -4.9829332316E+000 
