!  2-Port S-parameters saved by WinCal
! VAR MeasName=S-Parameters (CALIBRATED_DATA) read from VNA (P5004A)
! VAR MeasDate=28/08/2024 17:00:20
! VAR NAME=S2_r9c9_RESET4_9k-100M_2
! VAR FILENAME=S2_r9c9_RESET4_9k-100M_2.S2P
! VAR DATE=28/08/2024 17:00:20
! VAR PHYS_PORTS=1,2
! VAR ObjTypeName=DATASET
! VAR IndexType=Frequency
!
# Hz S MA R 50
9000.000 +8.7185100000E-002 -1.6563585882E+002  +1.0310668343E-002 +2.5512726658E+001  +2.1017783577E-002 -1.7740743018E+002  +2.2146328716E-001 -1.2995640884E+002 
134145.181 +1.1144517734E-001 +1.6939103221E+002  +4.4113761089E-004 +7.8501817360E+001  +7.1049456796E-005 +9.8787317806E+001  +2.3841349253E-001 -1.7083223608E+002 
259290.363 +1.1214454029E-001 +1.6980311546E+002  +5.9547170849E-004 -6.2043919233E+001  +8.5506088112E-004 -2.3094722358E+001  +2.4641123226E-001 -1.6890512499E+002 
384435.544 +1.1375711223E-001 +1.7053759636E+002  +5.0369099131E-004 +7.9400647094E+001  +7.9276847965E-004 +5.6215241576E+001  +2.5110662454E-001 -1.6899299645E+002 
509580.726 +1.1467998544E-001 +1.7166764595E+002  +2.4461977897E-004 -5.6558265433E+001  +1.1095397931E-003 -1.4273409243E+002  +2.5221727357E-001 -1.6491851557E+002 
634725.907 +1.1466623120E-001 +1.7080500653E+002  +5.1691254792E-004 -1.3075205318E+002  +6.6846114785E-004 -1.5774829199E+002  +2.4939141583E-001 -1.6547880045E+002 
759871.089 +1.2130938293E-001 +1.7129175141E+002  +3.4585084834E-004 -3.1244586443E+000  +8.6042839609E-004 +9.7303889938E+001  +2.5006295480E-001 -1.6672032310E+002 
885016.270 +1.2142909867E-001 +1.6927839488E+002  +3.6472801976E-004 +7.2783455255E+001  +2.4068612577E-004 -1.7637361227E+002  +2.4742468101E-001 -1.6678551492E+002 
1010161.452 +1.1894665097E-001 +1.6877185586E+002  +4.9595538670E-004 +1.7174255973E+002  +6.5332628013E-004 -3.0960879791E+001  +2.1184705687E-001 -1.6539596243E+002 
1135306.633 +1.1688701185E-001 +1.6843622944E+002  +7.8545653688E-004 -4.5627963301E+001  +1.2126136225E-003 +8.3352854356E+001  +2.0178408763E-001 -1.7443559251E+002 
1260451.815 +1.2079631240E-001 +1.7033376698E+002  +2.0541746063E-003 -2.4704418558E+001  +1.7978581144E-003 -2.5700617748E+001  +2.3010948686E-001 -1.5648494104E+002 
1385596.996 +1.2573741274E-001 +1.7274387215E+002  +1.1108936719E-003 +2.3145307912E+001  +1.6940897041E-003 +1.1143320790E+002  +2.5684199889E-001 -1.6023851813E+002 
1510742.178 +1.2727035581E-001 +1.7130640448E+002  +3.9712555549E-004 +4.3700357528E+001  +1.7304543576E-003 -3.6096678768E+001  +2.6163805447E-001 -1.5962339624E+002 
1635887.359 +1.3049093117E-001 +1.7058917988E+002  +7.4004934628E-004 -8.0140272272E+001  +6.3269008246E-004 +1.7932162528E+002  +2.5770234920E-001 -1.5385461648E+002 
1761032.541 +1.3076103842E-001 +1.6960471364E+002  +5.8779197311E-004 +1.2545911892E+002  +3.2041088679E-003 +1.0690930816E+002  +2.3107229211E-001 -1.4741872341E+002 
1886177.722 +1.2908681732E-001 +1.6836148948E+002  +1.3291286778E-003 +5.9043366203E+001  +4.3093027239E-004 -6.4037539683E+001  +2.2336211015E-001 -1.6411402998E+002 
2011322.904 +1.2395300766E-001 +1.6483046051E+002  +9.2497792138E-004 +3.5071891642E+001  +1.0186023647E-003 +2.4016158632E+001  +1.5051488231E-001 -1.5915024202E+002 
2136468.085 +1.2974163354E-001 +1.6564478506E+002  +3.4920046850E-003 -1.1759665184E+002  +6.7581321754E-003 -1.0860417574E+002  +1.2183670627E-001 -1.4653485087E+002 
2261613.267 +1.3226862835E-001 +1.6528497531E+002  +1.0606730080E-003 -1.3140024048E+002  +1.3333743536E-003 -1.0136096998E+002  +2.0500908891E-001 -1.7540124067E+002 
2386758.448 +1.2613160621E-001 +1.6437483505E+002  +3.7018592714E-003 +2.6352196709E+001  +2.8543667557E-003 +4.8990201618E+001  +1.6607255971E-001 -1.6983775705E+002 
2511903.630 +1.3521438865E-001 +1.6286532951E+002  +7.2581035400E-003 +1.0280861069E+002  +3.7771414123E-003 -1.2729152329E+002  +1.9628873294E-001 +1.5459015185E+002 
2637048.811 +1.0730156465E-001 +1.7066880554E+002  +3.6547748714E-003 +1.6126812673E+002  +9.5263720290E-003 -7.1317930155E+001  +1.1335180285E-001 -1.7896954041E+002 
2762193.992 +9.7782427733E-002 +1.6804789677E+002  +5.2683191767E-003 -3.2177343438E+001  +1.2747579296E-002 -1.4888848546E+002  +1.8661961779E-001 -6.4726211941E+001 
2887339.174 +8.8001268552E-002 +1.6682768681E+002  +1.9680289323E-002 -8.2525603456E+000  +7.3366336968E-003 +9.7801830955E+001  +1.4556028426E-001 -9.1087439741E+001 
3012484.355 +1.2833641550E-001 +1.6629925466E+002  +7.5982864809E-003 +1.7764494477E+002  +9.3903623254E-003 -1.6591709441E+002  +4.2205763651E-001 -3.4877049772E+001 
3137629.537 +8.3118692449E-002 +1.7996522502E+002  +1.6737596976E-002 -6.6771936418E+001  +1.1387943216E-002 +1.4490302965E+002  +4.0244105706E-001 -7.5404747215E+001 
3262774.718 +1.1092744400E-001 +1.6583860030E+002  +4.9539335722E-003 -2.3125053554E+001  +6.0759442209E-003 +7.1799863111E+000  +1.4801558598E-001 +9.4001666360E+001 
3387919.900 +1.3448709788E-001 +1.7223215187E+002  +1.1703674119E-002 +1.4633138521E+002  +3.0482298810E-003 -1.6343231004E+002  +4.0980934670E-001 -1.0571403689E+001 
3513065.081 +1.7122598107E-001 +1.5419068853E+002  +1.3736163836E-002 +8.5161599361E+001  +4.7403447244E-003 -1.9103440078E+001  +3.9881963016E-001 -7.9829954480E+000 
3638210.263 +1.6989646231E-001 +1.5047026096E+002  +3.9048960065E-003 -1.9718109380E+001  +3.1112602342E-003 +9.2618171902E+001  +4.8031330222E-001 +1.5811085952E+002 
3763355.444 +1.8324495497E-001 +1.4033275493E+002  +7.7485921927E-003 +9.1089790399E-002  +1.7819416565E-002 +1.2598144902E+002  +5.7877579259E-001 +1.0040965183E+002 
3888500.626 +1.8401301817E-001 +1.5362856347E+002  +8.6911878852E-003 +1.4987583522E+002  +7.5623646302E-003 +1.3421071350E+002  +1.7065672902E-001 +1.1810250461E+002 
4013645.807 +1.7572695111E-001 +1.5450342772E+002  +1.0298311462E-002 +1.7300574493E+001  +1.2152989241E-002 -5.4659506649E+000  +1.8436638905E-001 +9.1744262546E+001 
4138790.989 +1.4524577175E-001 +1.4933008920E+002  +7.0762509414E-003 -1.5822621988E+001  +3.1828957011E-003 +8.8326191384E+001  +2.9586299645E-001 +1.3366917490E+002 
4263936.170 +1.7543540992E-001 +1.3853523110E+002  +2.3428360891E-002 -1.4828451392E+002  +1.6099724634E-002 -1.1487418644E+002  +7.5028001667E-001 +8.9674682256E+001 
4389081.352 +1.9988740861E-001 +1.4074853571E+002  +1.7093073960E-002 -1.0984945549E+002  +6.3308717815E-003 -1.6510513888E+002  +6.2097770280E-001 +1.1351287739E+002 
4514226.533 +2.7274063401E-001 +1.3965980733E+002  +2.7243041784E-003 +1.3598903806E+002  +1.2932628705E-002 -3.2525135476E+001  +1.9294725094E+000 +9.5719712169E+001 
4639371.715 +3.9500125425E-001 +1.2537027815E+002  +8.1535172032E-002 -4.1484914985E+001  +2.2329449341E-002 +3.7243337971E+001  +1.4181003997E+000 +4.5941165895E+001 
4764516.896 +4.3850616255E-001 +1.3141695060E+002  +3.4733140346E-002 +9.4291768311E+001  +5.5541685510E-002 +1.7399580639E+001  +2.3429184106E+000 +1.3071249322E+002 
4889662.078 +6.1097902760E-001 +1.2379427069E+002  +3.3555232580E-002 +1.7660635172E+001  +7.6249616775E-002 -4.1865326651E+001  +2.4073561382E+000 -1.1488197252E+002 
5014807.259 +5.7661407742E-001 +1.0917305972E+002  +3.1448560369E-001 -6.5437523430E+001  +9.4876537499E-002 +1.4857364826E+002  +1.1709434567E+001 +9.4294362442E+001 
5139952.441 +3.9141058044E-001 +1.1825542003E+002  +2.0145713456E-002 +1.5943676870E+002  +2.7796747687E-002 +1.7742057851E+002  +1.2211801352E+000 +8.2425397790E+001 
5265097.622 +3.9961014982E-001 +1.2840906511E+002  +1.4163806484E-002 -1.5085302003E+002  +3.9781837020E-003 -9.5425094169E+001  +1.5313782880E+000 +1.1006042873E+002 
5390242.804 +3.6532386472E-001 +1.3438523994E+002  +2.2064836712E-002 -1.7652497529E+002  +1.2351809980E-002 +1.6473907509E+002  +1.8608980069E+000 +8.2124971370E+001 
5515387.985 +4.0779979187E-001 +1.2850090932E+002  +8.7310935595E-003 +1.2647071844E+002  +1.3187497996E-002 -3.8861052843E+001  +9.3439808957E-001 +9.9811439653E+001 
5640533.166 +3.9760763374E-001 +1.2957118988E+002  +1.8241288365E-002 -8.5710271422E+001  +8.9561900970E-003 -9.8448469585E+001  +2.8668106906E+000 +9.5796452106E+001 
5765678.348 +6.7731099024E-001 +1.2246890874E+002  +2.1112774258E-002 -1.0385210235E+002  +1.1678322728E-002 +5.9283343171E+001  +1.5621504347E+000 +8.5136096267E+001 
5890823.529 +5.8057889790E-001 +1.1395643675E+002  +8.6705287618E-003 +8.1292415373E+001  +1.6659619267E-002 +9.8323624531E+000  +2.0527894549E+000 +7.8565865514E+001 
6015968.711 +7.2322164086E-001 +1.0575751043E+002  +1.9178068271E-002 +7.2050956877E+000  +3.2803965703E-002 +1.5993692692E+002  +9.7053680175E-001 +4.6511639007E+001 
6141113.892 +6.9141739901E-001 +1.1152982777E+002  +2.7358344411E-003 -1.8254049692E+001  +2.8050025487E-002 -1.6785340274E+002  +2.1662127839E+000 +6.2592779364E+000 
6266259.074 +7.7551797342E-001 +1.0072090099E+002  +9.4548741302E-003 +5.4149822009E+001  +1.4497943305E-002 -1.0927300842E+002  +1.4297598027E+000 +3.6689240500E+001 
6391404.255 +8.7714665778E-001 +9.7468699918E+001  +1.0794224645E-002 -8.4658057123E+001  +1.6368542274E-002 -1.5152215813E+002  +1.5366048567E+000 -4.5671612292E+000 
6516549.437 +1.3069791274E+000 +7.5374574042E+001  +3.9163421879E-002 +1.3040648098E+002  +2.8204969454E-002 -8.4909722884E+001  +9.6958511077E-001 +2.1714177101E+001 
6641694.618 +1.3765542769E+000 +6.2293174345E+001  +2.9834561448E-002 -6.3369338869E+001  +5.1422919540E-003 +8.7724879668E+001  +1.7533523077E+000 +3.5018158674E+000 
6766839.800 +1.3668427466E+000 +5.4815145511E+001  +1.5799190098E-002 -7.1287688382E+001  +1.5598424639E-002 +1.6575348524E+002  +1.1838368768E+000 +4.6370702323E+000 
6891984.981 +1.5911031755E+000 +3.3458915975E+001  +2.8920710843E-002 -1.5190959891E+002  +9.3791916590E-003 -1.3957221103E+002  +1.4264810408E+000 -2.8623592576E+000 
7017130.163 +1.7759207255E+000 +2.4198686355E+001  +1.2267228600E-002 +1.7686467474E+002  +7.2754997525E-003 +1.6751547565E+002  +1.2739996769E+000 -2.8747273346E+000 
7142275.344 +1.4107956489E+000 +1.9567618594E+001  +8.6240350993E-003 -2.5512043677E+001  +3.8695610503E-003 -1.5030867473E+002  +1.3574389782E+000 -9.5755306603E+000 
7267420.526 +1.4575869905E+000 +1.1235658006E+000  +1.4532558418E-002 +8.5740197226E+001  +1.0613856288E-002 -6.4857790079E+001  +1.3716525813E+000 -8.7358274086E+000 
7392565.707 +1.4045411258E+000 -9.7929061542E-001  +1.1409923732E-002 +1.3155179929E+001  +8.7503101741E-003 +1.1528756136E+002  +1.2296083726E+000 -6.0122955376E+000 
7517710.889 +1.2093257954E+000 -1.2013940480E+000  +9.7916826155E-003 -1.6878980246E+002  +2.2439347348E-003 +8.6639177655E+001  +1.1982084610E+000 -5.8608024598E+000 
7642856.070 +1.0265271082E+000 +1.6904205010E+000  +3.0869370792E-004 -9.4130662899E+001  +9.7131594681E-003 -9.4752900122E+001  +1.0018106356E+000 -5.1760259197E+000 
7768001.252 +8.5110300641E-001 +2.5452546006E+000  +9.1150821762E-003 +1.1133729774E+002  +8.4476343152E-003 +1.4702810028E+002  +9.9397886994E-001 +1.3834753436E+000 
7893146.433 +8.6069809797E-001 +2.8247763964E+000  +4.9728530734E-003 -1.5985767443E+002  +5.1123107176E-003 +2.0939517350E+001  +9.5301403113E-001 -5.3249940363E+000 
8018291.615 +7.9599047274E-001 +4.2393157791E+000  +1.0353950675E-002 +8.5675210493E+001  +1.0574857436E-003 +1.5159303722E+002  +8.4763996123E-001 -1.7670542302E+000 
8143436.796 +7.5554083114E-001 +3.5122445294E+000  +2.6597360988E-003 +1.2318562568E+002  +4.8188234777E-003 -3.4882647652E+001  +8.0721129699E-001 +1.5487483207E+000 
8268581.977 +5.8715926738E-001 +6.8578081419E+000  +6.4394439737E-003 -8.1169837090E+001  +1.0482221950E-003 -7.7216096979E+001  +7.5609376915E-001 +5.4162624811E+000 
8393727.159 +7.0623139573E-001 +7.2415477799E+000  +1.9224252998E-003 +9.4200719196E+001  +1.0181566181E-003 +1.7798299234E+002  +8.0917390317E-001 +6.1472806957E-001 
8518872.340 +6.7458503518E-001 +4.4669249218E+000  +1.9691558876E-003 -1.5919859032E+002  +2.8016756224E-003 -1.0578483671E+002  +6.8288686332E-001 +2.5298534120E+000 
8644017.522 +7.3518341531E-001 +7.1147749338E+000  +6.0275712231E-003 +8.1746698586E+001  +7.3380841493E-004 +4.5665652221E+001  +7.4843014016E-001 -1.3551697507E-001 
8769162.703 +6.7590985661E-001 +8.2896440608E+000  +3.7062925274E-003 +1.0837225724E+002  +4.7498077109E-003 +1.4958786572E+002  +7.2017998156E-001 +8.0147418980E-001 
8894307.885 +6.4507307915E-001 +3.6461275856E+000  +2.1232227024E-003 -1.4714641909E+002  +3.5404749823E-003 -6.4515730080E+000  +6.8989468136E-001 +2.9237055460E+000 
9019453.066 +6.4403928999E-001 +2.1533633422E+000  +3.3558663850E-003 +1.3884498592E+002  +3.6533002258E-003 +8.5879071915E+001  +6.1300743937E-001 +2.2583847287E+000 
9144598.248 +6.0464964164E-001 +7.4977247640E+000  +1.5479977232E-003 -1.3313092016E+001  +4.2130245086E-003 -3.1082560054E+001  +5.9400220581E-001 +7.2249438444E-001 
9269743.429 +5.7202222111E-001 +7.1437928172E+000  +2.4339592346E-003 -8.9314440581E+001  +1.9304778194E-003 -1.3324565003E+002  +5.9979336787E-001 +3.3832071975E+000 
9394888.611 +5.3289704750E-001 +5.3252916380E+000  +2.4020157534E-003 -8.3276071547E+001  +3.4656097231E-003 +1.4285240882E+002  +5.4703024320E-001 -4.9857138298E+000 
9520033.792 +5.5687574375E-001 +3.7593587013E+000  +3.4136204179E-003 -5.9681661473E+001  +4.7958195927E-003 -6.1263270573E+001  +5.8584511147E-001 -3.7455993692E+000 
9645178.974 +5.4085626859E-001 -8.2659703358E-002  +1.7790191414E-003 +7.9998222336E+001  +1.8566390923E-003 +1.0588455998E+002  +6.0456522647E-001 -1.1062126249E+000 
9770324.155 +5.1254786060E-001 +3.2485822843E+000  +2.2907183049E-003 +1.6351892213E+002  +3.5791888862E-003 -1.3470158089E+002  +5.6982600914E-001 -6.1513478697E+000 
9895469.337 +5.1522657515E-001 -2.1645138983E+000  +4.7268812899E-003 +1.7345820959E+002  +2.5412419308E-003 +2.7578193398E+001  +5.6457601187E-001 -4.2674653756E+000 
10020614.518 +5.4283572204E-001 +1.8981258684E+000  +3.5930448236E-003 -8.1937163946E+000  +4.6544242090E-003 +2.7878793427E+001  +6.0295505857E-001 -3.5843448860E+000 
10145759.700 +5.8456588148E-001 +4.9094951093E+000  +4.7184123859E-004 -1.3015211143E+002  +1.2088203930E-003 -9.4063643478E+001  +5.8170244713E-001 -4.7780034077E+000 
10270904.881 +5.4268579467E-001 +9.6125997140E+000  +8.5710511077E-004 +8.0403664428E+001  +2.4137262428E-003 +6.8622557487E+001  +5.7813493679E-001 -1.2603805847E+000 
10396050.063 +5.5288902959E-001 +5.9709814554E+000  +1.0467344606E-003 -1.5766450626E+002  +1.0993236731E-003 +4.8937927121E+001  +5.7999496874E-001 -1.4717064649E+000 
10521195.244 +5.6701020508E-001 +4.7841221340E+000  +2.1653020218E-003 +6.4647078546E+001  +3.4302164275E-003 -1.4890445645E+002  +5.5818507954E-001 -2.0775392090E+000 
10646340.426 +5.6677166437E-001 +8.5039990201E+000  +4.4858828143E-003 +3.3709025315E+001  +5.1343732615E-003 -1.0279619584E+002  +5.9663904780E-001 -1.1714636766E+000 
10771485.607 +5.7127281215E-001 +8.4654866250E+000  +2.8504191264E-003 +1.4235022772E+001  +1.3628693899E-003 +3.3391354011E+001  +6.1054047276E-001 -3.1865314364E+000 
10896630.788 +5.6974104240E-001 +8.1889360824E+000  +9.8804294519E-005 +1.0021902358E+002  +1.3687527712E-003 -2.1586388025E+001  +5.6560472167E-001 +1.7944559113E+000 
11021775.970 +6.0772879491E-001 +6.1082416654E+000  +8.2948449038E-004 -7.2675045556E+000  +2.0972048740E-003 +1.0478426569E+002  +5.8104974076E-001 -1.6208577326E-001 
11146921.151 +6.0481281489E-001 +6.9615534971E+000  +2.6453612831E-003 +1.5973095768E+001  +1.3820184429E-003 -3.7166839278E+001  +6.2510673893E-001 +2.2980879070E+000 
11272066.333 +6.0376210484E-001 +7.7715650724E+000  +2.4304594140E-003 +1.7919875460E+002  +2.3921729157E-003 -9.3949699293E+001  +6.6226474787E-001 +1.6825890291E+000 
11397211.514 +6.0561513531E-001 +5.5863898636E+000  +1.2467358718E-003 +9.2180947266E+001  +1.3952298628E-003 -1.3761164288E+002  +6.4350873171E-001 +1.6540850284E-001 
11522356.696 +6.3399842740E-001 +2.8701102863E+000  +1.2955062592E-003 +1.7984441279E+002  +4.6675959489E-004 -4.9415615404E+001  +6.5236924150E-001 +3.1207065891E+000 
11647501.877 +6.0876062918E-001 +6.2963151615E+000  +1.0647716742E-003 -6.5812830991E+001  +1.9901849037E-003 -1.1062994932E+001  +6.5872112414E-001 +2.6654036450E-001 
11772647.059 +6.4339696339E-001 +7.2929419220E+000  +1.2952401478E-003 -4.7405646138E+001  +2.1037281000E-003 -1.0070434679E+002  +6.6279023469E-001 +4.0994963889E+000 
11897792.240 +6.5752568189E-001 +1.8169574027E+000  +7.0364385035E-004 +1.2555312468E+001  +1.4192171101E-003 -1.2830046047E+002  +6.7818847014E-001 +3.7542350148E+000 
12022937.422 +6.8363403045E-001 +6.7484539938E+000  +5.3637140488E-004 +1.4859476324E+002  +2.9935485492E-003 +7.9912268138E+001  +6.9812472981E-001 +7.0688224905E-001 
12148082.603 +6.8727056621E-001 +1.8068117878E+000  +1.4393651210E-003 +1.5687054767E+002  +5.6358720627E-004 +1.2718192370E+002  +7.0743335607E-001 +2.8147399341E+000 
12273227.785 +7.0019402248E-001 +7.0023095161E+000  +1.2884464345E-003 -5.3965281597E+001  +1.5449219016E-003 +7.1415138810E+000  +6.9148230663E-001 -4.0443696127E-001 
12398372.966 +7.2617344739E-001 +4.0918623944E+000  +6.1185042324E-004 +6.3424071999E+001  +1.5991579009E-003 +4.9214587839E+001  +7.1387343549E-001 -5.4650833615E-001 
12523518.148 +7.2055949888E-001 +4.3593562951E+000  +1.2476047943E-003 -9.2376274672E+001  +2.2697971933E-003 +3.5666321524E+001  +7.4873388300E-001 +3.0537917516E+000 
12648663.329 +7.4161750711E-001 +3.5032232692E+000  +1.9389608034E-004 -1.5552314619E+002  +2.0552397016E-003 -7.0488666763E+001  +7.5186186799E-001 +1.1216321351E+000 
12773808.511 +7.4871496845E-001 +6.0390797739E-001  +5.8256559602E-004 -1.0577957726E+002  +2.0176080706E-003 -5.9009600632E+001  +7.8900812154E-001 -1.2499102539E+000 
12898953.692 +7.7380539711E-001 +1.8113881650E+000  +1.1907527375E-003 +1.6249017614E+002  +7.5199859397E-004 -1.5743849485E+002  +7.8310514859E-001 -3.0993969510E-001 
13024098.874 +8.0965688732E-001 +2.4336279195E+000  +4.0564064905E-004 -3.2393185707E+001  +1.6977271037E-003 -1.4148769960E+002  +8.1733962640E-001 +8.3192252689E-001 
13149244.055 +8.2682281792E-001 +1.9661846871E+000  +1.3564618574E-003 -1.0498441548E+002  +1.2662726385E-003 -9.8854061264E+001  +8.1198407069E-001 -7.2551515917E-001 
13274389.237 +8.0247551039E-001 +7.9683093261E-001  +7.4652709960E-004 +1.6631604996E+002  +1.9731416644E-003 +1.6253431837E+002  +8.4500482333E-001 -1.6744213023E+000 
13399534.418 +8.5673336729E-001 -1.3386296618E+000  +1.4100565073E-003 -2.4914130218E+001  +1.6379509024E-003 +1.5560304669E+002  +8.5017707787E-001 -2.4081273123E+000 
13524679.599 +8.5094594236E-001 -6.7607680760E-001  +2.4969230760E-003 +1.6433665311E+002  +6.1645489649E-004 -4.9523747508E+001  +8.5418849109E-001 -2.0156130418E+000 
13649824.781 +8.9796581904E-001 -2.8801737160E+000  +1.8814746186E-003 +7.3207783544E+001  +2.5888218955E-003 +1.5290109008E+001  +8.8742217250E-001 -1.0367838222E+000 
13774969.962 +8.9249146993E-001 -2.0257866817E+000  +2.1572706098E-003 -1.0112767411E+002  +3.7008712555E-004 -1.5604128592E+001  +8.8344399553E-001 -2.3128980862E+000 
13900115.144 +9.0936948649E-001 -3.4907912516E+000  +1.6516744125E-003 -3.8306915177E-002  +7.5084835622E-004 +4.8836491183E+001  +9.1057286441E-001 -2.9386177032E+000 
14025260.325 +9.3021381091E-001 -2.8110362578E+000  +1.8228624655E-003 -1.7127129536E+002  +4.6070805528E-004 -9.6691225399E+000  +9.2823624780E-001 -3.9180680343E+000 
14150405.507 +9.4883638942E-001 -4.3698390315E+000  +9.2135120883E-004 +7.2064210027E+001  +5.4973985552E-004 +3.2440022003E+000  +9.5542572483E-001 -3.1366315793E+000 
14275550.688 +9.6987130856E-001 -3.9225391057E+000  +5.3756329222E-004 +6.0150662129E+001  +1.5239175814E-003 +5.9457835726E+001  +9.6172395852E-001 -2.9709592765E+000 
14400695.870 +9.7000871687E-001 -4.8824076229E+000  +1.5325354301E-003 -1.1039372399E+002  +1.2072239294E-003 +1.6360550878E+002  +9.9444615909E-001 -5.0682228481E+000 
