!  2-Port S-parameters saved by WinCal
! VAR MeasName=S-Parameters (CALIBRATED_DATA) read from VNA (P5004A)
! VAR MeasDate=29/08/2024 10:07:43
! VAR NAME=S2_r9c1_RESET2_9k-100M_1
! VAR FILENAME=S2_r9c1_RESET2_9k-100M_1.S2P
! VAR DATE=29/08/2024 10:07:43
! VAR PHYS_PORTS=1,2
! VAR ObjTypeName=DATASET
! VAR IndexType=Frequency
!
# Hz S MA R 50
9000.000 +1.0254581360E-001 -1.6788738688E+002  +3.2104274499E-003 -1.2678233098E+002  +1.2567967897E-002 +8.0041327438E-001  +2.9639414822E-001 -1.3859221599E+002 
134145.181 +1.1097886189E-001 +1.6980058535E+002  +5.1874152465E-004 -3.7458172135E+001  +1.6297428408E-004 -7.6577066042E+001  +2.4210929161E-001 -1.7165313347E+002 
259290.363 +1.1221529118E-001 +1.6968523541E+002  +5.5752087322E-004 -1.0985649749E+002  +2.5590742348E-004 -1.5874444912E+002  +2.3634756934E-001 -1.6875289085E+002 
384435.544 +1.1366280357E-001 +1.7007868844E+002  +6.8205405543E-004 -1.5096993419E+002  +8.7372131041E-004 +8.5747634167E+001  +2.4713828808E-001 -1.6933417780E+002 
509580.726 +1.1372855303E-001 +1.7084634334E+002  +1.6030760731E-004 -1.3859707683E+000  +9.5418479588E-005 -1.3792304546E+002  +2.4927204538E-001 -1.6697877832E+002 
634725.907 +1.1517598356E-001 +1.7345073570E+002  +6.2426277000E-004 +1.7151466612E+002  +1.1969128426E-003 -8.5560568927E+000  +2.5726655177E-001 -1.6650292293E+002 
759871.089 +1.1907300117E-001 +1.7045064161E+002  +7.5117790297E-005 -9.5425516870E+001  +4.5578589804E-004 -1.2212478980E+002  +2.4997317998E-001 -1.6721718178E+002 
885016.270 +1.2148095014E-001 +1.6930748691E+002  +6.1895198104E-004 -7.2013555961E+001  +5.2850045981E-004 -1.7808069187E+002  +2.4402885507E-001 -1.6600665071E+002 
1010161.452 +1.1631192663E-001 +1.6947461708E+002  +1.6476602941E-003 -6.5969029428E+001  +7.4653992176E-004 +5.4459819612E+001  +2.2121243523E-001 -1.6798628066E+002 
1135306.633 +1.1962788268E-001 +1.6790292482E+002  +1.2391803355E-003 -1.3214023695E+001  +1.0167661056E-003 +1.6811461771E+002  +2.0982752758E-001 -1.6603909744E+002 
1260451.815 +1.1743728497E-001 +1.7139988361E+002  +2.9554971273E-003 -2.8627259810E+001  +5.9553530235E-003 -1.7733437854E+002  +2.2283148116E-001 -1.5023884519E+002 
1385596.996 +1.2840228188E-001 +1.7221868644E+002  +4.4012683949E-004 +1.1839529544E+001  +6.4734575885E-004 +1.1776657800E+002  +2.4880153629E-001 -1.6092454337E+002 
1510742.178 +1.2809671353E-001 +1.7130989832E+002  +5.4011227801E-004 +4.1197551294E+001  +1.2844851720E-003 +1.4820789343E+002  +2.5291913432E-001 -1.5342401141E+002 
1635887.359 +1.2984363821E-001 +1.7188803352E+002  +3.4097999176E-004 -8.2184478906E+001  +3.5213470376E-004 -4.0782728245E+001  +2.3725438926E-001 -1.5706561675E+002 
1761032.541 +1.2596121061E-001 +1.7105075417E+002  +1.2057547683E-003 +2.5084152855E+001  +2.0463090640E-003 -1.5195371452E+002  +2.1446761474E-001 -1.5537410148E+002 
1886177.722 +1.3065214560E-001 +1.6892784372E+002  +1.9279695278E-003 +3.8801573638E+001  +3.9843916341E-003 -8.4979594144E+001  +1.7919060383E-001 -1.5595271865E+002 
2011322.904 +1.3313647550E-001 +1.6889502603E+002  +4.7546967785E-003 +7.6661761378E+001  +1.1567244179E-003 +1.0528246355E+002  +1.6161728248E-001 -1.6453613963E+002 
2136468.085 +1.2753526267E-001 +1.6954721404E+002  +3.4393936440E-003 +2.8758664254E+001  +1.0159357796E-002 -7.3338190486E+001  +1.7737083377E-001 -1.7103506657E+002 
2261613.267 +1.3521274690E-001 +1.6733618415E+002  +3.4275023263E-003 +8.0276972821E+001  +6.2784573944E-003 -7.6231185904E+001  +1.9397957331E-001 -1.6760763972E+002 
2386758.448 +1.3075191166E-001 +1.6617274076E+002  +1.0274284952E-002 +8.7542812233E+001  +7.3578815484E-003 -3.9110193955E+001  +2.0791175277E-001 +1.6928442450E+002 
2511903.630 +1.4324388476E-001 +1.6557092426E+002  +8.4083658593E-003 +5.5797686499E+001  +1.0350550969E-002 -5.9698106759E+001  +1.5630629712E-001 -1.6652369312E+002 
2637048.811 +1.3720279117E-001 +1.6136332081E+002  +2.7953246211E-002 +7.8907886157E+001  +2.9054659935E-002 -3.0914514937E+001  +1.1372609862E-001 +1.1462895793E+002 
2762193.992 +1.3367729266E-001 +1.7246988449E+002  +1.1364199381E-001 -4.5324287828E+001  +1.3017136694E-001 -1.7420940476E+002  +8.7926021912E-001 -8.0356298856E+001 
2887339.174 +1.1247784525E-001 +1.7585346747E+002  +6.3731297040E-002 +4.0354811579E+001  +5.6402844834E-002 -7.2151249341E+001  +2.4273840074E-001 +8.0634212219E+001 
3012484.355 +1.1871942324E-001 +1.6248243638E+002  +4.4495026781E-002 +2.0687097497E+001  +4.8356125443E-002 -8.5839470901E+001  +1.5684280810E-001 -5.1256188928E+001 
3137629.537 +1.1953926066E-001 +1.6195231465E+002  +2.7220077191E-002 +3.2960962235E+001  +3.1157860106E-002 -6.8993617950E+001  +4.8609780254E-002 -1.4630864279E+002 
3262774.718 +1.4773642871E-001 +1.7016808107E+002  +3.1390001330E-002 -2.6586844002E+001  +2.9094695047E-002 -1.1561146789E+002  +3.0750062248E-001 -7.2949990552E+001 
3387919.900 +1.2930790957E-001 +1.5523484376E+002  +3.4937136568E-002 +4.7293953788E+001  +3.3321509635E-002 -3.9648008231E+001  +9.9765567034E-002 +1.5937770447E+002 
3513065.081 +1.3742429386E-001 +1.5849198271E+002  +3.6024297894E-002 +7.4457397948E+001  +2.5726386568E-002 -1.8829412023E+001  +2.4457239095E-001 +1.3519992079E+002 
3638210.263 +1.6664443969E-001 +1.5452688238E+002  +4.4262676080E-002 +1.5736831621E+002  +6.1562859439E-002 +8.1748728140E+001  +9.8577835578E-001 +1.5546571747E+002 
3763355.444 +1.8452945628E-001 +1.4971390082E+002  +9.4514948806E-002 +7.0905251117E+001  +7.6707630000E-002 -1.4137133946E+000  +6.1029461876E-001 +4.5469090286E+001 
3888500.626 +1.7172675979E-001 +1.3326729916E+002  +8.1733032259E-002 +9.9682148208E+001  +8.5336258999E-002 +1.0342546169E+001  +3.5911281052E-001 +9.2856045402E+001 
4013645.807 +1.7343745911E-001 +1.5279616722E+002  +5.1054595831E-002 +9.4488272271E+001  +5.2139112644E-002 +2.3784567051E+001  +5.4654267262E-001 +1.2613513650E+002 
4138790.989 +1.8305862754E-001 +1.5325051590E+002  +3.7764480599E-002 +6.3172897954E+001  +3.9335292590E-002 -1.0602057996E+001  +1.2168508470E-001 +9.6666559680E+001 
4263936.170 +1.8847480900E-001 +1.4748818519E+002  +5.2835381231E-002 +1.2083075878E+002  +5.2141752499E-002 +4.3741333729E+001  +6.4219465849E-001 +1.4129173073E+002 
4389081.352 +2.0412909265E-001 +1.4677379547E+002  +5.3382299705E-002 +9.3086877054E+001  +4.4783199547E-002 +2.9171746134E+001  +4.6167116467E-001 +1.1458745101E+002 
4514226.533 +2.1491474113E-001 +1.4019223310E+002  +8.2881503801E-002 +6.0897551073E+001  +9.9817950187E-002 +1.3873918159E+001  +5.3898116983E-001 +5.5073471879E+001 
4639371.715 +2.4759731651E-001 +1.3751617446E+002  +1.0370475096E-001 +1.4394877848E+002  +7.5960470573E-002 +9.2756995690E+001  +1.1946485978E+000 +1.4205122535E+002 
4764516.896 +3.2889349970E-001 +1.3072070091E+002  +3.6123458759E-001 +1.5055051287E+002  +4.4344541581E-001 +1.0022256069E+002  +3.8326752075E+000 +1.2555181634E+002 
4889662.078 +2.2789439418E-001 +9.9298115779E+001  +4.5386727344E-001 -4.6484027435E+001  +4.6239332338E-001 -9.8343638793E+001  +2.6431227994E+000 -8.6565391389E+001 
5014807.259 +3.6842229195E-001 +1.2625567509E+002  +3.2810016263E-001 +9.9931038601E+001  +2.5612773757E-001 +5.5197616174E+001  +2.4387283112E+000 +6.9373226841E+001 
5139952.441 +4.0497679809E-001 +1.3309754168E+002  +3.3773434827E-001 +1.5902687182E+002  +3.1969101866E-001 +1.2426641513E+002  +3.4213613103E+000 +1.3902083847E+002 
5265097.622 +3.9353522188E-001 +1.3576972560E+002  +1.6386622923E-001 +1.4699341271E+002  +1.8922781491E-001 +1.1227049454E+002  +2.0928974959E+000 +1.3066357766E+002 
5390242.804 +3.8721537018E-001 +1.3360557723E+002  +1.6143372718E-001 +9.9383430789E+001  +1.6109600621E-001 +6.0865656160E+001  +1.6223245455E+000 +8.6600681500E+001 
5515387.985 +3.8147094902E-001 +1.3059303095E+002  +1.2592615172E-001 +1.1773175649E+002  +1.4459745416E-001 +7.5441305169E+001  +1.5643424962E+000 +1.1628809361E+002 
5640533.166 +3.8518912008E-001 +1.2657128341E+002  +1.7460142196E-001 +8.1365335470E+001  +1.9062778406E-001 +4.8382626279E+001  +1.8682384171E+000 +7.4560979960E+001 
5765678.348 +4.3380018048E-001 +1.3338543983E+002  +1.2389713734E-001 +7.7994126163E+001  +1.1017867272E-001 +4.4116061212E+001  +1.2205544196E+000 +7.2020739982E+001 
5890823.529 +5.2680075923E-001 +1.1652821162E+002  +2.7799807563E-001 +8.5490599304E+001  +2.8340467555E-001 +6.5052681567E+001  +2.4771211187E+000 +7.8384598039E+001 
6015968.711 +6.0917830803E-001 +1.2453918610E+002  +1.9548340613E-001 +8.3737880761E+001  +1.8991633685E-001 +5.5604185836E+001  +1.6801651802E+000 +5.8126444523E+001 
6141113.892 +6.6114870097E-001 +1.1014803857E+002  +1.8732553450E-001 +4.8718831308E+001  +2.0729774923E-001 +2.8573313394E+001  +1.2645420808E+000 +2.5744028947E+001 
6266259.074 +7.2127655209E-001 +1.1259601252E+002  +2.1635531500E-001 +5.2874914107E+001  +2.0484741610E-001 +3.1992659616E+001  +1.6487237233E+000 +2.6926533201E+001 
6391404.255 +7.6945294848E-001 +9.0938382694E+001  +2.5235267411E-001 +4.1850782424E+001  +2.2047839198E-001 +2.2522805765E+001  +1.5550461091E+000 +3.7426368026E+001 
6516549.437 +1.1215892279E+000 +7.3071641168E+001  +2.8221713579E-001 +3.3547939912E+001  +2.3273856121E-001 +2.0864030398E+001  +1.0078305475E+000 +1.3288849776E+001 
6641694.618 +1.2046580255E+000 +7.6470623169E+001  +2.2466079620E-001 +3.3186556306E+001  +2.6506451996E-001 +2.0936521303E+001  +1.2071786772E+000 +6.2667305137E-001 
6766839.800 +1.1458359178E+000 +6.2004859349E+001  +2.3063324630E-001 +2.2077924014E+001  +2.4052284670E-001 +1.5351768203E+001  +1.0886963430E+000 +5.3808227107E+000 
6891984.981 +1.4241232650E+000 +4.0016705946E+001  +2.5350975855E-001 +7.9391029272E+000  +2.4284159903E-001 +4.2321053885E+000  +1.2721633916E+000 -9.6721420395E+000 
7017130.163 +1.5862093084E+000 +1.8765234884E+001  +2.6140534148E-001 -1.9950359475E+000  +2.3092946940E-001 -2.8300045929E+000  +1.1796510839E+000 -1.6426917569E+001 
7142275.344 +1.1774710334E+000 +1.1212818670E+001  +2.0021952454E-001 -2.1917662772E+000  +1.9643957737E-001 -6.0543866460E+000  +1.2402726220E+000 -1.1121338949E+001 
7267420.526 +1.2442883819E+000 -3.8730609453E-001  +1.6362919550E-001 -6.3019902476E+000  +1.7213476035E-001 -5.0241426185E+000  +1.2023881817E+000 -1.1612922252E+001 
7392565.707 +1.0851164774E+000 -1.8040376568E+000  +1.4851834528E-001 +2.3001508929E+000  +1.3657700703E-001 +2.6870846750E+000  +1.0445422920E+000 -7.3354157075E+000 
7517710.889 +9.6422017625E-001 -1.7338157372E+000  +1.3258875870E-001 +4.0109869385E+000  +1.2626160173E-001 +9.8765089955E+000  +1.1773748793E+000 -1.3955013803E+000 
7642856.070 +9.8024326251E-001 +7.3338101539E+000  +1.1698412045E-001 +2.0994760150E+000  +1.2186944575E-001 +1.1034957435E+001  +9.3875440322E-001 -1.1900972120E+000 
7768001.252 +8.5480492705E-001 +1.9227955170E+000  +1.2149120388E-001 -1.3108385280E+000  +1.2417473408E-001 +7.8657375071E+000  +8.6348758008E-001 -9.2991553933E+000 
7893146.433 +8.5980056623E-001 +6.3680174862E+000  +1.1392920552E-001 +2.5025045159E+000  +1.0988576125E-001 +6.7256479721E+000  +7.8748516744E-001 +1.2933220892E+000 
8018291.615 +7.3994357469E-001 +1.3186523736E+001  +1.0985201526E-001 -1.0025148716E+000  +1.1256635864E-001 +8.7382740010E+000  +7.5307609827E-001 -3.0020090680E+000 
8143436.796 +6.0122814417E-001 +4.9856811977E+000  +1.0720986100E-001 -3.0048426021E+000  +1.0218892622E-001 +9.0393866031E+000  +6.9170248802E-001 +1.8584817158E-001 
8268581.977 +6.0258612139E-001 +1.0524520321E+001  +9.8680142448E-002 -1.5185457288E+000  +1.0084308100E-001 +6.9175027646E+000  +6.3677016686E-001 +3.8918894064E+000 
8393727.159 +6.0563388838E-001 +1.4700579741E+001  +1.0154762903E-001 -1.6973295634E+000  +9.8175735157E-002 +1.1865508469E+001  +6.3857511611E-001 +1.8987957821E+000 
8518872.340 +5.5145685684E-001 +1.4669511420E+001  +1.0009785729E-001 -2.6872551277E+000  +9.7446643965E-002 +7.7658892138E+000  +5.7232320958E-001 -6.6622085353E-001 
8644017.522 +5.8306361043E-001 +1.3106207232E+001  +9.8863279989E-002 -2.6383725666E+000  +9.7283816169E-002 +9.0367507908E+000  +6.3777917100E-001 -4.8661783653E-001 
8769162.703 +5.5766615199E-001 +5.8897197938E+000  +9.2723234496E-002 -5.8981135071E+000  +9.8363352806E-002 +9.2004436265E+000  +5.3170233496E-001 +1.2637879005E+000 
8894307.885 +4.8873555735E-001 +6.8814181814E+000  +9.5493036897E-002 -5.2826223854E+000  +9.3363757425E-002 +9.9953190717E+000  +5.3163562391E-001 +3.0178688001E+000 
9019453.066 +4.9456223688E-001 +8.0249663659E+000  +9.5943797492E-002 -7.5671582265E+000  +1.0404679290E-001 +1.0563909377E+001  +5.1123701540E-001 -3.1403876761E-001 
9144598.248 +5.4024153809E-001 +1.0886026773E+001  +9.4900426913E-002 -5.2503789094E+000  +9.8085798713E-002 +1.3564357204E+001  +5.8290454400E-001 -2.2560789125E+000 
9269743.429 +5.2110240922E-001 +1.0790670074E+001  +9.6294472651E-002 -3.2000882527E+000  +9.4359978725E-002 +1.0409874949E+001  +4.7398217727E-001 +7.5031203161E+000 
9394888.611 +4.7199472504E-001 +1.1834462919E+001  +9.4827596723E-002 -2.8840418013E+000  +9.2089960414E-002 +1.3614625320E+001  +5.0218554085E-001 -1.2957075956E+000 
9520033.792 +4.7193043200E-001 +3.3977196487E+000  +9.7987887090E-002 -3.1984353833E+000  +9.6025462877E-002 +1.2859088190E+001  +5.1259087228E-001 -7.0499983471E+000 
9645178.974 +4.6285861837E-001 +6.1659839823E+000  +9.4617331394E-002 -3.7033551803E+000  +9.4994150197E-002 +1.2803484064E+001  +4.7247541802E-001 -4.8996154503E+000 
9770324.155 +4.3426139347E-001 +6.2480116497E+000  +9.7632349780E-002 -4.8381821984E+000  +9.6090014750E-002 +1.1774784449E+001  +4.8091682765E-001 -8.1755962573E+000 
9895469.337 +4.2641143727E-001 +5.3636750265E+000  +9.4634392052E-002 -3.2444026652E+000  +9.9204923096E-002 +1.2517370493E+001  +4.6057844421E-001 -7.2741082612E+000 
10020614.518 +4.4989571133E-001 -4.0923044466E-001  +1.0065184065E-001 -3.4589002648E+000  +9.9970872142E-002 +1.4209696149E+001  +4.9727689068E-001 -4.7191784935E+000 
10145759.700 +4.4911359313E-001 +5.5398565323E+000  +1.0038426884E-001 -2.9731254721E+000  +9.7051292761E-002 +1.1384930228E+001  +5.0695740695E-001 -4.6399109123E+000 
10270904.881 +4.7241952288E-001 +8.7624204470E+000  +9.8342022119E-002 -3.0120581106E+000  +9.7824003354E-002 +1.2529961316E+001  +4.8514892818E-001 -1.8814212583E+000 
10396050.063 +4.5635456597E-001 +4.6733248370E+000  +9.8188119189E-002 -2.3201207617E+000  +9.9551954397E-002 +1.4441233891E+001  +4.8899637015E-001 -4.5572756217E+000 
10521195.244 +4.7638283871E-001 +7.2549586371E+000  +1.0090617463E-001 -2.4191828631E+000  +9.7190178552E-002 +1.4777885933E+001  +4.8797618720E-001 +3.4227081516E+000 
10646340.426 +4.6927278911E-001 +1.0502967101E+001  +1.0104198861E-001 -2.1202030631E+000  +1.0035622712E-001 +1.3707150976E+001  +5.0314365060E-001 +1.4608720232E+000 
10771485.607 +4.5861511885E-001 +1.4179669318E+001  +1.0256064769E-001 -2.3067393692E-002  +9.7917552213E-002 +1.3557370046E+001  +4.9010552214E-001 +7.0881468203E-001 
10896630.788 +4.9596352661E-001 +7.4058195973E+000  +1.0072894286E-001 -1.5250503836E+000  +1.0300888547E-001 +1.3990448641E+001  +4.9527055868E-001 +4.4989859015E+000 
11021775.970 +4.7963177676E-001 +7.3181570548E+000  +1.0151401532E-001 -1.0780016558E+000  +1.0182932978E-001 +1.3317334577E+001  +5.4590220123E-001 +8.2964527163E-001 
11146921.151 +5.2344464812E-001 +9.6394290860E+000  +1.0394517850E-001 -3.7680376782E-001  +1.0296565578E-001 +1.4601727650E+001  +5.4628005699E-001 +1.4783200518E+000 
11272066.333 +5.1679986822E-001 +8.1253570216E+000  +1.0571140118E-001 -3.1102439627E-002  +1.0171288407E-001 +1.3803604031E+001  +5.3221369414E-001 +4.7597604574E-001 
11397211.514 +5.2099219481E-001 +7.7163499479E+000  +1.0222717094E-001 +1.0439905080E+000  +1.0538570919E-001 +1.2965245528E+001  +5.6779970010E-001 +3.2460838369E+000 
11522356.696 +5.2520718406E-001 +7.9082923044E+000  +1.0722402795E-001 -1.5015143366E-001  +1.0538224186E-001 +1.1771499327E+001  +5.4925042857E-001 +6.4895906218E-001 
11647501.877 +5.3641687989E-001 +8.9888857555E+000  +1.0507030600E-001 +4.7848347555E-001  +1.0568183836E-001 +1.2757015957E+001  +5.5214538901E-001 +2.6263678296E+000 
11772647.059 +5.4307719773E-001 +7.1679153540E+000  +1.0809463147E-001 +1.1661357440E+000  +1.0820206920E-001 +1.1390002534E+001  +5.4655352940E-001 +1.7522106328E+000 
11897792.240 +5.4866959409E-001 +5.1527821324E+000  +1.0939250641E-001 +1.3327090116E+000  +1.0848821915E-001 +1.1433535878E+001  +5.8223665841E-001 +2.2132715259E+000 
12022937.422 +5.9630007772E-001 +7.2770735803E+000  +1.0908671323E-001 +1.8444477088E+000  +1.0828900002E-001 +1.1656074060E+001  +5.9664782150E-001 +4.9441931275E+000 
12148082.603 +5.6996330938E-001 +4.4958645293E+000  +1.1168033988E-001 +8.4613215911E-001  +1.1190357346E-001 +1.0834650967E+001  +5.9329949050E-001 +5.4524095249E-001 
12273227.785 +6.0884711380E-001 +5.2531795128E+000  +1.1462229785E-001 +2.1787326429E+000  +1.1214524804E-001 +1.1009391492E+001  +5.9583903609E-001 -1.2621083393E+000 
12398372.966 +5.9817858455E-001 +5.8999446560E+000  +1.1305533876E-001 +2.1587115405E+000  +1.1179996592E-001 +9.3403725027E+000  +5.9327062615E-001 +6.9793010410E-001 
12523518.148 +6.1389920148E-001 +3.2674668813E+000  +1.1682001195E-001 +1.9397417874E+000  +1.1416966864E-001 +9.9617877339E+000  +6.2809789952E-001 +1.1000432665E+000 
12648663.329 +6.5691661123E-001 +3.7030942950E+000  +1.1582660420E-001 +2.9444467054E+000  +1.1616767256E-001 +9.5406240442E+000  +6.6834417841E-001 +1.8563363705E+000 
12773808.511 +6.3929303384E-001 +3.3798981409E+000  +1.1843545603E-001 +2.6252918975E+000  +1.1649985978E-001 +8.9188280781E+000  +6.5709435095E-001 -8.0121335807E-001 
12898953.692 +6.5244572921E-001 +2.6343380974E+000  +1.1926666330E-001 +2.8574832657E+000  +1.1877577386E-001 +8.9539869419E+000  +6.6163652194E-001 -9.8935380287E-001 
13024098.874 +6.8271923557E-001 +3.9200505311E-001  +1.2192196476E-001 +2.9571920191E+000  +1.1984421933E-001 +7.8255176147E+000  +6.9304882092E-001 -2.3144011246E+000 
13149244.055 +6.7938921299E-001 +8.6687590505E-001  +1.2162200805E-001 +2.1613097226E+000  +1.2132357656E-001 +6.6616863514E+000  +6.8349838297E-001 -2.5096837818E-001 
13274389.237 +6.7767294482E-001 -1.0839003042E+000  +1.2225522841E-001 +2.3493240291E+000  +1.2124874381E-001 +6.5419150243E+000  +7.0985422015E-001 -1.7880008135E-002 
13399534.418 +7.2863999402E-001 -8.6762509333E-001  +1.2501265905E-001 +3.4214831699E+000  +1.2385591603E-001 +6.0851775648E+000  +7.1716818645E-001 -2.2769200533E+000 
13524679.599 +7.2247081727E-001 -1.3225380187E+000  +1.2350431995E-001 +3.8337674659E+000  +1.2439083026E-001 +5.5538772410E+000  +7.4023603391E-001 -4.3427199062E+000 
13649824.781 +7.5019154876E-001 -3.8971676314E+000  +1.2814030923E-001 +2.7457550940E+000  +1.2480548955E-001 +4.7398117267E+000  +7.5326585427E-001 -3.2123038024E+000 
13774969.962 +7.7923753956E-001 -2.2961190707E+000  +1.2571847259E-001 +2.2707302492E+000  +1.2483659769E-001 +4.5479301512E+000  +7.6494122736E-001 -4.0687388555E+000 
13900115.144 +7.9375283883E-001 -9.1033489272E-001  +1.2744918360E-001 +2.3056043171E+000  +1.2491703513E-001 +4.1386107163E+000  +7.9205869356E-001 -3.7898053977E+000 
14025260.325 +7.9206574431E-001 -3.9227707307E+000  +1.2943776539E-001 +2.2669852160E+000  +1.2666577012E-001 +3.2996164957E+000  +7.9919809929E-001 -3.1309270464E+000 
14150405.507 +8.2811601598E-001 -4.9167590680E+000  +1.2828761238E-001 +2.2081686773E+000  +1.2830863073E-001 +3.5481569988E+000  +8.2669813067E-001 -3.1897698562E+000 
14275550.688 +8.3714000809E-001 -5.5584233850E+000  +1.3076973758E-001 +1.9341024633E+000  +1.2619406156E-001 +3.0812470856E+000  +8.4846727559E-001 -4.7298321854E+000 
14400695.870 +8.4924024889E-001 -6.1244642755E+000  +1.2899990329E-001 +1.5897074795E+000  +1.2900149126E-001 +1.9212350285E+000  +8.6204996620E-001 -4.9008459354E+000 
