!  2-Port S-parameters saved by WinCal
! VAR MeasName=S-Parameters (CALIBRATED_DATA) read from VNA (P5004A)
! VAR MeasDate=29/08/2024 11:26:56
! VAR NAME=S2_r9c3_SET2_9k-100M_2
! VAR FILENAME=S2_r9c3_SET2_9k-100M_2.S2P
! VAR DATE=29/08/2024 11:26:56
! VAR PHYS_PORTS=1,2
! VAR ObjTypeName=DATASET
! VAR IndexType=Frequency
!
# Hz S MA R 50
9000.000 +7.2255225828E-002 -1.6714788046E+002  +3.1210008145E-003 +4.7827218718E+001  +1.8522328989E-002 +1.2216554723E+002  +2.3968735932E-001 -1.4768277009E+002 
134145.181 +1.1100836594E-001 +1.6968480202E+002  +3.4207442989E-004 +1.3121139411E+002  +4.2230319130E-004 +1.1214114686E+002  +2.3837803077E-001 -1.7015557571E+002 
259290.363 +1.1119993153E-001 +1.7028228052E+002  +7.9220645958E-004 +1.6673170077E+002  +1.1363383910E-003 +1.6434814356E+002  +2.3772932310E-001 -1.7006824113E+002 
384435.544 +1.1491352486E-001 +1.6988856591E+002  +6.5800644154E-004 -1.3627556139E+002  +9.2801447094E-004 +2.6701882929E+001  +2.4583028013E-001 -1.7044730603E+002 
509580.726 +1.1196069179E-001 +1.7131167727E+002  +7.6729089084E-004 -1.5780257283E+002  +1.9433543132E-003 +1.5100338213E+002  +2.4035907765E-001 -1.6447307115E+002 
634725.907 +1.1902254883E-001 +1.7309059974E+002  +8.8480602215E-004 +1.6127870943E+002  +1.5094092782E-003 +9.3462760949E+001  +2.6499896475E-001 -1.6618542187E+002 
759871.089 +1.1930959426E-001 +1.7127038849E+002  +7.5156116971E-004 -1.2690468144E+002  +6.5363124684E-004 +8.9171023406E+001  +2.4502068040E-001 -1.6705793613E+002 
885016.270 +1.2076625243E-001 +1.6950505827E+002  +4.4189276465E-004 -5.1649306578E+001  +6.1096728533E-004 +3.8968665602E+001  +2.4394075046E-001 -1.6661133441E+002 
1010161.452 +1.1835038758E-001 +1.6995850979E+002  +9.0715707013E-004 -4.6687951663E+001  +5.8770722063E-004 -1.3486272453E+002  +2.1666024540E-001 -1.6965186258E+002 
1135306.633 +1.1723335522E-001 +1.7056023548E+002  +1.1722680473E-003 -3.1105790094E+001  +1.0234670463E-003 -1.0071038943E+002  +2.0501868638E-001 -1.6797977993E+002 
1260451.815 +1.1990654255E-001 +1.7212503627E+002  +1.9298794505E-003 -5.1980864184E+001  +1.9604503545E-003 -1.5983697066E+002  +2.0169990184E-001 -1.6177618435E+002 
1385596.996 +1.2481394005E-001 +1.7253154393E+002  +1.1181043460E-003 -1.4335501548E+002  +8.4502895121E-004 +1.1278315059E+002  +2.6260759590E-001 -1.5609823152E+002 
1510742.178 +1.2614806985E-001 +1.7228059931E+002  +6.5069486460E-004 +5.4030541213E+001  +1.4224975230E-003 +1.0464542865E+002  +2.5974192229E-001 -1.5956958553E+002 
1635887.359 +1.2903582779E-001 +1.7100107243E+002  +1.5939375722E-003 -5.5043477622E+001  +6.5498867596E-004 +1.5974075792E+002  +2.4009526126E-001 -1.5645066183E+002 
1761032.541 +1.2767406140E-001 +1.6900687798E+002  +1.1722427354E-003 +3.0217428137E+001  +1.9119149720E-003 -1.4739126007E+002  +2.3442932313E-001 -1.6102908096E+002 
1886177.722 +1.3072109559E-001 +1.6880472593E+002  +1.3124969601E-003 +1.7405513241E+001  +1.6577176143E-003 -7.7649820224E+001  +2.1249574929E-001 -1.5880195364E+002 
2011322.904 +1.3006349421E-001 +1.6889928458E+002  +3.2969448985E-003 +4.4256814666E+001  +4.6752455792E-003 -8.0222370311E+001  +1.8606723749E-001 -1.6067934092E+002 
2136468.085 +1.3327151058E-001 +1.6706625791E+002  +4.5794370759E-003 +8.4785471841E+001  +6.3372788369E-003 -6.2833916865E+001  +1.5304207331E-001 -1.7531575142E+002 
2261613.267 +1.3903022535E-001 +1.6561837483E+002  +2.7576523627E-003 +3.5493167995E+001  +8.4759401913E-003 -8.8582141515E+001  +2.1296955131E-001 -1.4591885293E+002 
2386758.448 +1.3721494985E-001 +1.6387057629E+002  +6.1594536605E-003 +7.4460464553E+001  +8.4128662367E-003 -6.5410679290E+001  +1.8834665300E-001 -1.6960241722E+002 
2511903.630 +1.3439186612E-001 +1.6544785698E+002  +1.2772067974E-002 +8.4832155235E+001  +7.3346463896E-003 -2.5572002484E+001  +1.9729887383E-001 +1.6976659614E+002 
2637048.811 +1.2612472038E-001 +1.6703487132E+002  +1.0826496738E-002 +6.4270041685E+001  +1.1500899340E-002 -4.3803396023E+001  +2.0504597183E-001 +1.7964091643E+002 
2762193.992 +1.1077722874E-001 +1.7501302896E+002  +6.2843443633E-002 +9.9494435173E+001  +6.5279706198E-002 -7.1323626717E-001  +7.6739872840E-001 +1.3826312011E+002 
2887339.174 +1.1456213780E-001 +1.7034314233E+002  +2.9580765004E-002 -2.7478868468E+001  +3.4533730336E-002 -1.4132781606E+002  +2.1211857258E-001 -9.9696506876E+001 
3012484.355 +1.1850759256E-001 +1.7717632181E+002  +3.0803949581E-002 -2.0734712045E+001  +2.3727910869E-002 -1.3251289448E+002  +1.3702640616E-001 -9.7888361621E+001 
3137629.537 +1.2676423920E-001 +1.6846870986E+002  +2.5824156784E-002 -4.8151914615E-001  +1.7299369319E-002 -1.0940783648E+002  +1.0120371199E-001 -9.6534363875E+001 
3262774.718 +1.3375415449E-001 +1.6367141227E+002  +6.1220591111E-002 +5.1152154127E+001  +4.2989269442E-002 -2.7351368957E+001  +3.2427582206E-001 +7.5707493981E+001 
3387919.900 +1.4418731783E-001 +1.5199835930E+002  +3.1134055402E-002 +5.4343781355E+001  +3.3204538680E-002 -4.7790082519E+001  +4.3884981568E-002 -1.2037827484E+001 
3513065.081 +1.6648070389E-001 +1.4477235654E+002  +2.9237695021E-002 +1.0247314941E+002  +2.6757258269E-002 +3.2755752483E+001  +3.3485382632E-001 +1.3904207221E+002 
3638210.263 +1.6554112499E-001 +1.3624735809E+002  +4.9522273215E-002 +1.3290125317E+002  +4.7104726832E-002 +4.5926692198E+001  +6.0382956534E-001 +1.5325975537E+002 
3763355.444 +1.9820363184E-001 +1.5231080776E+002  +4.2976366127E-002 +9.5677985857E+001  +3.8686720053E-002 +1.4193807776E+001  +3.7255623134E-001 +9.9341773936E+001 
3888500.626 +1.9653544514E-001 +1.4360918102E+002  +4.7061611343E-002 +1.1557723308E+002  +4.6490456742E-002 +4.0218883644E+001  +4.8115249999E-001 +1.3582893363E+002 
4013645.807 +1.6363263854E-001 +1.4858042293E+002  +4.6873942292E-002 +5.5322381472E+001  +6.6170267859E-002 -3.4225009798E+000  +3.6818552275E-001 +8.5820347688E+001 
4138790.989 +1.6380397362E-001 +1.3100464691E+002  +4.9711202565E-002 +7.5754205846E+001  +5.0229771582E-002 +1.1940889691E+001  +3.5353611258E-001 +1.3335712291E+002 
4263936.170 +1.9841341611E-001 +1.4783060950E+002  +3.8606404794E-002 +1.0443164279E+002  +4.1509535027E-002 +4.6391774002E+001  +4.6151262814E-001 +1.3197250464E+002 
4389081.352 +2.0295984821E-001 +1.4684383301E+002  +1.3597423498E-001 +8.1343266206E+001  +1.3108657513E-001 +2.7806671292E+001  +1.6679666864E+000 +8.0169704485E+001 
4514226.533 +2.2891574987E-001 +1.2198608186E+002  +8.8673349568E-002 +1.1431534946E+002  +7.9526267678E-002 +6.0084703619E+001  +7.1729524300E-001 +1.3631939772E+002 
4639371.715 +2.5001273777E-001 +1.3736544189E+002  +4.9401285697E-002 +8.5930099959E+001  +5.3290042325E-002 +3.1886607079E+001  +3.0311853893E-001 +1.0026716986E+002 
4764516.896 +3.5595178855E-001 +1.2912212994E+002  +1.8066857790E-001 +1.7170049629E+002  +2.0071069760E-001 +1.1492412866E+002  +1.9897891078E+000 +1.4941754454E+002 
4889662.078 +3.2704646702E-001 +1.1331848033E+002  +4.5580382894E-001 +1.9409498294E+001  +4.7756684400E-001 -2.8057536236E+001  +3.6612508355E+000 -2.6119310991E+001 
5014807.259 +2.7055706322E-001 +1.1033551965E+002  +5.8193954281E-001 +5.2077066484E+001  +5.4629397432E-001 -1.1727404626E+001  +5.1142655690E+000 +2.2666766260E+001 
5139952.441 +3.8286507026E-001 +1.1521711280E+002  +2.1995122377E-001 +6.6129285684E+001  +1.9803315673E-001 +2.1457859267E+001  +1.2672995710E+000 +4.9146171807E+001 
5265097.622 +4.1094266140E-001 +1.3249021711E+002  +1.0300648614E-001 +1.1261929591E+002  +1.0109448469E-001 +7.3673553016E+001  +9.0016959074E-001 +1.0097641667E+002 
5390242.804 +5.1015156783E-001 +1.1410858058E+002  +2.0656117382E-001 +1.2897488395E+002  +1.9911475680E-001 +8.9936779969E+001  +1.4845159533E+000 +1.1687046971E+002 
5515387.985 +4.0749614192E-001 +1.2613681206E+002  +1.7053676872E-001 +9.5121562679E+001  +1.6741016591E-001 +6.3488441324E+001  +1.7682618778E+000 +7.6647411808E+001 
5640533.166 +5.1273162122E-001 +1.2805808868E+002  +1.9631460476E-001 +1.0420055665E+002  +2.3600363067E-001 +7.4196432054E+001  +2.5417683804E+000 +8.1640855425E+001 
5765678.348 +4.6759711630E-001 +1.1797527454E+002  +1.7307957165E-001 +8.9889926098E+001  +1.6506433863E-001 +6.0141839866E+001  +1.4531576818E+000 +9.0798289832E+001 
5890823.529 +5.1834413542E-001 +1.2538517930E+002  +1.8045471556E-001 +8.8873645159E+001  +1.5925430095E-001 +7.1828002947E+001  +1.9014281294E+000 +8.9393636059E+001 
6015968.711 +6.0983470396E-001 +1.0563200952E+002  +2.4482559909E-001 +5.7155143000E+001  +2.1948686935E-001 +3.3915388844E+001  +1.8230643297E+000 +5.1226197862E+001 
6141113.892 +6.9251017015E-001 +1.0887921113E+002  +1.6608012289E-001 +5.3278096010E+001  +1.5005482061E-001 +3.0122412856E+001  +9.2255870714E-001 +2.8586535802E+001 
6266259.074 +9.4465501542E-001 +1.0062775381E+002  +2.7070256764E-001 +5.5069729814E+001  +2.6870261494E-001 +3.6368506352E+001  +1.6790447624E+000 +2.4058392975E+001 
6391404.255 +9.0995961957E-001 +8.8996155262E+001  +2.2409118334E-001 +4.5422918593E+001  +1.9818600906E-001 +3.0592006795E+001  +1.3718568879E+000 +3.4799530562E+001 
6516549.437 +1.2571185775E+000 +8.8838452279E+001  +2.9367532532E-001 +5.2353089125E+001  +2.5337992706E-001 +3.6885923849E+001  +1.5272572519E+000 +2.3811986823E+001 
6641694.618 +1.4523234302E+000 +5.0476696149E+001  +3.0940685938E-001 +2.0912977986E+001  +2.7861853716E-001 +1.1199831601E+001  +1.2535656595E+000 +5.6766327008E+000 
6766839.800 +1.1983889898E+000 +4.5315085842E+001  +2.2804907805E-001 +6.9659109349E+000  +2.1174024096E-001 +6.8999133840E+000  +9.8372742288E-001 +7.7002274361E-001 
6891984.981 +1.4862991118E+000 +3.5239775710E+001  +2.4741282624E-001 +5.7729291249E+000  +2.2435571111E-001 -6.8958274078E-002  +1.1714847245E+000 -8.9184550734E+000 
7017130.163 +1.2485462046E+000 +2.2923296827E+001  +2.0102684053E-001 -3.8267808160E-001  +1.9584083761E-001 -9.7618702546E+000  +1.2922529601E+000 -9.6598966538E+000 
7142275.344 +1.4774864332E+000 +1.6990404151E+001  +1.8274973814E-001 +1.5451367036E+000  +1.7341384950E-001 -2.5998196063E+000  +1.2608669430E+000 -1.1575988143E+001 
7267420.526 +9.3728797042E-001 -9.5179240500E+000  +1.4478324778E-001 -3.2795487063E+000  +1.3934488647E-001 -5.7764963015E+000  +1.2211068342E+000 -1.4021006038E+001 
7392565.707 +1.0596834945E+000 -2.2152208864E-001  +1.2140265935E-001 +4.4730268448E+000  +1.2176457477E-001 +2.8403530960E+000  +1.2606285035E+000 -1.4270471956E+001 
7517710.889 +9.1853551267E-001 -8.8437168915E-001  +1.0949496002E-001 +9.5742350072E-001  +1.0937187243E-001 +1.5817025042E+000  +1.0586850295E+000 -1.1797199227E+001 
7642856.070 +9.1747723367E-001 -2.5238882924E+000  +1.0618435789E-001 -9.8154972159E-001  +1.0840589802E-001 +6.8930051610E+000  +9.9599268414E-001 -2.7096073909E+000 
7768001.252 +7.9665756327E-001 +3.6099449241E+000  +1.0023337269E-001 +3.9857175898E+000  +9.0006230204E-002 +4.9911238182E+000  +8.2806339283E-001 -3.5295263924E+000 
7893146.433 +7.4994244696E-001 +7.4776778271E+000  +9.6394148373E-002 +1.0706267178E-001  +9.5784944082E-002 +7.3545562126E+000  +8.3319684149E-001 +9.5442185272E-001 
8018291.615 +7.3571669349E-001 +3.3678824379E+000  +9.5633675312E-002 -2.6683882087E+000  +9.8090159720E-002 +6.2717673185E+000  +7.5792614645E-001 +5.4346542132E+000 
8143436.796 +5.8084783983E-001 +5.7100047415E+000  +9.4849373979E-002 -2.6723485912E+000  +9.1714512699E-002 +6.7753447558E+000  +7.3792727245E-001 +2.6039268818E+000 
8268581.977 +6.0097641530E-001 +4.2970921092E+000  +9.3253373521E-002 -2.9151674591E+000  +9.0015883320E-002 +7.0646100713E+000  +6.7985975631E-001 +6.9787090547E+000 
8393727.159 +6.2439544218E-001 +1.0313573706E+001  +8.8918516793E-002 -1.4745977909E+000  +8.3782065783E-002 +1.1943933312E+001  +6.1530001809E-001 -2.0263541458E+000 
8518872.340 +5.9437362161E-001 +2.9615980731E+000  +8.6798827523E-002 -3.0368536500E+000  +9.3221895129E-002 +1.0678069771E+001  +6.8016222007E-001 +2.0915739208E+000 
8644017.522 +6.1684383118E-001 +4.8599062582E+000  +8.7343204190E-002 -6.6962246892E+000  +8.3899559121E-002 +8.8731749365E+000  +6.1576122113E-001 +5.1381163837E+000 
8769162.703 +5.0122743776E-001 +1.1828423859E+001  +8.2740974390E-002 -3.7142753661E+000  +8.3785214597E-002 +1.1136792334E+001  +6.0223532155E-001 +1.5310264649E-001 
8894307.885 +4.8534361357E-001 +1.8146582457E+000  +8.5150728520E-002 -3.1759505797E+000  +8.6290476897E-002 +9.3277078551E+000  +5.6262452554E-001 +6.8463755703E+000 
9019453.066 +5.7454480211E-001 +1.2637808207E+001  +8.3083912128E-002 -2.6840879142E+000  +8.2460852637E-002 +1.2784442371E+001  +4.8933891323E-001 +2.0410710661E+000 
9144598.248 +4.8897001929E-001 +5.2681824078E+000  +8.0951389451E-002 -2.6153802812E+000  +8.2218989621E-002 +9.5410035722E+000  +4.5351675870E-001 +2.8886706844E+000 
9269743.429 +4.8351118643E-001 +1.1876277393E+001  +8.5404921777E-002 -2.1724157063E+000  +8.3863360760E-002 +1.0355608613E+001  +5.2554951487E-001 +1.8664124458E+000 
9394888.611 +4.6257606181E-001 +7.4514161310E+000  +8.5719946986E-002 -4.6189676171E+000  +8.6025325057E-002 +1.1357977401E+001  +5.0397034478E-001 +1.4832496017E-001 
9520033.792 +4.6965230629E-001 +4.1193739424E+000  +8.3962094380E-002 -2.9992709882E+000  +8.5499870609E-002 +1.1233505831E+001  +4.9602029253E-001 -4.7691884050E+000 
9645178.974 +4.9356043562E-001 +4.5735939845E+000  +8.4038668812E-002 -2.4222377365E+000  +8.3868334640E-002 +1.2380455359E+001  +5.2112215611E-001 -8.4773919777E-001 
9770324.155 +4.5476221380E-001 +2.5394006134E+000  +8.7427958446E-002 -6.6391142058E+000  +8.5302651103E-002 +1.1963771866E+001  +4.6970789634E-001 -4.1311220113E+000 
9895469.337 +4.3574768879E-001 +7.0577854079E+000  +8.6265952003E-002 -4.6754973316E+000  +8.6674234518E-002 +1.1010676914E+001  +4.6713613279E-001 -5.3900734502E+000 
10020614.518 +4.6389092117E-001 +7.8660360361E+000  +8.3914890942E-002 -3.7359221844E+000  +8.4237503761E-002 +1.1433895408E+001  +4.8567859421E-001 -9.2990931693E+000 
10145759.700 +4.8417963015E-001 +8.8052533294E-001  +8.6722132928E-002 -3.8940225215E+000  +8.4737850338E-002 +1.2861009686E+001  +5.3588576197E-001 +3.3116775700E-001 
10270904.881 +4.7153494352E-001 +7.8002060687E+000  +8.6960805244E-002 -3.1014689855E+000  +8.6646948816E-002 +1.3110660963E+001  +4.9375034167E-001 -2.2932163626E+000 
10396050.063 +4.7550578687E-001 +4.5754214603E+000  +8.7368923410E-002 -3.5337078762E+000  +8.4865477955E-002 +1.2729893878E+001  +4.8013989153E-001 -8.4144397820E-001 
10521195.244 +4.4808861678E-001 +1.1295165276E+001  +8.6746264324E-002 -1.4209895386E+000  +8.7627665452E-002 +1.3301691803E+001  +4.8424122165E-001 -1.4965217635E+000 
10646340.426 +4.8524564941E-001 +8.4646177266E+000  +8.7268251520E-002 -1.8046369538E+000  +8.5807926249E-002 +1.3514692377E+001  +4.8015017255E-001 +2.3881735119E+000 
10771485.607 +4.7739340858E-001 +1.1177948506E+001  +8.8149444314E-002 -2.7430416524E+000  +8.6055397488E-002 +1.2078179656E+001  +5.4938363950E-001 +9.3718184509E-001 
10896630.788 +4.4895410215E-001 +8.5352946034E+000  +8.7472577083E-002 -9.5726623173E-001  +8.5826202515E-002 +1.2762395787E+001  +5.1348925667E-001 +1.3440393148E+000 
11021775.970 +4.9820290643E-001 +1.1600625859E+001  +8.7817967700E-002 -1.0279978156E+000  +8.6229267364E-002 +1.2668943132E+001  +5.1782851361E-001 +3.0380175370E+000 
11146921.151 +4.9936815621E-001 +7.6803548327E+000  +9.0104066875E-002 +1.0712913194E-001  +8.8037776944E-002 +1.3352377430E+001  +5.4990451835E-001 +2.1816980709E-001 
11272066.333 +4.9457386312E-001 +9.6859750471E+000  +8.8960908170E-002 -9.7956446965E-001  +8.9276758826E-002 +1.3324814231E+001  +5.2362594986E-001 +2.8080788535E+000 
11397211.514 +5.4349504476E-001 +1.0072788843E+001  +8.9560829031E-002 -1.0293883795E+000  +8.9292737183E-002 +1.2145910614E+001  +5.5508145585E-001 +1.0797060501E+000 
11522356.696 +4.9434324671E-001 +9.8222114778E+000  +9.2409616681E-002 -2.4865033632E-001  +9.0617035907E-002 +1.3218397475E+001  +5.4993338801E-001 +2.5593461619E+000 
11647501.877 +5.4690265262E-001 +1.2054305379E+001  +9.2344915057E-002 +1.1121099865E+000  +9.0727443024E-002 +1.2526933464E+001  +5.8018889908E-001 +2.7456691565E+000 
11772647.059 +5.5821823868E-001 +9.5250932128E+000  +9.3494561148E-002 +1.6663341115E+000  +9.3846505862E-002 +1.0847607469E+001  +5.6713786765E-001 +1.0806998356E+000 
11897792.240 +5.7809670822E-001 +4.8916179524E+000  +9.5795827688E-002 +1.8370641527E+000  +9.3938582550E-002 +1.1697751728E+001  +5.9693281715E-001 +4.0263295777E+000 
12022937.422 +5.5521574947E-001 +7.7501195946E+000  +9.6805098946E-002 +1.3511199814E+000  +9.4293399825E-002 +1.0942680187E+001  +5.7591352596E-001 -7.2223032790E-001 
12148082.603 +5.9877793170E-001 +4.8275643584E+000  +9.6224235782E-002 +1.8303271949E+000  +9.4495487676E-002 +1.0209435558E+001  +6.0448507845E-001 +1.7009552546E+000 
12273227.785 +6.3170426890E-001 +6.0472776962E+000  +9.9015256808E-002 +1.8618278747E+000  +9.8739674737E-002 +1.1896197449E+001  +6.1475751112E-001 +2.2419049734E+000 
12398372.966 +6.2675150506E-001 +5.5386782743E+000  +9.9354006452E-002 +2.2120498610E+000  +9.8166298869E-002 +1.0058623924E+001  +5.9964586969E-001 +1.7750498440E-001 
12523518.148 +6.4843053414E-001 +4.2348558211E+000  +1.0042571781E-001 +2.2043798798E+000  +9.8080481777E-002 +9.6924773975E+000  +6.6355983552E-001 -2.5318139105E-001 
12648663.329 +6.6883235944E-001 +3.4752612417E+000  +1.0174754673E-001 +2.1255918753E+000  +1.0107319230E-001 +9.3180765456E+000  +6.6098088723E-001 +8.6341654527E-001 
12773808.511 +6.2403884659E-001 +4.2442335512E+000  +1.0209639840E-001 +1.6088077938E+000  +1.0115424152E-001 +7.5959964742E+000  +6.6412152328E-001 +4.5945807259E-001 
12898953.692 +6.8304479817E-001 +1.8255259368E+000  +1.0388281326E-001 +2.1369099038E+000  +1.0083353286E-001 +7.9959579780E+000  +6.5653509403E-001 +1.2107193308E+000 
13024098.874 +6.7566284948E-001 +9.7152556755E-001  +1.0496570440E-001 +2.8638699267E+000  +1.0414247400E-001 +8.4181752278E+000  +6.9815821519E-001 -1.0219596281E+000 
13149244.055 +7.0329012678E-001 +1.1077906256E+000  +1.0527372322E-001 +1.7303404195E+000  +1.0557699049E-001 +8.4163005951E+000  +7.1649906303E-001 +1.9629112601E-001 
13274389.237 +7.4604373876E-001 +1.5088653442E+000  +1.0693058494E-001 +3.9848316964E+000  +1.0485203355E-001 +7.5725843090E+000  +7.1956490725E-001 -2.8069823687E-001 
13399534.418 +7.1948575695E-001 -5.2975283993E-001  +1.0783120920E-001 +1.9952790746E+000  +1.0595377131E-001 +5.7586551944E+000  +7.2355842144E-001 -3.0485274041E+000 
13524679.599 +7.5417737164E-001 -1.1918978107E+000  +1.0826574950E-001 +2.3397936824E+000  +1.0654984699E-001 +5.6297290566E+000  +7.8114986129E-001 -6.6809764513E-001 
13649824.781 +7.5764841124E-001 -2.2774051298E+000  +1.0888368626E-001 +2.7722322504E+000  +1.0857518608E-001 +5.2531872888E+000  +7.6565402069E-001 -9.4384538513E-001 
13774969.962 +7.7631169141E-001 -2.7605163980E+000  +1.0852621023E-001 +2.1821911152E+000  +1.0887792826E-001 +4.6672099724E+000  +7.7967730417E-001 -2.1528136373E+000 
13900115.144 +8.0539339859E-001 -3.0063882919E+000  +1.1183418750E-001 +2.3887731782E+000  +1.0989307340E-001 +4.3771003652E+000  +8.2018585721E-001 -5.3094700560E+000 
14025260.325 +8.1681423874E-001 -3.7248489096E+000  +1.1009974625E-001 +2.8115393214E+000  +1.0955867641E-001 +3.4532470973E+000  +8.4104145874E-001 -3.7535315719E+000 
14150405.507 +8.2374274679E-001 -4.8772118702E+000  +1.1148289081E-001 +2.2921689143E+000  +1.1135407875E-001 +2.4909723043E+000  +8.5202476672E-001 -4.9346963045E+000 
14275550.688 +8.3143187203E-001 -4.9204538974E+000  +1.1328776166E-001 +2.1511088696E+000  +1.1227031123E-001 +2.7740518136E+000  +8.5084334187E-001 -6.4327891619E+000 
14400695.870 +8.6178846488E-001 -5.0411885778E+000  +1.1390200675E-001 +1.4974004139E+000  +1.1260250541E-001 +1.4901935414E+000  +8.7631626283E-001 -4.8907401053E+000 
