!  2-Port S-parameters saved by WinCal
! VAR MeasName=S-Parameters (CALIBRATED_DATA) read from VNA (P5004A)
! VAR MeasDate=29/08/2024 11:20:58
! VAR NAME=S2_r9c3_SET1_9k-100M_2
! VAR FILENAME=S2_r9c3_SET1_9k-100M_2.S2P
! VAR DATE=29/08/2024 11:20:59
! VAR PHYS_PORTS=1,2
! VAR ObjTypeName=DATASET
! VAR IndexType=Frequency
!
# Hz S MA R 50
9000.000 +7.4301038321E-002 -1.7129420389E+002  +6.5985297671E-003 -1.5132908647E+002  +5.6696125075E-003 -6.5270673000E+001  +2.5711303854E-001 -1.5072297639E+002 
134145.181 +1.1117335118E-001 +1.6957197264E+002  +2.6670679706E-004 -1.1179511066E+002  +3.5611702235E-004 +9.4795834846E+000  +2.3684428266E-001 -1.7073009713E+002 
259290.363 +1.1309405791E-001 +1.6973334843E+002  +4.1137110544E-004 -1.7520719860E+002  +4.9646065362E-004 +1.1765636857E+002  +2.2830391070E-001 -1.6597523455E+002 
384435.544 +1.1420491865E-001 +1.6987100155E+002  +6.4894709127E-004 -1.4347341164E+002  +8.2147621102E-004 +7.2631806089E+001  +2.4431010588E-001 -1.6879256597E+002 
509580.726 +1.1382567226E-001 +1.7184735356E+002  +2.2698422204E-003 -6.1386993873E+001  +1.1086971315E-003 +1.3311504221E+002  +2.4087297747E-001 -1.6464202783E+002 
634725.907 +1.1448569315E-001 +1.7160027599E+002  +1.4434657528E-003 -6.9908564256E+001  +6.0422437988E-004 -1.4415604260E+001  +2.3935022139E-001 -1.6615939534E+002 
759871.089 +1.1948600838E-001 +1.7120921827E+002  +5.1714614746E-004 -1.5979528045E+002  +3.1066257364E-004 +4.4564401596E+001  +2.4820062147E-001 -1.6686212009E+002 
885016.270 +1.2096026109E-001 +1.6940922016E+002  +7.7053589781E-004 +4.8120589273E+000  +1.0251909708E-003 +4.8786119022E+001  +2.4279476537E-001 -1.6629773848E+002 
1010161.452 +1.1678292248E-001 +1.6974570719E+002  +2.4085930556E-003 +2.0888994574E+000  +1.5975607458E-003 -1.7343094341E+002  +2.0112637790E-001 -1.6944993951E+002 
1135306.633 +1.1780873444E-001 +1.6893068537E+002  +2.5639511921E-003 -3.1862631450E+001  +1.3752007813E-003 +1.6781521893E+002  +1.9488136333E-001 -1.6419897441E+002 
1260451.815 +1.1999125018E-001 +1.7133640057E+002  +6.9501510467E-004 -6.1286385681E+001  +2.8589943002E-003 +1.4164958439E+002  +2.2386632094E-001 -1.5992378223E+002 
1385596.996 +1.2229184119E-001 +1.7105580587E+002  +5.5717565739E-004 -1.4412018019E+002  +1.5140162583E-003 +9.3048210805E+001  +2.6932598883E-001 -1.5887976892E+002 
1510742.178 +1.2824925679E-001 +1.7142997275E+002  +2.6244271660E-004 -1.1326706915E+002  +1.0171666729E-003 +2.4235830968E+001  +2.6093061063E-001 -1.5842612930E+002 
1635887.359 +1.2853135184E-001 +1.7095748266E+002  +4.7065964048E-004 -1.2341716986E+002  +7.4412923574E-004 -1.4252330636E+002  +2.5429524645E-001 -1.5742045446E+002 
1761032.541 +1.2710922496E-001 +1.6915590236E+002  +3.1425036510E-003 +7.1464094091E+001  +2.4564990532E-003 -1.3094255888E+002  +2.0250992123E-001 -1.5943170067E+002 
1886177.722 +1.2885832263E-001 +1.6860650733E+002  +2.4055987529E-003 +2.4804664317E+001  +2.8975953419E-003 -4.1725377898E+001  +1.7527643995E-001 -1.6157812104E+002 
2011322.904 +1.3311409680E-001 +1.6785954132E+002  +1.9015148764E-003 +5.8522502067E+001  +3.6093007562E-003 -3.4157533564E+001  +2.2099039516E-001 -1.6903246570E+002 
2136468.085 +1.3302184237E-001 +1.6568224021E+002  +5.3411288531E-003 +8.5196895853E+001  +7.5507908220E-003 -6.8626248312E+001  +1.6988861975E-001 -1.6158495988E+002 
2261613.267 +1.3466217522E-001 +1.6785040165E+002  +1.1419813995E-002 +1.0447737235E+002  +1.1399974101E-002 -1.8376944786E+001  +2.4835217378E-001 +1.5585332905E+002 
2386758.448 +1.4018273976E-001 +1.6482022401E+002  +8.2078585070E-003 +8.5351388848E+001  +7.2136413702E-003 -4.5799617846E+001  +1.7421073738E-001 +1.7480547303E+002 
2511903.630 +1.4015799583E-001 +1.6378571601E+002  +7.5202667354E-003 +5.5482582146E+001  +1.0280478964E-002 -6.7769910866E+001  +1.8862443600E-001 -1.6445355137E+002 
2637048.811 +1.1973573484E-001 +1.6190303531E+002  +3.4536939571E-002 +8.2713729036E+001  +2.1552671871E-002 -2.6457729822E+001  +1.8359250374E-001 +1.5243485489E+002 
2762193.992 +1.2589764533E-001 +1.6619826935E+002  +5.8723486474E-002 -4.4640634779E+000  +3.6849702478E-002 -9.4839492599E+001  +3.3808397667E-001 -6.4556038590E+001 
2887339.174 +1.1557051759E-001 +1.6081045816E+002  +2.7523981495E-002 -5.9283762025E+001  +3.6064551668E-002 -1.5126082307E+002  +3.2905854967E-001 -1.2533239903E+002 
3012484.355 +1.2125401130E-001 +1.7176433974E+002  +3.0800481489E-002 -1.8283740797E+001  +2.6479008853E-002 -1.0656247844E+002  +1.4775081401E-001 -1.3479471916E+002 
3137629.537 +1.4012499200E-001 +1.7050724143E+002  +2.9773736655E-002 -2.2494809247E+001  +3.0522077140E-002 -1.2805926168E+002  +3.2684544330E-001 -6.6905853225E+001 
3262774.718 +1.3933923746E-001 +1.6461071605E+002  +1.5829635260E-001 -1.3567601769E+002  +1.5789225986E-001 +1.6333971994E+002  +2.6597902140E+000 -1.2469609535E+002 
3387919.900 +1.3918584718E-001 +1.5619316052E+002  +3.7783569428E-002 +3.0292698131E+001  +3.4819474237E-002 -5.8240700478E+001  +1.1674937276E-001 -6.9788997087E+001 
3513065.081 +1.5973043349E-001 +1.4520646600E+002  +3.9167988409E-002 +8.3488801709E+001  +4.7220960448E-002 +3.3610206890E+000  +2.1410978680E-001 +1.3578892758E+002 
3638210.263 +1.7031379291E-001 +1.5241194181E+002  +6.0068247519E-002 +9.1478943466E+001  +5.0067271345E-002 +1.3816636744E+001  +5.6607512869E-001 +8.7691635321E+001 
3763355.444 +1.7345339765E-001 +1.4909834181E+002  +3.7139256712E-002 +1.0687561920E+002  +3.3232776101E-002 +3.1546208337E+001  +3.6482261510E-001 +1.4897037616E+002 
3888500.626 +1.7739881677E-001 +1.5670639426E+002  +3.6457825155E-002 +5.5684614707E+001  +2.9498712921E-002 -1.6459648535E+001  +2.0610584273E-001 +1.0375780521E+002 
4013645.807 +1.6948364625E-001 +1.5506994930E+002  +2.5824500492E-002 +7.9959993152E+001  +2.3729828178E-002 +2.3812601861E+001  +3.4752659678E-001 +1.5312832223E+002 
4138790.989 +1.7493470202E-001 +1.5381785409E+002  +3.3511165633E-002 +9.1301023769E+001  +2.9845935613E-002 +2.2782263507E+001  +4.3384142917E-001 +1.5161414077E+002 
4263936.170 +1.7265090069E-001 +1.5224625215E+002  +3.2404829406E-002 +6.3540799544E+001  +3.6984389523E-002 +5.1338727191E+000  +2.9893148403E-001 +1.3839965659E+002 
4389081.352 +1.5804450632E-001 +1.4706698065E+002  +6.6821826099E-002 +7.0084008292E+001  +6.0842230174E-002 +3.4822520583E+000  +5.1862379340E-001 +1.1473545236E+002 
4514226.533 +2.2832529527E-001 +1.2286524853E+002  +9.9102618377E-002 +9.9059033143E+001  +8.8388898761E-002 +5.6184449171E+001  +7.0149014746E-001 +1.2239117701E+002 
4639371.715 +2.8148145122E-001 +1.3016683535E+002  +1.3034561986E-001 +1.2016567254E+002  +1.3247815766E-001 +6.8153047706E+001  +1.1451151837E+000 +1.1523140952E+002 
4764516.896 +3.5819318471E-001 +1.2972105060E+002  +2.1493874367E-001 +1.2871846040E+002  +1.6984647843E-001 +7.4210781561E+001  +1.4395557343E+000 +1.0737464312E+002 
4889662.078 +5.4047261742E-001 +8.1267821677E+001  +7.4947940634E-001 +5.7830279824E+001  +9.4242288251E-001 -4.7233436675E-001  +3.7313236527E+000 +2.1161359653E+001 
5014807.259 +3.4433700169E-001 +1.2429769921E+002  +2.1328098243E-001 +9.1738783883E+001  +2.4898792414E-001 +4.1201733400E+001  +1.6950860497E+000 +7.0170358222E+001 
5139952.441 +3.0467821879E-001 +1.3545604684E+002  +1.4339959923E-001 +9.3716973704E+001  +1.2348496247E-001 +5.3725312773E+001  +1.2095506783E+000 +8.6952454711E+001 
5265097.622 +3.7709974016E-001 +1.3075394150E+002  +1.6310534191E-001 +9.2565997707E+001  +1.4548810800E-001 +4.9169409042E+001  +1.1710811553E+000 +7.1598855535E+001 
5390242.804 +3.4107991231E-001 +1.3367596971E+002  +2.8853793099E-001 +9.7245144668E+001  +2.4816191085E-001 +6.1394804173E+001  +3.2798328422E+000 +8.6977795727E+001 
5515387.985 +4.2433604013E-001 +1.3379765236E+002  +1.7658252531E-001 +1.2313283663E+002  +1.5889253660E-001 +8.6037623614E+001  +2.0206909148E+000 +1.0820773651E+002 
5640533.166 +4.0878344891E-001 +1.2730546016E+002  +1.8777754279E-001 +9.2936483274E+001  +1.7739551100E-001 +6.0104527036E+001  +1.7174433123E+000 +8.9626744531E+001 
5765678.348 +4.3065283253E-001 +1.2288095978E+002  +1.9076630628E-001 +7.9810935509E+001  +1.9360247705E-001 +4.8656374664E+001  +1.7309393948E+000 +7.7406327304E+001 
5890823.529 +4.6537297845E-001 +1.2593018912E+002  +1.6329768820E-001 +8.4632925544E+001  +1.5942991044E-001 +6.3659636810E+001  +1.6230484240E+000 +8.8114957464E+001 
6015968.711 +5.6922891788E-001 +1.2153423290E+002  +1.8816122012E-001 +6.9480193890E+001  +1.7948295680E-001 +4.2896652745E+001  +1.4875294572E+000 +4.2755212843E+001 
6141113.892 +6.4737699996E-001 +1.1740613259E+002  +2.0502498144E-001 +7.1426031296E+001  +1.9191719961E-001 +5.6338285392E+001  +1.4815672942E+000 +6.5935787966E+001 
6266259.074 +6.7676952723E-001 +1.1335869878E+002  +1.9417285873E-001 +5.6090677660E+001  +1.9773692462E-001 +3.6305644779E+001  +1.5489821131E+000 +4.1718430553E+001 
6391404.255 +8.2942119318E-001 +8.7487274338E+001  +2.8943413561E-001 +4.3869909842E+001  +2.8303998408E-001 +2.9580967283E+001  +1.7821172015E+000 +3.8883795535E+001 
6516549.437 +8.2623087957E-001 +8.7940751573E+001  +2.1354340635E-001 +2.9358754079E+001  +2.3051629868E-001 +1.4600704006E+001  +1.4409410623E+000 +1.0332273497E+001 
6641694.618 +9.8980950239E-001 +7.1734812604E+001  +2.4441156747E-001 +2.7079319497E+001  +2.3842776135E-001 +1.4726845094E+001  +1.2363171945E+000 +1.2713174839E+001 
6766839.800 +1.2603404738E+000 +4.6710122843E+001  +2.5408134096E-001 +1.9048865727E+001  +2.6772513892E-001 +3.8777122822E+000  +1.1100155621E+000 +3.4298134819E+000 
6891984.981 +1.3908410278E+000 +2.9420744441E+001  +2.4849128380E-001 +4.3540154605E+000  +2.4441254298E-001 -1.6908881183E+000  +1.1489382279E+000 +5.0466382876E+000 
7017130.163 +1.4395873327E+000 +1.8565535540E+001  +2.5652119337E-001 +1.6300039991E+000  +2.4171171885E-001 -2.6657047387E+000  +1.3514569565E+000 -7.2971837525E+000 
7142275.344 +1.4284621028E+000 +1.2943872385E+001  +2.1581914143E-001 -5.8010875582E+000  +1.8485698532E-001 -1.2091279493E+000  +1.2495353481E+000 -1.5343626839E+001 
7267420.526 +1.3504565658E+000 -9.9828339317E+000  +1.7159083202E-001 -2.7514176849E+000  +1.6945919717E-001 -1.5526297719E+000  +1.1502710527E+000 -8.5638422497E+000 
7392565.707 +1.0849931303E+000 +8.4168684241E-001  +1.4407546178E-001 -2.8014071450E-001  +1.3493656775E-001 +3.0589753778E+000  +1.1018271332E+000 -5.6108356055E+000 
7517710.889 +8.8416886740E-001 +2.5255919956E+000  +1.2503995599E-001 +2.4680588931E+000  +1.2661723002E-001 +1.3605258044E+000  +1.0598785341E+000 -2.5238757007E+000 
7642856.070 +1.0035792250E+000 +8.6864226531E+000  +1.2451798582E-001 +2.1422303937E+000  +1.2172015490E-001 +8.5379217853E+000  +9.5810007932E-001 -2.2729723047E+000 
7768001.252 +8.5203629289E-001 +4.6690836554E+000  +1.1672837883E-001 +2.8083373254E+000  +1.1432052630E-001 +3.9044031182E+000  +7.7638556240E-001 -2.8594757711E+000 
7893146.433 +7.0130480308E-001 +6.3962795155E+000  +1.0780334146E-001 -2.6599442449E+000  +1.0533616933E-001 +5.8811583249E+000  +7.5733348573E-001 -1.9533744988E+000 
8018291.615 +7.2251434307E-001 +8.2444507753E+000  +1.0387228554E-001 -4.4741109305E+000  +1.1156665696E-001 +7.1804042494E+000  +6.2563376892E-001 -3.0430730486E+000 
8143436.796 +6.2625707736E-001 +8.9865865987E+000  +1.0022654106E-001 +1.3495855059E+000  +9.9294632698E-002 +4.7416917520E+000  +7.1386534660E-001 +1.3868102300E+000 
8268581.977 +6.0337260951E-001 +3.3586663827E+000  +1.0287479336E-001 -8.5101424585E-001  +1.0170504033E-001 +8.3887621918E+000  +6.5043957455E-001 +3.0252696626E+000 
8393727.159 +6.1545161335E-001 +1.2443151401E+001  +9.8328338352E-002 -2.0764943315E+000  +9.8215836232E-002 +8.3755671885E+000  +6.5158577125E-001 -1.5008354014E+000 
8518872.340 +5.4630096845E-001 +1.4391605883E+001  +9.7585310517E-002 -1.3715784708E+000  +9.8242692554E-002 +8.9794370324E+000  +6.3944634069E-001 +4.6591396630E+000 
8644017.522 +5.0810600150E-001 +1.1921127307E+001  +9.4053432377E-002 -3.2515236081E+000  +9.7093519330E-002 +8.0614706083E+000  +6.1597803072E-001 +6.4334728236E-001 
8769162.703 +5.4226023742E-001 +1.4010201761E+001  +9.2962101845E-002 -3.6044781060E+000  +9.6120149809E-002 +9.7268274962E+000  +5.0965104138E-001 +5.4606865125E+000 
8894307.885 +4.7190437629E-001 +8.0673222910E+000  +9.5283303324E-002 -6.2607617410E+000  +9.6538557759E-002 +9.4919825795E+000  +5.7614780536E-001 +1.2916649846E+000 
9019453.066 +4.8075489090E-001 +1.3062678288E+001  +9.5867601750E-002 -4.8130121858E+000  +9.4049119619E-002 +1.0427292614E+001  +4.8827730054E-001 +2.4095050156E+000 
9144598.248 +4.9504122020E-001 +9.4083481084E+000  +9.7784690462E-002 -3.0168358583E+000  +9.5425027697E-002 +9.0773393968E+000  +4.9301066076E-001 -3.2166131535E-001 
9269743.429 +4.5832863798E-001 +4.3096985447E+000  +9.6910791874E-002 -4.6088731423E+000  +9.1649432062E-002 +9.1030343867E+000  +5.0176632508E-001 -1.1947097279E+000 
9394888.611 +4.7325467977E-001 +9.9589889138E+000  +9.3906854472E-002 -1.9083715102E+000  +9.3786916601E-002 +1.1729174037E+001  +5.3274279554E-001 +2.5306760221E+000 
9520033.792 +4.6659045385E-001 +5.2852718823E+000  +9.4353465839E-002 -4.4601046362E+000  +9.7447359088E-002 +1.2149168843E+001  +4.3000595169E-001 -1.4750881285E+000 
9645178.974 +4.3824216033E-001 +4.3245231996E+000  +9.4512350562E-002 -4.1672778827E+000  +9.3904702927E-002 +9.4424557531E+000  +4.9093731674E-001 -1.7944903834E+000 
9770324.155 +4.4812549684E-001 +2.7555667443E+000  +9.7744667611E-002 -4.1743788892E+000  +9.6106254321E-002 +1.0054537274E+001  +4.5401858921E-001 -7.5192525722E+000 
9895469.337 +4.3485276086E-001 +3.0881857239E+000  +9.7334161088E-002 -4.0831838548E+000  +9.6030618645E-002 +1.2770254020E+001  +4.7277343063E-001 -2.0699003881E+000 
10020614.518 +4.4853297854E-001 +2.2073286195E+000  +1.0123726294E-001 -4.7808112486E+000  +9.5851097797E-002 +1.2455613938E+001  +4.7302093760E-001 -6.5664902888E+000 
10145759.700 +4.5573029547E-001 +5.8189221348E+000  +9.8502281908E-002 -4.0588613490E+000  +9.9036452817E-002 +1.0635154250E+001  +4.6627823998E-001 -2.6676852907E+000 
10270904.881 +4.5960743378E-001 +7.7207268603E+000  +9.5246250981E-002 -3.3957526845E+000  +9.6873636584E-002 +1.2796943493E+001  +4.7825145339E-001 -1.3177263437E+000 
10396050.063 +4.5418888039E-001 +8.2508520117E+000  +9.7043245323E-002 -1.6794301227E+000  +9.8230371677E-002 +1.2582251455E+001  +4.6930125575E-001 +2.0079434642E+000 
10521195.244 +4.5870915463E-001 +8.7053683529E+000  +9.9962012372E-002 -2.5108911575E+000  +9.7913985164E-002 +1.3559705420E+001  +5.0314161610E-001 +2.5691171851E+000 
10646340.426 +4.5538958504E-001 +1.0734308460E+001  +1.0003333448E-001 -2.7452846065E+000  +9.7357334570E-002 +1.3461399583E+001  +4.8789443215E-001 +4.9564502604E-001 
10771485.607 +4.8231877830E-001 +8.8633559572E+000  +1.0000209160E-001 -2.6274706166E+000  +9.9018141037E-002 +1.1884509149E+001  +4.5781099448E-001 +2.9828012023E+000 
10896630.788 +4.8512964748E-001 +1.0997352062E+001  +9.9975569633E-002 -7.6428769992E-001  +1.0093522194E-001 +1.2738598059E+001  +4.7813380699E-001 +1.7351405864E+000 
11021775.970 +4.7286567581E-001 +6.6695261562E+000  +1.0256687285E-001 -2.0025729379E+000  +1.0147524353E-001 +1.0776940230E+001  +4.9815179369E-001 +3.8969620733E+000 
11146921.151 +4.8767891617E-001 +9.2865733908E+000  +1.0282406526E-001 -1.1704303411E+000  +1.0289923381E-001 +1.2761848285E+001  +5.3524821144E-001 +2.1776018817E-001 
11272066.333 +5.1349138736E-001 +9.3193841938E+000  +1.0562784945E-001 +4.8597684257E-001  +1.0046518155E-001 +1.2129113568E+001  +5.4289547621E-001 +1.3155135325E+000 
11397211.514 +5.0391512582E-001 +1.2149685219E+001  +1.0356459484E-001 -1.9514115885E-001  +1.0203533590E-001 +1.1091237028E+001  +4.8611217053E-001 +3.2780065523E+000 
11522356.696 +5.1065430046E-001 +1.1729015261E+001  +1.0376923434E-001 -1.0364875453E+000  +1.0386544112E-001 +1.0630016606E+001  +5.2779707246E-001 +1.8735022608E+000 
11647501.877 +5.3238614617E-001 +9.5401399560E+000  +1.0756727820E-001 +5.8583859980E-001  +1.0646048250E-001 +1.1840494173E+001  +5.6114584530E-001 +2.8336200431E+000 
11772647.059 +4.9579347737E-001 +7.7556158600E+000  +1.0767498021E-001 +1.4862921111E+000  +1.0507860815E-001 +1.1692520806E+001  +5.3686632846E-001 +4.9226610212E+000 
11897792.240 +5.5244736589E-001 +5.7164821783E+000  +1.0960778923E-001 +1.7383495711E+000  +1.0795712762E-001 +1.1742897035E+001  +5.6722266249E-001 +2.8942818994E+000 
12022937.422 +5.5282084231E-001 +6.0498735104E+000  +1.0922860383E-001 +5.0170547597E-001  +1.0950234207E-001 +9.2596751690E+000  +5.5895141098E-001 +2.3888510570E+000 
12148082.603 +5.7682185634E-001 +6.4085527381E+000  +1.1075610067E-001 +1.2254879159E+000  +1.0992903154E-001 +1.0366244435E+001  +6.0541268822E-001 +2.6433327983E+000 
12273227.785 +5.7738090647E-001 +3.1866326623E+000  +1.1256083592E-001 +7.4719841291E-001  +1.1164243274E-001 +9.5851260364E+000  +5.9254219797E-001 +3.3258404940E+000 
12398372.966 +6.0252482914E-001 +4.8195095004E+000  +1.1376658997E-001 +1.0327068429E+000  +1.1180147608E-001 +9.7186120247E+000  +6.1117391159E-001 +2.7166423489E+000 
12523518.148 +6.1414869452E-001 +4.4907357345E+000  +1.1347161852E-001 +2.6164274868E+000  +1.1175595679E-001 +8.9475762126E+000  +6.3551025217E-001 +8.3520153373E-001 
12648663.329 +6.3133900444E-001 +5.0704857220E+000  +1.1524774015E-001 +1.7183338619E+000  +1.1491854008E-001 +8.7209930333E+000  +6.1138275846E-001 +2.4868934110E+000 
12773808.511 +6.4442421510E-001 +4.1195884768E+000  +1.1595447523E-001 +3.6518619440E+000  +1.1597706071E-001 +9.3255509762E+000  +6.6381291974E-001 +5.2455729303E-001 
12898953.692 +6.6382958085E-001 +2.9952880842E+000  +1.1761468586E-001 +3.1984298347E+000  +1.1559798425E-001 +8.1410152660E+000  +6.5308619254E-001 +8.4398701781E-003 
13024098.874 +6.7124523700E-001 -9.1478193741E-001  +1.2086696426E-001 +2.6736554233E+000  +1.1903496595E-001 +7.0071032470E+000  +6.8936979690E-001 -1.6548921287E+000 
13149244.055 +6.8328652419E-001 +2.3670761335E+000  +1.2058920060E-001 +2.7071987347E+000  +1.1934718077E-001 +6.6688239359E+000  +6.9604887673E-001 -1.3083219889E+000 
13274389.237 +6.9801654040E-001 +2.3974201957E+000  +1.2170644321E-001 +2.5902688691E+000  +1.2067050644E-001 +6.4635293265E+000  +6.7693914181E-001 -2.5579335685E+000 
13399534.418 +7.0896813643E-001 +2.6431175454E-001  +1.2207419078E-001 +2.4801273331E+000  +1.2225613745E-001 +6.7026509131E+000  +7.3851216982E-001 -2.3513490947E+000 
13524679.599 +7.6076505088E-001 -2.2070987954E+000  +1.2642858231E-001 +2.2656516922E+000  +1.2311541975E-001 +5.2832193822E+000  +7.3402803036E-001 -2.1856115933E+000 
13649824.781 +7.6918228866E-001 -1.9348436296E+000  +1.2454537779E-001 +3.1401976043E+000  +1.2453326832E-001 +5.3614515753E+000  +7.6226414088E-001 -3.9544345837E+000 
13774969.962 +7.6019590080E-001 -2.7908199379E+000  +1.2613834721E-001 +1.7268033148E+000  +1.2308805995E-001 +4.4258923694E+000  +7.4818448918E-001 -3.4471838723E+000 
13900115.144 +7.7418997255E-001 -2.9701629491E+000  +1.2701787026E-001 +1.9162722985E+000  +1.2552537529E-001 +3.3298797890E+000  +7.7709896954E-001 -4.8359836038E+000 
14025260.325 +8.0987643413E-001 -4.3690687386E+000  +1.2802575346E-001 +2.8567097968E+000  +1.2728843745E-001 +3.4847548359E+000  +8.0027861865E-001 -4.4687255515E+000 
14150405.507 +8.2228177170E-001 -3.6086830321E+000  +1.2972924288E-001 +2.6819716297E+000  +1.2541647796E-001 +3.0088013362E+000  +8.1721856474E-001 -5.0960874543E+000 
14275550.688 +8.4000915626E-001 -4.4242805722E+000  +1.2910818061E-001 +1.7788275010E+000  +1.2917568489E-001 +2.3482134136E+000  +8.5373632896E-001 -5.3379857333E+000 
14400695.870 +8.4362050709E-001 -4.3501335922E+000  +1.2873914734E-001 +1.4440771174E+000  +1.2631362271E-001 +1.8132831377E+000  +8.3684738169E-001 -3.6976357999E+000 
