!  2-Port S-parameters saved by WinCal
! VAR MeasName=S-Parameters (CALIBRATED_DATA) read from VNA (P5004A)
! VAR MeasDate=29/08/2024 12:22:07
! VAR NAME=S2_r9c5_SET1_9k-100M_1
! VAR FILENAME=S2_r9c5_SET1_9k-100M_1.S2P
! VAR DATE=29/08/2024 12:22:07
! VAR PHYS_PORTS=1,2
! VAR ObjTypeName=DATASET
! VAR IndexType=Frequency
!
# Hz S MA R 50
9000.000 +9.2056147556E-002 -1.6631480587E+002  +9.0774572814E-003 -1.3241462320E+002  +2.9445518439E-003 +6.1623031319E+001  +2.5718085078E-001 -1.4501905144E+002 
134145.181 +1.1080025806E-001 +1.6962131423E+002  +2.2222146444E-004 -1.0049226432E+002  +7.0679390962E-004 -1.5306362794E+002  +2.4374617548E-001 -1.7097032194E+002 
259290.363 +1.1121248560E-001 +1.6951082392E+002  +6.2520578917E-004 +3.8956693424E+001  +2.2989046196E-004 +2.8328178915E+001  +2.4068004863E-001 -1.6983246608E+002 
384435.544 +1.1306501521E-001 +1.7012525142E+002  +5.9087501467E-004 -9.9321482817E+001  +6.8193500902E-004 +1.0190611975E+002  +2.4173671909E-001 -1.6980165422E+002 
509580.726 +1.1312690937E-001 +1.7111177080E+002  +3.5313103838E-004 +1.3960573791E+002  +4.7074105745E-004 -5.3982084432E+001  +2.4277239570E-001 -1.6756811702E+002 
634725.907 +1.1630643099E-001 +1.7221128168E+002  +1.2434617321E-003 -1.2355475545E+002  +1.3361539071E-003 +7.7791636547E+001  +2.4058568031E-001 -1.6489643920E+002 
759871.089 +1.2040861582E-001 +1.7087064249E+002  +1.0337471926E-003 -1.2911356929E+002  +1.2892642581E-003 +1.2874152948E+002  +2.5367311630E-001 -1.6635978465E+002 
885016.270 +1.2117415911E-001 +1.6959369207E+002  +4.2806470339E-004 -9.8703066710E+001  +1.2790532257E-003 +1.0246277259E+002  +2.3918263874E-001 -1.6736502219E+002 
1010161.452 +1.1788975764E-001 +1.6984853189E+002  +1.9124762071E-003 -4.7161522338E+001  +1.7070640566E-003 +1.7748142568E+002  +2.1897045717E-001 -1.6853303941E+002 
1135306.633 +1.1615620966E-001 +1.6877312263E+002  +1.9286737389E-003 -1.4773716689E+001  +2.1429435292E-003 -1.6718676660E+002  +2.0680739241E-001 -1.7209007250E+002 
1260451.815 +1.2033577003E-001 +1.7024633981E+002  +3.0923318401E-003 -3.1909597656E+000  +2.7025635201E-003 +1.1003150696E+002  +2.1993847843E-001 -1.5890686360E+002 
1385596.996 +1.2594599764E-001 +1.7222695816E+002  +1.3076846741E-003 -9.0231661652E+001  +1.9932153729E-003 +1.0097875623E+002  +2.7215605854E-001 -1.5711035729E+002 
1510742.178 +1.2699450098E-001 +1.7375821274E+002  +1.4788938393E-003 -1.1422380223E+002  +8.7552437835E-004 +7.2725834399E+001  +2.5765868044E-001 -1.5878986872E+002 
1635887.359 +1.2597899455E-001 +1.6943703804E+002  +1.1877082738E-003 +7.7681622855E+001  +2.4027082900E-003 -1.6307482652E+002  +2.2759176224E-001 -1.6015886065E+002 
1761032.541 +1.2977652986E-001 +1.7047934829E+002  +1.2717717784E-003 +4.3308814448E+001  +1.6140430791E-003 -6.2632272067E+001  +2.2993893778E-001 -1.6264424344E+002 
1886177.722 +1.3149201366E-001 +1.6915592919E+002  +4.1539350925E-003 +5.5491240988E+001  +3.2404452898E-003 -7.4062803331E+001  +2.0084721420E-001 -1.6457422227E+002 
2011322.904 +1.3047664593E-001 +1.6697421780E+002  +7.0499801654E-003 +7.4821496465E+001  +7.6274398057E-003 -7.4611238818E+001  +1.7665211110E-001 -1.6226855140E+002 
2136468.085 +1.3697562197E-001 +1.6749318578E+002  +6.3191377394E-003 +7.6361307663E+001  +4.8971975139E-003 -2.8163769585E+001  +1.9441126301E-001 -1.7325216312E+002 
2261613.267 +1.3835169276E-001 +1.6670308985E+002  +7.6900664822E-003 +9.0455568276E+001  +7.9359459668E-003 -4.3074978574E+001  +2.0246292712E-001 -1.7805511199E+002 
2386758.448 +1.3588032403E-001 +1.6530747435E+002  +1.0494201581E-002 +9.2585551946E+001  +9.2433068097E-003 -2.4310116324E+001  +2.2009648560E-001 -1.7822539620E+002 
2511903.630 +1.3846050838E-001 +1.6528060304E+002  +1.1543735270E-002 +1.0614692800E+002  +1.1351643684E-002 -1.4282434355E+001  +2.2940141419E-001 +1.7284948714E+002 
2637048.811 +1.0786699691E-001 +1.6319049587E+002  +3.3768028970E-002 +4.7823439691E+001  +3.8610995177E-002 -4.7638141502E+001  +1.4453375443E-001 -1.7849250550E+002 
2762193.992 +1.3030475183E-001 +1.6967065573E+002  +3.8824660851E-002 +3.1021781427E+001  +3.8871732648E-002 -7.0931238837E+001  +6.0005442505E-002 +1.2299295393E+002 
2887339.174 +1.2677716518E-001 +1.7521440883E+002  +6.2498221632E-002 -8.5949939401E-001  +6.1238421382E-002 -1.1972560624E+002  +1.7648379874E-001 -6.6441922051E+001 
3012484.355 +1.4128280695E-001 +1.6829099448E+002  +6.3691344619E-002 -9.0683483337E+000  +5.4566502223E-002 -1.0596532767E+002  +3.5571212704E-001 -5.6511618490E+001 
3137629.537 +1.3475315524E-001 +1.6944506717E+002  +5.9748390992E-002 +3.7807795485E+001  +6.3250196607E-002 -6.2078278556E+001  +1.6051923481E-001 +6.9038528158E+001 
3262774.718 +1.3072195564E-001 +1.7193235085E+002  +4.4471568044E-002 +5.1531160674E+000  +4.9445207105E-002 -8.6377056975E+001  +5.5645897949E-002 -7.9881646826E+001 
3387919.900 +1.2040887984E-001 +1.5935087255E+002  +7.1427446109E-002 +2.9914999435E+001  +6.9141702536E-002 -4.9562322925E+001  +6.6023740039E-002 +2.1382567404E+001 
3513065.081 +1.6263468454E-001 +1.5666042755E+002  +4.6618126452E-002 +1.2456639483E+002  +3.6249496124E-002 +4.4286589383E+001  +4.6040701526E-001 +1.5094548055E+002 
3638210.263 +1.6461681849E-001 +1.4319169952E+002  +6.8308824437E-002 +8.9059473534E+001  +6.3683946320E-002 +7.9617997056E+000  +2.5398952781E-001 +1.2930998521E+002 
3763355.444 +1.7791988878E-001 +1.5584920529E+002  +3.0737613754E-002 +1.0564774580E+002  +3.2563029274E-002 +3.2339149281E+001  +3.8949559879E-001 +1.5611527837E+002 
3888500.626 +1.6807841822E-001 +1.4761379125E+002  +4.7759804036E-002 +8.9358412437E+001  +4.4625443839E-002 +1.0124929951E+001  +2.9840704954E-001 +1.5850297329E+002 
4013645.807 +1.6402241587E-001 +1.5534753068E+002  +4.3995507135E-002 +7.5051285002E+001  +4.0714441140E-002 +2.6572375282E+000  +2.9954591235E-001 +1.4774432852E+002 
4138790.989 +1.7204973646E-001 +1.3970330612E+002  +8.2645442804E-002 +8.0225617874E+001  +6.9730940346E-002 +2.3035009699E+001  +3.2264374944E-001 +1.3282420161E+002 
4263936.170 +1.8644453095E-001 +1.4626255636E+002  +6.1602741864E-002 +6.5781388623E+001  +5.8516612278E-002 +4.7142145751E+000  +1.4005514712E-001 +1.3573292094E+002 
4389081.352 +1.9881015838E-001 +1.4526051220E+002  +8.2323214087E-002 +8.3287315632E+001  +7.7711104494E-002 +2.6474928649E+001  +3.8429507524E-001 +1.1629469329E+002 
4514226.533 +2.3556954497E-001 +1.4908573003E+002  +5.8371054405E-002 +1.2519686935E+002  +6.1881717317E-002 +7.5660872690E+001  +6.6293766937E-001 +1.4836864630E+002 
4639371.715 +1.9931307145E-001 +1.2020754263E+002  +2.0934997960E-001 +5.2489209357E+001  +1.9679299686E-001 -8.0777396078E-001  +5.7352076667E-001 +3.8469999561E+001 
4764516.896 +2.9755794646E-001 +1.2407783919E+002  +4.3638816440E-001 +9.0946515152E+001  +3.9005677261E-001 +4.5093858505E+001  +2.3004254360E+000 +7.0256334435E+001 
4889662.078 +4.3202821931E-001 +1.3894208216E+002  +7.3873728070E-001 +1.7512432331E+002  +6.9289329768E-001 +1.2677597149E+002  +4.1412092501E+000 +1.4705827666E+002 
5014807.259 +4.9680230031E-001 +1.3729912434E+002  +7.5239044923E-001 +1.5391731336E+002  +6.7719437303E-001 +1.0622495329E+002  +4.0796659813E+000 +1.1277876608E+002 
5139952.441 +3.4371758147E-001 +1.3310219406E+002  +2.4046544099E-001 +1.0659138342E+002  +2.6071706466E-001 +6.1602325928E+001  +1.5802470253E+000 +9.3519668946E+001 
5265097.622 +3.4089564117E-001 +1.2841322586E+002  +1.7793338771E-001 +1.1359173608E+002  +1.8351596910E-001 +7.2356791238E+001  +1.0850168134E+000 +1.2195701684E+002 
5390242.804 +3.1310579160E-001 +1.2792466530E+002  +1.7292591141E-001 +1.0658031710E+002  +1.7967144033E-001 +6.3080618569E+001  +1.2069846433E+000 +1.2553950459E+002 
5515387.985 +3.9758179320E-001 +1.3390193662E+002  +2.7252017470E-001 +1.1327558045E+002  +2.3898465571E-001 +7.8324929075E+001  +1.9785814152E+000 +1.0572067245E+002 
5640533.166 +4.3265596628E-001 +1.2994782848E+002  +1.9618448659E-001 +9.5098472983E+001  +1.9105698844E-001 +6.4396135829E+001  +1.0749728202E+000 +9.6840496336E+001 
5765678.348 +4.0870383805E-001 +1.2478924951E+002  +1.8585572353E-001 +7.7711285660E+001  +1.9636042256E-001 +4.8836839106E+001  +8.8681398936E-001 +9.0951566948E+001 
5890823.529 +4.1989777637E-001 +1.0901071529E+002  +2.9119577676E-001 +6.7314019846E+001  +2.8063054202E-001 +3.4660570870E+001  +1.2610336293E+000 +7.4402260937E+001 
6015968.711 +6.2317581825E-001 +1.1191281034E+002  +3.9804551178E-001 +7.8996983062E+001  +3.8579119111E-001 +5.5577962387E+001  +1.9155855596E+000 +6.9185818208E+001 
6141113.892 +6.4486524009E-001 +1.1841727709E+002  +2.7680536751E-001 +6.4863677102E+001  +2.6471738118E-001 +4.4154857145E+001  +1.3261037272E+000 +4.7769624986E+001 
6266259.074 +6.8598173961E-001 +1.0822292227E+002  +2.9883605463E-001 +5.8882219458E+001  +2.9625140383E-001 +4.0475784673E+001  +1.2431279481E+000 +5.1149859327E+001 
6391404.255 +6.4091959542E-001 +9.5465116841E+001  +3.1870079169E-001 +4.2222520187E+001  +3.2063375876E-001 +2.5158467566E+001  +1.2742149153E+000 +3.9076384951E+001 
6516549.437 +7.7549444306E-001 +8.1367515353E+001  +3.1823797839E-001 +2.9182476101E+001  +3.0912902428E-001 +1.9327921121E+001  +1.0097213576E+000 +1.7547458292E+001 
6641694.618 +1.2109886611E+000 +7.6790266630E+001  +3.8828888796E-001 +4.0534556721E+001  +3.9804516877E-001 +2.7946338744E+001  +1.0862423498E+000 +2.4555374154E+001 
6766839.800 +1.1671927382E+000 +5.6991559798E+001  +3.4709492189E-001 +1.9801546902E+001  +3.6180126150E-001 +1.2082212047E+001  +1.0070477993E+000 +3.9778659633E+000 
6891984.981 +1.2384696471E+000 +3.0566519418E+001  +3.9110705300E-001 +9.7372241483E+000  +3.9188305385E-001 +2.3320292419E+000  +1.0351697504E+000 +7.0220962164E+000 
7017130.163 +8.7971584004E-001 +3.1637937233E+001  +2.8287740920E-001 +1.7404335385E-001  +2.8066529200E-001 -1.9249441292E+000  +9.3298747548E-001 -1.4766951060E+001 
7142275.344 +1.2479621705E+000 +1.1832586225E+001  +3.0324443812E-001 +1.8346301926E+000  +3.0395835547E-001 -1.0312465728E+000  +9.4314090538E-001 -6.2427606831E+000 
7267420.526 +1.1145119550E+000 +4.0324373150E+000  +2.6733516826E-001 +4.3516547261E-001  +2.5092965542E-001 -9.5275068678E-001  +1.0100234324E+000 -9.0593857844E+000 
7392565.707 +1.0489797556E+000 -6.0301050078E+000  +2.3104831319E-001 +3.9602037412E+000  +2.2636069963E-001 +4.1120011743E+000  +1.1232391967E+000 -1.0596400146E+001 
7517710.889 +8.1151988405E-001 -6.3051411193E-001  +2.0191564465E-001 +2.1214742633E+000  +2.0992829198E-001 +4.0900801729E+000  +1.0168712297E+000 -9.5320346676E+000 
7642856.070 +8.9734439418E-001 +4.5030243218E+000  +2.0033029846E-001 +1.2477437165E+000  +1.9935964059E-001 +8.4880385868E+000  +9.0316155155E-001 -8.4248143537E+000 
7768001.252 +7.5689597881E-001 +2.7837831291E+000  +1.8265693196E-001 -1.2788412131E+000  +1.8257596259E-001 +5.2726658615E+000  +7.8904408870E-001 +1.7831539574E-001 
7893146.433 +6.7567941884E-001 +8.5252726261E+000  +1.7698215763E-001 -2.1743594741E+000  +1.7710508688E-001 +4.2098544821E+000  +6.3948911310E-001 +3.4810561745E-002 
8018291.615 +6.4072616083E-001 +8.0681810101E+000  +1.7651842388E-001 -1.3025269009E+000  +1.6869085573E-001 +6.8696045484E+000  +6.1542475974E-001 +2.3221778015E+000 
8143436.796 +5.4173583467E-001 +3.8079870620E+000  +1.6066416951E-001 -4.7966295275E+000  +1.6533888015E-001 +6.0295182964E+000  +6.0773619475E-001 +7.4446120753E+000 
8268581.977 +5.1057116288E-001 +1.6611255782E+001  +1.6181322251E-001 -1.1104880447E+000  +1.5693835763E-001 +7.4720468910E+000  +6.1318987543E-001 +6.3777133524E+000 
8393727.159 +5.2076962513E-001 +1.2106917961E+001  +1.6575714219E-001 -3.4541763266E+000  +1.5816604175E-001 +6.6859348150E+000  +5.7546381163E-001 -2.3505809354E+000 
8518872.340 +4.6999196148E-001 +1.5512898779E+001  +1.5582555507E-001 -4.7598150644E+000  +1.5678430819E-001 +7.8057011677E+000  +5.3744224418E-001 +5.3421496895E+000 
8644017.522 +5.0638788485E-001 +1.2324343101E+001  +1.5694239811E-001 -4.3436913803E+000  +1.5389398712E-001 +9.9055799858E+000  +5.4123117911E-001 +5.0367816921E+000 
8769162.703 +4.0546994191E-001 +7.0328427975E+000  +1.5514342858E-001 -5.7819335642E+000  +1.5181832464E-001 +7.5674064860E+000  +4.3129693494E-001 -2.2675135890E+000 
8894307.885 +4.6413613290E-001 +1.7266664104E+001  +1.5161901220E-001 -4.2299965336E+000  +1.5393819652E-001 +9.8254834018E+000  +4.3678171149E-001 +8.3791829748E-001 
9019453.066 +3.9958867576E-001 +1.4521583273E+001  +1.5418967518E-001 -4.8113566317E+000  +1.5349123429E-001 +8.9499258537E+000  +4.6767274809E-001 -1.7198872586E+000 
9144598.248 +4.2824070583E-001 +9.6028320815E+000  +1.5297150197E-001 -4.0460523642E+000  +1.5457093364E-001 +1.0946871877E+001  +4.5332178425E-001 +4.9918556627E+000 
9269743.429 +4.0564078222E-001 +6.1555062192E+000  +1.5523144709E-001 -6.1114348499E+000  +1.5115930037E-001 +8.3239575160E+000  +4.6406110547E-001 -4.2958589177E+000 
9394888.611 +4.5291661219E-001 +3.4753048333E+000  +1.5559366842E-001 -4.1835501850E+000  +1.5520657192E-001 +1.0239695534E+001  +4.1287459699E-001 +4.7203329683E+000 
9520033.792 +3.6141482281E-001 +1.3786812570E+001  +1.5298813772E-001 -3.3405455769E+000  +1.5274379864E-001 +1.1368857162E+001  +4.2374238220E-001 -2.3827279501E-001 
9645178.974 +3.8209614963E-001 +9.1831881622E+000  +1.4931661290E-001 -4.5164045667E+000  +1.5496413348E-001 +1.1957730767E+001  +4.2997477166E-001 -9.5965862037E-002 
9770324.155 +3.7925728987E-001 +1.1537056273E+001  +1.5263758530E-001 -4.8789736798E+000  +1.5657086892E-001 +1.1495599322E+001  +4.0366938729E-001 -1.6243654191E+000 
9895469.337 +3.2013501816E-001 +7.4139742266E+000  +1.5577742101E-001 -6.4724249132E+000  +1.5462291777E-001 +1.0263723955E+001  +3.9146885356E-001 -3.4073660142E+000 
10020614.518 +3.9050526724E-001 +1.2267226443E+001  +1.5403219547E-001 -1.6934412936E+000  +1.5288460625E-001 +1.1424391469E+001  +4.2525026231E-001 -3.4706332932E+000 
10145759.700 +3.7821917350E-001 +1.3012835103E+001  +1.5354930244E-001 -2.7810496148E+000  +1.5191802057E-001 +1.2307710430E+001  +4.2072599946E-001 +5.0298373272E+000 
10270904.881 +3.6983478189E-001 -1.4353915005E+000  +1.5854971249E-001 -3.7541835929E+000  +1.5861487220E-001 +1.0876178760E+001  +3.8314806844E-001 -3.0849467815E+000 
10396050.063 +4.0625647161E-001 +1.1967767278E+001  +1.5936715285E-001 -2.7459928765E+000  +1.5359418912E-001 +1.2642885361E+001  +4.2589618580E-001 +1.3859290348E+000 
10521195.244 +4.2991359836E-001 +7.2646500728E+000  +1.5716181443E-001 -2.8898840846E+000  +1.5893735222E-001 +1.3032188168E+001  +4.3426004982E-001 +6.2007433480E-001 
10646340.426 +4.2603827757E-001 +1.4821669466E+001  +1.5751118027E-001 -1.6630415686E+000  +1.5683199161E-001 +1.3069139114E+001  +4.2267824862E-001 +1.7685012613E+000 
10771485.607 +3.9998829660E-001 +1.1421406086E+001  +1.5947861841E-001 -2.5071784814E+000  +1.5652350173E-001 +1.1760485485E+001  +4.5301387028E-001 +2.8314327158E+000 
10896630.788 +4.0688014530E-001 +1.0475112977E+001  +1.6161419306E-001 -2.1523762578E+000  +1.6024967279E-001 +1.2663178038E+001  +4.5172604523E-001 +1.9884184308E+000 
11021775.970 +4.3705174183E-001 +9.8964516099E+000  +1.6347972312E-001 -1.3608855386E+000  +1.5732442789E-001 +1.0754925387E+001  +4.3770569687E-001 +6.4745214207E+000 
11146921.151 +4.5832482898E-001 +1.2345390209E+001  +1.6157960932E-001 -1.0641051742E+000  +1.6167054175E-001 +1.2700667483E+001  +4.5575462010E-001 +4.5739577853E+000 
11272066.333 +4.3613356917E-001 +1.3847078510E+001  +1.6357892782E-001 -5.4136818835E-001  +1.6312992445E-001 +1.1896441145E+001  +4.6748504318E-001 +5.4209264781E+000 
11397211.514 +4.1863429279E-001 +8.0971009438E+000  +1.6725925783E-001 -1.0438550220E+000  +1.6490286729E-001 +1.1429748212E+001  +4.4346228754E-001 +4.7617227760E+000 
11522356.696 +4.6278735254E-001 +9.5194696365E+000  +1.6668105130E-001 -2.1805001038E-001  +1.6639082584E-001 +1.0847801118E+001  +4.9106508239E-001 +4.5142287375E+000 
11647501.877 +4.6136902331E-001 +8.9190339166E+000  +1.7099060325E-001 -3.0175206818E-001  +1.6822287930E-001 +1.1009600006E+001  +4.9501486086E-001 +6.5893223186E+000 
11772647.059 +4.8255119155E-001 +9.6284491825E+000  +1.7146015406E-001 +1.3334175715E-001  +1.6863958539E-001 +1.0879256509E+001  +4.9694726869E-001 +4.6622960317E+000 
11897792.240 +4.9755764111E-001 +1.0162208754E+001  +1.7243930924E-001 +5.5869216596E-001  +1.7159026209E-001 +1.0866743856E+001  +5.0336142350E-001 +1.0724482056E+000 
12022937.422 +4.7918062422E-001 +9.0755862019E+000  +1.7392556707E-001 -1.1295252365E-002  +1.7138431150E-001 +9.9275970336E+000  +4.9853572927E-001 +2.2396362988E+000 
12148082.603 +5.0807685463E-001 +5.1059488709E+000  +1.7724625680E-001 +5.4592675296E-001  +1.7755334891E-001 +9.5501822473E+000  +5.1905696758E-001 +5.9898006282E-001 
12273227.785 +5.1322884125E-001 +8.1989194625E+000  +1.7966667780E-001 +1.3206203517E+000  +1.7634664224E-001 +9.5674892489E+000  +5.3030713062E-001 +3.2946583474E+000 
12398372.966 +5.4645789746E-001 +4.9012218447E+000  +1.8006970740E-001 +1.9210147101E+000  +1.8002503361E-001 +8.8835026226E+000  +5.3579880653E-001 +1.5762082341E+000 
12523518.148 +5.4883149359E-001 +4.3519379560E+000  +1.8528186892E-001 +1.8149435802E+000  +1.7915753748E-001 +9.0079477763E+000  +5.7342381548E-001 +6.7681840063E-001 
12648663.329 +5.7326912911E-001 +4.1565861301E+000  +1.8483735126E-001 +1.4745600842E+000  +1.8260066955E-001 +7.7495519396E+000  +5.3907234418E-001 +1.5471671262E+000 
12773808.511 +5.7938414492E-001 +1.8124340931E+000  +1.8744273876E-001 +1.8461384190E+000  +1.8510698692E-001 +7.8765128188E+000  +5.7713227673E-001 -2.9330220836E-001 
12898953.692 +5.7983709027E-001 +1.9299245426E+000  +1.8986737457E-001 +1.0947551805E+000  +1.8757629845E-001 +7.3180061450E+000  +5.7037300547E-001 +8.8165581962E-003 
13024098.874 +6.3710619317E-001 +3.9965153221E+000  +1.8916176476E-001 +2.2751741290E+000  +1.8750406706E-001 +7.3456981620E+000  +5.9678913985E-001 +1.6042159481E+000 
13149244.055 +6.1679838346E-001 +1.6211017674E+000  +1.9300087527E-001 +2.6760480834E+000  +1.9017228718E-001 +6.8134562418E+000  +6.3388833814E-001 -8.4354580092E-001 
13274389.237 +6.3914690557E-001 +9.0265203569E-001  +1.9385358021E-001 +2.6592664405E+000  +1.9192104863E-001 +6.4128704232E+000  +6.2703978518E-001 -2.1418873497E+000 
13399534.418 +6.3187248952E-001 -2.2705563062E-001  +1.9605282627E-001 +1.9676239945E+000  +1.9597282282E-001 +5.4500723958E+000  +6.4200500648E-001 -1.9269097013E+000 
13524679.599 +6.5169330925E-001 -1.1565488908E+000  +1.9638755354E-001 +2.3257759731E+000  +1.9502221882E-001 +5.4416048578E+000  +6.8081865331E-001 +3.4461282504E-001 
13649824.781 +6.6323835798E-001 -6.5549290214E-001  +1.9825477770E-001 +1.8244938746E+000  +1.9612114513E-001 +4.9591202665E+000  +6.7279330765E-001 -2.2000981310E+000 
13774969.962 +7.0358105408E-001 -2.7054819726E+000  +2.0082522610E-001 +2.3716123121E+000  +1.9876668607E-001 +4.0748764538E+000  +7.1004844346E-001 -2.4048994042E+000 
13900115.144 +7.0034129780E-001 -3.1169445481E+000  +2.0200590820E-001 +2.0574076985E+000  +1.9790955561E-001 +4.0352452536E+000  +7.2508459156E-001 -3.2697659255E+000 
14025260.325 +7.0772259793E-001 -4.3366090844E+000  +2.0401296465E-001 +1.8002102402E+000  +2.0109832443E-001 +2.8165816730E+000  +7.2769826667E-001 -3.0790650918E+000 
14150405.507 +7.5239301219E-001 -3.0058585812E+000  +2.0550458918E-001 +1.4871905243E+000  +2.0110437278E-001 +2.7217121547E+000  +7.3392164353E-001 -4.6241748086E+000 
14275550.688 +7.6021300582E-001 -4.7214518697E+000  +2.0457813921E-001 +1.8837601077E+000  +2.0054946958E-001 +2.8176618807E+000  +7.7357071604E-001 -2.2699440239E+000 
14400695.870 +7.5517433202E-001 -6.3445105576E+000  +2.0497628260E-001 +1.3272311828E+000  +2.0401692328E-001 +1.8949034398E+000  +7.7432478416E-001 -5.0407941312E+000 
