!  2-Port S-parameters saved by WinCal
! VAR MeasName=S-Parameters (CALIBRATED_DATA) read from VNA (P5004A)
! VAR MeasDate=29/08/2024 11:03:16
! VAR NAME=S2_r9c3_pristine_9k-100M_1
! VAR FILENAME=S2_r9c3_pristine_9k-100M_1.S2P
! VAR DATE=29/08/2024 11:03:16
! VAR PHYS_PORTS=1,2
! VAR ObjTypeName=DATASET
! VAR IndexType=Frequency
!
# Hz S MA R 50
9000.000 +9.1503551373E-002 -1.7334116024E+002  +4.6692777404E-003 +1.1462431365E+002  +9.3723157409E-004 -1.0951054966E+002  +2.9305908261E-001 -1.4341686297E+002 
134145.181 +1.1117198761E-001 +1.6930948133E+002  +4.1877764592E-004 +7.2875586566E+001  +6.2984251793E-004 +8.1178844874E+001  +2.3914852867E-001 -1.7009499968E+002 
259290.363 +1.1242488183E-001 +1.7030272809E+002  +3.4301007739E-004 +6.3952467231E+001  +3.2726214589E-004 +3.1798470499E+001  +2.3850493052E-001 -1.7070431517E+002 
384435.544 +1.1441793798E-001 +1.6983382941E+002  +1.5359366843E-003 -8.7948345423E+001  +6.3040351945E-004 +7.2300661151E+001  +2.4026982326E-001 -1.6903261374E+002 
509580.726 +1.1574133199E-001 +1.7048058326E+002  +1.2606444980E-003 -1.9853978263E+001  +1.3953104581E-003 +9.1824996669E+001  +2.4148924395E-001 -1.6506202634E+002 
634725.907 +1.1405030333E-001 +1.7100608014E+002  +1.7673731533E-003 -8.6016039874E+001  +2.1469085008E-003 +1.0127172528E+002  +2.4164277825E-001 -1.6236559928E+002 
759871.089 +1.1945262503E-001 +1.7004645714E+002  +5.1972084802E-004 -5.1324841532E+001  +1.8310711961E-003 +1.1602951249E+002  +2.4557931503E-001 -1.6766259727E+002 
885016.270 +1.2091456353E-001 +1.6869697960E+002  +5.7702392780E-004 -4.8739336837E+001  +8.2058858155E-004 +1.4452421893E+002  +2.4329826999E-001 -1.6835892044E+002 
1010161.452 +1.1927897181E-001 +1.6923472183E+002  +2.0250579536E-003 +2.7681105153E+001  +2.5917733854E-003 +1.5243108200E+002  +2.1491331399E-001 -1.6885882338E+002 
1135306.633 +1.1884768097E-001 +1.6771803756E+002  +2.1863348928E-003 +9.4431734864E+000  +3.3166263810E-003 -1.2421535276E+002  +1.9258332335E-001 -1.6695858914E+002 
1260451.815 +1.1968427813E-001 +1.6994736102E+002  +3.2347691510E-003 -7.0629208520E+000  +3.2961621099E-003 +1.5026816751E+002  +2.1912953603E-001 -1.5919327542E+002 
1385596.996 +1.2995614350E-001 +1.7316304202E+002  +3.3296521199E-003 -9.2838110980E+001  +3.7298068880E-003 +1.5493531293E+002  +2.4087386356E-001 -1.5267784890E+002 
1510742.178 +1.2571117883E-001 +1.7111521034E+002  +2.5827038039E-003 -6.0452755822E+001  +2.7392393718E-003 +1.4129352261E+002  +2.5885719194E-001 -1.5880693808E+002 
1635887.359 +1.2876082742E-001 +1.7026948404E+002  +1.8241894388E-003 +4.3073468824E+001  +3.3041615544E-003 -1.5022228172E+002  +2.2206352595E-001 -1.5779981206E+002 
1761032.541 +1.3150566453E-001 +1.6974552101E+002  +3.0063491037E-003 +3.6335047608E+001  +1.8864811480E-003 -1.4480281846E+002  +2.4022073712E-001 -1.6179438881E+002 
1886177.722 +1.3119614093E-001 +1.6807358327E+002  +3.6544155995E-003 +4.2781117760E+001  +4.7701756114E-003 -8.2099989433E+001  +2.2514282539E-001 -1.6135823103E+002 
2011322.904 +1.2894695608E-001 +1.6779556590E+002  +9.0028457054E-003 +5.1851613563E+001  +9.1309973767E-003 -7.2981979676E+001  +2.0541048736E-001 -1.5969232384E+002 
2136468.085 +1.2420012584E-001 +1.6665009600E+002  +1.3035353304E-002 +5.8038007891E+001  +1.3624802521E-002 -5.4465628437E+001  +1.9759558444E-001 -1.6607948186E+002 
2261613.267 +1.3592119734E-001 +1.6584040187E+002  +1.4700921501E-002 +7.2386233477E+001  +1.3024937195E-002 -5.1651005718E+001  +1.8507999217E-001 -1.6137087771E+002 
2386758.448 +1.4221605323E-001 +1.6489928511E+002  +1.5186051729E-002 +8.5588959377E+001  +1.5102504434E-002 -2.7442875931E+001  +1.9022973853E-001 -1.7604268720E+002 
2511903.630 +1.3314660842E-001 +1.6842157698E+002  +2.7129817031E-002 +7.5645629877E+001  +2.7755023104E-002 -4.2926883588E+001  +1.6999969865E-001 +1.7390429438E+002 
2637048.811 +1.0468794071E-001 +1.6963009390E+002  +6.5459429357E-002 +3.0369840501E+001  +7.2636123981E-002 -7.4648017212E+001  +1.2821358584E-001 -1.2515425416E+002 
2762193.992 +1.1214157913E-001 -1.7074644289E+002  +1.6014865193E-001 +2.4932540151E+001  +1.6657365621E-001 -7.7692153761E+001  +3.1503366259E-001 +1.6060409446E+001 
2887339.174 +1.2831699711E-001 +1.7448207602E+002  +4.5173269789E-002 +2.7396535626E+001  +4.3818775070E-002 -7.5654004159E+001  +1.3258369819E-001 -1.6455934426E+002 
3012484.355 +1.3034025580E-001 +1.7081683001E+002  +4.8716961617E-002 +2.0807632487E+001  +4.5172531660E-002 -7.0045400052E+001  +1.3101032248E-001 -1.4704202262E+002 
3137629.537 +1.4315782097E-001 +1.7709241858E+002  +4.3110951450E-002 -2.0346629919E+001  +3.7715566594E-002 -1.1313674774E+002  +2.2835332780E-001 -1.2963260797E+002 
3262774.718 +1.3734859653E-001 +1.7040296589E+002  +6.7434190822E-002 +3.4235068878E+001  +6.3101726223E-002 -5.9356603604E+001  +3.0436105234E-002 +1.5944351730E+002 
3387919.900 +1.3445890738E-001 +1.6967959930E+002  +8.7747856396E-002 +3.4312250474E+001  +8.5912798278E-002 -5.3460648221E+001  +6.5624895213E-002 +3.7906727216E+001 
3513065.081 +1.5029080072E-001 +1.5613380665E+002  +9.6401981037E-002 +7.0538487961E+001  +8.3828159049E-002 -6.9669166607E+000  +1.9455938378E-001 +9.6427226712E+001 
3638210.263 +1.6919473059E-001 +1.4904618604E+002  +8.9113271077E-002 +1.1526549108E+002  +9.5674128587E-002 +3.9908163196E+001  +4.9467785923E-001 +1.4210785428E+002 
3763355.444 +1.7041835898E-001 +1.5431314218E+002  +9.0615844714E-002 +1.0636184881E+002  +9.6532079066E-002 +2.4177343515E+001  +4.4343617014E-001 +1.2888096486E+002 
3888500.626 +1.7110702918E-001 +1.5436685376E+002  +1.1058908818E-001 +7.9196590474E+001  +1.0480571703E-001 +1.4522220073E+001  +3.8317433439E-001 +1.0412674998E+002 
4013645.807 +2.0174534887E-001 +1.4634151750E+002  +8.1383242877E-002 +1.0481232327E+002  +7.1816112652E-002 +3.3344140714E+001  +2.8662023228E-001 +1.5320819082E+002 
4138790.989 +1.6147580467E-001 +1.5201233082E+002  +9.9836805589E-002 +7.2500051048E+001  +9.8333118295E-002 +9.0234431795E+000  +2.8562879418E-001 +1.3126560968E+002 
4263936.170 +1.7587758889E-001 +1.5985735628E+002  +6.8111164210E-002 +7.5751677318E+001  +6.5704660521E-002 +8.0572624595E+000  +3.2652825793E-001 +1.5406126129E+002 
4389081.352 +1.7949496322E-001 +1.4278352215E+002  +1.3700139368E-001 +1.0654529832E+002  +1.4046034376E-001 +4.4535963972E+001  +6.4039409229E-001 +1.4259025060E+002 
4514226.533 +2.1430483596E-001 +1.4679048027E+002  +1.4081091868E-001 +9.3266069447E+001  +1.3522407573E-001 +4.0243747873E+001  +5.6705997967E-001 +1.1918405397E+002 
4639371.715 +2.4491259397E-001 +1.3929261875E+002  +1.9796578812E-001 +1.2675448710E+002  +1.8570431595E-001 +7.0707619412E+001  +9.1652074433E-001 +1.3753628334E+002 
4764516.896 +3.4421821468E-001 +9.8726933900E+001  +5.5178905688E-001 +1.0791181951E+002  +5.3006631922E-001 +5.5289928959E+001  +1.4025605655E+000 +1.1259479409E+002 
4889662.078 +5.2660083055E-001 +1.2927754753E+002  +9.8722607440E-001 +1.4150692101E+002  +9.9544514377E-001 +9.0440776524E+001  +3.7331376193E+000 +1.1762355492E+002 
5014807.259 +4.4458914465E-001 +1.3846904760E+002  +5.1006334626E-001 +1.6078267385E+002  +5.0073271774E-001 +1.1587937903E+002  +2.0139865431E+000 +1.4062673301E+002 
5139952.441 +4.2674698860E-001 +1.4056795913E+002  +4.8236833096E-001 -1.7693406190E+002  +4.8146710005E-001 +1.4289408231E+002  +2.1087372940E+000 +1.6847245934E+002 
5265097.622 +3.0559278759E-001 +1.2615534368E+002  +2.5861958353E-001 +9.0868627706E+001  +2.5877901289E-001 +5.0708772746E+001  +8.1935238324E-001 +1.0951007313E+002 
5390242.804 +3.3252164577E-001 +1.3650383524E+002  +2.2009486174E-001 +8.3735038948E+001  +2.0403024404E-001 +5.0973926173E+001  +6.7830359247E-001 +9.7041387175E+001 
5515387.985 +3.5102502429E-001 +1.3514122189E+002  +2.4157715253E-001 +1.0016235076E+002  +2.3648547719E-001 +6.6029533445E+001  +1.0649602093E+000 +1.1747739561E+002 
5640533.166 +4.1171613741E-001 +1.2715240903E+002  +3.0315766601E-001 +9.7303689978E+001  +3.1597861768E-001 +6.7872178292E+001  +1.1624816359E+000 +1.1037219691E+002 
5765678.348 +4.8028441134E-001 +1.2896679415E+002  +3.1452058841E-001 +1.1104544301E+002  +3.2276368781E-001 +8.2260737460E+001  +1.3285960413E+000 +1.2001963185E+002 
5890823.529 +4.0702765286E-001 +1.2596771073E+002  +3.2922803008E-001 +8.4107964670E+001  +3.1714427523E-001 +6.1644670368E+001  +1.3397409664E+000 +1.0512213412E+002 
6015968.711 +5.3465133425E-001 +1.1956689785E+002  +4.3240775339E-001 +7.4375759747E+001  +4.1894827773E-001 +5.3164249367E+001  +1.4162400194E+000 +7.2341092496E+001 
6141113.892 +5.4135266031E-001 +1.1207083677E+002  +4.1251512169E-001 +7.1280920290E+001  +3.9461638107E-001 +5.0215159022E+001  +1.1797926576E+000 +8.2546382409E+001 
6266259.074 +4.8046197619E-001 +1.1115767228E+002  +3.8398053248E-001 +5.8927956554E+001  +3.7893509020E-001 +4.0143820673E+001  +1.1412822463E+000 +7.9037818717E+001 
6391404.255 +5.6134287840E-001 +1.0128396847E+002  +3.8992885150E-001 +4.3254218366E+001  +3.7448091264E-001 +2.7752351510E+001  +7.4008828802E-001 +4.6885561040E+001 
6516549.437 +6.4043819064E-001 +7.0849974982E+001  +5.6044573916E-001 +2.8734965151E+001  +5.5579370847E-001 +1.6419168489E+001  +1.0043751476E+000 +3.3925770543E+001 
6641694.618 +7.5921098827E-001 +6.7890459842E+001  +5.5758632171E-001 +2.3793722404E+001  +5.4494131573E-001 +1.3577136943E+001  +9.8964464979E-001 +2.1368328347E+001 
6766839.800 +9.5337660099E-001 +6.1094051437E+001  +5.6536535367E-001 +2.4548492543E+001  +5.6610505799E-001 +1.4479113674E+001  +8.9144312603E-001 +1.1477189657E+001 
6891984.981 +8.4148923771E-001 +3.3029671429E+001  +5.5321701713E-001 +9.1398962850E+000  +5.3930797512E-001 +1.3285733013E+000  +8.3602045837E-001 +1.3555074161E+001 
7017130.163 +8.2333432104E-001 +2.8166431164E+001  +5.0314530776E-001 +4.3493396972E+000  +5.0775372351E-001 -1.1908453226E+000  +9.6460672485E-001 +7.4403903079E+000 
7142275.344 +6.9969564407E-001 -3.5911142756E+000  +4.6065425260E-001 -3.6891578773E+000  +4.6676187128E-001 -6.2088102971E+000  +9.3869309237E-001 +1.6182167727E+000 
7267420.526 +6.9884253001E-001 -1.1452379800E+000  +4.1748039232E-001 -8.5465937427E-001  +4.1397835710E-001 -1.6014493128E+000  +9.1363730307E-001 -6.1433498196E+000 
7392565.707 +8.9282858531E-001 +2.6368408788E+000  +3.9112472867E-001 +4.6384467615E+000  +3.9328871821E-001 +4.7212297639E+000  +8.2979617062E-001 -3.2455657701E+000 
7517710.889 +7.0948992853E-001 -4.2714533398E-001  +3.6114183504E-001 +2.7021824046E+000  +3.5023502423E-001 +4.3011163417E+000  +7.9598067927E-001 -1.0879817812E+001 
7642856.070 +5.7388280814E-001 +8.9188870472E+000  +3.3680244622E-001 +1.7521218637E+000  +3.3069166163E-001 +4.3220248094E+000  +7.6596459437E-001 -3.2374874846E+000 
7768001.252 +5.3320272105E-001 +5.2164725124E+000  +3.2436592434E-001 -5.7671493269E-001  +3.2189954923E-001 +5.0908297595E+000  +6.2745158840E-001 -5.9942913913E+000 
7893146.433 +4.5126338612E-001 +8.1155064714E+000  +3.1206010367E-001 -1.2779596274E+000  +3.0674165714E-001 +4.2312918745E+000  +5.5271724354E-001 +4.1357968199E-001 
8018291.615 +4.2638967510E-001 +1.6695814286E+001  +3.0280219802E-001 -2.4389262919E+000  +2.9522661632E-001 +6.1220683645E+000  +5.5020447833E-001 +3.1295857950E-002 
8143436.796 +4.3230830818E-001 +9.3730788673E+000  +2.8998799375E-001 -3.2328960685E+000  +2.9196024203E-001 +5.6680937189E+000  +4.8632401696E-001 +6.3558772163E+000 
8268581.977 +3.6786200549E-001 +9.8234933314E+000  +2.8911185587E-001 -3.5325313694E+000  +2.8574199685E-001 +7.7889192744E+000  +4.8652006665E-001 +2.5733366804E+000 
8393727.159 +3.6166844990E-001 +1.8767951934E+001  +2.7816159901E-001 -3.8940883134E+000  +2.7463356257E-001 +6.4362926328E+000  +4.2691621454E-001 +5.2784655837E+000 
8518872.340 +4.1715225160E-001 +1.5322386770E+001  +2.7974999180E-001 -2.7696555768E+000  +2.7973199305E-001 +8.3787709103E+000  +3.8772253675E-001 +1.2527968893E+001 
8644017.522 +3.5309663510E-001 +1.3739133273E+001  +2.7093568804E-001 -5.2661838419E+000  +2.6947457094E-001 +7.3991274341E+000  +3.4904091941E-001 +1.4529437284E+001 
8769162.703 +3.9167278391E-001 +9.2467554162E+000  +2.7668011026E-001 -5.1727828199E+000  +2.7072976185E-001 +8.4719392315E+000  +3.6570581463E-001 +1.3225234201E+001 
8894307.885 +2.8694266514E-001 +2.1272243693E+001  +2.6119795125E-001 -5.8529757638E+000  +2.6589583112E-001 +7.5842894588E+000  +3.4184768019E-001 +1.5731851879E+001 
9019453.066 +3.4375961280E-001 +2.0548437926E+001  +2.6310043966E-001 -4.8116294441E+000  +2.5762566098E-001 +8.6810203489E+000  +3.1893271548E-001 +1.5058218648E+001 
9144598.248 +2.9585369792E-001 +1.9038655458E+001  +2.6183016063E-001 -6.0976659461E+000  +2.6378919640E-001 +8.8665007994E+000  +3.4156382643E-001 +1.2756228025E+001 
9269743.429 +2.9893596697E-001 +1.7496534727E+001  +2.6754357380E-001 -5.6825045709E+000  +2.6437448646E-001 +8.9410889512E+000  +2.5932973031E-001 +2.2717208549E+000 
9394888.611 +3.0214744065E-001 +1.1915216248E+001  +2.6746002749E-001 -6.0107536247E+000  +2.6333758739E-001 +1.0038436977E+001  +3.1722999474E-001 +6.0683960840E+000 
9520033.792 +3.1322309075E-001 +1.7953699782E+001  +2.6484607903E-001 -5.6351582231E+000  +2.6098566297E-001 +9.8929836913E+000  +2.7287438705E-001 +7.2231358985E+000 
9645178.974 +3.2084500189E-001 +1.3827172413E+001  +2.6917618872E-001 -5.4778718023E+000  +2.6480802321E-001 +1.0929024290E+001  +2.8067136292E-001 -6.3839267053E+000 
9770324.155 +2.1417305160E-001 +3.2155613577E+000  +2.6858752290E-001 -5.9487803295E+000  +2.6633370331E-001 +9.4690681514E+000  +2.8326957028E-001 +4.1402135964E+000 
9895469.337 +2.6986859948E-001 +1.1018932925E+001  +2.6614150781E-001 -5.7751031691E+000  +2.6211908604E-001 +1.0596353821E+001  +3.1937248885E-001 +1.1358083928E+001 
10020614.518 +2.7985173399E-001 +1.4132802820E+001  +2.6672601357E-001 -5.0865190010E+000  +2.6453100599E-001 +1.0851172800E+001  +3.0494210281E-001 +6.6522221806E+000 
10145759.700 +2.9812793790E-001 +9.6048683162E+000  +2.6812499768E-001 -4.9033113829E+000  +2.6815649389E-001 +1.0913638026E+001  +3.0377407634E-001 +4.3922552698E+000 
10270904.881 +3.0401116678E-001 +1.4969806149E+001  +2.6865481317E-001 -4.7129504693E+000  +2.7262400254E-001 +1.1487109130E+001  +2.9297683527E-001 +7.6152342000E-001 
10396050.063 +2.8762577162E-001 +1.8515631664E+001  +2.6802863694E-001 -4.1577112606E+000  +2.6903644520E-001 +1.1418955277E+001  +3.0350398279E-001 +9.0508195475E+000 
10521195.244 +2.8841899948E-001 +1.5305535628E+001  +2.7117257724E-001 -3.9848959877E+000  +2.7424254762E-001 +1.1462744162E+001  +3.3029019474E-001 +7.8037311890E+000 
10646340.426 +3.0338492681E-001 +1.2035855523E+001  +2.7536224858E-001 -3.2370109567E+000  +2.7176282188E-001 +1.1703318364E+001  +3.1796935515E-001 +9.2413660922E+000 
10771485.607 +2.6729366504E-001 +1.8255512052E+001  +2.7357912200E-001 -3.9150397172E+000  +2.7350819330E-001 +1.1224520098E+001  +3.3794392353E-001 +1.0306173454E+001 
10896630.788 +2.9469099210E-001 +1.0961853259E+001  +2.7916917293E-001 -2.8907709929E+000  +2.7529831833E-001 +1.1295916612E+001  +3.0535961646E-001 +1.2119079979E+001 
11021775.970 +3.1442752740E-001 +1.8825857678E+001  +2.7810614441E-001 -2.6704285980E+000  +2.7352109592E-001 +1.0706452354E+001  +3.2557877449E-001 +1.2008848150E+001 
11146921.151 +3.2049739009E-001 +1.8439556750E+001  +2.8162310425E-001 -2.1037728092E+000  +2.7941463952E-001 +1.1208670520E+001  +3.3174135364E-001 +1.1027149243E+001 
11272066.333 +3.3338131450E-001 +1.7802494609E+001  +2.8193358026E-001 -2.3045271817E+000  +2.7767783866E-001 +1.1315608179E+001  +3.1671930560E-001 +1.2693837561E+001 
11397211.514 +3.3343520048E-001 +1.5570687300E+001  +2.8425115473E-001 -2.3045272766E+000  +2.8290295485E-001 +1.0433640036E+001  +3.3151532639E-001 +1.3993011136E+001 
11522356.696 +3.2716978836E-001 +1.2529554673E+001  +2.8964342703E-001 -1.7410447474E+000  +2.8689211423E-001 +1.0590873220E+001  +3.6826047449E-001 +1.1042429901E+001 
11647501.877 +3.5528308448E-001 +1.6597898412E+001  +2.8985883229E-001 -1.0443014803E+000  +2.8723938553E-001 +1.0179611696E+001  +3.5491628101E-001 +9.9755760586E+000 
11772647.059 +3.5288136083E-001 +1.1760798298E+001  +2.9589781252E-001 -1.3230639076E+000  +2.9302785581E-001 +9.7266045820E+000  +3.5919396979E-001 +7.0762660772E+000 
11897792.240 +3.6175776195E-001 +1.5535280989E+001  +2.9545299716E-001 -3.7248920494E-001  +2.9301111419E-001 +9.7564417113E+000  +3.8205187134E-001 +9.9608538378E+000 
12022937.422 +3.8664658514E-001 +1.2326001922E+001  +3.0130649267E-001 +1.4907155844E-001  +2.9827173515E-001 +9.5293101299E+000  +3.9058833759E-001 +1.0811730344E+001 
12148082.603 +3.7806509312E-001 +1.3118496409E+001  +3.0352443416E-001 -1.9166906586E-001  +3.0122105573E-001 +9.4874854397E+000  +4.0743553083E-001 +5.5072104667E+000 
12273227.785 +4.1359272762E-001 +1.0011762982E+001  +3.0796469294E-001 +4.8377387057E-001  +3.0617498683E-001 +9.0848306211E+000  +3.9349585327E-001 +5.8288762918E+000 
12398372.966 +3.8592242630E-001 +5.8285651727E+000  +3.1143239352E-001 +1.6063770872E-001  +3.0890316008E-001 +7.9465970572E+000  +4.1142906483E-001 +3.5520269019E+000 
12523518.148 +4.2782157780E-001 +5.2452640567E+000  +3.1681184286E-001 +8.1802717158E-001  +3.1395548556E-001 +7.9718137102E+000  +4.3911709677E-001 +2.9297733811E+000 
12648663.329 +4.6226719828E-001 +4.7320066740E+000  +3.1965492016E-001 +1.4505782710E+000  +3.1490660865E-001 +8.3288174289E+000  +4.5551173355E-001 +4.7741632517E+000 
12773808.511 +4.4078445160E-001 +5.3460183343E+000  +3.2112027615E-001 +1.2948529045E+000  +3.1704160600E-001 +7.3353024983E+000  +4.4390772918E-001 +2.1052516077E+000 
12898953.692 +4.4679004119E-001 +4.9489518368E+000  +3.2388182678E-001 +1.1010850311E+000  +3.2057298657E-001 +6.7027197267E+000  +4.7374069542E-001 +2.7618284226E+000 
13024098.874 +4.3689802833E-001 +4.1754757379E+000  +3.2638989664E-001 +1.0598345491E+000  +3.2278174940E-001 +6.0846927772E+000  +4.6883625933E-001 +3.1852998046E+000 
13149244.055 +4.6473762902E-001 +3.3806175920E+000  +3.3168240381E-001 +7.3497499025E-001  +3.2750086738E-001 +5.3257242368E+000  +4.4221509253E-001 +2.8937852959E-001 
13274389.237 +4.8533659823E-001 +3.2671404685E+000  +3.3244325730E-001 +1.7660564899E+000  +3.2858865409E-001 +5.5542203406E+000  +5.0837599970E-001 +4.0712473786E+000 
13399534.418 +5.0264310338E-001 +2.9223831940E+000  +3.3482215904E-001 +1.7158275679E+000  +3.3098603400E-001 +4.9202550395E+000  +5.0164030916E-001 +1.1519088300E+000 
13524679.599 +5.0741258159E-001 -2.2312859031E+000  +3.4130575277E-001 +1.2721257593E+000  +3.3774862742E-001 +4.5154775107E+000  +5.1960466362E-001 -6.5383108898E-002 
13649824.781 +5.2546211206E-001 +6.3145635159E-002  +3.4268149527E-001 +1.2489952923E+000  +3.3889093875E-001 +3.7310116777E+000  +5.1900260326E-001 -7.7365288225E-001 
13774969.962 +5.2724994997E-001 -1.8712650288E+000  +3.4375458381E-001 +9.4378651605E-001  +3.4055038401E-001 +3.3901159158E+000  +5.4078164409E-001 -1.6976879106E+000 
13900115.144 +5.4679279723E-001 -3.8679330865E+000  +3.5097350989E-001 +1.1044173404E+000  +3.4555450068E-001 +2.6200609170E+000  +5.3602361019E-001 -3.1489988830E+000 
14025260.325 +5.6994523949E-001 -4.4401595008E+000  +3.5282106132E-001 +9.5611456283E-001  +3.4764184326E-001 +2.5435558729E+000  +5.5734370559E-001 -6.3695054839E+000 
14150405.507 +5.8312963406E-001 -4.1278587163E+000  +3.5385687728E-001 +1.3526213645E+000  +3.4990201456E-001 +2.3040018191E+000  +5.9227167138E-001 -4.5129398447E+000 
14275550.688 +5.9281898907E-001 -5.9981705172E+000  +3.5554690995E-001 +1.0631137299E+000  +3.4963253743E-001 +1.7582040562E+000  +5.9229941202E-001 -2.7293039265E+000 
14400695.870 +6.0341567715E-001 -3.7219161853E+000  +3.5424984964E-001 +1.0156468962E+000  +3.5021021056E-001 +1.4833085279E+000  +6.2871722343E-001 -3.6727408121E+000 
