!  2-Port S-parameters saved by WinCal
! VAR NAME=S2_r9c9_formed(1)_9k-100M_3
! VAR DATE=30/08/2024 12:18:49
! VAR FILENAME=S2_r9c9_formed(1)_9k-100M_3.S2P
! VAR MeasName=S-Parameters (CALIBRATED_DATA) read from VNA (P5004A)
! VAR MeasDate=28/08/2024 17:07:24
! VAR PHYS_PORTS=1,2
! VAR ObjTypeName=DATASET
! VAR IndexType=Frequency
!
# Hz S MA R 50
9000.000 +1.0975812830E-001 -1.4570296813E+002  +7.1489100752E-003 +9.3959204727E+001  +1.2029237133E-002 -6.8599217679E+000  +2.5061360246E-001 -1.4835076351E+002 
134145.181 +1.1102125194E-001 +1.6973884936E+002  +3.7497721305E-004 -4.2678172583E+001  +3.4290078429E-004 +1.1101044720E+002  +2.3867087272E-001 -1.7100983504E+002 
259290.363 +1.1207914366E-001 +1.6980960962E+002  +6.1699948568E-004 +3.5320071874E+001  +5.9417893131E-004 +7.6055894973E+001  +2.4785438934E-001 -1.6843888293E+002 
384435.544 +1.1458285514E-001 +1.7014809005E+002  +3.8247431538E-004 +1.3010398583E+002  +4.8136281155E-004 -4.1466861114E+001  +2.4573014112E-001 -1.7000738022E+002 
509580.726 +1.1403662374E-001 +1.7135324612E+002  +1.7841850542E-003 -5.7344640706E+001  +2.4060491610E-003 +1.2056087698E+002  +2.4640060389E-001 -1.6528328022E+002 
634725.907 +1.1773700310E-001 +1.7105469285E+002  +1.2613586300E-003 +1.6073431436E+002  +4.0077757155E-004 +1.7349621473E+002  +2.5467224330E-001 -1.6351500081E+002 
759871.089 +1.2061507755E-001 +1.7120576962E+002  +4.0016978786E-004 -1.3697708392E+002  +4.3435348200E-004 -5.9276973760E+001  +2.5021752276E-001 -1.6664942295E+002 
885016.270 +1.2050080406E-001 +1.6895057017E+002  +1.5505961555E-004 -2.8652728641E+001  +2.2413053490E-004 +1.1750512253E+002  +2.4842199552E-001 -1.6662395755E+002 
1010161.452 +1.1580817218E-001 +1.6898737861E+002  +8.7831404285E-004 +1.7170961601E+002  +5.7113079391E-004 -7.1525496129E+001  +2.0024653737E-001 -1.5966471694E+002 
1135306.633 +1.1352821623E-001 +1.7014606453E+002  +8.4992087724E-004 +1.5965416428E+002  +1.1197264696E-003 +1.4457274248E+002  +1.8848667490E-001 -1.6588193974E+002 
1260451.815 +1.2019639991E-001 +1.6986069608E+002  +2.1546264131E-003 -1.0910407323E+001  +1.6662866609E-003 -1.4275555397E+002  +2.2478401650E-001 -1.5588463291E+002 
1385596.996 +1.2248204651E-001 +1.7192164040E+002  +1.3294491582E-004 +1.2900538817E+002  +5.2485907074E-004 +9.6901959542E+001  +2.7986595592E-001 -1.5666442315E+002 
1510742.178 +1.2701348268E-001 +1.7196668588E+002  +5.3517645829E-004 -1.7759322152E+002  +6.1306219600E-004 -1.4721662926E+002  +2.6420409378E-001 -1.6117510090E+002 
1635887.359 +1.2838273524E-001 +1.7089093615E+002  +1.4135393340E-003 +7.3824288664E+001  +8.9744628866E-004 +1.1919085169E+002  +2.4688655594E-001 -1.5741916626E+002 
1761032.541 +1.2517764518E-001 +1.7171993167E+002  +8.3251411425E-004 +1.5203018289E+001  +1.4613566562E-003 +9.0623430622E+001  +2.3902559495E-001 -1.5899975789E+002 
1886177.722 +1.3034855542E-001 +1.6963852400E+002  +6.3711345885E-004 +4.8058644135E+001  +1.6825968571E-003 +1.5206295324E+001  +1.7955720862E-001 -1.6358081973E+002 
2011322.904 +1.2497835147E-001 +1.6836542680E+002  +3.8513932440E-004 -6.8155322056E+001  +1.5508977317E-003 -6.0263574137E+001  +2.2452962414E-001 -1.6473214288E+002 
2136468.085 +1.3092944392E-001 +1.6646783553E+002  +1.9119484821E-003 +1.5153592097E+002  +2.0156006518E-003 -1.8667469621E+001  +2.1532034277E-001 -1.7192851710E+002 
2261613.267 +1.3161499259E-001 +1.6497897645E+002  +4.2951873222E-003 +5.9408767030E+001  +1.0806152412E-003 -7.0826638500E+001  +1.9242192973E-001 -1.7439475113E+002 
2386758.448 +1.3475158981E-001 +1.6245363587E+002  +2.1409494311E-003 -1.1596554399E+002  +9.6495299998E-003 +2.0892894030E+001  +2.2060629624E-001 +1.6704257999E+002 
2511903.630 +1.3475316363E-001 +1.6320994781E+002  +2.5098908035E-003 +1.2999404726E+001  +5.3801710875E-003 -2.8772626544E+001  +1.9202234317E-001 -1.7324872655E+002 
2637048.811 +1.2191249399E-001 +1.5475547662E+002  +1.4458449836E-002 +1.0337968895E+002  +1.2441731697E-002 -5.5344316258E+001  +1.3635250235E-001 +1.7284452982E+002 
2762193.992 +1.2000774194E-001 +1.7379206499E+002  +1.1442529953E-002 +2.7961238671E+001  +1.5035819616E-002 -3.2822941040E+001  +4.9262480068E-001 +1.4805192055E+002 
2887339.174 +1.2730823230E-001 +1.7612240132E+002  +8.0070948430E-003 -5.6853464609E+001  +1.1072712681E-002 -1.3693623869E+002  +2.2954150985E-001 -1.0785240529E+002 
3012484.355 +1.2882437881E-001 +1.6803555895E+002  +1.5998887680E-002 -1.9807086010E+001  +1.2790825356E-002 -1.3982856745E+002  +1.4725960778E-001 -7.4481013595E+001 
3137629.537 +1.2672457689E-001 +1.7053599092E+002  +1.0104124995E-002 +5.6731888457E+001  +1.2482948271E-002 -1.1020360358E+002  +8.5988291220E-002 -8.0581223330E+001 
3262774.718 +1.1888746064E-001 +1.5859541502E+002  +1.4138551618E-002 +4.9369580828E+001  +1.4624646925E-002 -5.9925277078E+001  +1.3343001588E-001 +1.4524376564E+002 
3387919.900 +1.0547927099E-001 +1.6165820670E+002  +2.4841396110E-002 +4.5891310504E+001  +1.6362265228E-002 -6.0239844638E+001  +3.0143302173E-001 +1.1466179313E+002 
3513065.081 +1.3825401625E-001 +1.5019888048E+002  +2.8588417228E-002 +4.9403924175E+001  +1.2906216753E-002 -3.8916671158E+001  +2.7014305291E-001 +1.0191061575E+002 
3638210.263 +1.7182147108E-001 +1.4785066405E+002  +3.0999150454E-002 +1.0922037768E+002  +3.1644190117E-002 -3.4742666310E+001  +3.2202581666E-001 +5.6087783081E+001 
3763355.444 +1.6031080355E-001 +1.4942531547E+002  +1.7397356351E-002 +7.6465464541E+001  +1.3354327730E-002 +5.9833531359E+000  +3.1116930350E-001 +1.0551766649E+002 
3888500.626 +1.8861209239E-001 +1.5128874251E+002  +9.4854944008E-003 +1.1801059758E+002  +6.4831090030E-003 -2.6059051035E+001  +2.1427719280E-001 +1.6055567082E+002 
4013645.807 +1.8583551479E-001 +1.3956694744E+002  +1.6191456984E-002 +5.1966528261E+001  +1.4489794016E-002 -7.6805273569E-001  +1.7821263871E-001 +1.1431449150E+002 
4138790.989 +1.8233355044E-001 +1.4042703957E+002  +3.8968274870E-002 +1.2704515219E+002  +3.4065030195E-002 +2.5993105016E+001  +7.3385133286E-001 +1.2594805346E+002 
4263936.170 +1.9450858312E-001 +1.4722073246E+002  +1.9174521626E-002 +9.6566675130E+001  +9.9330724976E-003 +1.9471527598E+001  +3.2632988797E-001 +1.0844523312E+002 
4389081.352 +2.0146944459E-001 +1.5168585066E+002  +1.1568242785E-002 +4.3040256130E+001  +1.5985006684E-002 +3.3600475326E+001  +2.6005567167E-001 +1.1367790324E+002 
4514226.533 +2.1087706838E-001 +1.4265972231E+002  +1.7551434851E-002 +6.1001648865E+001  +8.1120813750E-003 +1.6280602927E+001  +3.1042659335E-001 +1.4621188255E+002 
4639371.715 +2.7214915888E-001 +1.2603235077E+002  +2.5970838091E-001 +6.8413493670E+001  +3.2193599332E-001 +4.0111054959E+001  +5.2340682647E+000 +4.7893442698E+001 
4764516.896 +3.0722752164E-001 +1.1720884467E+002  +1.0985343743E-001 +1.6287228625E+002  +1.0903483777E-001 +1.2479481837E+002  +2.1891928354E+000 +1.5389306985E+002 
4889662.078 +3.2291173426E-001 +1.3331257843E+002  +2.5982628872E-001 -1.3566277062E+002  +4.1503423665E-001 +1.6503343401E+002  +1.1059431026E+001 -1.7062720551E+002 
5014807.259 +3.7892961106E-001 +1.3083167466E+002  +1.4165323492E-001 +1.7836047638E+002  +2.1471566574E-001 +1.3659333854E+002  +5.1076751809E+000 +1.5291469446E+002 
5139952.441 +3.6761949054E-001 +1.2120617985E+002  +3.7150159913E-001 +2.7188493039E+000  +4.0922433130E-001 -1.8130599428E+001  +9.7026997942E+000 -2.0929835806E+001 
5265097.622 +4.0620229818E-001 +1.3225759399E+002  +7.2526495914E-002 +1.0308029249E+002  +8.0685065493E-002 +4.0869683922E+001  +2.0088267290E+000 +5.0854538102E+001 
5390242.804 +4.0424782970E-001 +1.2829417302E+002  +6.7170397071E-002 +1.2507906635E+002  +4.8716812630E-002 +7.9056731091E+001  +1.3927015163E+000 +1.0267573735E+002 
5515387.985 +3.8136447736E-001 +1.3027848116E+002  +7.4653750357E-002 +8.7954006583E+001  +9.0835751691E-002 +5.5481987149E+001  +1.9349404493E+000 +8.2109927508E+001 
5640533.166 +4.7383447906E-001 +1.2545266985E+002  +8.2731811661E-002 +1.0912644809E+002  +5.5630350260E-002 +6.9299566652E+001  +1.8443020207E+000 +8.3376748052E+001 
5765678.348 +4.8454468794E-001 +1.3078438586E+002  +5.2975403592E-002 +7.4227154500E+001  +4.5127149187E-002 +5.5994386473E+001  +1.1282723865E+000 +8.3910977563E+001 
5890823.529 +4.6288676845E-001 +1.2454012264E+002  +4.8726348013E-002 +8.6969361214E+001  +5.1154179638E-002 +7.2234705978E+001  +1.5815162984E+000 +9.8220666914E+001 
6015968.711 +5.4933071202E-001 +1.1749049625E+002  +8.9674866422E-002 +5.6459822873E+001  +7.1247267377E-002 +2.3672998220E+001  +1.4279439876E+000 +4.6793528173E+001 
6141113.892 +6.0924599241E-001 +1.0420166193E+002  +7.3169984379E-002 +4.2073284909E+001  +7.8577043511E-002 +2.0081399608E+001  +1.7778851201E+000 +2.9791981017E+001 
6266259.074 +7.4292882474E-001 +1.1002231836E+002  +7.2583486311E-002 +6.0590850771E+001  +1.0251535607E-001 +3.4307394955E+001  +2.0918657852E+000 +3.7068728074E+001 
6391404.255 +1.0690053251E+000 +1.0793800394E+002  +7.5281238645E-002 +5.7994937767E+001  +8.5192686967E-002 +6.8926993522E+001  +2.0199489700E+000 +3.5369973664E+001 
6516549.437 +1.1100198001E+000 +7.7104870944E+001  +1.3147263311E-001 +3.1857718537E+001  +1.3208502732E-001 +7.9232589534E+000  +1.6161376746E+000 +2.0610750901E+001 
6641694.618 +1.0820032910E+000 +6.5409708760E+001  +9.9107487935E-002 +9.7350030575E+000  +8.9669434289E-002 +1.2001857756E+001  +1.1009413251E+000 +5.6019388898E+000 
6766839.800 +1.2368307329E+000 +3.8991349682E+001  +1.0200717683E-001 +1.2196427985E+001  +1.0282523768E-001 +1.3739380990E+000  +1.0956117768E+000 -3.8505320062E+000 
6891984.981 +1.7460626002E+000 +5.3578579227E+001  +1.0174705390E-001 +1.1333891314E+001  +8.2817676728E-002 +1.6291974186E+001  +1.3324278066E+000 -1.0378321363E+001 
7017130.163 +1.6060287722E+000 +1.3473336555E+001  +1.0988738433E-001 -2.9940777845E+000  +8.4231142580E-002 -2.0334965747E+001  +1.3208111930E+000 -1.0910389041E+001 
7142275.344 +1.3115265468E+000 +1.3984280310E+001  +6.4148830849E-002 -3.9177839241E+000  +7.2806541734E-002 -4.6632478175E+000  +1.2311656789E+000 -1.2170612508E+001 
7267420.526 +1.4127273423E+000 -2.3097149119E+000  +6.5862055397E-002 +7.2825073610E+000  +6.5354033482E-002 -6.2786770625E+000  +1.3983842506E+000 -1.0046352350E+001 
7392565.707 +1.1881265647E+000 -7.7553512913E-001  +5.3444642351E-002 +7.0698405441E+000  +4.6926817439E-002 +1.5024343653E+000  +1.2972843230E+000 -5.7637522605E+000 
7517710.889 +1.1559097453E+000 +1.8405737880E+000  +4.6150702838E-002 -1.5943110303E-001  +4.6556048120E-002 +1.7476194697E+000  +1.0822420967E+000 -7.9719867175E+000 
7642856.070 +1.0525954230E+000 +4.1333526181E+000  +4.2851574506E-002 +1.4313677451E+001  +4.0441097423E-002 +5.5612444712E+000  +1.1295399094E+000 -3.0265715770E+000 
7768001.252 +9.5091090851E-001 +6.2287416753E+000  +3.8266898852E-002 +3.6747856294E+000  +4.4809773883E-002 +1.6496745124E+001  +9.4843338055E-001 -9.0575388286E+000 
7893146.433 +9.7011991362E-001 +7.5328226926E+000  +3.7673077819E-002 -2.8570097452E+000  +4.4635657188E-002 +2.4746548899E+000  +9.2078491262E-001 +1.1543838222E+000 
8018291.615 +7.6006675187E-001 +6.1159892562E+000  +3.7179618039E-002 -2.2036439660E+000  +4.1131220942E-002 +3.1520822513E+000  +8.1406566668E-001 +2.8478583976E+000 
8143436.796 +6.9921395485E-001 +1.1524619366E+001  +4.0338849082E-002 +4.1012712039E+000  +3.7782869494E-002 +4.0150964020E+000  +8.5471013755E-001 -6.2732702003E-002 
8268581.977 +6.7887470534E-001 +1.3892882586E+001  +3.5861373324E-002 -3.2420718637E+000  +3.8812046093E-002 +1.0119024317E+001  +7.5876324236E-001 +2.5938640463E+000 
8393727.159 +7.1570553567E-001 +9.9083755114E+000  +3.6962481294E-002 -4.5661364519E+000  +3.8753652006E-002 +1.0264010257E+001  +7.4463198500E-001 +3.9558172207E+000 
8518872.340 +5.8673640926E-001 +8.5530277441E+000  +4.0079998618E-002 -2.2333884648E+000  +3.6617148886E-002 +1.0843663219E+001  +6.6882238485E-001 -3.4683438785E+000 
8644017.522 +6.2328429361E-001 +4.5094080287E+000  +3.7382266490E-002 -5.9233375828E+000  +3.6849744931E-002 +6.8904624086E+000  +5.6555410589E-001 +2.0413247579E+000 
8769162.703 +6.0144677941E-001 +7.7800036146E+000  +3.2026096310E-002 -4.6696924637E+000  +3.5139513992E-002 +5.1166491455E+000  +6.6112697360E-001 +6.7412162987E+000 
8894307.885 +5.8664468274E-001 +6.8339983437E+000  +3.3364280137E-002 -4.5880100379E+000  +3.3780465273E-002 +1.3074828600E+001  +6.7066449049E-001 -7.9862464171E-001 
9019453.066 +5.4931469446E-001 +8.3102546169E+000  +3.7255568704E-002 -8.6145979742E+000  +3.6961603881E-002 +5.6695288120E+000  +5.9327394366E-001 +3.4552887788E+000 
9144598.248 +5.9909097682E-001 +6.8380957120E+000  +3.4230267449E-002 -4.4125248842E+000  +3.5006487223E-002 +1.0551967852E+001  +5.7650177062E-001 -1.6214414416E-001 
9269743.429 +5.4451154006E-001 +3.9361378698E+000  +3.6041995627E-002 -3.7891587238E+000  +3.6130774678E-002 +1.1262487668E+001  +5.7546712845E-001 -8.4995909069E-001 
9394888.611 +5.4569419062E-001 +2.7840970766E+000  +3.4830714838E-002 -5.1995114772E+000  +3.5552888066E-002 +1.0968014835E+001  +5.5925278167E-001 -4.5428345831E+000 
9520033.792 +5.6270937035E-001 +3.1830356885E+000  +3.5587989355E-002 +7.5852678578E-001  +3.6415671669E-002 +1.1070075622E+001  +5.1911166330E-001 +2.3093723743E+000 
9645178.974 +4.9283274314E-001 +4.3768592817E+000  +3.2590799901E-002 -5.1894961249E+000  +3.5124650855E-002 +1.6347840343E+001  +5.5802925633E-001 -1.7913477055E+000 
9770324.155 +5.0891463318E-001 +1.6076297356E+000  +3.3693305249E-002 -4.2409314127E-001  +3.3894160721E-002 +7.7244523094E+000  +5.4455912588E-001 -7.7478706261E+000 
9895469.337 +4.4633680201E-001 -7.2466857701E-001  +3.4199584852E-002 -8.0791342028E+000  +3.7745373517E-002 +9.8601005221E+000  +5.5474181367E-001 -5.7815044304E+000 
10020614.518 +4.8566477108E-001 +1.0916061345E+000  +3.4720260335E-002 -4.9884850073E+000  +3.4696011714E-002 +1.4815253975E+001  +5.6056503387E-001 -7.4828494101E+000 
10145759.700 +5.0090240377E-001 +8.2206648358E+000  +3.3630332313E-002 +2.9871925690E+000  +3.5248990586E-002 +1.4990927723E+001  +5.3808091283E-001 -2.0650293676E+000 
10270904.881 +5.3910449006E-001 +4.4082152083E+000  +3.4055969496E-002 +3.1103371912E-001  +3.6722513767E-002 +1.2102307154E+001  +5.4412350569E-001 -5.2122266300E+000 
10396050.063 +5.4600580788E-001 +3.2803462471E+000  +3.6117786575E-002 -1.5598020024E+000  +3.3816294079E-002 +1.3564024865E+001  +5.7983221281E-001 -1.5861835151E-001 
10521195.244 +5.2687126394E-001 +7.1145470105E+000  +3.5415134596E-002 -3.1020500312E+000  +3.4056342269E-002 +1.2459643566E+001  +5.4861914280E-001 +6.9843921937E-001 
10646340.426 +5.1617799332E-001 +8.5866107473E+000  +3.5066079079E-002 -1.3536557701E+000  +3.6095745871E-002 +1.2657619761E+001  +5.3074292004E-001 +3.0038647968E+000 
10771485.607 +5.0251648563E-001 +7.9803648845E+000  +3.6350642293E-002 -7.3882109103E-001  +3.3938674465E-002 +1.5612761213E+001  +5.5245269984E-001 +4.2238352055E+000 
10896630.788 +5.4930050331E-001 +4.9299271320E+000  +3.7054750557E-002 -9.2629479664E-001  +3.3733565472E-002 +1.2811742688E+001  +5.7076020837E-001 +2.7841728627E+000 
11021775.970 +5.5405633666E-001 +5.2937685660E+000  +3.5086994304E-002 -6.1993612915E-001  +3.4633595450E-002 +1.2747078118E+001  +5.7487445384E-001 +2.6072245336E+000 
11146921.151 +5.5670243268E-001 +7.8704937916E+000  +3.8826169863E-002 -1.8663052168E+000  +3.8191184065E-002 +1.1227752045E+001  +5.6933419614E-001 +3.9590288903E+000 
11272066.333 +5.6586398534E-001 +8.0385900179E+000  +3.8049184582E-002 +6.6513400905E-001  +3.7267682149E-002 +1.1344398392E+001  +6.0578865312E-001 +4.7759217155E-001 
11397211.514 +5.5961041765E-001 +9.0553946091E+000  +3.6306090656E-002 +1.6540916583E+000  +3.4454197072E-002 +9.8348326345E+000  +5.9523113368E-001 +3.3470234635E+000 
11522356.696 +5.8984206172E-001 +8.9642740975E+000  +3.7956206438E-002 +2.4160220553E-001  +3.7083469706E-002 +1.5621051330E+001  +6.1438521419E-001 -2.1758054208E+000 
11647501.877 +5.8329174422E-001 +7.3494365674E+000  +3.8351246632E-002 +8.7605867801E-001  +3.7570320620E-002 +1.0583298032E+001  +6.3433437585E-001 +3.2918388672E+000 
11772647.059 +6.1437788504E-001 +6.7038393806E+000  +3.9034781482E-002 +1.2039878168E+000  +3.8341994686E-002 +1.1642009718E+001  +6.3268331497E-001 +3.0104611495E+000 
11897792.240 +6.1683987604E-001 +6.2656306266E+000  +3.9631766396E-002 +1.8430014918E+000  +3.8006894280E-002 +1.1754179110E+001  +6.2280799875E-001 +4.9657062362E+000 
12022937.422 +6.2592491246E-001 +6.1172601126E+000  +4.0503469541E-002 +4.6375281639E+000  +3.8509133535E-002 +1.1528077095E+001  +6.4944598747E-001 +1.8153605362E+000 
12148082.603 +6.1724499411E-001 +4.4303234198E+000  +3.9742169838E-002 +2.7993521661E+000  +3.7530747062E-002 +9.0040477398E+000  +6.5518299690E-001 +1.9203836700E+000 
12273227.785 +6.7857190799E-001 +4.5643094880E+000  +3.9298651511E-002 +2.5858856868E-001  +4.1392766877E-002 +1.2538855347E+001  +6.6740651527E-001 +3.2103557682E+000 
12398372.966 +6.7797183794E-001 +2.5815832273E+000  +4.1892988317E-002 +2.0937103804E+000  +4.1972794363E-002 +1.2359108330E+001  +6.9173419716E-001 +1.7160753186E+000 
12523518.148 +7.1533742036E-001 +4.5132572800E+000  +4.2577169317E-002 +3.4995941719E+000  +4.0376945777E-002 +1.2384701149E+001  +6.9423206370E-001 -4.0242424929E-001 
12648663.329 +7.0679342526E-001 +3.2226418958E+000  +4.2930714997E-002 +2.9887351160E+000  +4.2474305537E-002 +9.6092421156E+000  +7.1713473444E-001 +9.5930132917E-001 
12773808.511 +7.4276342581E-001 +3.8049518547E+000  +4.2832706618E-002 +1.5646849040E+000  +4.2122340770E-002 +7.9190384677E+000  +7.2157847233E-001 -7.9484432066E-001 
12898953.692 +7.3033920338E-001 +2.9728208466E+000  +4.3088384372E-002 +3.7591117689E+000  +4.3581479107E-002 +9.6706780673E+000  +7.4629144362E-001 -1.8568077578E-001 
13024098.874 +7.4765561970E-001 +2.2076209796E+000  +4.3891513234E-002 +4.9123109153E+000  +4.4071963035E-002 +5.1718144590E+000  +7.5981980106E-001 -1.5772706313E+000 
13149244.055 +7.4347036514E-001 +3.1197609172E-001  +4.4490363751E-002 +3.7779643364E+000  +4.3823715960E-002 +7.0272554051E+000  +7.7173405540E-001 -2.1072679625E+000 
13274389.237 +7.7376566587E-001 -1.8945391893E-002  +4.4199117606E-002 +3.1215755635E+000  +4.3880919277E-002 +6.3537831257E+000  +7.8902263613E-001 -1.4173659851E+000 
13399534.418 +7.9938186620E-001 -1.5732034263E+000  +4.5223961332E-002 +5.3775310491E-001  +4.3233242998E-002 +6.6453769539E+000  +8.0063045987E-001 -1.3800365781E+000 
13524679.599 +8.1840734162E-001 -1.0228151719E+000  +4.5041785663E-002 +3.0806113701E+000  +4.4060690922E-002 +6.6933469626E+000  +8.1402336322E-001 -3.4502814697E+000 
13649824.781 +8.2276787368E-001 -8.2568914274E-001  +4.4902787813E-002 +3.0151676457E+000  +4.4532637513E-002 +5.0994717929E+000  +8.4120738990E-001 -1.8480979357E+000 
13774969.962 +8.4869822691E-001 -2.3541717232E+000  +4.5191694071E-002 +2.6993000299E+000  +4.4936891015E-002 +6.6132848474E+000  +8.5933997340E-001 -3.0493240848E+000 
13900115.144 +8.5290148003E-001 -1.7938164435E+000  +4.5830392172E-002 +2.5502082361E+000  +4.5534564879E-002 +4.1483713601E+000  +8.7788767587E-001 -4.1521577323E+000 
14025260.325 +8.7067982762E-001 -2.8714409424E+000  +4.4761196964E-002 +3.0967085078E+000  +4.6153167441E-002 +3.7681593434E+000  +8.9657115560E-001 -4.0113668047E+000 
14150405.507 +8.8433231611E-001 -4.4965479068E+000  +4.6321666880E-002 +3.0237561095E+000  +4.5772747416E-002 +1.8755267012E+000  +8.9352140645E-001 -3.9678065225E+000 
14275550.688 +8.9802809165E-001 -3.7892133807E+000  +4.5846059411E-002 +3.4963659895E+000  +4.6101964387E-002 +2.3198893559E+000  +9.3093786157E-001 -4.9148985836E+000 
14400695.870 +9.4068234624E-001 -5.5069110806E+000  +4.7007945596E-002 +3.1549405803E+000  +4.5042596067E-002 +1.7352661373E+000  +9.7472019624E-001 -4.5335967548E+000 
