!  2-Port S-parameters saved by WinCal
! VAR MeasName=S-Parameters (CALIBRATED_DATA) read from VNA (P5004A)
! VAR MeasDate=29/08/2024 10:41:03
! VAR NAME=S2_r9c2_RESET3_9k-100M_2
! VAR FILENAME=S2_r9c2_RESET3_9k-100M_2.S2P
! VAR DATE=29/08/2024 10:41:03
! VAR PHYS_PORTS=1,2
! VAR ObjTypeName=DATASET
! VAR IndexType=Frequency
!
# Hz S MA R 50
9000.000 +9.6477318425E-002 -1.6669516153E+002  +2.2494426960E-003 -3.6327744780E+001  +6.2114091511E-003 +1.5670844949E+002  +2.5485449960E-001 -1.5362553329E+002 
134145.181 +1.1145125181E-001 +1.6960807007E+002  +3.3879830313E-004 +7.0245787221E+000  +5.0099872774E-005 +6.1671130681E+001  +2.4381406161E-001 -1.7122130160E+002 
259290.363 +1.1156367007E-001 +1.6999470591E+002  +4.2644206268E-004 -1.1804439229E+002  +9.5945957335E-004 +1.1060738208E+002  +2.4500794064E-001 -1.6929996976E+002 
384435.544 +1.1447993572E-001 +1.7050054466E+002  +3.5396414328E-004 -1.6004611071E+002  +7.7898178236E-004 -6.1969312914E+000  +2.4310817925E-001 -1.6914911564E+002 
509580.726 +1.1634282592E-001 +1.7158558617E+002  +2.2416403536E-003 -8.6514919848E+001  +1.4434566840E-003 +7.5757314806E+001  +2.5059480884E-001 -1.6456532642E+002 
634725.907 +1.1760233981E-001 +1.7099782605E+002  +4.2684502752E-004 -1.5057515090E+002  +1.4499908062E-003 +9.0822768144E+001  +2.5309462496E-001 -1.6638978418E+002 
759871.089 +1.2010498030E-001 +1.7087718674E+002  +4.4458996537E-004 -9.1896379028E+000  +7.0623981224E-004 +1.1038841672E+002  +2.4787936154E-001 -1.6807778108E+002 
885016.270 +1.2055567574E-001 +1.6918423111E+002  +3.7395326954E-004 -1.6625805863E+002  +3.8005495926E-004 +1.5700464347E+002  +2.4046959605E-001 -1.6565403996E+002 
1010161.452 +1.1303029163E-001 +1.7000342854E+002  +2.7562299889E-003 +1.2344970923E+000  +3.0947595980E-003 -1.4987621180E+002  +2.0343647867E-001 -1.7020703193E+002 
1135306.633 +1.1798131761E-001 +1.6856104143E+002  +1.1702032044E-003 +1.4520634921E+001  +1.1720497195E-003 +1.4570513009E+002  +2.0098324267E-001 -1.6597780347E+002 
1260451.815 +1.1937890145E-001 +1.6913865244E+002  +1.2454168754E-003 -7.5714753139E+000  +1.2582855062E-004 -1.7548745609E+002  +2.1970339181E-001 -1.6431937757E+002 
1385596.996 +1.2557643415E-001 +1.7123248022E+002  +2.0878753689E-003 -1.3986485973E+002  +1.2983450259E-003 +1.2241463840E+002  +2.8332923155E-001 -1.5677316530E+002 
1510742.178 +1.2842317006E-001 +1.7184739027E+002  +1.5496433972E-003 -5.0214172324E+001  +1.1589855254E-003 +1.1085250675E+002  +2.4751782220E-001 -1.5661048037E+002 
1635887.359 +1.2752631151E-001 +1.6991563191E+002  +1.8783083380E-003 -6.1389041248E+001  +1.3522032243E-003 +1.5461288219E+002  +2.2786072663E-001 -1.5434684121E+002 
1761032.541 +1.2828372834E-001 +1.6953221653E+002  +1.1508557484E-003 +3.7007727221E+001  +5.9983152340E-004 +3.3679600009E+001  +2.3693646414E-001 -1.6245784933E+002 
1886177.722 +1.3050962238E-001 +1.6947916111E+002  +2.9574210923E-003 +3.8461303097E+001  +1.8895869045E-003 -3.5308242556E+001  +2.1029774344E-001 -1.6815698769E+002 
2011322.904 +1.2978837595E-001 +1.6862877788E+002  +1.5652359827E-002 +5.6620680480E+001  +2.3980478266E-002 -8.2729659840E+001  +1.5437632396E-001 -2.1105837424E+001 
2136468.085 +1.3237858921E-001 +1.6682146511E+002  +2.1094247581E-003 +9.6227554849E+001  +4.8157804498E-003 -7.9961041523E+001  +2.1473576346E-001 -1.6870596045E+002 
2261613.267 +1.3356825914E-001 +1.6685959828E+002  +8.9189200616E-003 +7.1866741134E+001  +9.4971509555E-003 -9.1678244997E+001  +1.2204705899E-001 -1.5454590752E+002 
2386758.448 +1.3370764272E-001 +1.6503716181E+002  +1.5288891998E-002 +8.1942270519E+001  +1.2296459995E-002 -5.2890463281E+001  +1.1603609700E-001 +1.4689252197E+002 
2511903.630 +1.3859461342E-001 +1.6372541339E+002  +4.7056875596E-003 +9.0577937930E+001  +5.7391056219E-003 -3.8571779207E+001  +2.2672639375E-001 +1.7767144923E+002 
2637048.811 +1.2182261090E-001 +1.6473029222E+002  +3.0860889657E-002 +8.2892474608E+001  +2.6281403501E-002 -4.6010926985E+001  +1.3919419058E-001 +1.2884026076E+002 
2762193.992 +1.1198647891E-001 +1.7779375496E+002  +6.5060181076E-002 +1.7521577408E+001  +6.5167613151E-002 -8.7129065006E+001  +1.5565503752E-001 +3.3596173596E+001 
2887339.174 +1.2056132804E-001 +1.6428261618E+002  +6.0030355930E-002 -8.3178294228E+000  +4.6767850458E-002 -1.1672336014E+002  +4.2593008437E-001 -5.9174750328E+001 
3012484.355 +1.3454562853E-001 +1.7078191934E+002  +4.2401819920E-002 +1.0642098246E+001  +4.5463679917E-002 -1.1088206644E+002  +2.1180473487E-001 -9.9113757873E+000 
3137629.537 +1.2151990199E-001 +1.6481462715E+002  +4.9875881062E-002 -7.9736025073E+001  +5.3905455174E-002 -1.6474817489E+002  +5.6541822736E-001 -1.0085135761E+002 
3262774.718 +1.2787964138E-001 +1.6767333132E+002  +7.3343357422E-002 -9.4241641355E+001  +6.8291591724E-002 -1.6360889094E+002  +1.0401156306E+000 -1.1357785305E+002 
3387919.900 +1.5066647422E-001 +1.6406278656E+002  +5.2164566526E-002 -2.1536143269E+001  +4.6001878277E-002 -9.0970980630E+001  +3.8564314506E-001 -4.0678573527E+001 
3513065.081 +1.3427444826E-001 +1.5474260825E+002  +5.9245161790E-002 +8.3966181005E+001  +3.5071079017E-002 -2.0586310740E+000  +3.8979596470E-001 +1.1212375340E+002 
3638210.263 +1.6742876456E-001 +1.5254079957E+002  +2.9812063310E-002 +1.2651674941E+002  +2.2483200530E-002 +2.3540044806E+001  +4.3150268605E-001 +1.5389477092E+002 
3763355.444 +1.5428785276E-001 +1.5830454526E+002  +3.2625146174E-002 +8.1042523000E+001  +3.5746352337E-002 +1.8225729618E+001  +4.3160190816E-001 +1.3443930497E+002 
3888500.626 +1.8853557979E-001 +1.5356746684E+002  +2.2768616660E-002 +1.0792289578E+002  +1.6362841101E-002 +4.8334568407E+001  +3.6515592023E-001 +1.5121205034E+002 
4013645.807 +2.0517092576E-001 +1.4732719000E+002  +6.2663122079E-002 +1.3559707117E+002  +4.7416520607E-002 +5.9510563202E+001  +7.6998027561E-001 +1.3371000911E+002 
4138790.989 +1.9191263443E-001 +1.4980945763E+002  +3.2298900397E-002 +8.4179181349E+001  +3.7147994212E-002 +2.3001734877E+001  +3.8505461061E-001 +1.3909057916E+002 
4263936.170 +1.9634997845E-001 +1.4831800044E+002  +4.8906967064E-002 +1.1190993280E+002  +4.7050451644E-002 +6.0678916762E+001  +6.4724208116E-001 +1.3760611465E+002 
4389081.352 +2.1144251555E-001 +1.4351598828E+002  +8.2596676118E-002 +1.1668621671E+002  +9.0595437900E-002 +4.5678403183E+001  +8.9884290193E-001 +1.1757422351E+002 
4514226.533 +2.0594368751E-001 +1.3668158257E+002  +5.1424793429E-002 +9.0974811569E+001  +4.8086478527E-002 +3.4932930096E+001  +3.8829212761E-001 +1.3769386025E+002 
4639371.715 +2.8181671277E-001 +1.3668343683E+002  +1.4326728015E-001 +9.6548618479E+001  +1.3949345100E-001 +6.2678517118E+001  +1.0820270053E+000 +8.6566863704E+001 
4764516.896 +3.1555664244E-001 +1.3009591742E+002  +1.9809468400E-001 +1.2851976748E+002  +1.4661294353E-001 +8.1804323354E+001  +1.7158363206E+000 +1.1596800513E+002 
4889662.078 +4.2283829918E-001 +1.0474388390E+002  +3.6507051954E-001 -4.9177657089E+001  +4.0790322261E-001 -8.7704106897E+001  +2.3827915440E+000 -1.0365703298E+002 
5014807.259 +4.8969848477E-001 +1.2601106731E+002  +3.8557267701E-001 +5.6472341055E+001  +3.3250079871E-001 +1.3909870240E+001  +2.5008865193E+000 -6.3524910077E+000 
5139952.441 +3.3272697631E-001 +1.3092744467E+002  +1.7633099636E-001 +8.3400913453E+001  +1.8804451659E-001 +3.9262479246E+001  +1.4557471758E+000 +5.8129710868E+001 
5265097.622 +3.4364789664E-001 +1.3285683709E+002  +1.0456547590E-001 +8.3690840234E+001  +1.2852026533E-001 +4.3431798389E+001  +8.8285711254E-001 +7.8604376925E+001 
5390242.804 +3.9685205481E-001 +1.3841300190E+002  +8.2374080118E-002 +1.1112983608E+002  +9.2350880956E-002 +8.2058706137E+001  +1.1080503855E+000 +1.0824804513E+002 
5515387.985 +4.8285688243E-001 +1.2401476473E+002  +2.9032826197E-001 +1.1211982247E+002  +2.7562817106E-001 +7.5379284214E+001  +2.4967054206E+000 +8.9290212188E+001 
5640533.166 +4.0968498808E-001 +1.2645324384E+002  +1.5755225974E-001 +1.0394558451E+002  +1.3618940958E-001 +7.2898676222E+001  +1.7297780902E+000 +1.1535618143E+002 
5765678.348 +3.9703961161E-001 +1.2487157682E+002  +1.6905539293E-001 +8.9591482290E+001  +1.6550980788E-001 +6.1386449579E+001  +1.8093405033E+000 +9.7115209818E+001 
5890823.529 +4.6962615510E-001 +1.1427861146E+002  +2.8201735260E-001 +8.5498995409E+001  +2.6579769678E-001 +6.3957458165E+001  +2.5966600725E+000 +9.1600267658E+001 
6015968.711 +5.4362872481E-001 +1.2430814507E+002  +1.3311500668E-001 +6.7430116851E+001  +1.2902776482E-001 +5.1075309178E+001  +1.1187531780E+000 +6.1490387475E+001 
6141113.892 +6.7963268715E-001 +1.1123082731E+002  +2.3259215602E-001 +6.7324184131E+001  +2.3678844540E-001 +4.4943062954E+001  +1.7551906903E+000 +4.7349363440E+001 
6266259.074 +7.5868723192E-001 +9.8609247485E+001  +2.4875663331E-001 +5.5846250556E+001  +2.3865271414E-001 +3.9197702784E+001  +1.5191846349E+000 +4.7692654979E+001 
6391404.255 +7.9361635484E-001 +9.5731780160E+001  +2.1758155591E-001 +3.7797085400E+001  +1.9778895022E-001 +2.9035256942E+001  +1.2705028354E+000 +2.2381550265E+001 
6516549.437 +9.5006071037E-001 +8.0649729018E+001  +2.5809849404E-001 +2.3332704649E+001  +2.4052638316E-001 +1.5015512792E+001  +1.4933863019E+000 +5.7566944894E+000 
6641694.618 +1.3132357688E+000 +7.1100682039E+001  +2.7139730942E-001 +3.8307468987E+001  +2.7137318637E-001 +2.2128590241E+001  +1.1435330845E+000 +1.6491646426E+001 
6766839.800 +1.5099005240E+000 +5.7793550159E+001  +2.8108219044E-001 +2.5394418070E+001  +2.9286766834E-001 +1.4930935977E+001  +1.4461399360E+000 -1.6640624032E+000 
6891984.981 +1.3550540518E+000 +3.2498237420E+001  +2.1209229480E-001 +6.6069215945E+000  +2.2856627199E-001 +8.8041728396E-001  +1.3051116287E+000 -2.7602240278E+000 
7017130.163 +1.4535181487E+000 +2.1661406536E+001  +2.1393382741E-001 +3.5948578387E+000  +1.9028365176E-001 -2.9132951928E+000  +1.1520670643E+000 -3.0218390064E+000 
7142275.344 +1.2934530771E+000 +9.1626300726E+000  +1.8840956514E-001 -2.4294683037E+000  +1.6453225410E-001 -4.9361341339E+000  +1.1347093878E+000 -1.6611524568E+001 
7267420.526 +1.2437619018E+000 +4.3361994418E+000  +1.4850632994E-001 -3.4003939483E+000  +1.6113470412E-001 +1.7371828967E+000  +1.1923994905E+000 -1.1489086167E+001 
7392565.707 +1.0384231043E+000 -7.5604268973E-001  +1.2989110964E-001 +4.2316096226E+000  +1.3712877760E-001 +1.3834475825E+000  +1.1568671896E+000 -7.9270332353E+000 
7517710.889 +8.7400004189E-001 +1.3753694093E+000  +1.2668828380E-001 +2.0406551709E+000  +1.2620403063E-001 +7.7725262090E+000  +1.1854965777E+000 -1.4739789436E+001 
7642856.070 +9.3453481303E-001 +4.9441967028E+000  +1.0965830173E-001 -1.6375752584E-001  +1.2184363333E-001 +7.7265662537E+000  +1.0273352994E+000 -3.4770512126E+000 
7768001.252 +8.7293548151E-001 +1.1743411086E+001  +1.0482816712E-001 +1.5431032819E+000  +1.1600356877E-001 +4.8912322079E+000  +7.3292539730E-001 -5.1250394624E+000 
7893146.433 +7.6727115679E-001 +7.8312874201E+000  +1.0672460174E-001 +7.6583514790E-001  +1.0436929336E-001 +7.3366074665E+000  +7.7789696972E-001 +4.1387032475E+000 
8018291.615 +7.5253196217E-001 +3.8356425691E+000  +1.0176158259E-001 -3.9054736947E+000  +1.0793898527E-001 +8.5587329611E+000  +7.4599723577E-001 -6.5744161694E+000 
8143436.796 +6.4052598352E-001 +1.3399649306E+001  +1.0093046453E-001 +5.4490946910E-001  +9.5380830661E-002 +5.9957936830E+000  +7.1748916851E-001 +2.4805832762E+000 
8268581.977 +6.4078647800E-001 +8.4420389230E+000  +9.6589099435E-002 -4.1687722617E+000  +1.0180032736E-001 +7.8174878158E+000  +5.9328373678E-001 -9.9285426636E-001 
8393727.159 +6.8977079382E-001 +1.0998090054E+001  +9.6140268923E-002 -2.7309951187E+000  +9.5393790981E-002 +9.5961787066E+000  +6.4183567441E-001 +3.1655533444E+000 
8518872.340 +5.8856030146E-001 +1.0497819042E+001  +1.0100764133E-001 -2.8379752887E+000  +9.5511540439E-002 +9.8531836877E+000  +6.5030898019E-001 -1.3365223979E+000 
8644017.522 +5.3291698987E-001 +1.7159893359E+001  +9.3355224738E-002 -2.8349920921E+000  +9.1812604410E-002 +8.1718156116E+000  +5.5354159087E-001 -1.3246425025E+000 
8769162.703 +5.4968222707E-001 +1.3499921834E+001  +9.5171654193E-002 -3.3415064370E+000  +9.1825351282E-002 +9.9748514279E+000  +5.5551058585E-001 -1.1520983414E+000 
8894307.885 +4.8023892172E-001 +2.5777903172E+000  +9.2035088627E-002 -5.2134695886E+000  +8.9756672141E-002 +9.6085733501E+000  +5.5081099591E-001 -4.8863199997E-001 
9019453.066 +5.2333553557E-001 +8.6295403018E+000  +9.4188293218E-002 -4.0873509730E+000  +9.0292483678E-002 +9.7779068020E+000  +5.9311190746E-001 +1.8961425709E+000 
9144598.248 +5.1606147908E-001 +6.8769049224E+000  +8.7623208330E-002 -6.0578519354E+000  +9.3617198251E-002 +1.0950795636E+001  +5.5411037011E-001 +5.4369731695E+000 
9269743.429 +4.7369851016E-001 +1.0953283371E+001  +9.0768531365E-002 -3.7196658876E+000  +8.9280809982E-002 +1.3170688885E+001  +5.6306703036E-001 -1.6982250092E+000 
9394888.611 +4.3874601869E-001 +1.2201640867E+001  +9.1727459294E-002 -5.7757850546E+000  +9.0640615394E-002 +1.3135569932E+001  +4.9435390862E-001 -6.2141839167E-001 
9520033.792 +4.8364528476E-001 +3.8877444159E+000  +8.6943216697E-002 -3.5771153743E+000  +8.9386065485E-002 +1.0816231346E+001  +5.4173985910E-001 -5.2404214732E+000 
9645178.974 +4.1804418997E-001 +4.6678960159E+000  +8.8970323892E-002 -3.3251358740E+000  +8.9888212048E-002 +1.0893740429E+001  +5.0186046813E-001 +1.5641912876E+000 
9770324.155 +4.2392681820E-001 +4.7866881639E+000  +9.1318749161E-002 -6.8000836097E+000  +8.8659142684E-002 +1.1449854701E+001  +4.7544593488E-001 +1.9276864005E-001 
9895469.337 +4.3827217114E-001 +5.6428778729E+000  +9.4001163963E-002 -4.7264642101E+000  +8.9385794112E-002 +1.3324948839E+001  +4.9706837987E-001 -1.0215625798E+001 
10020614.518 +4.5218250145E-001 +7.9972335561E+000  +9.1460111114E-002 -2.2146869327E+000  +9.4011124420E-002 +1.2759850050E+001  +5.1994673360E-001 -3.1165533067E+000 
10145759.700 +4.9196977718E-001 +1.2575728362E+001  +9.2614063506E-002 -2.4717479502E+000  +9.2196993286E-002 +1.5893845438E+001  +5.3856939437E-001 -1.4792059222E+000 
10270904.881 +4.3346923720E-001 +9.6252889701E+000  +8.8160074855E-002 -3.7129732273E+000  +9.0108679365E-002 +1.3518231939E+001  +5.1820284355E-001 -2.2879987608E+000 
10396050.063 +4.7782630531E-001 +7.6525987924E+000  +9.0384890306E-002 -1.9778987743E+000  +9.1322438608E-002 +1.3791207874E+001  +4.9047622567E-001 +3.4218179556E+000 
10521195.244 +4.8264796337E-001 +9.1343427549E+000  +9.4320566720E-002 -2.3594127552E+000  +9.0267927810E-002 +1.4275175586E+001  +5.0343548928E-001 +8.5023416215E-001 
10646340.426 +4.4366570283E-001 +1.1538193904E+001  +9.4583725426E-002 -1.7433004426E+000  +9.4073458464E-002 +1.3617749026E+001  +5.0015818931E-001 +3.6468578042E-001 
10771485.607 +4.9494800020E-001 +7.9998520340E+000  +9.4438431533E-002 -1.9979601212E+000  +9.4246280218E-002 +1.3247192662E+001  +4.8772272123E-001 +2.4996615923E+000 
10896630.788 +5.0561324406E-001 +6.2725316457E+000  +9.6318608469E-002 -1.2476326404E+000  +9.3627709568E-002 +1.3876658157E+001  +4.8055426383E-001 +3.0877267968E+000 
11021775.970 +4.8846002297E-001 +5.5705372219E+000  +9.8371392112E-002 -2.5198428033E+000  +9.7014814141E-002 +1.1955081148E+001  +5.0620165466E-001 +1.0842153887E+000 
11146921.151 +5.1808665170E-001 +9.3910439399E+000  +9.6131449940E-002 -2.1751678358E+000  +9.6780352365E-002 +1.3581389120E+001  +4.9726726424E-001 +2.7714829606E+000 
11272066.333 +5.2497951748E-001 +1.0738003756E+001  +9.7494356534E-002 -2.4845234468E-001  +9.5544605322E-002 +1.3119095572E+001  +5.0928277474E-001 +9.8948275559E-001 
11397211.514 +4.9571886085E-001 +1.0262376108E+001  +9.8382278907E-002 -1.3754954989E+000  +9.8481105520E-002 +1.3306310419E+001  +5.3327715718E-001 +2.7348320455E+000 
11522356.696 +5.3049788643E-001 +8.5963958594E+000  +9.9865924356E-002 -4.6607753959E-001  +9.7129538823E-002 +1.2749901132E+001  +5.2104233227E-001 +2.3265410401E+000 
11647501.877 +5.5687772312E-001 +8.2468463912E+000  +1.0054991086E-001 +1.6754430663E+000  +9.8679892893E-002 +1.1996856358E+001  +5.4781002704E-001 +6.1064932249E+000 
11772647.059 +5.4016710021E-001 +7.9761373515E+000  +1.0267055930E-001 +8.5803789635E-001  +1.0331872997E-001 +1.1717949819E+001  +5.7375076175E-001 +2.1626777028E+000 
11897792.240 +5.6118294491E-001 +6.3021818273E+000  +1.0239511621E-001 +4.9835163186E-001  +1.0237582752E-001 +1.0538200431E+001  +5.6967657440E-001 +4.5048940961E+000 
12022937.422 +5.8945497813E-001 +6.8663462014E+000  +1.0355383793E-001 +1.3799346575E+000  +1.0243193920E-001 +1.0276122042E+001  +5.6226956678E-001 +4.3899853578E+000 
12148082.603 +5.9793055621E-001 +5.3291012744E+000  +1.0455021766E-001 +9.6849535235E-001  +1.0306059966E-001 +1.0618757079E+001  +6.1268434718E-001 +9.4653391544E-001 
12273227.785 +5.7782420041E-001 +7.3124024784E+000  +1.0747037952E-001 +1.7083345790E+000  +1.0575060013E-001 +9.1776158032E+000  +5.9607560435E-001 +2.0301659977E+000 
12398372.966 +6.1474993023E-001 +4.0825687568E+000  +1.0931550312E-001 +2.5660837281E+000  +1.0723361453E-001 +1.0139575700E+001  +6.2718491695E-001 +1.1745311480E+000 
12523518.148 +6.2079051585E-001 +4.4631216190E+000  +1.1119382367E-001 +2.3030960978E+000  +1.0814725491E-001 +9.2404052139E+000  +6.3426715487E-001 +1.5128158031E+000 
12648663.329 +6.2860150955E-001 +4.0521791814E+000  +1.0881294280E-001 +2.3585350301E+000  +1.0712641375E-001 +8.6125195286E+000  +6.4512194682E-001 +1.7621162671E+000 
12773808.511 +6.3967323041E-001 +3.2778932057E+000  +1.1212309619E-001 +2.4719113905E+000  +1.0958840778E-001 +8.6964726826E+000  +6.5758107682E-001 +9.9881198553E-002 
12898953.692 +6.6796409714E-001 +2.8883871684E+000  +1.1244764035E-001 +2.1472910885E+000  +1.1235132411E-001 +8.4637225493E+000  +6.4911618493E-001 -1.3118575690E+000 
13024098.874 +6.7128471351E-001 +2.4427115151E+000  +1.1275910464E-001 +1.7385666821E+000  +1.1193675609E-001 +7.0298287005E+000  +6.8538698135E-001 -7.4934964996E-001 
13149244.055 +6.9889830282E-001 -8.0482460747E-001  +1.1588479122E-001 +2.3132874021E+000  +1.1171008014E-001 +7.5541697669E+000  +6.9957058652E-001 -8.4349324545E-001 
13274389.237 +6.8534879121E-001 -1.0293954042E+000  +1.1459856707E-001 +2.6011061905E+000  +1.1408789457E-001 +6.0609348947E+000  +7.2577215949E-001 -1.1255181465E+000 
13399534.418 +7.2684208866E-001 +6.1247538435E-001  +1.1738734139E-001 +1.9134603409E+000  +1.1396088382E-001 +5.9178465421E+000  +7.1427351148E-001 -2.2601006017E+000 
13524679.599 +7.5266611003E-001 -8.6975677452E-001  +1.1631540738E-001 +2.8210785343E+000  +1.1661346740E-001 +5.6511180495E+000  +7.4039491419E-001 -2.0005810226E+000 
13649824.781 +7.5782696793E-001 -2.5684487939E+000  +1.1810895390E-001 +1.8714529821E+000  +1.1738601575E-001 +4.7116317997E+000  +7.5893099786E-001 -3.9126018451E+000 
13774969.962 +7.6405993063E-001 -2.9956220495E+000  +1.2130394200E-001 +1.9356876043E+000  +1.1632215433E-001 +4.3151552566E+000  +7.5819397675E-001 -2.7097261189E+000 
13900115.144 +7.6706450498E-001 -2.5254137940E+000  +1.2129540946E-001 +2.3049085425E+000  +1.1969843753E-001 +4.4937358404E+000  +8.0746013070E-001 -3.7573003275E+000 
14025260.325 +7.9512710672E-001 -2.9880094679E+000  +1.2091528374E-001 +2.1210123116E+000  +1.1828611572E-001 +2.8263855080E+000  +8.1119693143E-001 -4.0084266590E+000 
14150405.507 +8.1156326047E-001 -4.3824715177E+000  +1.2161572230E-001 +1.7466342939E+000  +1.1952202328E-001 +2.8823235806E+000  +8.3831295140E-001 -3.4105221886E+000 
14275550.688 +8.3120010188E-001 -3.2919898951E+000  +1.2151623326E-001 +2.5336468372E+000  +1.1911951666E-001 +2.9098314692E+000  +8.5957579052E-001 -4.9533015982E+000 
14400695.870 +8.5147048014E-001 -5.8892325591E+000  +1.2310226743E-001 +1.6108636304E+000  +1.2017314319E-001 +2.6003280357E+000  +8.6862183537E-001 -5.3843280590E+000 
