!  2-Port S-parameters saved by WinCal
! VAR MeasName=S-Parameters (CALIBRATED_DATA) read from VNA (P5004A)
! VAR MeasDate=27/08/2024 12:54:47
! VAR NAME=S2_r9c9_pristine_9k-100M_2
! VAR FILENAME=S2_r9c9_pristine_9k-100M_2.S2P
! VAR DATE=27/08/2024 12:54:47
! VAR PHYS_PORTS=1,2
! VAR ObjTypeName=DATASET
! VAR IndexType=Frequency
!
# Hz S MA R 50
9000.000 +1.3765607530E-002 -1.6388527835E+002  +3.3977684751E-002 -1.0288422786E+002  +2.5439659597E-002 -1.6236241065E+002  +4.5361251487E-001 -1.2511637508E+002 
134145.181 +1.1113110998E-001 +1.6960478869E+002  +1.5074182828E-004 -1.2148122631E+001  +4.1787998259E-004 +1.5228992126E+002  +2.3778393842E-001 -1.7136269590E+002 
259290.363 +1.1287543392E-001 +1.6957401245E+002  +2.8652187363E-004 -1.0949805789E+002  +6.1309860711E-004 +1.3226386812E+002  +2.3381739820E-001 -1.7067190818E+002 
384435.544 +1.1296044101E-001 +1.6982720845E+002  +6.6747737591E-004 -5.6001813012E+001  +4.7715679559E-004 +1.6065530001E+002  +2.3795734287E-001 -1.6774240245E+002 
509580.726 +1.1385357744E-001 +1.7046484228E+002  +2.6628118948E-003 -4.3656598986E+001  +8.3624928212E-004 +1.6919763046E+002  +2.3843084226E-001 -1.6402599968E+002 
634725.907 +1.1520549054E-001 +1.6974049671E+002  +1.1601564151E-003 -7.4452291513E+001  +6.0962977005E-004 -1.7900705998E+002  +2.3262095485E-001 -1.6661029462E+002 
759871.089 +1.1835012934E-001 +1.6969069704E+002  +1.9897722243E-003 -3.6587735459E+001  +1.4329714859E-003 -1.7900170954E+002  +2.3352070076E-001 -1.6525965769E+002 
885016.270 +1.1746135022E-001 +1.6891745604E+002  +1.7936782736E-003 -1.0136948166E+001  +2.3706442215E-003 -1.7461946624E+002  +2.2904775949E-001 -1.6678703408E+002 
1010161.452 +1.1866635302E-001 +1.7169845033E+002  +2.2533514086E-003 +5.3715529291E+000  +3.9769875916E-003 -1.4954806257E+002  +2.0333189856E-001 -1.6708350032E+002 
1135306.633 +1.1753023310E-001 +1.7071046813E+002  +6.5484249029E-003 +1.3209081272E+001  +3.0901782178E-003 -1.3780206676E+002  +1.9214875819E-001 -1.6061341361E+002 
1260451.815 +1.1674685725E-001 +1.7018332162E+002  +4.2475003561E-003 +1.6676618470E+001  +5.5711054280E-003 -1.6533043729E+002  +2.2683232482E-001 -1.6256743177E+002 
1385596.996 +1.2482005491E-001 +1.7150895370E+002  +2.7032294192E-003 -4.7775403108E+000  +3.2439962218E-003 -1.6046766608E+002  +2.4949983838E-001 -1.5995533481E+002 
1510742.178 +1.2956400899E-001 +1.7080739479E+002  +3.3803320825E-003 -2.1917149748E+001  +3.8203352986E-003 -1.7207695477E+002  +2.5169212154E-001 -1.5741922732E+002 
1635887.359 +1.2988881771E-001 +1.7113947728E+002  +3.9455278077E-003 +2.6093797835E+001  +3.1126815259E-003 -1.3162857542E+002  +2.3525917468E-001 -1.6170393452E+002 
1761032.541 +1.2957414635E-001 +1.6940530852E+002  +5.7609991448E-003 +6.5359743846E+001  +5.9781707788E-003 -7.5938372455E+001  +2.3013067859E-001 -1.6624926909E+002 
1886177.722 +1.2974448309E-001 +1.6852851363E+002  +9.8111528297E-003 +7.0912063101E+001  +1.1422061950E-002 -6.1761446785E+001  +2.1233593687E-001 -1.5897663464E+002 
2011322.904 +1.3108863120E-001 +1.6602456252E+002  +1.3235004472E-002 +1.0929618650E+002  +1.3863528178E-002 -2.3279430994E+001  +2.0850268817E-001 -1.7095349638E+002 
2136468.085 +1.3378424155E-001 +1.6629497868E+002  +1.7549925947E-002 +7.9551689793E+001  +1.8271295650E-002 -4.5836094730E+001  +2.0077920078E-001 -1.5951637279E+002 
2261613.267 +1.3027812742E-001 +1.6736898044E+002  +2.4054777638E-002 +6.3602148281E+001  +2.9320329951E-002 -6.1602636413E+001  +1.9591515306E-001 -1.5621508631E+002 
2386758.448 +1.3627024242E-001 +1.6641764563E+002  +2.7668775935E-002 +8.7429911613E+001  +2.7944327628E-002 -3.2952984727E+001  +1.9735980261E-001 -1.7093537565E+002 
2511903.630 +1.2640130212E-001 +1.5859627832E+002  +5.2172687390E-002 +9.8316500861E+001  +5.0736184276E-002 -1.5595922148E+001  +1.8072352068E-001 -1.7882547510E+002 
2637048.811 +1.3336228094E-001 +1.5642743019E+002  +6.5245432489E-002 +1.0693442885E+002  +6.2583287914E-002 -6.8399777199E+000  +1.8462870672E-001 +1.7126864493E+002 
2762193.992 +1.6059975721E-001 -1.6381790562E+002  +1.1598800364E-001 -3.7033061316E+001  +1.2096383719E-001 -1.4325760121E+002  +3.6561578643E-001 -1.2500020266E+002 
2887339.174 +1.5014296082E-001 -1.7856102911E+002  +7.6674208973E-002 -1.2901062634E+001  +7.8144171781E-002 -1.1799376877E+002  +2.7012265294E-001 -1.1477307897E+002 
3012484.355 +1.5312054195E-001 -1.5929877109E+002  +1.4787083880E-001 -2.1623559713E+001  +1.4694943035E-001 -1.2252326774E+002  +3.4806607124E-001 -1.0710408541E+002 
3137629.537 +1.5628196345E-001 -1.7828261573E+002  +6.3925360417E-002 -1.6549419277E+001  +6.5143473134E-002 -1.1142729560E+002  +2.7495810523E-001 -1.2637782817E+002 
3262774.718 +1.2182265173E-001 +1.6826573644E+002  +1.0350470270E-001 +4.7424549325E+001  +9.6405516817E-002 -4.5911424248E+001  +7.1823329249E-002 -1.3321715711E+002 
3387919.900 +1.4336619068E-001 -1.6908919052E+002  +1.3225164395E-001 +7.2859476644E+000  +1.2872055622E-001 -8.0009887763E+001  +1.5782949341E-001 -8.4270837354E+001 
3513065.081 +9.0419758615E-002 -1.5761666730E+002  +1.7651984697E-001 +1.3350681371E+001  +1.7485808437E-001 -7.0169447515E+001  +2.0654684100E-001 -9.0020211039E+001 
3638210.263 +1.6139551936E-001 +1.1166317112E+002  +3.3905248015E-001 +9.1333992012E+001  +3.2400304908E-001 +7.8003580802E+000  +4.8196852097E-001 +7.7054336440E+001 
3763355.444 +1.3901535452E-001 +1.5977881056E+002  +1.0148685566E-001 +6.8677170747E+001  +1.0307824713E-001 -8.3091231940E+000  +1.8518024227E-001 +1.7110193403E+002 
3888500.626 +1.5281999132E-001 +1.4456961166E+002  +1.5556015587E-001 +8.7308140925E+001  +1.4752095960E-001 +1.5601737777E+001  +2.4783314497E-001 +1.4080852346E+002 
4013645.807 +1.3759893632E-001 +1.6432788722E+002  +1.1773866844E-001 +4.7499886958E+001  +1.1421861928E-001 -2.2139042761E+001  +1.3220700020E-001 -1.6241615437E+002 
4138790.989 +1.7149826585E-001 +1.5023599890E+002  +1.0938606509E-001 +8.3818013354E+001  +1.0726696593E-001 +1.9000664847E+001  +2.6778611883E-001 +1.7328108383E+002 
4263936.170 +1.6482595013E-001 +1.5165837257E+002  +1.3549177123E-001 +7.9788396661E+001  +1.3188777742E-001 +1.6343122321E+001  +2.6794848162E-001 +1.5870905323E+002 
4389081.352 +1.8956756317E-001 +1.1688194040E+002  +2.9386794715E-001 +8.4365067246E+001  +2.8160549270E-001 +2.2360701894E+001  +3.1011815172E-001 +1.1132324592E+002 
4514226.533 +1.6490971067E-001 +1.5095990732E+002  +1.6479395034E-001 +7.2428154618E+001  +1.5605810683E-001 +1.5507005688E+001  +2.7170920501E-001 +1.5173761889E+002 
4639371.715 +2.1367263833E-001 +1.4882450842E+002  +1.6055191562E-001 +9.4262246144E+001  +1.5166079583E-001 +3.8903535972E+001  +3.9814366229E-001 +1.5306214319E+002 
4764516.896 +2.7054769063E-001 +1.2240740184E+002  +3.6652143024E-001 +1.0591835595E+002  +3.6116237633E-001 +5.4951127635E+001  +7.2222216468E-001 +1.2989838542E+002 
4889662.078 +3.7356441611E-001 +1.1718150017E+002  +6.2486143271E-001 +1.2350685169E+002  +6.2003359424E-001 +7.3478072849E+001  +1.5104875423E+000 +1.3557695021E+002 
5014807.259 +2.4253790332E-001 +1.0353555222E+002  +4.7921224345E-001 +7.8998499490E+001  +4.5879816631E-001 +3.4034171967E+001  +6.6220998785E-001 +9.9880394292E+001 
5139952.441 +3.9325192751E-001 +1.2529475566E+002  +5.0003429202E-001 +1.2135772685E+002  +4.7680816419E-001 +7.8485101713E+001  +1.1126617045E+000 +1.3929236171E+002 
5265097.622 +2.5656052469E-001 +1.3361609757E+002  +3.0168171891E-001 +8.7024778243E+001  +2.9315899918E-001 +4.6801904173E+001  +5.8680103853E-001 +1.3460294663E+002 
5390242.804 +3.0391703953E-001 +1.1438724932E+002  +4.5893043604E-001 +9.2070647983E+001  +4.5771585014E-001 +5.5052359690E+001  +8.6796758396E-001 +1.2873765851E+002 
5515387.985 +3.6505704900E-001 +1.3599377176E+002  +3.3143627871E-001 +1.0434399029E+002  +3.2530443129E-001 +6.9150253635E+001  +8.0902061864E-001 +1.4068392008E+002 
5640533.166 +3.4091564334E-001 +1.2268345665E+002  +4.5732839867E-001 +9.5265060599E+001  +4.5174114548E-001 +6.3273816490E+001  +1.0313270834E+000 +1.3437078594E+002 
5765678.348 +3.1073475909E-001 +1.2081819336E+002  +4.2683275604E-001 +8.0231528290E+001  +4.1217338467E-001 +5.2245584292E+001  +7.8877640040E-001 +1.3276242607E+002 
5890823.529 +4.2899548422E-001 +1.1528286551E+002  +5.1623381838E-001 +8.9110252532E+001  +5.0304358548E-001 +6.1952041431E+001  +9.2195428506E-001 +1.3065347891E+002 
6015968.711 +3.2308943526E-001 +1.2454120211E+002  +5.4289298909E-001 +6.8266051821E+001  +5.2124703899E-001 +4.3434702043E+001  +1.0463865096E+000 +1.0586453034E+002 
6141113.892 +4.1935583796E-001 +1.1424108459E+002  +5.6241203609E-001 +7.5641369418E+001  +5.5115876273E-001 +5.5483967298E+001  +1.0170640035E+000 +1.2215575170E+002 
6266259.074 +3.3976793701E-001 +1.0717393157E+002  +6.6250507569E-001 +5.7794735837E+001  +6.5491119807E-001 +3.8749011262E+001  +1.0599603516E+000 +9.9385233851E+001 
6391404.255 +3.4684069879E-001 +1.0761600841E+002  +7.1832889849E-001 +5.2997677204E+001  +7.0176648906E-001 +3.7035147098E+001  +1.2204238526E+000 +9.2314705505E+001 
6516549.437 +3.9884656053E-001 +9.4389863929E+001  +7.6153164609E-001 +4.0304638931E+001  +7.4785047786E-001 +2.6692375657E+001  +8.0749573803E-001 +6.7008016431E+001 
6641694.618 +2.4047956628E-001 +9.3144380047E+001  +7.2713298499E-001 +2.5892705300E+001  +7.2601113168E-001 +1.4241710622E+001  +6.0313839376E-001 +6.2369351132E+001 
6766839.800 +3.4052708493E-001 +8.1532219718E+001  +8.5355215233E-001 +2.4700296757E+001  +8.4155319777E-001 +1.5072989746E+001  +8.6064360525E-001 +4.8374151901E+001 
6891984.981 +1.7651954474E-001 +4.1229830327E+001  +8.4670927441E-001 +1.0200006604E+001  +8.5547892402E-001 +2.6291186408E+000  +5.3810231316E-001 +3.2444475097E+001 
7017130.163 +3.6554227713E-001 +4.1822086844E+001  +9.2031705532E-001 +1.2352069757E+001  +9.1752609233E-001 +6.7955583289E+000  +5.7881106918E-001 +3.4029946980E+001 
7142275.344 +1.9295461022E-001 +1.3187376618E+001  +8.7025519653E-001 +4.2479262120E+000  +8.6784584112E-001 +7.2391377839E-001  +3.9375036117E-001 +4.1208184430E+001 
7267420.526 +5.9139873680E-002 -1.5119435506E+001  +8.4855141572E-001 -6.9601126717E-001  +8.4371543209E-001 -2.6388159049E+000  +3.4744561872E-001 -1.4309790832E+001 
7392565.707 +1.9874896910E-001 -6.7827366156E+000  +8.6598184022E-001 +7.1729353866E-002  +8.5909105626E-001 +4.9698697337E-001  +1.2581497160E-001 +1.4594928938E+001 
7517710.889 +1.8485499276E-001 +4.1628519562E+001  +8.2285436691E-001 +1.2223329571E+000  +8.2027397659E-001 +2.9656331582E+000  +2.1676097816E-001 -5.7002157953E+000 
7642856.070 +5.8954411401E-002 +4.0275167116E+001  +7.9779046309E-001 -1.6356955484E+000  +7.9364286033E-001 +1.5734779932E+000  +1.5979493353E-001 +6.3375656776E+000 
7768001.252 +1.2281169269E-001 +6.4968269708E+001  +7.5831073231E-001 -3.3772520662E+000  +7.6263472363E-001 +2.0702602175E+000  +3.7967099453E-002 +5.4557745778E+001 
7893146.433 +1.4387098793E-001 +1.0424055678E+002  +7.2206299496E-001 -4.0364630081E+000  +7.1711377221E-001 +2.5682488395E+000  +1.6730930002E-001 +7.8830786992E+001 
8018291.615 +1.5274319794E-001 +8.1553508720E+001  +7.2252556991E-001 -3.9700094316E+000  +7.1458685370E-001 +3.7405693150E+000  +1.1548804147E-001 +7.9695703342E+001 
8143436.796 +2.0334771777E-001 +8.8433001172E+001  +6.8506309978E-001 -4.0057935629E+000  +6.8110264381E-001 +5.0583390900E+000  +2.0055545332E-001 +8.4508407553E+001 
8268581.977 +1.2106149995E-001 +1.0505965165E+002  +6.8332741217E-001 -5.9461513944E+000  +6.8272999530E-001 +4.0453129944E+000  +1.4510999022E-001 +1.0430125361E+002 
8393727.159 +1.7671915629E-001 +9.6864645288E+001  +6.6046425764E-001 -5.3152017621E+000  +6.6001826479E-001 +5.2692943049E+000  +1.9709689044E-001 +9.6819455512E+001 
8518872.340 +2.2515723389E-001 +1.0336817857E+002  +6.4034978140E-001 -5.3558157506E+000  +6.4052162054E-001 +6.4322333947E+000  +2.3805847951E-001 +8.2215364265E+001 
8644017.522 +1.9924403912E-001 +1.2019026104E+002  +6.3859896043E-001 -7.2279067076E+000  +6.3056705769E-001 +4.6820605880E+000  +2.7229132556E-001 +1.0972643056E+002 
8769162.703 +1.8302111727E-001 +1.2845936565E+002  +6.3349485173E-001 -8.2593495873E+000  +6.2986023763E-001 +5.0311010578E+000  +2.5920497066E-001 +1.0880030265E+002 
8894307.885 +1.8137393752E-001 +1.2802892584E+002  +6.3282787206E-001 -8.0654633753E+000  +6.2605065453E-001 +5.7091536560E+000  +1.9190960382E-001 +1.0871284985E+002 
9019453.066 +1.9198863651E-001 +1.3669328544E+002  +6.2539530698E-001 -8.9961381607E+000  +6.2715343269E-001 +5.3911450093E+000  +1.9373149210E-001 +1.1044892542E+002 
9144598.248 +2.2771403193E-001 +1.3317823429E+002  +6.2027702750E-001 -9.0956188505E+000  +6.1679138279E-001 +5.5866609673E+000  +1.8668755378E-001 +1.1506750567E+002 
9269743.429 +1.8041542467E-001 +1.3545765356E+002  +6.2496297135E-001 -9.1786041821E+000  +6.2140134856E-001 +6.1641329169E+000  +1.8414538928E-001 +1.1892722376E+002 
9394888.611 +1.6507823056E-001 +1.1960590095E+002  +6.2063305614E-001 -8.3603206276E+000  +6.1658043248E-001 +6.6245144761E+000  +1.9614954127E-001 +1.2252345373E+002 
9520033.792 +1.9425672331E-001 +1.1970025484E+002  +6.1830553866E-001 -7.9962255851E+000  +6.1215754679E-001 +7.4471821633E+000  +1.6598811822E-001 +1.0867288236E+002 
9645178.974 +1.9012018008E-001 +1.3986205765E+002  +6.1849344210E-001 -9.5510589967E+000  +6.1605755130E-001 +6.7562248386E+000  +1.7626507578E-001 +1.2623078739E+002 
9770324.155 +1.7550336422E-001 +1.2831562315E+002  +6.1549102078E-001 -9.1826305430E+000  +6.1266245234E-001 +6.8299403915E+000  +2.1063162897E-001 +1.2733879176E+002 
9895469.337 +1.4154415408E-001 +1.3443286458E+002  +6.2307186413E-001 -8.5261972800E+000  +6.1768575993E-001 +7.3434764484E+000  +1.8198397129E-001 +1.1660433796E+002 
10020614.518 +1.7700140876E-001 +1.3113718673E+002  +6.2372415522E-001 -8.7775845454E+000  +6.1927771540E-001 +7.2186172893E+000  +1.5156794338E-001 +1.3179830356E+002 
10145759.700 +1.5052246254E-001 +1.3560534891E+002  +6.2260171043E-001 -8.0185917143E+000  +6.1840158721E-001 +7.6761477692E+000  +2.0016396512E-001 +1.0805363647E+002 
10270904.881 +2.0298773224E-001 +1.1896291728E+002  +6.1440370844E-001 -8.4496652543E+000  +6.0800153798E-001 +7.1384555549E+000  +2.3706470723E-001 +1.3172394381E+002 
10396050.063 +1.8547288356E-001 +1.2503944757E+002  +6.1722921584E-001 -8.0161228511E+000  +6.1428733016E-001 +7.5643680014E+000  +2.1487385378E-001 +1.1746099531E+002 
10521195.244 +1.8741588130E-001 +1.3814642668E+002  +6.2490219771E-001 -8.3108685124E+000  +6.1668187624E-001 +7.1205220516E+000  +2.1205341150E-001 +1.1439794132E+002 
10646340.426 +1.6563487861E-001 +1.2352058707E+002  +6.2590534607E-001 -7.3049425367E+000  +6.2300576623E-001 +7.7702541070E+000  +1.9641103317E-001 +1.1473654786E+002 
10771485.607 +1.8186947655E-001 +1.1756526033E+002  +6.2318727732E-001 -6.8650186568E+000  +6.2061482699E-001 +7.6308743627E+000  +2.2207740341E-001 +1.1373248292E+002 
10896630.788 +1.7595522148E-001 +1.2620972185E+002  +6.3027371428E-001 -6.5603423593E+000  +6.2631342792E-001 +7.5860668450E+000  +1.8903006786E-001 +1.0638147738E+002 
11021775.970 +1.5470669473E-001 +1.1999757999E+002  +6.3384595824E-001 -5.8489585047E+000  +6.3002575143E-001 +7.6967156397E+000  +2.2839458354E-001 +1.0254855663E+002 
11146921.151 +1.5835061107E-001 +1.2294637888E+002  +6.3990573052E-001 -6.1584193211E+000  +6.3507277002E-001 +7.0120413327E+000  +1.9714999744E-001 +1.1534272261E+002 
11272066.333 +1.6521410523E-001 +1.0677536383E+002  +6.4268432964E-001 -5.2289145469E+000  +6.3730340182E-001 +7.6395169592E+000  +1.9768931740E-001 +1.0909862659E+002 
11397211.514 +1.4310062366E-001 +1.1832788807E+002  +6.4982003443E-001 -5.3517507220E+000  +6.4755636012E-001 +7.1761240524E+000  +1.8468042438E-001 +1.0798718882E+002 
11522356.696 +1.7977124562E-001 +1.1147232529E+002  +6.4857245983E-001 -4.5791037019E+000  +6.4375867910E-001 +6.9738022145E+000  +1.9010711819E-001 +1.0232258113E+002 
11647501.877 +1.8318998616E-001 +1.1107149512E+002  +6.5530488593E-001 -4.8710623614E+000  +6.5007174347E-001 +6.7381415154E+000  +1.7289292511E-001 +1.1215895605E+002 
11772647.059 +1.4796954886E-001 +1.1436737970E+002  +6.6563429162E-001 -4.3213847348E+000  +6.6056130837E-001 +6.6433648542E+000  +1.6944171328E-001 +1.0552491206E+002 
11897792.240 +1.4717489327E-001 +1.1377681144E+002  +6.7002205304E-001 -4.1798014825E+000  +6.6701791010E-001 +6.0275481953E+000  +1.5965937764E-001 +1.0885826825E+002 
12022937.422 +1.4185630717E-001 +1.0405265510E+002  +6.7702399290E-001 -3.5029509420E+000  +6.7287200223E-001 +6.1222374219E+000  +1.5704236645E-001 +1.0224333444E+002 
12148082.603 +1.3065306259E-001 +1.0733695068E+002  +6.8385066369E-001 -3.1991958057E+000  +6.8034702289E-001 +5.8594850512E+000  +1.5441598089E-001 +9.7742175876E+001 
12273227.785 +1.0075619455E-001 +1.0536291091E+002  +6.9732659700E-001 -2.8959747102E+000  +6.9116547845E-001 +5.5841925984E+000  +1.4896883149E-001 +1.0467379059E+002 
12398372.966 +1.1535668542E-001 +9.8045171363E+001  +6.9984311029E-001 -2.7668777478E+000  +6.9425219809E-001 +5.2541099449E+000  +1.4282672488E-001 +1.0301197602E+002 
12523518.148 +1.4641444818E-001 +1.0620703525E+002  +7.0069156159E-001 -2.7001482307E+000  +6.9691179883E-001 +4.5070214980E+000  +1.4061295827E-001 +1.0161259328E+002 
12648663.329 +9.6170894694E-002 +8.4685599360E+001  +7.1457496093E-001 -2.0083837555E+000  +7.1014878389E-001 +4.8285551988E+000  +1.4018752865E-001 +9.8826213680E+001 
12773808.511 +8.8923746778E-002 +9.9134514559E+001  +7.2527235524E-001 -1.9859885167E+000  +7.2147602586E-001 +4.0633871627E+000  +1.0210414454E-001 +9.2989371467E+001 
12898953.692 +9.8397181341E-002 +9.3158607072E+001  +7.3395484698E-001 -1.5688794525E+000  +7.2741040651E-001 +4.0270569995E+000  +8.5237026970E-002 +8.7499833338E+001 
13024098.874 +7.3097706093E-002 +8.0850293908E+001  +7.4271571748E-001 -1.3092395396E+000  +7.3434028918E-001 +3.7663321102E+000  +1.0870830210E-001 +8.6380157977E+001 
13149244.055 +1.0604584892E-001 +6.2040131750E+001  +7.4863942271E-001 -5.2650688646E-001  +7.4371691342E-001 +3.9136065449E+000  +7.8959419742E-002 +8.2988746682E+001 
13274389.237 +6.0620276219E-002 +7.3866500348E+001  +7.5787430245E-001 -9.3192398384E-001  +7.5053597243E-001 +3.0521779003E+000  +1.0594365107E-001 +7.7004535000E+001 
13399534.418 +7.9432789122E-002 +6.8610067193E+001  +7.6231922175E-001 -6.2881903421E-001  +7.5929963956E-001 +2.7529731822E+000  +8.3935394658E-002 +7.1562548659E+001 
13524679.599 +6.6891036021E-002 +5.7272869053E+001  +7.7520097974E-001 -2.7907856211E-001  +7.6936367234E-001 +2.6470190642E+000  +8.4970270300E-002 +4.9380933461E+001 
13649824.781 +8.4023459530E-002 +3.7282798907E+001  +7.8382825403E-001 -2.2335921988E-001  +7.7882252386E-001 +2.1537808938E+000  +6.1042185774E-002 +6.6043066912E+001 
13774969.962 +6.3226215018E-002 +3.6477681410E+001  +7.9544367053E-001 -6.7555413082E-002  +7.8648321049E-001 +2.0477876022E+000  +7.9994646676E-002 +2.7408605307E+001 
13900115.144 +7.4852614640E-002 +3.5327115326E+001  +7.9901589829E-001 -1.7469875769E-001  +7.9357843260E-001 +1.6755612334E+000  +7.3293366939E-002 +3.2571460170E+001 
14025260.325 +6.6394276097E-002 +2.1056350977E+001  +8.0092532627E-001 +9.9344436018E-002  +8.0272441325E-001 +1.0957759516E+000  +6.8461613473E-002 +3.4218174856E+001 
14150405.507 +1.0721422544E-001 +1.6740416424E+001  +8.2057514092E-001 -3.3504798673E-001  +8.1042738570E-001 +1.5416072676E+000  +9.9928960725E-002 +1.4263629261E+001 
14275550.688 +1.0317953454E-001 +2.0606475095E+001  +8.2308787366E-001 -2.6530741933E-001  +8.1865580805E-001 +1.1526666034E+000  +9.1979236652E-002 +2.0433845817E+001 
14400695.870 +1.0105694154E-001 +9.5088008716E+000  +8.3787161283E-001 -5.6935017544E-001  +8.3417907546E-001 +6.4527115220E-001  +9.3376178042E-002 +5.7907969297E+000 
