!  2-Port S-parameters saved by WinCal
! VAR MeasName=S-Parameters (CALIBRATED_DATA) read from VNA (P5004A)
! VAR MeasDate=29/08/2024 12:27:12
! VAR NAME=S2_r9c5_RESET3_9k-100M_1
! VAR FILENAME=S2_r9c5_RESET3_9k-100M_1.S2P
! VAR DATE=29/08/2024 12:27:12
! VAR PHYS_PORTS=1,2
! VAR ObjTypeName=DATASET
! VAR IndexType=Frequency
!
# Hz S MA R 50
9000.000 +8.9992208088E-002 -1.6538252175E+002  +5.4743480373E-003 -1.5673861369E+002  +7.2784711983E-003 -1.8982377438E+001  +2.1915449359E-001 -1.4169376384E+002 
134145.181 +1.1209878999E-001 +1.6970364459E+002  +4.6727176617E-004 -1.6392122375E+002  +5.4369965657E-004 +1.2196860920E+001  +2.4296196335E-001 -1.7048524732E+002 
259290.363 +1.1244933817E-001 +1.6999510984E+002  +9.7680215561E-004 -7.1006426338E+001  +8.0040507282E-004 -1.3971802720E+002  +2.4892217775E-001 -1.6915958306E+002 
384435.544 +1.1444470369E-001 +1.7069687906E+002  +5.9247321657E-004 -1.6313689635E+002  +1.4055200059E-003 +1.0455456288E+002  +2.4358369205E-001 -1.6668594505E+002 
509580.726 +1.1317144402E-001 +1.7050247612E+002  +1.1199889652E-003 -1.2041348537E+002  +8.3433566493E-004 +8.0067179791E+001  +2.4455871767E-001 -1.6141042426E+002 
634725.907 +1.1688580601E-001 +1.7082825073E+002  +7.1729252889E-004 +1.5745272489E+002  +6.2678191225E-004 -2.0617782516E+001  +2.5042026070E-001 -1.6512017874E+002 
759871.089 +1.1956098386E-001 +1.7052816697E+002  +3.8039484966E-004 -5.1089266295E+000  +6.6397098446E-004 -6.9605297632E+001  +2.4864554545E-001 -1.6681529812E+002 
885016.270 +1.2100025186E-001 +1.6935486165E+002  +3.9913741527E-004 -8.0030027622E+001  +3.4807914493E-004 -8.2095804504E+001  +2.3743764188E-001 -1.6727536420E+002 
1010161.452 +1.1621099475E-001 +1.6943399166E+002  +1.0654949018E-003 -4.9815925725E+001  +2.1749325973E-003 -8.0465220974E+001  +1.9412582880E-001 -1.6952614299E+002 
1135306.633 +1.1525597326E-001 +1.6817567936E+002  +1.6260953486E-003 +3.7473029425E+000  +2.0566152804E-003 +1.4382943982E+002  +1.6674285065E-001 -1.7225108680E+002 
1260451.815 +1.1738424940E-001 +1.7058911738E+002  +1.5674914034E-003 -3.1262809625E+001  +1.8488382993E-003 -9.2647699941E+001  +2.1693069518E-001 -1.6194322422E+002 
1385596.996 +1.2582815911E-001 +1.7152322573E+002  +1.6168515456E-004 +9.3488502931E+001  +9.9053638064E-004 -1.3493849519E+002  +2.6583988455E-001 -1.4976071753E+002 
1510742.178 +1.2843633570E-001 +1.7206787377E+002  +1.2309579842E-003 -3.6413358014E+001  +1.2472686392E-003 -1.3136298630E+002  +2.6985024949E-001 -1.5716863069E+002 
1635887.359 +1.2752511111E-001 +1.7069814834E+002  +1.2164065042E-003 +1.6321957021E+002  +1.1911569887E-003 -1.0243157358E+002  +2.3424657745E-001 -1.5978464018E+002 
1761032.541 +1.2550532966E-001 +1.7084550930E+002  +5.1447393518E-004 -8.0233295548E+001  +1.8171091646E-003 -5.7869316544E+000  +2.2951861682E-001 -1.5768163759E+002 
1886177.722 +1.2959724772E-001 +1.6913934216E+002  +5.1470341955E-004 +7.8674869075E+001  +1.0089491687E-003 +6.6479508112E+001  +2.3182413005E-001 -1.6402954642E+002 
2011322.904 +1.3287808069E-001 +1.6723210203E+002  +9.8213664605E-004 -1.7065786192E+002  +1.0480892646E-003 -5.5676957134E+001  +1.7681311811E-001 -1.6406993558E+002 
2136468.085 +1.2952199647E-001 +1.6847347744E+002  +1.4269645746E-003 +2.2815162526E+001  +4.6628554303E-003 -7.2535926136E+001  +1.4662122729E-001 -1.5653728582E+002 
2261613.267 +1.3277328792E-001 +1.6806453658E+002  +2.0211143400E-003 +1.0313778266E+002  +3.6532808114E-003 -7.0138815326E+001  +2.3794651435E-001 +1.7531148759E+002 
2386758.448 +1.3859269885E-001 +1.6522914565E+002  +2.8176316876E-003 +1.6409650585E+002  +5.7805660747E-003 +3.6032464181E+001  +1.4883234749E-001 +1.6454015239E+002 
2511903.630 +1.2819995927E-001 +1.6050332017E+002  +4.0286805222E-003 +9.6464820917E+001  +7.7224628778E-003 +6.6127810489E+000  +2.7123653734E-001 +1.6795918665E+002 
2637048.811 +1.0445821190E-001 +1.6421441954E+002  +1.8970882827E-002 +5.4855993835E+001  +1.1427063142E-002 +8.7936246345E+000  +3.5095633014E-001 +1.3128053353E+002 
2762193.992 +1.2214714814E-001 -1.7848422426E+002  +6.9060590621E-002 -7.0616167835E+001  +6.2235691806E-002 +1.2647904664E+002  +1.8504584627E+000 -4.2762586155E+001 
2887339.174 +1.2327384825E-001 +1.7261389325E+002  +3.0048773289E-003 -7.9130499475E+001  +6.5344521720E-003 -1.6974843485E+002  +3.9657309595E-001 -1.2612307657E+002 
3012484.355 +1.2667908264E-001 +1.6954614613E+002  +9.5278806813E-003 +2.8883963009E+000  +3.5594300665E-003 +1.5866969636E+002  +1.7299987797E-001 +4.7925625734E+000 
3137629.537 +1.3310111064E-001 +1.7026572271E+002  +5.7278190359E-003 -3.0239071655E+001  +3.3927740143E-003 -8.2819161705E+001  +4.8974400153E-002 +1.5994750796E+002 
3262774.718 +1.2672315061E-001 +1.6049691681E+002  +1.0136567955E-002 +5.8735274179E+001  +6.1167308459E-003 -2.4805513084E+001  +1.3010428736E-002 +1.0511854493E+002 
3387919.900 +1.3137587016E-001 +1.5396635949E+002  +1.1569496416E-002 -1.6772357056E+002  +1.3418539438E-002 -1.3338195686E+002  +8.7761815260E-001 +5.6822031244E+001 
3513065.081 +1.5019537917E-001 +1.5255089125E+002  +1.1449749724E-002 +7.0470990160E+001  +7.5180342814E-003 +1.9878178133E+001  +3.4398034761E-001 +1.0451561823E+002 
3638210.263 +1.2852988087E-001 +1.5153530335E+002  +1.8793655465E-002 +1.1322674465E+002  +1.9761400874E-002 -3.1640190480E+001  +4.5042636088E-001 +9.2784037478E+001 
3763355.444 +1.8084102102E-001 +1.4708273815E+002  +1.8570966135E-002 +2.9219439021E+001  +1.1413264358E-002 +3.5325070804E+000  +8.8187117816E-001 +1.1927351340E+002 
3888500.626 +1.8950697150E-001 +1.4974269146E+002  +7.6454340176E-003 +1.1953588002E+002  +8.4364529707E-003 +6.7792079559E+001  +5.1184344279E-001 +1.2782832150E+002 
4013645.807 +1.8717928633E-001 +1.4987771761E+002  +6.7561947809E-003 +7.1030277597E+001  +4.9003114492E-003 -1.4704830760E+001  +1.6182025824E-001 +1.2995279332E+002 
4138790.989 +1.8812993740E-001 +1.4988317356E+002  +9.5241207161E-003 +8.1769420067E+001  +6.8559302930E-003 +1.0482014192E+002  +4.7153763048E-001 +1.4805324987E+002 
4263936.170 +1.7299636580E-001 +1.4874552955E+002  +1.0387088090E-002 +6.8654004139E+001  +1.4608819602E-002 +2.2593938463E+001  +4.0417051496E-001 +1.3560639042E+002 
4389081.352 +2.1373118732E-001 +1.4591376572E+002  +2.1795470072E-002 +1.5251702824E+002  +8.6636760592E-003 +1.2383669276E+002  +1.5010015681E+000 +1.4783647588E+002 
4514226.533 +2.1656518016E-001 +1.3536998022E+002  +1.0496543400E-002 +1.7430050809E+002  +1.0818790692E-002 -6.0136407624E+001  +8.0712337211E-001 +1.1097984713E+002 
4639371.715 +2.6819250945E-001 +1.2486320530E+002  +1.0543717579E-002 -4.3151049492E+001  +1.8241439994E-002 +4.1945719423E+001  +1.1843363538E+000 +9.5689761302E+001 
4764516.896 +3.2147859148E-001 +1.2417365691E+002  +6.0751574702E-002 +1.4613582184E+002  +6.9270385607E-002 +1.1289408821E+002  +3.6428044918E+000 +1.0223961867E+002 
4889662.078 +4.2990460165E-001 +1.3284992070E+002  +6.4232078658E-002 +1.4735948315E+001  +1.2981434207E-001 -7.1251890538E+001  +4.3926909848E+000 -1.1050727995E+002 
5014807.259 +5.2647203278E-001 +1.2434032907E+002  +3.5328386014E-002 +2.7968120823E+001  +7.6445642838E-002 +9.2455011465E+000  +2.7416395365E+000 -3.2132178420E+001 
5139952.441 +3.6494545002E-001 +1.1771562436E+002  +6.2041858995E-002 -1.7810816531E+002  +7.7228877901E-002 -1.6509300870E+002  +4.7927630538E+000 -1.7126123427E+002 
5265097.622 +3.9738373297E-001 +1.3586220215E+002  +1.0264675454E-002 +8.0834129825E+001  +4.0526002465E-002 +1.1629772451E+002  +2.7805765594E+000 +1.3518673444E+002 
5390242.804 +3.9563794539E-001 +1.2767045437E+002  +1.4364812526E-002 +9.3441087346E+001  +2.2596509844E-002 +5.9651316326E+001  +9.9660572981E-001 +1.0405608273E+002 
5515387.985 +4.0993671917E-001 +1.3452354735E+002  +1.6281175295E-002 +6.0126511991E+001  +1.4233564143E-002 +1.6535524403E+002  +2.3120754393E+000 +6.7838345778E+001 
5640533.166 +4.7137501877E-001 +1.2627819752E+002  +4.1887900139E-002 +7.8778859737E+001  +4.2228244071E-002 +6.0948076423E+001  +2.6558885580E+000 +4.2027081508E+001 
5765678.348 +4.4209318464E-001 +1.1484312107E+002  +3.4102160185E-002 +9.1801963748E+001  +3.9450114563E-002 +3.3631246535E+001  +1.0284083234E+000 +6.7004029239E+001 
5890823.529 +5.7100336167E-001 +1.2552629497E+002  +3.2072432484E-002 +1.9446018098E+001  +3.2887348809E-002 +4.6536306210E+001  +2.0852809124E+000 +2.7676937038E+001 
6015968.711 +6.4520048497E-001 +1.1944159480E+002  +3.6040057376E-002 +8.1501843983E+001  +5.3470571052E-003 +1.4422913311E+002  +1.6930988399E+000 +4.9042841531E+001 
6141113.892 +5.9981428430E-001 +1.1871739268E+002  +4.0376474799E-002 +3.6181307907E+001  +3.5289694642E-002 -1.4142038764E+001  +2.3430267942E+000 +3.3454746839E+000 
6266259.074 +8.4469330325E-001 +1.0470762371E+002  +4.5438073290E-002 +9.3825432658E+001  +5.9268098579E-002 +4.2442574068E+001  +1.8031087034E+000 +1.9166221108E+001 
6391404.255 +7.4884577240E-001 +9.6417577849E+001  +5.4912910928E-002 +7.7665960767E+000  +3.7728882391E-002 -1.3021125058E+001  +1.7242582691E+000 +1.9261717942E+000 
6516549.437 +9.3554201098E-001 +9.0110888011E+001  +2.5623894557E-002 +1.7123148849E+001  +3.3424255381E-002 +1.8311562758E+001  +1.2810605117E+000 +1.7019512954E+001 
6641694.618 +1.4987412179E+000 +7.2252021460E+001  +5.8360753280E-002 +3.9721196181E+001  +2.9302830731E-002 -1.6528452744E-001  +1.5870488460E+000 -8.9526649619E+000 
6766839.800 +1.8317446118E+000 +5.5900471274E+001  +6.2489734883E-002 +2.9469058272E+000  +9.1642441571E-002 +1.2669180800E+001  +1.4521439160E+000 -4.2686727915E-001 
6891984.981 +1.9393545216E+000 +2.7138665295E+001  +5.1838232595E-002 +8.2103749807E+000  +3.4118669330E-002 -5.5960744138E+001  +1.1257813919E+000 -5.8498296177E+000 
7017130.163 +1.4744444940E+000 +1.9360454886E+001  +4.2501255279E-002 -4.0875578787E+000  +2.4142213592E-002 +2.9293401590E+000  +1.4366589513E+000 -7.7713181980E+000 
7142275.344 +1.6552614904E+000 +1.8845601693E+001  +3.1256291706E-002 -2.5487171837E+000  +2.3082486000E-002 -1.0813891061E+001  +1.1470943841E+000 -1.7236128096E+001 
7267420.526 +1.2237596814E+000 -1.6686564979E+000  +1.8103703523E-002 -1.3597265119E+001  +2.9898303918E-002 +1.1049983343E+001  +1.4045903780E+000 -9.5291058735E+000 
7392565.707 +1.2415869223E+000 -1.2300339226E+000  +1.4831257138E-002 -1.0640576783E+001  +2.0691008241E-002 -2.0180666986E+001  +1.3257114825E+000 -6.0940791209E+000 
7517710.889 +1.1875479157E+000 -3.2966343639E+000  +1.9756073726E-002 -7.4657610402E+000  +1.9436451170E-002 -1.2333100591E+001  +1.0573104787E+000 -9.2004445906E+000 
7642856.070 +9.2073609792E-001 +4.1355821258E-001  +1.9645588740E-002 -1.6181450608E+001  +1.3712734638E-002 +3.1598993452E+001  +1.1780166540E+000 -2.9167657499E+000 
7768001.252 +9.6007885711E-001 +7.9884586531E+000  +1.1956553954E-002 +2.6628855086E+001  +9.8968814894E-003 +2.8527670809E+001  +9.6374665098E-001 -2.9957110119E+000 
7893146.433 +9.3844234893E-001 +8.9786588366E+000  +2.2798457898E-002 +1.7175314569E+001  +1.5570905148E-002 +5.5143022989E+000  +9.5515615272E-001 -1.9926280409E+000 
8018291.615 +8.4393296533E-001 +3.2289868958E+000  +1.8736057572E-002 +2.8141244264E+000  +2.1601646611E-002 +2.6840226108E+001  +8.1239955869E-001 -1.3051206182E+000 
8143436.796 +7.4807500263E-001 +1.1090542194E+001  +1.3912275653E-002 +1.3053300459E+001  +1.3234354945E-002 +1.2147093256E+000  +7.8053578376E-001 -2.8994935043E+000 
8268581.977 +7.3154689021E-001 +1.2983757130E+001  +1.2644000052E-002 +1.4015531707E+001  +1.3182451135E-002 +9.1077065371E+000  +8.1776393901E-001 -2.0644770293E+000 
8393727.159 +7.0405756749E-001 +1.2444554239E+001  +1.7703002100E-002 +3.6105897774E+000  +1.6365107396E-002 +1.4052276619E+001  +6.3640973531E-001 +1.8131150896E+000 
8518872.340 +6.7853333915E-001 +5.6403735176E+000  +1.4669810813E-002 -4.3866845750E+000  +1.7106855865E-002 +1.4302586549E+001  +7.0977179654E-001 -5.1857850023E-001 
8644017.522 +6.6107646236E-001 +1.0645263857E+001  +1.2540041951E-002 +4.0138854760E+000  +1.4212791785E-002 -3.0766053215E+000  +7.1806868004E-001 +1.3875129075E+000 
8769162.703 +6.3371615337E-001 +7.6232503071E+000  +1.1771108028E-002 +1.0212004699E+001  +2.0054668674E-002 +2.6923154128E+001  +6.1090417907E-001 -3.0126944747E+000 
8894307.885 +6.5108491806E-001 +1.0317418058E+001  +1.1795727007E-002 +1.3994164833E+001  +1.7180661804E-002 +1.2440271685E+001  +6.3538894043E-001 -1.8802443078E+000 
9019453.066 +5.8488668830E-001 +1.0017546197E+001  +1.7756068857E-002 +6.3214006412E+000  +1.3636941272E-002 +7.2911297229E+000  +6.0417932260E-001 -8.7071305082E+000 
9144598.248 +5.7782155324E-001 +3.7266945263E+000  +1.2538385624E-002 -1.7349949055E+000  +1.1599752812E-002 +1.0640264860E+001  +5.6208769321E-001 +5.0716823968E+000 
9269743.429 +5.4034140532E-001 +7.9549781746E+000  +1.3338738218E-002 -1.8193668636E+000  +1.4053715484E-002 +3.5869334457E+000  +5.7751818614E-001 -9.1197753496E-001 
9394888.611 +5.6947532399E-001 +6.1754973024E+000  +1.5201478782E-002 -1.3076062906E+000  +1.2121429157E-002 -5.1740820412E+000  +6.1261947095E-001 -2.1609396974E+000 
9520033.792 +5.6140100939E-001 +6.4965028800E+000  +1.1132918027E-002 +4.5377112276E+000  +1.2979111773E-002 +3.4259671788E+000  +5.6007150505E-001 -2.2474048283E+000 
9645178.974 +5.6067956747E-001 +5.9787307677E+000  +1.6384144015E-002 +3.6892003700E-001  +1.4647535001E-002 +1.4843052467E+001  +5.8240266139E-001 -3.0068606128E+000 
9770324.155 +5.5529680850E-001 -6.4291197068E-001  +1.3421702397E-002 -1.1884679441E+000  +1.6211472059E-002 +1.8339417931E+001  +5.7535250220E-001 -2.2763397314E+000 
9895469.337 +5.2237580448E-001 +5.4851056196E+000  +1.5550735081E-002 -3.5534116431E+000  +1.3459369847E-002 +2.0461246839E+001  +5.9930786291E-001 -5.4628076547E+000 
10020614.518 +5.5519133287E-001 +6.1234179258E+000  +1.4519121052E-002 +1.0494191991E+001  +1.5586300519E-002 +7.4676909698E+000  +5.7970150880E-001 -4.5129787910E+000 
10145759.700 +5.6233883842E-001 +8.4506393713E-001  +1.4981277549E-002 +1.2226817432E+001  +1.4374361763E-002 +1.8882501237E+001  +5.7800643952E-001 -2.8906490351E+000 
10270904.881 +5.4921213509E-001 +3.5176971741E+000  +1.4932352224E-002 -9.1020315954E-001  +1.0478590498E-002 +1.3343963735E+001  +5.5145143396E-001 -1.5549342541E+000 
10396050.063 +5.6388679142E-001 +6.0029635492E+000  +1.4584975121E-002 +8.8442130052E+000  +1.2570699850E-002 +2.0138533657E+001  +5.9304023300E-001 -2.0974678010E+000 
10521195.244 +5.4826893371E-001 +9.8114095507E+000  +1.3228806468E-002 +9.3931412193E-001  +1.4668847288E-002 +1.9090110749E+001  +6.0936472743E-001 +9.4810071465E-001 
10646340.426 +5.3246291166E-001 +6.6368150096E+000  +1.3057615158E-002 +2.8211650199E+000  +1.4969999825E-002 +1.4521307996E+001  +5.9167937022E-001 -4.4370889847E+000 
10771485.607 +5.6709533154E-001 +9.4229301328E+000  +1.5271369584E-002 -3.4949925007E+000  +1.2452293229E-002 +1.7689878761E+001  +6.1722677861E-001 +2.6687230008E+000 
10896630.788 +5.7818449680E-001 +8.8036921871E+000  +1.6527759423E-002 +1.2508895233E+001  +1.3350923336E-002 +1.7422113177E+001  +5.8455660878E-001 +9.8490718521E-002 
11021775.970 +5.8108355718E-001 +7.3441572846E+000  +1.5976710215E-002 +1.8897475054E+000  +1.4712463037E-002 +2.6141544877E+001  +6.0960374597E-001 +1.9154534118E+000 
11146921.151 +5.9172406458E-001 +4.9273184385E+000  +1.6809422778E-002 +4.2519236897E+000  +1.3746554278E-002 +1.3174174923E+001  +6.4280093056E-001 +1.6236812253E+000 
11272066.333 +6.2974855951E-001 +6.6204004022E+000  +1.7642218674E-002 -2.0398928677E-001  +1.5190154990E-002 +1.8884946890E+001  +6.2854945527E-001 +2.0009431929E+000 
11397211.514 +6.0425169191E-001 +9.8343860401E+000  +1.6347849051E-002 +7.4799112828E+000  +1.3291038547E-002 +1.1864133661E+001  +6.1335345631E-001 +3.7237696776E+000 
11522356.696 +6.1232367226E-001 +7.4639715871E+000  +1.4224079227E-002 +3.4217967020E+000  +1.4768964020E-002 +1.8783057108E+001  +6.4241360113E-001 +2.4469794380E+000 
11647501.877 +6.2551937187E-001 +5.3265649228E+000  +1.5848113268E-002 +3.3625267673E+000  +1.3556408417E-002 +1.5039858141E+001  +6.3476167510E-001 +1.3020475339E+000 
11772647.059 +6.3401228347E-001 +6.3186717243E+000  +1.5634352294E-002 +3.3198384556E+000  +1.3291115622E-002 +1.3798931103E+001  +6.5155124176E-001 +2.4427257663E+000 
11897792.240 +6.3462870402E-001 +3.6506221966E+000  +1.5019681899E-002 +6.7986362595E+000  +1.5346134804E-002 +1.5635252577E+001  +6.7110289092E-001 +1.6185463482E+000 
12022937.422 +6.7833063658E-001 +5.6697350653E+000  +1.6376377725E-002 +4.8773406727E+000  +1.4559069401E-002 +1.3422655429E+001  +6.7646644637E-001 -1.6005054260E+000 
12148082.603 +6.7456690749E-001 +5.7717204647E+000  +1.6309644201E-002 +7.1695774201E+000  +1.7956547468E-002 +1.3700141303E+001  +6.9021009655E-001 +4.7197123441E-001 
12273227.785 +7.1273950232E-001 +7.2306674304E+000  +1.6335406587E-002 +5.9101802511E+000  +1.4900942650E-002 +1.6286309622E+001  +7.1346818371E-001 +7.5956645254E-001 
12398372.966 +7.0026581769E-001 +4.0602381909E+000  +1.6883549435E-002 +1.0122214168E+001  +1.6467201522E-002 +8.4425604342E+000  +7.0591187246E-001 -2.9404329431E-001 
12523518.148 +7.3124199078E-001 +3.7116482947E+000  +1.7208560348E-002 +1.2575551870E+001  +1.3936508484E-002 +1.3108087612E+001  +7.3663188581E-001 +4.5240865112E-001 
12648663.329 +6.9291197606E-001 +4.2937304904E+000  +1.5282648666E-002 +6.1837362855E+000  +1.7789615831E-002 +7.9348306018E+000  +7.7204764929E-001 -8.2973075811E-001 
12773808.511 +7.3426022942E-001 +2.1858335268E+000  +1.6510925821E-002 +1.0435868432E+001  +1.6772519908E-002 +1.6730180444E+001  +7.6777635244E-001 -4.3702459605E-001 
12898953.692 +7.5460134966E-001 +2.0593726655E+000  +1.6802932445E-002 +9.1894603904E+000  +1.7481212644E-002 +1.2589687613E+001  +7.7014722775E-001 -1.9895937121E+000 
13024098.874 +7.7487107149E-001 +3.0589626269E+000  +1.7691884275E-002 +1.1064976250E+001  +1.5687191363E-002 +8.5614030351E+000  +7.7925735447E-001 -9.8577564925E-001 
13149244.055 +7.9689409974E-001 -2.6596923652E-002  +1.6799696787E-002 +6.7439486908E+000  +1.6587784856E-002 +6.7102715883E+000  +7.9969328470E-001 -1.8153892192E+000 
13274389.237 +8.0446361604E-001 -1.5921821794E+000  +1.7789788441E-002 +9.3004179415E+000  +1.5842946962E-002 +5.3525607081E+000  +8.0756683552E-001 -3.3412470455E+000 
13399534.418 +8.4501427925E-001 -1.0307571737E+000  +1.8481994632E-002 +3.2037095777E+000  +1.6925165392E-002 +1.0814789520E+001  +8.3727178259E-001 -2.7078266955E+000 
13524679.599 +8.4539170967E-001 -2.0836995275E+000  +1.8018711918E-002 +7.9045011796E+000  +1.6597438227E-002 +1.4204010757E+001  +8.3721090776E-001 -3.6263138259E+000 
13649824.781 +8.6388149218E-001 -1.0990547128E+000  +1.8061086353E-002 +6.0890879372E+000  +1.7213997402E-002 +1.0618930909E+001  +8.5717125503E-001 -3.4835105689E+000 
13774969.962 +8.6969541797E-001 -3.1156692392E+000  +1.9270934625E-002 +3.5184447821E+000  +1.6086049515E-002 +1.3371254991E+001  +8.9137472423E-001 -3.4233243599E+000 
13900115.144 +9.1576327275E-001 -3.6285122225E+000  +1.9306749540E-002 +4.3404675786E+000  +1.7282122433E-002 +8.7588367981E+000  +9.0849203183E-001 -3.9059592508E+000 
14025260.325 +9.1793525745E-001 -3.9024640076E+000  +1.8287913160E-002 +6.7606663826E+000  +1.7581361349E-002 +7.1480290709E+000  +9.3326947121E-001 -4.6918578624E+000 
14150405.507 +9.5382787037E-001 -3.3263296644E+000  +1.8838978039E-002 +4.5032427769E+000  +1.8979508001E-002 +1.0193335848E+001  +9.4522091835E-001 -3.6447210502E+000 
14275550.688 +9.4317348403E-001 -6.6986907839E+000  +1.9173388005E-002 +6.0946114695E+000  +1.8191729941E-002 +1.0067574176E+001  +9.5461168120E-001 -2.8749270060E+000 
14400695.870 +9.6713253898E-001 -5.4019459331E+000  +1.8658976769E-002 +4.8445798301E+000  +1.6851580640E-002 +6.1557170982E+000  +9.8852415072E-001 -3.4807302013E+000 
