!  2-Port S-parameters saved by WinCal
! VAR MeasName=S-Parameters (CALIBRATED_DATA) read from VNA (P5004A)
! VAR MeasDate=27/08/2024 12:54:59
! VAR NAME=S2_r9c9_pristine_9k-100M_3
! VAR FILENAME=S2_r9c9_pristine_9k-100M_3.S2P
! VAR DATE=27/08/2024 12:54:59
! VAR PHYS_PORTS=1,2
! VAR ObjTypeName=DATASET
! VAR IndexType=Frequency
!
# Hz S MA R 50
9000.000 +2.8585120129E-002 -1.4507649748E+002  +6.9862182812E-003 +1.4752752215E+002  +2.5720312253E-002 +9.8956291449E+001  +1.2238834702E-001 -1.4982071377E+002 
134145.181 +1.1142267549E-001 +1.6956958053E+002  +3.8325475747E-004 -3.2594179813E+001  +6.1007315749E-004 +7.5474363824E+001  +2.4171181435E-001 -1.7146114712E+002 
259290.363 +1.1233667980E-001 +1.6930405144E+002  +8.7284858703E-004 -5.0453977923E+001  +9.7936845687E-004 -1.6650208286E+002  +2.3568494590E-001 -1.6880680448E+002 
384435.544 +1.1251301516E-001 +1.6970774091E+002  +7.2561046986E-004 -9.8629003683E+001  +5.9186930457E-004 +1.3168748054E+002  +2.4742334972E-001 -1.6935809378E+002 
509580.726 +1.1187238137E-001 +1.6994280043E+002  +1.2592209878E-003 -3.3769404781E+001  +8.2505258307E-004 +7.2812803000E+001  +2.3026644262E-001 -1.6680926976E+002 
634725.907 +1.1616800854E-001 +1.7050842132E+002  +2.6934760689E-004 -1.2508739570E+001  +1.1215714358E-003 +1.2596860240E+002  +2.4613540439E-001 -1.6833910670E+002 
759871.089 +1.1778378737E-001 +1.6985201654E+002  +1.1846541028E-003 -2.8308878701E+001  +1.3069328039E-003 +1.4834573553E+002  +2.4102365769E-001 -1.6703996022E+002 
885016.270 +1.1744080352E-001 +1.6926984095E+002  +1.7457114598E-003 -7.2402395973E-001  +1.0034057393E-003 +1.6008171449E+002  +2.4332965176E-001 -1.6672008865E+002 
1010161.452 +1.1877896232E-001 +1.7000745419E+002  +2.3058180773E-003 +4.3138040518E+001  +3.5541229819E-003 -9.0396750055E+001  +1.7608760590E-001 +1.7977367104E+002 
1135306.633 +1.1464843067E-001 +1.7115281247E+002  +7.9905603479E-003 +4.8472288354E+001  +5.6840133559E-003 -1.2857229243E+002  +1.8615127733E-001 -1.6969968733E+002 
1260451.815 +1.2169473169E-001 +1.7044838586E+002  +3.7370881334E-003 -2.8818137531E+001  +3.4382688102E-003 -1.7747627909E+002  +2.4351017310E-001 -1.6215157826E+002 
1385596.996 +1.2766214786E-001 +1.7122012373E+002  +3.1878214156E-003 -4.4458273833E+001  +2.2094231048E-003 +1.6479324251E+002  +2.5759160756E-001 -1.6142195539E+002 
1510742.178 +1.2787308770E-001 +1.7416634404E+002  +3.2001300081E-003 -4.3958367814E+000  +3.2907917428E-003 -1.4731043761E+002  +2.5106935876E-001 -1.6163055118E+002 
1635887.359 +1.2927628660E-001 +1.7056325875E+002  +3.1606967452E-003 +2.8889247505E+001  +4.3558495664E-003 -1.1678677238E+002  +2.3488652735E-001 -1.6062712847E+002 
1761032.541 +1.2910230571E-001 +1.6920291459E+002  +5.5492465723E-003 +7.0533548298E+001  +6.1199432875E-003 -9.9288221912E+001  +2.2676857779E-001 -1.6088024040E+002 
1886177.722 +1.3169041209E-001 +1.6967365623E+002  +1.0210544491E-002 +6.5009880309E+001  +9.7414685058E-003 -6.1507982820E+001  +2.0023089360E-001 -1.6146537565E+002 
2011322.904 +1.2894786924E-001 +1.6952048920E+002  +1.4839184067E-002 +8.1209876658E+001  +1.6111743265E-002 -5.6178300563E+001  +2.0410067739E-001 -1.6718639025E+002 
2136468.085 +1.3013626563E-001 +1.6704261644E+002  +2.3928071382E-002 +7.5393484917E+001  +2.5046010289E-002 -4.8715536199E+001  +1.7252544211E-001 -1.5990026628E+002 
2261613.267 +1.3342968575E-001 +1.6540908062E+002  +2.4597967765E-002 +9.6757669524E+001  +2.7172933042E-002 -2.7548451732E+001  +1.9052270932E-001 -1.7171572821E+002 
2386758.448 +1.1198992947E-001 +1.6601713839E+002  +5.3792263645E-002 +7.0949235030E+001  +5.6146873973E-002 -5.4028248014E+001  +1.3926525415E-001 -1.5790328354E+002 
2511903.630 +1.3700184327E-001 +1.6061086540E+002  +4.1686832435E-002 +1.1967446572E+002  +4.1881791015E-002 +1.7433181764E+000  +2.1881482190E-001 +1.7578612883E+002 
2637048.811 +2.1408758959E-001 -1.0764342009E+002  +5.9048956939E-001 -6.2455654554E+000  +5.9392925489E-001 -1.1321526496E+002  +1.3882130981E+000 -5.7459132540E+001 
2762193.992 +1.3668260346E-001 -1.7399314931E+002  +8.5602870985E-002 +2.0022575426E+000  +9.0865022774E-002 -1.0496544757E+002  +2.1426579510E-001 -1.1473359109E+002 
2887339.174 +1.3597540455E-001 -1.7894703171E+002  +6.9484482526E-002 +6.0168038421E+000  +7.5876191783E-002 -9.9049138129E+001  +2.1561362836E-001 -1.2466812749E+002 
3012484.355 +1.3704175972E-001 +1.7831879978E+002  +7.8352546062E-002 +1.2846931351E+001  +7.8756324554E-002 -8.4081041805E+001  +1.8588515926E-001 -1.1447415842E+002 
3137629.537 +1.5614285154E-001 -1.7500883688E+002  +9.3579844078E-002 -1.4925952644E+001  +9.2811563021E-002 -1.1037213387E+002  +2.7995333435E-001 -1.0682177177E+002 
3262774.718 +1.4663217057E-001 +1.7867217302E+002  +7.3429674977E-002 -5.5832030603E+000  +6.9863426913E-002 -1.0110194908E+002  +2.9301589982E-001 -1.2283624923E+002 
3387919.900 +1.2845819709E-001 +1.6482339108E+002  +8.7253006828E-002 +6.1478192212E+001  +9.0560154575E-002 -2.5515105294E+001  +1.4028288298E-001 +1.7915784561E+002 
3513065.081 +1.2576453585E-001 +1.7254295313E+002  +1.2009253994E-001 +5.0827652002E+001  +1.2157066264E-001 -3.5090596427E+001  +6.3638566804E-002 +1.3393200159E+002 
3638210.263 +1.7757043102E-001 +1.4554843391E+002  +1.5270237563E-001 +1.1109661462E+002  +1.5140836295E-001 +2.9261932315E+001  +3.3759575936E-001 +1.3197539095E+002 
3763355.444 +1.5191068982E-001 +1.2743424797E+002  +2.3898624187E-001 +8.9498560261E+001  +2.3158548996E-001 +1.2575301532E+001  +3.0596963183E-001 +1.0079612260E+002 
3888500.626 +1.4762713026E-001 +1.5586842899E+002  +1.1319450610E-001 +7.5624943662E+001  +1.0835173996E-001 +1.4922944495E+000  +2.0529117884E-001 +1.6409720303E+002 
4013645.807 +1.7144404071E-001 +1.6285936447E+002  +7.4001667422E-002 +7.1134948034E+001  +7.3098436279E-002 +7.3671949728E-001  +2.5045885892E-001 -1.7670149627E+002 
4138790.989 +1.5429198652E-001 +1.5844904999E+002  +1.1534740931E-001 +6.0977830083E+001  +1.1670908115E-001 -6.0542158121E+000  +1.6168361352E-001 +1.7713115135E+002 
4263936.170 +1.7437702646E-001 +1.4835687068E+002  +1.4946013776E-001 +8.3660154578E+001  +1.4530169294E-001 +1.8172502946E+001  +2.5687754654E-001 +1.4929274054E+002 
4389081.352 +2.0272730993E-001 +1.4896331945E+002  +1.2283330558E-001 +1.0043601207E+002  +1.2038434063E-001 +3.8632529860E+001  +3.6558479601E-001 +1.6558481141E+002 
4514226.533 +1.8138103822E-001 +1.4147533361E+002  +2.2492072321E-001 +8.5178237221E+001  +2.1056908285E-001 +2.5303239544E+001  +3.7115606911E-001 +1.2594423328E+002 
4639371.715 +5.7094306071E-001 +1.3093630747E+002  +7.6643461758E-001 +1.5010308884E+002  +7.7607917306E-001 +9.6499556891E+001  +1.6456074850E+000 +1.4486887192E+002 
4764516.896 +2.4711139157E-001 +1.0135864672E+002  +4.2949902134E-001 +8.4277564553E+001  +4.2190273576E-001 +3.4584025026E+001  +5.4598027221E-001 +1.0730712010E+002 
4889662.078 +7.1903278497E-001 +1.1334260238E+002  +1.1792941793E+000 +1.3016528440E+002  +1.1663397556E+000 +8.3294387474E+001  +2.3659225390E+000 +1.2731983016E+002 
5014807.259 +4.1354410685E-001 +9.6737618599E+001  +7.0545158520E-001 +1.0299567749E+002  +7.0027902018E-001 +5.9861548581E+001  +1.2533364213E+000 +1.2086783245E+002 
5139952.441 +2.0831611963E-001 +1.2721592223E+002  +3.4767136843E-001 +7.8296625286E+001  +3.3481217834E-001 +3.5837174274E+001  +5.7429732483E-001 +1.1990944378E+002 
5265097.622 +2.3129424930E-001 +1.2521697103E+002  +3.6194759190E-001 +7.0904248158E+001  +3.4946647896E-001 +3.1956752555E+001  +4.6476041857E-001 +1.0596213927E+002 
5390242.804 +2.8670006928E-001 +1.4261844673E+002  +2.4027053404E-001 +9.1354964819E+001  +2.4145704592E-001 +5.2383669002E+001  +5.9851566739E-001 +1.4675014490E+002 
5515387.985 +3.4600037203E-001 +1.2942306896E+002  +3.4946192194E-001 +9.4929045598E+001  +3.3750676784E-001 +6.1044746716E+001  +6.9632982762E-001 +1.3882868870E+002 
5640533.166 +3.3441994776E-001 +1.2881301010E+002  +4.5537584924E-001 +8.9117373368E+001  +4.3833509010E-001 +5.6093161327E+001  +1.0005174560E+000 +1.2014457750E+002 
5765678.348 +4.3549188366E-001 +1.3126253192E+002  +4.6795695079E-001 +1.1056279431E+002  +4.5687572430E-001 +8.3095988377E+001  +1.2654322120E+000 +1.4123073712E+002 
5890823.529 +3.7910319822E-001 +1.2599064630E+002  +4.1951733738E-001 +8.5633041418E+001  +4.0845596014E-001 +6.0275464640E+001  +8.5581086479E-001 +1.3522119316E+002 
6015968.711 +3.8341896276E-001 +1.2493992244E+002  +4.6499677796E-001 +8.1402605374E+001  +4.4665332254E-001 +5.7617953628E+001  +9.5693978459E-001 +1.2975240913E+002 
6141113.892 +3.8584537120E-001 +1.1345719887E+002  +5.8636243124E-001 +7.3578041082E+001  +5.7295334036E-001 +5.2171174714E+001  +1.0859386458E+000 +1.1823460380E+002 
6266259.074 +4.2235644290E-001 +1.0788868161E+002  +6.0833171434E-001 +6.4147942068E+001  +6.0010490465E-001 +4.5850287361E+001  +8.8430245757E-001 +1.1016885816E+002 
6391404.255 +3.6664217944E-001 +9.2808055845E+001  +7.4315134929E-001 +5.0153299715E+001  +7.3514122548E-001 +3.3771223080E+001  +9.4838599859E-001 +9.0343983220E+001 
6516549.437 +3.3341700275E-001 +8.4040744591E+001  +7.9063992085E-001 +3.9643642031E+001  +7.8847468529E-001 +2.5854868158E+001  +9.1305234311E-001 +7.8986016163E+001 
6641694.618 +1.7567556226E-001 +5.8266417268E+001  +8.2843726289E-001 +2.0887497677E+001  +8.1827772958E-001 +9.2726092166E+000  +7.0818371174E-001 +5.5103604253E+001 
6766839.800 +2.5752591889E-001 +7.1136076918E+001  +8.3167781870E-001 +2.2142874672E+001  +8.2025680510E-001 +1.2605268311E+001  +7.2392933669E-001 +5.8150611409E+001 
6891984.981 +2.2967372475E-001 +2.7884328555E+001  +9.2501375807E-001 +1.0139944250E+001  +9.2878677948E-001 +2.5609101940E+000  +7.2179844616E-001 +3.1443984218E+001 
7017130.163 +2.2015915449E-001 +5.3996553755E+001  +8.6347933937E-001 +1.0285290845E+001  +8.6005473490E-001 +4.6303228875E+000  +6.0701694220E-001 +4.0276414898E+001 
7142275.344 +1.7986120781E-001 +3.0670670238E+001  +8.5067606750E-001 +4.5847251855E+000  +8.5378495668E-001 +1.1422905386E+000  +3.5868215086E-001 +2.5586669697E+001 
7267420.526 +1.5530663329E-001 -6.5537168670E+000  +8.7298168448E-001 +4.8525916280E-001  +8.5958590011E-001 -5.0008731219E-001  +3.5060547277E-001 +1.2048366025E+001 
7392565.707 +2.5283215806E-001 +5.8010848605E+000  +8.7862449655E-001 +1.9586111066E+000  +8.7468368881E-001 +2.2696522950E+000  +2.7193706781E-001 -5.2722624608E+000 
7517710.889 +1.3002474292E-001 +8.0779682718E+001  +8.0572794355E-001 -9.8010823003E-001  +8.0632211957E-001 +1.1970612066E+000  +1.4887348945E-001 -8.6983421588E+000 
7642856.070 +2.4680801959E-001 +7.4521556759E+001  +7.6138993340E-001 -5.3138501585E-001  +7.5879562519E-001 +2.9078984092E+000  +1.5035464926E-001 +4.2430519195E+001 
7768001.252 +1.1994529712E-001 +8.1934468632E+001  +7.6059498779E-001 -2.5539813490E+000  +7.6158850947E-001 +2.2020972533E+000  +1.0143295147E-001 +7.8166491357E+000 
7893146.433 +1.9242499502E-001 +9.1558801213E+001  +7.2561038349E-001 -2.6217117364E+000  +7.2029795107E-001 +3.5017939498E+000  +1.4279615890E-001 +4.5238778727E+001 
8018291.615 +1.1555491986E-001 +8.8987875230E+001  +7.1987760564E-001 -4.5630501205E+000  +7.2499833551E-001 +3.2046362812E+000  +5.2736554411E-002 +9.7968568487E+001 
8143436.796 +1.8481397765E-001 +9.9276474449E+001  +6.9169513624E-001 -5.1821728498E+000  +6.8521449160E-001 +3.6174060181E+000  +1.0112877187E-001 +1.0344848399E+002 
8268581.977 +1.8600377150E-001 +8.5573825601E+001  +6.7680425993E-001 -4.7855091975E+000  +6.7571322788E-001 +5.2743010481E+000  +1.2261501119E-001 +9.1361803576E+001 
8393727.159 +2.2858132581E-001 +1.0402518250E+002  +6.5156165025E-001 -6.1195701738E+000  +6.4999562988E-001 +4.8947139467E+000  +1.8834886894E-001 +1.0513989815E+002 
8518872.340 +1.7909149583E-001 +1.2184070641E+002  +6.5808254667E-001 -6.3513010498E+000  +6.4962843981E-001 +5.3877357137E+000  +1.9084286297E-001 +6.8650344447E+001 
8644017.522 +2.1871640879E-001 +1.0612333077E+002  +6.3671966814E-001 -6.4084595449E+000  +6.3503047758E-001 +5.7250862042E+000  +1.8866026555E-001 +1.1333707544E+002 
8769162.703 +1.4810110228E-001 +1.1724004641E+002  +6.5018257911E-001 -7.5067955810E+000  +6.4237407889E-001 +5.3883423796E+000  +1.3714283809E-001 +1.1652026477E+002 
8894307.885 +2.0844448140E-001 +1.2652093141E+002  +6.2625298314E-001 -8.2725416064E+000  +6.2486586932E-001 +5.5683262574E+000  +1.8160977917E-001 +1.1205551572E+002 
9019453.066 +1.9732278695E-001 +1.3471490540E+002  +6.1994696374E-001 -8.6929399339E+000  +6.1970798406E-001 +5.5008104342E+000  +1.9840195299E-001 +1.0723351308E+002 
9144598.248 +1.8081686237E-001 +1.2881764989E+002  +6.2310097168E-001 -9.0084656186E+000  +6.2104638791E-001 +5.7181454456E+000  +2.2124082236E-001 +1.2008374999E+002 
9269743.429 +1.8871357052E-001 +1.2807834432E+002  +6.2090502886E-001 -9.1593691220E+000  +6.1829570899E-001 +6.2620831562E+000  +2.0142556081E-001 +1.1783586616E+002 
9394888.611 +1.7362054581E-001 +1.2075629469E+002  +6.1863329965E-001 -8.4613602885E+000  +6.1637873328E-001 +7.0513232214E+000  +1.6970637645E-001 +1.0793929739E+002 
9520033.792 +1.5733045042E-001 +1.2780365850E+002  +6.1948477303E-001 -8.6780017592E+000  +6.1711824632E-001 +7.3160104223E+000  +1.8432105116E-001 +1.1596425840E+002 
9645178.974 +1.7926540690E-001 +1.3241002621E+002  +6.2254601317E-001 -8.9814204058E+000  +6.1708697978E-001 +6.9144174927E+000  +1.3687667521E-001 +1.2437796301E+002 
9770324.155 +1.9610184198E-001 +1.2660595034E+002  +6.1769429874E-001 -9.1034094996E+000  +6.1534087733E-001 +6.8487044384E+000  +1.7768067703E-001 +1.3901553641E+002 
9895469.337 +1.5458222375E-001 +1.3629775254E+002  +6.2349801238E-001 -8.7929117085E+000  +6.1917845629E-001 +7.1194818444E+000  +1.6389983884E-001 +1.2663812251E+002 
10020614.518 +1.3158599983E-001 +1.2985765554E+002  +6.2341273385E-001 -8.8658992171E+000  +6.1998739455E-001 +7.2251490457E+000  +2.1420146494E-001 +1.2542034023E+002 
10145759.700 +1.6421200350E-001 +1.3288050542E+002  +6.2213554291E-001 -8.6341396298E+000  +6.1609226854E-001 +7.4338198409E+000  +2.0354670095E-001 +1.2331833329E+002 
10270904.881 +1.7078645192E-001 +1.3724694087E+002  +6.1908496454E-001 -8.6108784831E+000  +6.1419763186E-001 +6.6977651834E+000  +2.2831161715E-001 +1.2056115131E+002 
10396050.063 +1.9738627242E-001 +1.2310010161E+002  +6.1748356155E-001 -7.7660580048E+000  +6.1543445575E-001 +7.5770073829E+000  +1.8826336246E-001 +1.1674686969E+002 
10521195.244 +1.6429596568E-001 +1.3209587327E+002  +6.2551693850E-001 -7.8930450806E+000  +6.2424599652E-001 +7.5721234537E+000  +1.8294429130E-001 +1.1416962021E+002 
10646340.426 +1.7542858449E-001 +1.2437013095E+002  +6.2412833875E-001 -7.4236499305E+000  +6.2111968350E-001 +7.3029782764E+000  +2.1254782436E-001 +1.1861075877E+002 
10771485.607 +1.5538559394E-001 +1.1989296884E+002  +6.2988453614E-001 -6.9514655315E+000  +6.2680172233E-001 +7.3396822275E+000  +2.0098543289E-001 +1.1803565169E+002 
10896630.788 +2.0222220221E-001 +1.1734012231E+002  +6.2211049259E-001 -6.2337643373E+000  +6.1958514312E-001 +7.9021037184E+000  +2.1400803475E-001 +1.0130036652E+002 
11021775.970 +1.5235388317E-001 +1.2325483627E+002  +6.3879570423E-001 -6.4465438384E+000  +6.3296836158E-001 +7.5695398691E+000  +1.9075852528E-001 +1.0832102360E+002 
11146921.151 +1.9824984603E-001 +1.1011806603E+002  +6.3583382346E-001 -5.8805611316E+000  +6.2868487200E-001 +7.4980798801E+000  +1.8460918510E-001 +1.1572478971E+002 
11272066.333 +1.9355388150E-001 +1.2403128920E+002  +6.3968730852E-001 -5.7630627943E+000  +6.3784356064E-001 +7.3568202336E+000  +1.7327630217E-001 +9.5118690406E+001 
11397211.514 +1.6524782807E-001 +1.1577563788E+002  +6.5251881416E-001 -5.3554325999E+000  +6.4697268869E-001 +6.8182694908E+000  +1.5745905882E-001 +1.1761847801E+002 
11522356.696 +1.6080430219E-001 +1.1516869835E+002  +6.5350698764E-001 -5.1003538809E+000  +6.4766700990E-001 +6.5841290700E+000  +1.9370973312E-001 +1.1403765190E+002 
11647501.877 +1.5718007390E-001 +1.1154020915E+002  +6.5884223216E-001 -4.4393443894E+000  +6.5607579785E-001 +6.8169414298E+000  +1.6332402404E-001 +1.0169872511E+002 
11772647.059 +1.5452620211E-001 +1.1408603916E+002  +6.6756996483E-001 -4.3740796510E+000  +6.6014816509E-001 +6.1412680482E+000  +1.6738379015E-001 +1.1148035423E+002 
11897792.240 +1.6018353672E-001 +1.1044584131E+002  +6.6890144402E-001 -4.1412594737E+000  +6.6309678836E-001 +6.2100063686E+000  +1.6843115718E-001 +1.0983916528E+002 
12022937.422 +1.3888825317E-001 +1.0946548383E+002  +6.7529482117E-001 -3.9674483780E+000  +6.7206588035E-001 +5.5172440639E+000  +1.8817916596E-001 +1.1376024827E+002 
12148082.603 +1.5147712449E-001 +1.0976282288E+002  +6.8247828574E-001 -3.4558613114E+000  +6.7764142992E-001 +5.7930011947E+000  +1.3216982983E-001 +1.0166494990E+002 
12273227.785 +1.4949580073E-001 +1.0394447329E+002  +6.9063158509E-001 -3.3771093936E+000  +6.8706433009E-001 +4.7542075454E+000  +1.5484331749E-001 +1.2356159815E+002 
12398372.966 +1.1825314396E-001 +1.0389251480E+002  +6.9873823841E-001 -2.8162455523E+000  +6.9717366047E-001 +4.9846819094E+000  +1.3793238889E-001 +1.0136048494E+002 
12523518.148 +1.0786133167E-001 +9.7563497598E+001  +7.0670133690E-001 -2.3444063517E+000  +7.0421243398E-001 +5.0019761597E+000  +1.4021489293E-001 +9.9240349928E+001 
12648663.329 +1.3614375015E-001 +9.3607354299E+001  +7.1291352775E-001 -1.9698648024E+000  +7.0785920582E-001 +4.7699432112E+000  +1.0445698759E-001 +9.9028699982E+001 
12773808.511 +1.2284151291E-001 +8.9410462819E+001  +7.2048464253E-001 -1.6724845210E+000  +7.1570248541E-001 +4.3906684659E+000  +1.0541252960E-001 +9.4743156530E+001 
12898953.692 +1.0252597789E-001 +9.7133309386E+001  +7.2598080026E-001 -1.5249401349E+000  +7.2286960960E-001 +4.1231977872E+000  +1.2654459393E-001 +8.0420833260E+001 
13024098.874 +9.4026618538E-002 +8.1771219097E+001  +7.4337492984E-001 -1.3015485014E+000  +7.3722910789E-001 +3.7026544814E+000  +7.8564303234E-002 +8.7573575469E+001 
13149244.055 +7.4558503705E-002 +7.1515054515E+001  +7.5038993164E-001 -9.3128116384E-001  +7.4565156323E-001 +3.5218940566E+000  +9.7139537210E-002 +7.8646147165E+001 
13274389.237 +1.0294487937E-001 +8.0861172152E+001  +7.5614909733E-001 -9.8529199233E-001  +7.5177534481E-001 +3.0564170773E+000  +5.4637525854E-002 +7.1518952670E+001 
13399534.418 +6.1566112620E-002 +5.6554391458E+001  +7.6658339073E-001 -7.5619712207E-001  +7.6054596874E-001 +2.7113171657E+000  +9.5714443331E-002 +8.0249079642E+001 
13524679.599 +7.4634484144E-002 +5.0482918227E+001  +7.7376579157E-001 -4.4516042071E-001  +7.6686864451E-001 +2.6633654904E+000  +9.0337286572E-002 +6.1881290105E+001 
13649824.781 +7.3049209495E-002 +3.3261996254E+001  +7.8699007308E-001 -3.0692774404E-001  +7.8066725323E-001 +2.2573969355E+000  +6.3278598146E-002 +5.3122527779E+001 
13774969.962 +7.1413207837E-002 +3.6868032603E+001  +7.9616957890E-001 -1.3115835479E-001  +7.8835480330E-001 +1.9997088819E+000  +6.1615291192E-002 +3.3765895908E+001 
13900115.144 +8.6767287060E-002 +4.4453787299E+001  +7.9704477144E-001 -5.9835791235E-002  +7.9303893666E-001 +1.7952404654E+000  +7.9310923638E-002 +2.2185798760E+001 
14025260.325 +7.8815216707E-002 +1.0888002771E+001  +8.1152445198E-001 +3.1119979696E-003  +8.0495332831E-001 +1.2986584698E+000  +7.2854141539E-002 +3.2036276243E+001 
14150405.507 +8.6606246409E-002 +1.9053287625E+001  +8.2878304586E-001 +3.6177372406E-001  +8.1072173482E-001 +7.2791186971E-001  +8.6362794798E-002 +3.9287897872E+000 
14275550.688 +9.1429436321E-002 +1.5524425406E+001  +8.1688112190E-001 +8.1897449623E-001  +8.1783417347E-001 +9.4963645088E-001  +1.0047291202E-001 +5.8910305851E+000 
14400695.870 +1.0502130549E-001 +2.4827955165E+000  +8.3972534225E-001 +6.2955691943E-001  +8.2626439590E-001 +9.2082867843E-001  +9.3700382106E-002 -8.9181181683E-001 
