!  2-Port S-parameters saved by WinCal
! VAR MeasName=S-Parameters (CALIBRATED_DATA) read from VNA (P5004A)
! VAR MeasDate=29/08/2024 12:30:54
! VAR NAME=S2_r9c5_SET2_9k-100M_3
! VAR FILENAME=S2_r9c5_SET2_9k-100M_3.S2P
! VAR DATE=29/08/2024 12:30:54
! VAR PHYS_PORTS=1,2
! VAR ObjTypeName=DATASET
! VAR IndexType=Frequency
!
# Hz S MA R 50
9000.000 +8.5700604025E-002 -1.6591032932E+002  +3.7324308570E-003 +1.2628964543E+002  +1.9903679293E-002 +1.4490661460E+002  +2.5685434823E-001 -1.3722871515E+002 
134145.181 +1.1117732467E-001 +1.6939816851E+002  +2.8398060495E-004 -1.4785454215E+001  +6.3107411294E-005 +1.4794963085E+002  +2.4241918593E-001 -1.7119121301E+002 
259290.363 +1.1214228835E-001 +1.6990479770E+002  +1.2081594104E-003 -6.5633038717E+001  +6.6556914537E-004 +1.3311348732E+002  +2.3970882820E-001 -1.6916821824E+002 
384435.544 +1.1550927600E-001 +1.7011872663E+002  +4.2108320010E-004 +4.3768087628E+000  +4.5955371614E-005 +1.0151333670E+001  +2.3857154354E-001 -1.6905213809E+002 
509580.726 +1.1335401050E-001 +1.7122586134E+002  +5.4499571473E-004 -9.7922923586E+001  +5.7029322851E-004 +1.4878619789E+001  +2.4750948195E-001 -1.6782407770E+002 
634725.907 +1.1370972789E-001 +1.7196280811E+002  +1.2473750476E-003 -5.9444422052E+001  +1.2035314227E-003 -5.3697654443E+001  +2.4879570591E-001 -1.6710018345E+002 
759871.089 +1.1997167847E-001 +1.7105279300E+002  +4.2632990565E-004 -6.1409051579E+001  +1.0383129546E-003 +8.0065913058E+001  +2.3913644204E-001 -1.6700267803E+002 
885016.270 +1.2103397837E-001 +1.6912452513E+002  +7.3599761124E-004 -7.6074674255E+001  +1.2713632717E-003 +1.2986930569E+002  +2.3760743468E-001 -1.6644936414E+002 
1010161.452 +1.1919320496E-001 +1.6855467130E+002  +1.4102797027E-003 -3.6536164281E+001  +1.6153796224E-003 -1.3143738787E+002  +2.1613102279E-001 -1.6780533603E+002 
1135306.633 +1.1709485183E-001 +1.6935843341E+002  +2.3047799901E-003 -7.1316622969E+001  +2.9178008463E-003 -1.7402804209E+002  +2.0924196109E-001 -1.6700497079E+002 
1260451.815 +1.2027924128E-001 +1.6995523975E+002  +1.7048351180E-003 -8.9019071839E+001  +3.6143711206E-004 +1.4576822970E+002  +2.0445841204E-001 -1.5660728432E+002 
1385596.996 +1.1927747876E-001 +1.7044947197E+002  +1.9999491682E-003 -7.1309884049E+001  +2.5600874911E-003 +6.2059748430E+001  +2.6706708568E-001 -1.5804686983E+002 
1510742.178 +1.2501902608E-001 +1.7188953983E+002  +1.5134528135E-003 -4.5148563715E+001  +1.3188643683E-003 -1.7355462248E+002  +2.5963128090E-001 -1.5738227732E+002 
1635887.359 +1.2653315884E-001 +1.6924500323E+002  +5.6066807816E-004 +6.7758120583E+001  +1.2953486007E-003 -1.6613319395E+002  +2.4677531991E-001 -1.6001275708E+002 
1761032.541 +1.2831565612E-001 +1.6903235757E+002  +1.6417232372E-003 -4.0080727717E+000  +2.2611889301E-003 -9.1219992871E+001  +2.2715910493E-001 -1.6045818011E+002 
1886177.722 +1.3401143538E-001 +1.6898135368E+002  +1.3816355935E-003 +1.2380611383E+001  +1.1159388071E-003 -2.7156990341E+001  +2.1860852063E-001 -1.5730517063E+002 
2011322.904 +1.3145635584E-001 +1.6904301162E+002  +4.3380312926E-003 +4.0147327343E+001  +3.8410069110E-003 -8.6343198642E+001  +2.0106138915E-001 -1.6244120775E+002 
2136468.085 +1.3156751890E-001 +1.6723808151E+002  +7.1469894191E-003 +6.0245150506E+001  +8.7136402972E-003 -7.1206655168E+001  +1.9265567010E-001 -1.6034916739E+002 
2261613.267 +1.3358781890E-001 +1.6381210963E+002  +7.5849668106E-003 +8.7336097019E+001  +7.9434472345E-003 -3.8962082928E+001  +2.1650726504E-001 -1.6958407938E+002 
2386758.448 +1.3978963002E-001 +1.6040704565E+002  +7.7421135852E-003 +1.1177209993E+002  +1.0451383722E-002 -1.6805448216E+001  +2.0148467370E-001 -1.7128682320E+002 
2511903.630 +1.4185171815E-001 +1.6452938516E+002  +1.3784312076E-002 +7.0348667713E+001  +1.1829880646E-002 -3.1301659159E+001  +1.9276760656E-001 -1.7378740084E+002 
2637048.811 +1.1118639817E-001 +1.5934637503E+002  +4.1423478628E-002 +7.5029541578E+001  +4.1750356785E-002 -1.9507723874E+001  +2.0405968679E-001 +1.5524825362E+002 
2762193.992 +1.3185481041E-001 +1.7212981457E+002  +2.5205990517E-002 +6.8076808006E+001  +2.2017548254E-002 -6.3015250535E+001  +2.2955754814E-001 +1.6269801491E+002 
2887339.174 +1.0771820034E-001 +1.7718538548E+002  +6.7330581181E-002 -1.6730951768E+000  +6.4790455902E-002 -1.0064432635E+002  +7.4310221840E-002 -9.6129242579E+001 
3012484.355 +1.1841900886E-001 +1.6077354295E+002  +5.3621924490E-002 -8.7637461661E-001  +4.7949534951E-002 -8.7050562509E+001  +1.8696878853E-001 -8.9999052473E+001 
3137629.537 +1.2243193780E-001 +1.6703034215E+002  +7.3237348186E-002 -2.2547603232E+000  +4.9475787747E-002 -1.0700335918E+002  +2.4512479742E-001 -8.2304787027E+001 
3262774.718 +1.1835711056E-001 +1.7260519087E+002  +5.3672837442E-002 -8.1098869842E+000  +5.5296492169E-002 -1.1031097915E+002  +1.9744555537E-001 -9.1904181042E+001 
3387919.900 +1.3216773005E-001 +1.5707441959E+002  +5.4597604168E-002 +3.7960420233E+001  +3.8679395741E-002 -4.9606643602E+001  +4.0877035994E-002 -1.1813975126E+002 
3513065.081 +1.4572848393E-001 +1.5647702171E+002  +5.0132306543E-002 +4.0699761917E+001  +4.8841923751E-002 -2.9309058688E+001  +8.9890182946E-002 +9.1204097930E+001 
3638210.263 +1.7999115098E-001 +1.4438513617E+002  +8.0923932454E-002 +1.2978872421E+002  +6.9130665423E-002 +5.4057890628E+001  +5.8804905811E-001 +1.3778290769E+002 
3763355.444 +1.8433725668E-001 +1.5536356171E+002  +3.2750473631E-002 +1.1117665045E+002  +3.2326183789E-002 +4.1596497801E+001  +4.0104606086E-001 +1.5752737092E+002 
3888500.626 +1.7987344398E-001 +1.4661252954E+002  +6.4244939769E-002 +1.1021232908E+002  +5.4583236878E-002 +3.0312455281E+001  +4.5653941347E-001 +1.3714234302E+002 
4013645.807 +1.9520092153E-001 +1.4988602682E+002  +4.9275195824E-002 +9.5717273028E+001  +4.4047593603E-002 +2.3378685341E+001  +3.0880765378E-001 +1.4128605686E+002 
4138790.989 +1.7675911974E-001 +1.5412106591E+002  +5.0743687331E-002 +9.8112112781E+001  +4.8002838077E-002 +2.3409643403E+001  +4.2596806282E-001 +1.4884688736E+002 
4263936.170 +2.0424306791E-001 +1.5830343236E+002  +4.8169105648E-002 +8.9111738419E+001  +5.0712142191E-002 +1.8387747022E+001  +4.5655812325E-001 +1.1615207303E+002 
4389081.352 +2.0641148222E-001 +1.4724033583E+002  +5.6774071770E-002 +9.8940855714E+001  +5.6717687134E-002 +3.9502027874E+001  +4.3984670770E-001 +1.4079627350E+002 
4514226.533 +2.3664271185E-001 +1.2707821519E+002  +2.1841382480E-001 +1.0513472287E+002  +1.7539398050E-001 +5.8931567187E+001  +1.1973224298E+000 +1.0822119971E+002 
4639371.715 +2.2354246407E-001 +1.3936408521E+002  +1.4871505311E-001 +1.0482403828E+002  +1.5074404416E-001 +5.6027620646E+001  +1.0777234039E+000 +1.1112711124E+002 
4764516.896 +3.7813644542E-001 +1.1066423313E+002  +4.2865477569E-001 +5.4296268722E+001  +4.1851310387E-001 +1.3416556247E+001  +1.4845388074E+000 +8.5721695245E+000 
4889662.078 +3.9349413034E-001 +1.3439988246E+002  +5.7938139208E-001 -1.5151470606E+002  +5.3325118905E-001 +1.5608448283E+002  +3.1151825616E+000 +1.7650719663E+002 
5014807.259 +3.1598631496E-001 +1.5436058303E+002  +8.9832938416E-001 -1.1249954373E+002  +8.4554460096E-001 -1.5366731267E+002  +6.8732768072E+000 -1.3599993622E+002 
5139952.441 +3.5464030760E-001 +1.2997059405E+002  +3.2032150413E-001 +1.0943562142E+002  +2.9892749531E-001 +7.0912257588E+001  +2.1577213682E+000 +9.3995703132E+001 
5265097.622 +3.7973159096E-001 +1.3472363539E+002  +1.7554813558E-001 +1.1048091584E+002  +1.7056166186E-001 +7.8403022435E+001  +1.1580418730E+000 +1.0747405456E+002 
5390242.804 +3.7869591423E-001 +1.2364634860E+002  +3.7383977253E-001 +6.9355203769E+001  +3.4183753998E-001 +3.4367684402E+001  +1.9499358851E+000 +5.0003805133E+001 
5515387.985 +3.8850471575E-001 +1.3325313070E+002  +1.9107977497E-001 +1.0474290610E+002  +1.9093427618E-001 +8.0435397612E+001  +1.5109719484E+000 +1.0981810091E+002 
5640533.166 +4.2390596088E-001 +1.2449041264E+002  +2.0466551300E-001 +9.9014549160E+001  +2.1101538257E-001 +7.2159691592E+001  +1.4112675176E+000 +1.0711294064E+002 
5765678.348 +5.2033187480E-001 +1.2368970437E+002  +3.1978747504E-001 +1.0949388564E+002  +3.1261199453E-001 +8.1787084879E+001  +2.2317133668E+000 +1.0409154954E+002 
5890823.529 +5.2157127156E-001 +1.1912702925E+002  +3.2598370904E-001 +7.4204461471E+001  +3.2066274761E-001 +4.4690188371E+001  +1.9527628412E+000 +5.7942736522E+001 
6015968.711 +5.3184205535E-001 +1.1933747877E+002  +2.3837105874E-001 +6.4306915739E+001  +2.4552444178E-001 +4.3150361202E+001  +1.1829496129E+000 +5.3550634482E+001 
6141113.892 +5.7493372667E-001 +1.1009067169E+002  +2.9015197358E-001 +7.7846582382E+001  +2.8604673978E-001 +5.6504997870E+001  +1.6823412587E+000 +8.7253200992E+001 
6266259.074 +6.9334444324E-001 +1.0232955263E+002  +2.9601169111E-001 +5.4930996366E+001  +2.7442997052E-001 +3.9345958791E+001  +1.2091321793E+000 +5.5581948813E+001 
6391404.255 +8.7729221105E-001 +8.3802027437E+001  +3.8569897929E-001 +3.6596744989E+001  +3.7873530009E-001 +2.1779060819E+001  +1.3275591505E+000 +1.7406236093E+001 
6516549.437 +9.9759776659E-001 +8.9434494598E+001  +3.6414619427E-001 +4.7606008081E+001  +3.6204959765E-001 +3.2330114329E+001  +1.4519962328E+000 +2.5832256229E+001 
6641694.618 +1.4355737611E+000 +6.9358421655E+001  +4.5205291324E-001 +3.3223109604E+001  +4.1848568853E-001 +2.1504515346E+001  +1.2222116889E+000 +1.0133285017E+001 
6766839.800 +1.1277323790E+000 +5.0352135265E+001  +3.6921213655E-001 +1.1945750744E+001  +3.4873160015E-001 +5.4389414357E+000  +1.1255477192E+000 -3.5223716446E+000 
6891984.981 +1.1102244682E+000 +3.5461222370E+001  +3.1822370433E-001 +5.2575265173E+000  +3.2279371376E-001 -5.6207739177E+000  +1.0990400076E+000 -1.6542043869E+001 
7017130.163 +1.5393356910E+000 +2.3249843020E+001  +3.4885290885E-001 +4.1897390640E+000  +3.4790181208E-001 -4.9502541781E-001  +1.0511169340E+000 -1.3950767298E+001 
7142275.344 +1.0812175282E+000 +1.4338605836E+001  +2.5913584890E-001 -3.1477511873E-001  +2.6750088377E-001 -2.7191620103E+000  +1.1290652151E+000 -7.1176998016E+000 
7267420.526 +1.1382889044E+000 +5.1944302496E-001  +2.3505046644E-001 -2.8239764643E+000  +2.3706622800E-001 -1.6930613448E+000  +1.1076292298E+000 -9.4760034790E+000 
7392565.707 +1.0180795723E+000 +2.9660041902E+000  +1.9430156823E-001 +2.8751197172E+000  +2.0117004896E-001 +5.9141007370E+000  +1.0013432568E+000 -3.3686092466E+000 
7517710.889 +9.0254232197E-001 -6.2376032796E+000  +1.9563788089E-001 +3.3218821831E+000  +1.9724978818E-001 +2.7898627697E+000  +1.0038605169E+000 -1.7293258322E+001 
7642856.070 +8.5584824242E-001 +2.1062412679E+000  +1.7034626177E-001 +9.2480481289E-001  +1.8317767915E-001 +6.5442659955E+000  +8.7345815739E-001 -9.8681416949E+000 
7768001.252 +6.8833073227E-001 +5.5201212047E+000  +1.7398527398E-001 +1.4938068761E+000  +1.6966341615E-001 +4.2766667457E+000  +8.2292668454E-001 -3.8605636891E+000 
7893146.433 +6.9288657453E-001 +1.4864929130E+001  +1.6227987200E-001 +1.6810162932E+000  +1.6749708119E-001 +8.2420694441E+000  +8.0705262143E-001 +1.9591202910E-001 
8018291.615 +6.8171403585E-001 +1.5996063543E+001  +1.6045027920E-001 -8.3300161784E-001  +1.5292183427E-001 +8.3852675224E+000  +6.4030257399E-001 -7.2819055877E-001 
8143436.796 +6.0325867433E-001 +6.0983701143E+000  +1.5789339963E-001 -1.6466584346E+000  +1.5774219618E-001 +6.2974283116E+000  +6.2952043438E-001 -1.5000222351E+000 
8268581.977 +4.9503031460E-001 +1.2606534281E+001  +1.4946867053E-001 -2.8164898699E+000  +1.5179300221E-001 +5.3438385159E+000  +5.7004456545E-001 -2.5352178782E+000 
8393727.159 +5.5478873599E-001 +2.2407110410E+001  +1.4274999922E-001 -1.8042288118E+000  +1.4469641130E-001 +8.8649249355E+000  +6.2708146386E-001 -6.6886260271E-002 
8518872.340 +5.3353222317E-001 +1.0513266104E+001  +1.4797694972E-001 -2.0980410849E+000  +1.4501304899E-001 +6.9837323253E+000  +5.2112982381E-001 -1.6181595534E+000 
8644017.522 +4.5790833749E-001 +1.0696089391E+001  +1.3950820902E-001 -5.1462567067E+000  +1.4768141538E-001 +8.3611270233E+000  +4.8096629104E-001 +2.8575049462E-001 
8769162.703 +4.6868937093E-001 +1.3001761046E+001  +1.4475559022E-001 -3.6597251083E+000  +1.4363220964E-001 +9.9053332765E+000  +5.2801389573E-001 +6.8612916706E-001 
8894307.885 +4.9088575076E-001 +9.3505525119E+000  +1.4469765716E-001 -4.4713450840E+000  +1.4169288258E-001 +9.5265136781E+000  +4.4995486673E-001 +2.8127939314E+000 
9019453.066 +4.6981326987E-001 +1.0133264298E+001  +1.4085486191E-001 -3.6022393799E+000  +1.4310604696E-001 +1.0248998893E+001  +4.7306655590E-001 +4.7623265155E+000 
9144598.248 +4.4048700017E-001 +1.2707448261E+001  +1.4122627803E-001 -5.3324130554E+000  +1.3974857994E-001 +1.0337769181E+001  +4.4193060186E-001 +2.4771001201E+000 
9269743.429 +3.9650218929E-001 +1.2082502362E+001  +1.4058201136E-001 -5.5861632201E+000  +1.4085440327E-001 +9.5101879483E+000  +4.1650325884E-001 +5.3331692671E+000 
9394888.611 +4.1666347581E-001 +3.6602689175E+000  +1.4323655635E-001 -3.5173788864E+000  +1.3766833362E-001 +1.0855117056E+001  +4.4485108332E-001 +7.2465471056E+000 
9520033.792 +4.2882763098E-001 +7.8130640532E+000  +1.4278301682E-001 -7.0408622228E+000  +1.4271499716E-001 +1.1442647325E+001  +4.0566337974E-001 -3.2150058074E-001 
9645178.974 +3.4349583636E-001 +8.6144085259E-001  +1.3928280525E-001 -5.6781533633E+000  +1.4215196790E-001 +9.6182089196E+000  +4.0001377283E-001 -3.9244496820E+000 
9770324.155 +4.5568218413E-001 +5.7399568941E+000  +1.4294091466E-001 -4.6776550056E+000  +1.4272395565E-001 +1.2831821750E+001  +4.1498730270E-001 -7.9967836731E-001 
9895469.337 +3.5416907207E-001 +7.9853099823E+000  +1.4026934232E-001 -4.5141051832E+000  +1.4314923267E-001 +1.0421993318E+001  +4.0151934174E-001 -8.1208187623E+000 
10020614.518 +4.3557458293E-001 +9.2104725245E+000  +1.4431810386E-001 -4.2646616014E+000  +1.4255765703E-001 +1.1188944684E+001  +4.2316225006E-001 -2.6191521512E+000 
10145759.700 +4.2084107349E-001 +7.5979472016E+000  +1.4520273078E-001 -4.9743632714E+000  +1.4398593596E-001 +1.1627001247E+001  +3.9103964770E-001 +1.5228448254E+000 
10270904.881 +4.0893557541E-001 +5.6543478585E+000  +1.4734584603E-001 -4.0332669803E+000  +1.4536335234E-001 +1.2678844381E+001  +4.0628068911E-001 -9.5628901358E-001 
10396050.063 +4.1115048963E-001 +7.9594987877E+000  +1.4684217003E-001 -2.7595262350E+000  +1.4150912278E-001 +1.1499064922E+001  +4.2074054776E-001 +2.1002832396E+000 
10521195.244 +4.2253815790E-001 +6.7528282278E+000  +1.4747566130E-001 -2.7180393943E+000  +1.4543635755E-001 +1.2037912264E+001  +4.2149258659E-001 +5.3750380156E-001 
10646340.426 +4.1784041607E-001 +7.4546344714E+000  +1.4651662470E-001 -2.6683780830E+000  +1.4586399423E-001 +1.2188261777E+001  +4.0635360999E-001 +6.8504408117E+000 
10771485.607 +4.3140685945E-001 +8.7145395398E+000  +1.4856530917E-001 -1.4654964383E+000  +1.4569678650E-001 +1.3319422328E+001  +4.2946612557E-001 +5.1010157270E+000 
10896630.788 +4.6284022901E-001 +1.1427695681E+001  +1.4979397279E-001 -1.7211635905E+000  +1.4803329419E-001 +1.2159703070E+001  +4.4538714318E-001 +1.9556429692E+000 
11021775.970 +4.5975127127E-001 +6.7966686739E+000  +1.4876855787E-001 -9.7817502590E-001  +1.4868039667E-001 +1.3744858216E+001  +4.7164677569E-001 +3.3836899395E+000 
11146921.151 +4.3851057857E-001 +1.2834502854E+001  +1.5025901082E-001 -8.5986288709E-001  +1.4846518560E-001 +1.2303628440E+001  +4.9917556355E-001 +5.3007076830E+000 
11272066.333 +4.3138887818E-001 +9.2424142072E+000  +1.5275587158E-001 -1.7389332052E+000  +1.5009737299E-001 +1.1502409657E+001  +4.6012202162E-001 +4.9335835817E+000 
11397211.514 +4.4309643086E-001 +9.8315312506E+000  +1.5478065685E-001 -1.4244803845E+000  +1.5158665961E-001 +1.1894386886E+001  +4.8199965610E-001 +5.8829556698E+000 
11522356.696 +4.6162172150E-001 +6.3316461715E+000  +1.5530144576E-001 -2.7449249437E-001  +1.5368532119E-001 +1.1704292412E+001  +4.8415164127E-001 +7.9451226396E+000 
11647501.877 +4.5250720873E-001 +1.1210867225E+001  +1.5540453564E-001 -6.5657357021E-002  +1.5489707054E-001 +1.1966962241E+001  +5.0027670894E-001 +4.6887521348E+000 
11772647.059 +4.9951319064E-001 +7.8382191192E+000  +1.5728936919E-001 +3.2025084656E-001  +1.5728332256E-001 +1.1222691627E+001  +4.7971155827E-001 +3.1967272526E+000 
11897792.240 +4.8501679494E-001 +5.0141913967E+000  +1.6079021048E-001 +1.0141779758E+000  +1.6023584891E-001 +1.1045573805E+001  +5.0235767845E-001 +3.1993650253E+000 
12022937.422 +5.0076020668E-001 +7.9416063442E+000  +1.6179368840E-001 +8.0085267183E-001  +1.6037993482E-001 +1.0123234623E+001  +5.1221740787E-001 +2.1954626572E+000 
12148082.603 +5.4772648173E-001 +4.4403914856E+000  +1.6448075865E-001 +1.4296156650E+000  +1.6208869759E-001 +9.9858351456E+000  +5.3774731720E-001 +3.2561219829E+000 
12273227.785 +5.3125655448E-001 +6.5950980228E+000  +1.6600179886E-001 +1.4410130502E+000  +1.6335952785E-001 +9.9373741792E+000  +5.5364201796E-001 +4.1420815279E-001 
12398372.966 +5.6952740169E-001 +3.6811629812E+000  +1.6742997038E-001 +2.0842046372E+000  +1.6623706811E-001 +9.8656695550E+000  +5.5743966134E-001 +4.2416051463E+000 
12523518.148 +5.7044799920E-001 +4.7177436854E+000  +1.6680967265E-001 +1.2348145963E+000  +1.6621118473E-001 +8.7126169059E+000  +5.5580107233E-001 +3.3130419326E+000 
12648663.329 +5.5905285330E-001 +4.7856534892E+000  +1.6956932244E-001 +1.7838096495E+000  +1.6742497457E-001 +8.0936879670E+000  +5.7786482366E-001 -1.7412981123E+000 
12773808.511 +5.8295682626E-001 +2.9286218568E+000  +1.7344592227E-001 +1.6279008090E+000  +1.7090138490E-001 +7.6167847392E+000  +5.9690601770E-001 -4.1618300655E-001 
12898953.692 +6.0462439504E-001 +3.6013829759E+000  +1.7297540648E-001 +2.2435210784E+000  +1.7262910515E-001 +7.1713899595E+000  +6.0625930706E-001 -1.8154289368E+000 
13024098.874 +5.9347344153E-001 +7.5704168323E-001  +1.7715122783E-001 +1.8100127126E+000  +1.7529469626E-001 +6.9566700946E+000  +6.2117526321E-001 -2.6343460039E+000 
13149244.055 +6.2219899061E-001 +2.1103278394E+000  +1.7775270479E-001 +2.3160067293E+000  +1.7550882161E-001 +7.0514927045E+000  +6.4229224285E-001 -1.1832189066E+000 
13274389.237 +6.4129634876E-001 -1.5498634981E-001  +1.7844481686E-001 +2.2749035728E+000  +1.7649737852E-001 +6.1990789854E+000  +6.5872445574E-001 -1.5965874121E+000 
13399534.418 +6.5335244546E-001 +1.5637211213E+000  +1.8094753995E-001 +2.5575586195E+000  +1.7749310017E-001 +5.6954181499E+000  +6.6666163164E-001 -1.7170696124E+000 
13524679.599 +6.8096439538E-001 -3.6336543203E-001  +1.8279227429E-001 +2.6751963445E+000  +1.8093324923E-001 +5.2259290852E+000  +6.8929924321E-001 -2.1680538287E+000 
13649824.781 +7.1301319428E-001 -9.8296118694E-001  +1.8582930567E-001 +2.4886163500E+000  +1.7945155607E-001 +5.1774178386E+000  +6.9165290167E-001 -1.8200484911E+000 
13774969.962 +7.0935908422E-001 -2.3926672876E+000  +1.8663567971E-001 +1.6906816126E+000  +1.8207896626E-001 +4.2859318111E+000  +7.2006697920E-001 -2.8534257389E+000 
13900115.144 +7.2506736388E-001 -3.7086086134E+000  +1.8743593244E-001 +2.0071589040E+000  +1.8476417896E-001 +4.1555692199E+000  +7.2687397856E-001 -4.5077104203E+000 
14025260.325 +7.3638371642E-001 -4.4375600629E+000  +1.8904728919E-001 +2.1705830393E+000  +1.8784968292E-001 +3.3920534045E+000  +7.4989977299E-001 -4.5689933582E+000 
14150405.507 +7.5534414237E-001 -4.8590367207E+000  +1.8949788852E-001 +1.7835679161E+000  +1.8639832159E-001 +3.2938220651E+000  +7.7281020342E-001 -3.9826776067E+000 
14275550.688 +7.6517289142E-001 -4.7453957211E+000  +1.9174269222E-001 +1.4012996542E+000  +1.8665112458E-001 +2.6749841126E+000  +7.9704799517E-001 -5.4706951022E+000 
14400695.870 +7.7900404454E-001 -4.3854049983E+000  +1.9177569225E-001 +1.5491406771E+000  +1.8703484504E-001 +2.3917020739E+000  +8.0982989680E-001 -4.4828683393E+000 
