!  2-Port S-parameters saved by WinCal
! VAR MeasName=S-Parameters (CALIBRATED_DATA) read from VNA (P5004A)
! VAR MeasDate=29/08/2024 12:15:45
! VAR NAME=S2_r9c5_RESET1_9k-100M_3
! VAR FILENAME=S2_r9c5_RESET1_9k-100M_3.S2P
! VAR DATE=29/08/2024 12:15:45
! VAR PHYS_PORTS=1,2
! VAR ObjTypeName=DATASET
! VAR IndexType=Frequency
!
# Hz S MA R 50
9000.000 +8.5583368619E-002 -1.6194029151E+002  +7.0079801848E-003 -1.3688967138E+002  +1.0653914257E-002 +2.0935014213E+001  +2.2647468339E-001 -1.4310278608E+002 
134145.181 +1.1062240459E-001 +1.6929456587E+002  +3.1328715308E-004 -1.1155364193E+002  +5.2459955315E-004 +1.6208247333E+002  +2.4038177007E-001 -1.7171082811E+002 
259290.363 +1.1083311893E-001 +1.6943677621E+002  +1.1873631513E-003 -3.1069800235E+001  +1.0039359685E-003 +7.2576185299E+001  +2.4202746632E-001 -1.7006693514E+002 
384435.544 +1.1454144165E-001 +1.7055537324E+002  +2.9310092819E-004 -9.6567109765E+001  +5.2950593384E-004 +4.0072678023E+001  +2.4736899369E-001 -1.6901590343E+002 
509580.726 +1.1259285634E-001 +1.7045928960E+002  +3.2673781071E-004 -5.8056699080E+000  +1.3517792890E-003 +1.0787996373E+002  +2.4362967925E-001 -1.6783415144E+002 
634725.907 +1.1463169219E-001 +1.7184559822E+002  +3.7884780726E-003 -5.0372094258E+001  +4.9388781501E-004 +1.4869116647E+002  +2.3817630416E-001 -1.6175049158E+002 
759871.089 +1.2027281271E-001 +1.7038474626E+002  +1.2627723756E-003 -9.0967398967E+001  +9.7419697208E-004 +6.2262337428E+001  +2.4587109060E-001 -1.6631953753E+002 
885016.270 +1.2112890505E-001 +1.6878882718E+002  +2.8985748429E-004 -3.0386277569E+001  +7.6363674877E-004 +1.3480046995E+002  +2.4973779310E-001 -1.6677842805E+002 
1010161.452 +1.1524139062E-001 +1.7028135399E+002  +2.0200336722E-003 -1.2604628042E+001  +2.3284824145E-003 +1.5010248596E+002  +2.1829213180E-001 -1.6476637063E+002 
1135306.633 +1.1841627009E-001 +1.6718592555E+002  +4.2514577922E-003 +4.4407039700E+001  +3.7433531699E-003 -1.2321399495E+002  +1.8978037456E-001 -1.7826387531E+002 
1260451.815 +1.2274368456E-001 +1.6970294755E+002  +1.6275652157E-003 +8.0152902800E+000  +2.7181941228E-003 -1.7521471124E+002  +2.1478414730E-001 -1.6493282042E+002 
1385596.996 +1.2419527951E-001 +1.7195032225E+002  +7.5921903050E-004 -8.5573009117E+001  +4.0456822049E-003 +1.0376711538E+002  +2.4726656372E-001 -1.5699968747E+002 
1510742.178 +1.2731450477E-001 +1.7069643514E+002  +1.3321988797E-003 -7.4607299111E+001  +1.5699339769E-003 +1.7078373503E+002  +2.4659966494E-001 -1.5834125950E+002 
1635887.359 +1.3082759253E-001 +1.7117750809E+002  +1.0992254586E-003 +4.0679074619E+001  +1.1996011464E-003 -1.7065126291E+002  +2.4509992965E-001 -1.6112432471E+002 
1761032.541 +1.3094956716E-001 +1.7075761370E+002  +2.6109510459E-003 +1.9069938791E+001  +1.9970644984E-003 -1.2923234641E+002  +2.1328390933E-001 -1.6280967765E+002 
1886177.722 +1.3231171294E-001 +1.6855146537E+002  +3.9748786118E-003 +6.9931222028E+001  +4.4251620504E-003 -9.2506409226E+001  +1.8856304803E-001 -1.6412039351E+002 
2011322.904 +1.3064643832E-001 +1.6747341267E+002  +5.9952703497E-003 +7.2935991348E+001  +4.7709130510E-003 -7.6203089230E+001  +2.0492599860E-001 -1.6075188859E+002 
2136468.085 +1.3363407248E-001 +1.6866095786E+002  +4.8996330977E-003 +5.2601754003E+001  +8.4143580204E-003 -4.7652021399E+001  +2.2503848738E-001 -1.6888698931E+002 
2261613.267 +1.3280265935E-001 +1.6785825077E+002  +1.6735300675E-002 +5.2391543341E+001  +1.3462543057E-002 -5.8393990193E+001  +1.5871678413E-001 -1.5840946872E+002 
2386758.448 +1.3740378371E-001 +1.6522010770E+002  +1.1205980079E-002 +6.3500607134E+001  +1.1634827419E-002 -4.7713338225E+001  +2.0836654300E-001 -1.6547464382E+002 
2511903.630 +1.4114952885E-001 +1.6704492902E+002  +1.3061483648E-002 +6.9404460120E+001  +1.2236452645E-002 -4.6769982141E+001  +2.1071223008E-001 -1.7022339305E+002 
2637048.811 +1.3345772918E-001 +1.6377454305E+002  +2.1427839737E-002 +9.8573562533E+001  +2.7167407190E-002 -1.5729561672E+001  +2.3642678468E-001 +1.7201992935E+002 
2762193.992 +1.0907611052E-001 +1.7262953406E+002  +7.4902790425E-002 +3.2852056074E+001  +7.1891877553E-002 -7.7100210689E+001  +3.8434072762E-002 -1.6731015688E+002 
2887339.174 +1.2263673149E-001 +1.7427014614E+002  +3.2028760955E-002 +1.8850768876E+001  +3.7291188824E-002 -8.7172787099E+001  +1.4126899500E-001 -1.6050349344E+002 
3012484.355 +1.2743474093E-001 +1.6696791882E+002  +6.4035103790E-002 +2.6620557534E+001  +6.0684709745E-002 -7.1637827004E+001  +8.7660765693E-002 -3.1208340883E+001 
3137629.537 +1.1828857632E-001 +1.6490341091E+002  +4.5224944117E-002 -1.6743329113E+001  +4.4541699662E-002 -1.0845390636E+002  +2.4793384733E-001 -1.2373065705E+002 
3262774.718 +1.3753767435E-001 +1.7924182776E+002  +8.6271254369E-002 +2.2836783593E+001  +8.7529438613E-002 -7.6923841977E+001  +2.3722507694E-001 +5.1978021449E+001 
3387919.900 +1.3563954009E-001 +1.6196669075E+002  +3.6892383327E-002 +4.0538949228E+001  +3.3040102314E-002 -5.4052833804E+001  +1.6251735846E-001 -1.5897776076E+002 
3513065.081 +1.1445356500E-001 +1.5107717804E+002  +1.2712244667E-001 +7.6508703057E+001  +1.0831380654E-001 -4.1209782889E-001  +3.8085663696E-001 +1.0632529600E+002 
3638210.263 +2.0507748965E-001 +1.4266064824E+002  +9.9428665280E-002 +1.5269992935E+002  +8.3166812105E-002 +6.9776060568E+001  +5.3018732429E-001 +1.4991921247E+002 
3763355.444 +1.8081996131E-001 +1.5326951751E+002  +6.5995694616E-002 +1.3413203485E+002  +6.1002129077E-002 +5.2852113869E+001  +5.4182252207E-001 +1.5295988366E+002 
3888500.626 +1.6650944491E-001 +1.5308812321E+002  +7.8130845630E-002 +8.8890635239E+001  +7.3639967882E-002 +1.1459577147E+001  +3.2620913301E-001 +1.2793732245E+002 
4013645.807 +1.9583666539E-001 +1.4951894979E+002  +8.3116432887E-002 +1.1642472692E+002  +7.7043766975E-002 +4.8217140263E+001  +5.1922395911E-001 +1.3690556567E+002 
4138790.989 +1.8805988743E-001 +1.5561340154E+002  +5.3597530190E-002 +8.6172152560E+001  +5.2398459834E-002 +1.8133709935E+001  +2.9887792903E-001 +1.5027556599E+002 
4263936.170 +1.9856550680E-001 +1.5085348902E+002  +7.1514096391E-002 +8.1650679505E+001  +7.0323988029E-002 +1.4384369076E+001  +2.4848713658E-001 +1.3530910443E+002 
4389081.352 +2.0716485344E-001 +1.4596604621E+002  +1.1404946451E-001 +1.1276766254E+002  +9.8524841787E-002 +4.8496887640E+001  +6.1634223009E-001 +1.3425420094E+002 
4514226.533 +2.0324151280E-001 +1.4704362403E+002  +1.3527014383E-001 +9.1469291304E+001  +1.2067530869E-001 +4.0338812583E+001  +6.4502652033E-001 +1.1426804365E+002 
4639371.715 +2.4244903511E-001 +1.4196922280E+002  +1.4345207866E-001 +1.0839500658E+002  +1.2259286706E-001 +5.5882951754E+001  +6.9545104524E-001 +1.2361781550E+002 
4764516.896 +3.1483559268E-001 +1.2259131354E+002  +3.2667443126E-001 +1.1122773219E+002  +3.2281540498E-001 +5.6017988452E+001  +1.1615828726E+000 +1.0190591748E+002 
4889662.078 +3.0323732062E-001 +9.8664631740E+001  +7.2297992566E-001 +3.4137926883E+001  +6.8427577174E-001 -1.4493692180E+001  +2.5316916173E+000 -1.1908317606E+001 
5014807.259 +3.7076901599E-001 +1.1603981115E+002  +5.8171087948E-001 +5.9981013878E+001  +5.4986646596E-001 +1.4237393588E+001  +2.1849504627E+000 +1.5417913489E+001 
5139952.441 +3.0213186738E-001 +1.3780164361E+002  +2.0370124061E-001 +8.7921974178E+001  +1.9905515287E-001 +4.7645575502E+001  +8.5836019078E-001 +8.6962572401E+001 
5265097.622 +3.0328579523E-001 +1.2805510083E+002  +2.2433330798E-001 +9.4667240247E+001  +2.3229034632E-001 +5.4774997703E+001  +1.0102266706E+000 +1.0621798441E+002 
5390242.804 +3.7404112239E-001 +1.3848223105E+002  +1.7360938755E-001 +1.0159800783E+002  +1.7376433519E-001 +6.4294837279E+001  +7.7796877869E-001 +1.0501302043E+002 
5515387.985 +3.6583405985E-001 +1.2578698024E+002  +3.0615822498E-001 +6.2021866869E+001  +2.8859653380E-001 +2.8509433903E+001  +1.1070836555E+000 +4.4315247137E+001 
5640533.166 +3.7341307987E-001 +1.3738538916E+002  +2.3553089637E-001 +7.6289393096E+001  +2.3147343600E-001 +4.6198304534E+001  +1.1863749956E+000 +8.1021049130E+001 
5765678.348 +3.6407648117E-001 +1.3390784452E+002  +2.2750585306E-001 +6.7653713637E+001  +2.2101009947E-001 +3.7573307665E+001  +1.0495865790E+000 +7.8427436403E+001 
5890823.529 +4.6339442006E-001 +1.2420703614E+002  +3.6533157386E-001 +9.5333779236E+001  +3.2958399339E-001 +7.0197003973E+001  +1.8759391310E+000 +1.0140896703E+002 
6015968.711 +4.1366806461E-001 +1.1285973136E+002  +3.5460292328E-001 +5.4676541851E+001  +3.4257184052E-001 +3.0678718762E+001  +1.2146533446E+000 +6.0546859625E+001 
6141113.892 +4.9317955687E-001 +1.1687391941E+002  +3.5185917171E-001 +6.7252729530E+001  +3.3573036899E-001 +4.9988568489E+001  +1.6037960056E+000 +8.1893862828E+001 
6266259.074 +6.3284392086E-001 +1.0476715974E+002  +4.0205341460E-001 +4.9033882184E+001  +3.7339271622E-001 +2.9581404228E+001  +1.1481286233E+000 +3.3800827844E+001 
6391404.255 +7.6618855493E-001 +9.0892034448E+001  +4.5678069829E-001 +4.7584427075E+001  +4.6893882396E-001 +3.5124728144E+001  +1.2309791968E+000 +4.2068759246E+001 
6516549.437 +7.8870470767E-001 +8.0638667048E+001  +4.6690144607E-001 +3.8664124488E+001  +4.5755162010E-001 +2.5976386293E+001  +1.2411634871E+000 +3.7483450319E+001 
6641694.618 +9.7272208570E-001 +8.6388745371E+001  +4.4192572941E-001 +4.1870574249E+001  +4.3208113847E-001 +3.1113197331E+001  +1.1110656340E+000 +3.2015467763E+001 
6766839.800 +9.4255236743E-001 +4.6321967641E+001  +4.6836320418E-001 +1.3891520417E+001  +4.6956634435E-001 +4.6478546271E+000  +1.0137820199E+000 +7.7710823806E+000 
6891984.981 +9.0037810281E-001 +4.3639436435E+001  +4.0446399604E-001 +1.0574281360E+001  +4.1769323133E-001 +3.1177809707E+000  +8.1506720464E-001 +2.9385292504E+000 
7017130.163 +1.0709674519E+000 +2.1115932064E+001  +4.5453739250E-001 +2.3798796082E+000  +4.4012489264E-001 -1.2642116401E+000  +1.0385918353E+000 -1.6480266158E+000 
7142275.344 +9.5505305731E-001 +1.3336008164E-002  +3.8519471711E-001 -3.2511179743E+000  +3.8199520964E-001 -7.9904862481E+000  +1.0389839997E+000 -1.2048440902E+001 
7267420.526 +9.6414505956E-001 +7.4323101091E+000  +3.4883106940E-001 +6.4792329748E-001  +3.3844485194E-001 +7.3159923553E-001  +9.1912401712E-001 -9.1114517565E+000 
7392565.707 +9.5614169368E-001 -2.0482102038E+000  +3.0702435989E-001 +2.5901471160E+000  +3.0982880028E-001 +1.0859959120E+000  +9.6676501343E-001 -9.5525934680E+000 
7517710.889 +8.5272664374E-001 +3.7232701243E+000  +2.8513897694E-001 +2.1548007346E+000  +2.8693491455E-001 +7.9207029026E+000  +9.1040020015E-001 -7.1602910345E+000 
7642856.070 +7.4487809001E-001 +5.6020443385E+000  +2.6338355218E-001 +2.6171947839E+000  +2.6465753377E-001 +5.1551653050E+000  +8.7042660605E-001 -1.8651861581E+000 
7768001.252 +7.5602704400E-001 +1.2903040232E+001  +2.5092561186E-001 -3.2807303358E-002  +2.4417636804E-001 +4.3049473577E+000  +5.5396182711E-001 -5.2209143160E+000 
7893146.433 +6.6065824571E-001 +6.5099697961E+000  +2.4904260089E-001 -1.9367152251E+000  +2.5112960902E-001 +6.7417608674E+000  +7.2072739856E-001 -6.4527144783E+000 
8018291.615 +5.7222906116E-001 +2.0554337367E+001  +2.3221092010E-001 +5.0573416628E-001  +2.3471369339E-001 +8.4244636147E+000  +6.2065044922E-001 +2.4198726422E+000 
8143436.796 +5.6762605501E-001 +9.6135770604E+000  +2.2561375888E-001 -2.5524139700E+000  +2.3022469187E-001 +7.1218112436E+000  +4.9843118666E-001 -3.4572393983E+000 
8268581.977 +4.7392165305E-001 +1.6640389098E+001  +2.2291042512E-001 -4.3045474875E+000  +2.2510506421E-001 +7.3193219564E+000  +5.4227382164E-001 +7.0562098465E+000 
8393727.159 +4.6787177314E-001 +1.5282195409E+001  +2.2122723697E-001 -4.5016890257E+000  +2.1789641777E-001 +6.5648437166E+000  +4.9847680318E-001 +3.6148001758E+000 
8518872.340 +4.2164121143E-001 +2.0402245086E+001  +2.1119422473E-001 -3.4225273803E+000  +2.1390393867E-001 +9.2755933427E+000  +5.0669485001E-001 +8.2172494675E+000 
8644017.522 +4.0853267638E-001 +2.0917853928E+001  +2.0877560393E-001 -4.1077830828E+000  +2.0794899003E-001 +9.0191015024E+000  +4.2419200575E-001 +5.4377636754E+000 
8769162.703 +4.1334585607E-001 +1.9682236830E+001  +2.0808753028E-001 -3.4321436227E+000  +2.0816488172E-001 +9.5661852692E+000  +4.8442921513E-001 +5.0397974627E+000 
8894307.885 +3.8125557475E-001 +1.6405860170E+001  +2.0753024789E-001 -5.4037203499E+000  +2.0720446494E-001 +8.2056351920E+000  +3.9759507769E-001 +3.6144323117E+000 
9019453.066 +3.5321159434E-001 +2.0512626645E+001  +2.1017096724E-001 -5.4444221346E+000  +2.0516352674E-001 +8.3681937254E+000  +3.5670096927E-001 +2.4836689977E+000 
9144598.248 +3.2355645175E-001 +1.0672717746E+001  +2.0465636311E-001 -5.7686815409E+000  +2.0354358473E-001 +1.0015038904E+001  +3.5949031481E-001 +8.8925143262E+000 
9269743.429 +3.4712659300E-001 +1.5599518173E+001  +2.0572107670E-001 -6.0819717938E+000  +2.0333080624E-001 +1.0021127910E+001  +3.2845307790E-001 +1.3314755717E+001 
9394888.611 +3.6043612845E-001 +1.3124514991E+001  +2.1264124352E-001 -5.3050508943E+000  +2.0338960932E-001 +1.1271608311E+001  +3.8087727004E-001 -7.4938753387E+000 
9520033.792 +3.3154556065E-001 +1.1100031253E+001  +2.0730675334E-001 -4.6652733084E+000  +2.0785606477E-001 +1.0605175459E+001  +3.8194840437E-001 -2.2151173105E+000 
9645178.974 +3.2114627587E-001 +1.2750666336E+001  +2.1082694171E-001 -4.7263236630E+000  +2.0950811024E-001 +1.1154582676E+001  +3.7115972121E-001 -3.3209941913E+000 
9770324.155 +2.9161077823E-001 +5.0305955121E+000  +2.1164491233E-001 -6.1816824915E+000  +2.0785522466E-001 +1.0724576521E+001  +3.3977236696E-001 -5.7809926571E+000 
9895469.337 +3.0384358045E-001 +6.4412507626E+000  +2.1330114452E-001 -5.1168006829E+000  +2.1068417301E-001 +1.1265690778E+001  +3.6922204856E-001 -7.3635310864E+000 
10020614.518 +3.1712322554E-001 +1.2809614154E+001  +2.1189434228E-001 -3.7936415668E+000  +2.0651156406E-001 +1.1370249640E+001  +3.6855158482E-001 +2.6975091812E+000 
10145759.700 +3.1975364210E-001 +1.2863371498E+001  +2.1270757178E-001 -4.0691080676E+000  +2.1003698697E-001 +1.1095993252E+001  +3.6692754294E-001 +1.8078475864E-001 
10270904.881 +3.3515699272E-001 +1.5122389452E+001  +2.0670933986E-001 -3.8299141084E+000  +2.0627230657E-001 +1.1568370204E+001  +3.6482936886E-001 +5.4666027021E+000 
10396050.063 +3.4897120268E-001 +1.4389963224E+001  +2.1202040858E-001 -4.0948194144E+000  +2.0971442977E-001 +1.1338429043E+001  +3.4879341179E-001 +6.0260525036E+000 
10521195.244 +3.6529574484E-001 +1.3776222908E+001  +2.1186306038E-001 -2.9665641296E+000  +2.1139376418E-001 +1.2135834685E+001  +3.4976640596E-001 +9.6195233153E+000 
10646340.426 +3.1320494547E-001 +1.2073074667E+001  +2.1122448085E-001 -3.7193524109E+000  +2.1330384491E-001 +1.1857685587E+001  +3.4912101730E-001 +4.8652459102E+000 
10771485.607 +3.6635889346E-001 +1.5516020532E+001  +2.1449316774E-001 -2.2556975630E+000  +2.1160066007E-001 +1.1970655665E+001  +3.9324498544E-001 +6.5775978963E+000 
10896630.788 +3.6076510008E-001 +1.0871413339E+001  +2.1803853988E-001 -2.7317348059E+000  +2.1668266979E-001 +1.1565359713E+001  +3.9688449133E-001 +7.2658601826E+000 
11021775.970 +3.3568417267E-001 +1.5354641436E+001  +2.1683816333E-001 -3.2306897678E+000  +2.1695529748E-001 +1.1227354609E+001  +3.6305535467E-001 +4.6186777552E+000 
11146921.151 +4.1846581217E-001 +1.7518603121E+001  +2.1766201221E-001 -1.1082386935E+000  +2.1631797642E-001 +1.2355156280E+001  +4.0762116584E-001 +3.9398561117E+000 
11272066.333 +3.8272952658E-001 +1.6371214183E+001  +2.2088857017E-001 -1.2772379024E+000  +2.1816591072E-001 +1.0878172738E+001  +4.0572067755E-001 +6.3295773143E+000 
11397211.514 +3.7604674181E-001 +1.1847972776E+001  +2.2374887171E-001 -1.4794744572E+000  +2.2150378984E-001 +1.1424492738E+001  +4.0204291482E-001 +7.9654954274E+000 
11522356.696 +3.9221423034E-001 +9.2898391642E+000  +2.2812442414E-001 -1.4122030141E+000  +2.2511939136E-001 +1.1385528576E+001  +4.0217848200E-001 +2.8177183227E+000 
11647501.877 +4.0224457293E-001 +1.4541954738E+001  +2.2518171097E-001 -3.7911929057E-001  +2.2245422296E-001 +1.0748792546E+001  +4.3796672377E-001 +5.5472867872E+000 
11772647.059 +4.0880142940E-001 +1.0255172783E+001  +2.3193608472E-001 -7.9203935855E-001  +2.2768981394E-001 +1.0671328270E+001  +4.3081067398E-001 +6.7611796526E+000 
11897792.240 +4.1781326465E-001 +1.3381833805E+001  +2.3264711755E-001 -1.3567346775E-001  +2.2883281683E-001 +1.0113781529E+001  +4.5210646064E-001 +8.3412073251E+000 
12022937.422 +4.7092608241E-001 +1.0102806865E+001  +2.3685035485E-001 +3.2913222921E-001  +2.3259950970E-001 +9.3016196599E+000  +4.2883707466E-001 +6.6981674373E+000 
12148082.603 +4.4718451944E-001 +9.6440165462E+000  +2.3702866962E-001 +4.3514915138E-001  +2.3374884378E-001 +9.7977385062E+000  +4.7120789596E-001 +6.5755947405E+000 
12273227.785 +4.6346183156E-001 +1.0020705104E+001  +2.4225556300E-001 +7.7796740608E-001  +2.3847843450E-001 +9.3998350772E+000  +4.7102390101E-001 +3.8207184586E+000 
12398372.966 +4.6603863589E-001 +6.3353335122E+000  +2.4295613969E-001 +8.7598480503E-001  +2.4404874421E-001 +8.7143686380E+000  +4.6989089397E-001 +1.5232964536E+000 
12523518.148 +4.7164195755E-001 +4.1743037397E+000  +2.4597870130E-001 +9.5796095087E-001  +2.4319746563E-001 +8.5203490585E+000  +4.9938563609E-001 +5.2478774668E+000 
12648663.329 +5.0656473746E-001 +8.0498756450E+000  +2.4700774595E-001 +1.3839217131E+000  +2.4502842284E-001 +7.9409057461E+000  +4.9413504619E-001 +1.8672149425E+000 
12773808.511 +4.8347073897E-001 +7.6571579613E+000  +2.4878484467E-001 +9.9120615896E-001  +2.4685518309E-001 +7.5247086336E+000  +5.0195710129E-001 +5.1285270781E+000 
12898953.692 +5.0727755364E-001 +4.4684355523E+000  +2.5425478409E-001 +1.3759227102E+000  +2.4869239803E-001 +7.0419210056E+000  +5.2773230515E-001 +6.3155791391E-001 
13024098.874 +5.3386214526E-001 +4.0526955409E+000  +2.5614251801E-001 +1.8690787630E+000  +2.5350227550E-001 +6.7731298465E+000  +5.4303884564E-001 -2.6366040234E-003 
13149244.055 +5.5597632969E-001 -2.6184019304E-002  +2.6170812083E-001 +1.7992146670E+000  +2.5615054647E-001 +6.2272048027E+000  +5.3931597310E-001 -1.9173022878E+000 
13274389.237 +5.5419418539E-001 +1.3939476234E+000  +2.6077459049E-001 +2.1836797928E+000  +2.5700953711E-001 +6.0146588499E+000  +5.8559762976E-001 +1.7921904623E+000 
13399534.418 +5.7714677334E-001 +4.6148320917E-001  +2.6383248710E-001 +1.8431545671E+000  +2.6157470276E-001 +5.1829726364E+000  +5.7913416174E-001 -1.7952133843E+000 
13524679.599 +5.8832301160E-001 -7.3323602890E-001  +2.6790986107E-001 +2.0464000879E+000  +2.6355551970E-001 +4.4366598894E+000  +5.9767752682E-001 -1.9173410109E+000 
13649824.781 +6.1896269498E-001 -1.1747973766E+000  +2.7039212242E-001 +2.0690441764E+000  +2.6683325398E-001 +4.7283680670E+000  +6.1476665573E-001 -2.5608062255E+000 
13774969.962 +6.1071250127E-001 +1.8098956908E+000  +2.6871086091E-001 +1.9162628708E+000  +2.6569554060E-001 +4.0342932549E+000  +6.3440956521E-001 -2.1579595258E+000 
13900115.144 +6.1436707147E-001 -2.3657397478E+000  +2.7223158063E-001 +1.5235064984E+000  +2.6987900541E-001 +3.4491738866E+000  +6.3283501867E-001 -3.7027989018E+000 
14025260.325 +6.4776050358E-001 -3.1226304778E+000  +2.7405960365E-001 +1.6756406292E+000  +2.7269531876E-001 +2.6671983792E+000  +6.3102882454E-001 -4.3475325061E+000 
14150405.507 +6.3896150271E-001 -3.8084502256E+000  +2.7593596407E-001 +1.2236767851E+000  +2.7321841287E-001 +2.2537696440E+000  +6.6888769891E-001 -4.6375188568E+000 
14275550.688 +6.6386704948E-001 -4.0755890502E+000  +2.7751042550E-001 +1.2507805592E+000  +2.7438908239E-001 +2.4521497123E+000  +6.9991791514E-001 -4.6679118533E+000 
14400695.870 +6.8031498976E-001 -6.6009895760E+000  +2.7972874436E-001 +1.2246953228E+000  +2.7503257982E-001 +1.3405930377E+000  +7.0286767169E-001 -4.8088163125E+000 
