!  2-Port S-parameters saved by WinCal
! VAR MeasName=S-Parameters (CALIBRATED_DATA) read from VNA (P5004A)
! VAR MeasDate=29/08/2024 14:24:54
! VAR NAME=S2_r9c6_RESET6_9k-100M_3
! VAR FILENAME=S2_r9c6_RESET6_9k-100M_3.S2P
! VAR DATE=29/08/2024 14:24:54
! VAR PHYS_PORTS=1,2
! VAR ObjTypeName=DATASET
! VAR IndexType=Frequency
!
# Hz S MA R 50
9000.000 +8.2187587988E-002 -1.6825716215E+002  +6.1019496181E-003 -1.4257742487E+002  +5.9375515627E-003 +3.0333885594E+001  +2.8489438841E-001 -1.4985736763E+002 
134145.181 +1.1186913913E-001 +1.6967028338E+002  +4.6244767584E-004 -9.2923868775E+001  +9.6032662317E-004 +1.2579831778E+002  +2.3731084516E-001 -1.7030338445E+002 
259290.363 +1.1259045450E-001 +1.6989302526E+002  +7.0752371865E-004 -2.5898437019E+001  +3.0127373285E-004 +1.5615699977E+002  +2.3968899231E-001 -1.6808529980E+002 
384435.544 +1.1449494806E-001 +1.7040793164E+002  +4.0350384384E-004 +9.8933744108E+001  +2.8072177363E-004 +1.3743676503E+002  +2.4484672747E-001 -1.6846420346E+002 
509580.726 +1.1346238559E-001 +1.7123421103E+002  +1.6597044694E-003 +1.2567910726E+002  +8.4692935436E-004 -6.4341631033E+001  +2.4550126905E-001 -1.6212119328E+002 
634725.907 +1.1793768329E-001 +1.7161984200E+002  +6.9363237487E-004 +1.6542520262E+000  +1.1341190729E-003 -3.5728308039E+000  +2.5409889716E-001 -1.5886584105E+002 
759871.089 +1.2006091476E-001 +1.7051027656E+002  +6.0044096481E-004 -1.1608695469E+002  +7.3330485609E-004 +6.3989744953E+001  +2.4788611618E-001 -1.6611213576E+002 
885016.270 +1.2092276178E-001 +1.6911463421E+002  +2.5602491404E-004 -8.0701512742E+001  +5.6657298688E-004 +1.7754156938E+002  +2.4151413490E-001 -1.6813001349E+002 
1010161.452 +1.1782908155E-001 +1.6910910171E+002  +3.0497656326E-004 +1.6094685499E+002  +8.1690414776E-004 +7.3695497970E+001  +2.2112702103E-001 -1.6808546981E+002 
1135306.633 +1.1525753201E-001 +1.6953982587E+002  +1.7407737896E-003 +2.2684552742E+001  +2.5293232641E-003 -3.9048192306E+000  +1.8049725623E-001 -1.6504056150E+002 
1260451.815 +1.1894688487E-001 +1.6848156407E+002  +4.8496584652E-005 -1.6518112945E+002  +2.0686526595E-003 +1.3927667632E+002  +1.9658601099E-001 -1.6100919649E+002 
1385596.996 +1.2693863755E-001 +1.7386218063E+002  +1.0284420525E-003 -1.0527036302E+002  +1.3263055755E-003 +1.4705373721E+002  +2.8105136463E-001 -1.5780685013E+002 
1510742.178 +1.2823608811E-001 +1.7092511478E+002  +4.1494044752E-004 +5.8823420689E+001  +1.8369608231E-004 -2.1999844193E+001  +2.4886363178E-001 -1.5766627890E+002 
1635887.359 +1.2811648777E-001 +1.7022137327E+002  +1.3450320813E-003 -6.4156157777E+001  +4.9581194888E-004 +1.3404036104E+002  +2.4941376869E-001 -1.5671563065E+002 
1761032.541 +1.2436058677E-001 +1.7195187765E+002  +5.3027950971E-004 +8.8043182753E+001  +2.9016738327E-003 +1.7180094999E+002  +2.2292862186E-001 -1.6439144828E+002 
1886177.722 +1.2642836896E-001 +1.6881860137E+002  +9.7037282204E-004 +5.4029423237E+001  +1.7462256912E-003 -8.0688432798E+001  +2.1464348249E-001 -1.6770747643E+002 
2011322.904 +1.3112463855E-001 +1.6811410224E+002  +2.8661242824E-003 +2.7189199993E+001  +1.6787370378E-004 +9.4609626124E+001  +1.5315766666E-001 -1.5999029664E+002 
2136468.085 +1.3333232513E-001 +1.6492495613E+002  +1.4962816942E-003 -1.7638190630E+002  +3.3672334114E-003 -7.6923970128E+000  +1.7332202884E-001 +1.7432915797E+002 
2261613.267 +1.2649416858E-001 +1.6907503788E+002  +3.2140768101E-003 +5.2451155568E+001  +2.1738616721E-003 -7.6468517676E+001  +2.1183577464E-001 -1.7435800299E+002 
2386758.448 +1.3516521681E-001 +1.6472062045E+002  +3.8399369416E-003 +3.8563846390E+001  +3.6101489427E-003 -8.5846710474E+001  +1.9763663199E-001 -1.7978909259E+002 
2511903.630 +1.2652086606E-001 +1.6949139367E+002  +1.7855509382E-003 +2.9786687238E+001  +5.7159261671E-003 -7.8948179450E+001  +1.8389423526E-001 +1.6586623548E+002 
2637048.811 +1.2497230492E-001 +1.6159958152E+002  +6.7322276129E-003 +1.2584851077E+002  +1.1633019249E-002 -1.9835309020E+000  +2.0602715014E-001 +9.3009297754E+001 
2762193.992 +1.1344697367E-001 +1.6946756311E+002  +1.2670330817E-002 +2.6726510431E+001  +3.0374020685E-002 -6.8382784484E+001  +2.5929391683E-001 +2.3471025387E+001 
2887339.174 +1.2775294422E-001 +1.7251918776E+002  +2.1681234610E-003 +2.5841501143E+001  +2.4103444563E-002 -1.0093364512E+002  +4.1318487547E-001 -9.8287062151E+001 
3012484.355 +1.3080213370E-001 +1.7523994943E+002  +8.4831102830E-003 -9.5762054568E+001  +9.0976840137E-003 -1.1571804206E+002  +2.2180719189E-001 -1.0292905907E+002 
3137629.537 +1.1689284779E-001 +1.7803823751E+002  +3.3845981984E-002 -2.5049288264E+001  +4.9021615442E-002 -7.3653154545E+001  +5.4869352676E-001 +5.3644652524E+001 
3262774.718 +1.3272034522E-001 +1.6574254901E+002  +1.1035633335E-002 +6.0090188970E+001  +1.9231458198E-003 -3.2423613941E+001  +1.2049538008E-001 -1.5263222273E+000 
3387919.900 +1.3949632437E-001 +1.6327514785E+002  +9.2524499628E-003 +2.5405040730E+000  +8.8914808574E-003 -8.1283818241E+001  +1.5707026224E-001 +4.4623389807E+001 
3513065.081 +1.2827036995E-001 +1.4997572858E+002  +5.9936555091E-003 -7.1066755690E+000  +3.4126945720E-002 -7.3440368002E+001  +6.7016038350E-001 +2.6483067412E+001 
3638210.263 +1.6807277154E-001 +1.4400314200E+002  +1.4599166431E-002 +1.7711422554E+002  +1.9121424563E-002 +1.1249629482E+002  +9.1099427760E-001 +1.2911808270E+002 
3763355.444 +1.9299573895E-001 +1.5064709689E+002  +6.3702420238E-003 -1.3602342454E+002  +3.3684414407E-003 +4.0594191433E+001  +7.6219798229E-001 +1.2186081900E+002 
3888500.626 +1.5967883805E-001 +1.3933786692E+002  +2.4371612243E-002 +6.6232659820E+001  +2.4724833177E-002 -2.5831066005E+000  +3.5093471900E-001 +7.3623430929E+001 
4013645.807 +1.3797348865E-001 +1.4220776835E+002  +1.4565673289E-002 +4.5398338527E+001  +7.1248403665E-003 +6.3249452230E+001  +3.3293380466E-001 +1.3687013893E+002 
4138790.989 +1.7258117340E-001 +1.3619094448E+002  +1.9361172995E-002 +8.5063163360E+001  +9.6987817015E-003 +7.3822368243E+001  +3.7588170385E-001 +1.3371403660E+002 
4263936.170 +1.9286316369E-001 +1.4564111171E+002  +2.3680792638E-002 +1.3764084394E+002  +1.1654767443E-002 +5.0538113795E+001  +6.0735991497E-001 +1.4878791041E+002 
4389081.352 +2.0171611038E-001 +1.4215381647E+002  +2.1073306446E-002 +1.0595270982E+002  +1.5084987041E-002 +5.4521827773E+001  +7.5086212489E-001 +8.9773934696E+001 
4514226.533 +2.2939388037E-001 +1.4265920488E+002  +6.0007234055E-003 +6.9997945639E+001  +2.4996820552E-002 +7.8664381032E+001  +7.2663160975E-001 +1.1827860072E+002 
4639371.715 +2.8762179802E-001 +1.3393757133E+002  +3.7741422813E-002 +1.3213663262E+002  +3.2492100225E-002 +6.4651704723E+001  +1.3218201847E+000 +1.3711556238E+002 
4764516.896 +3.6753088724E-001 +1.3100729028E+002  +1.5955732849E-002 -1.4639496043E+002  +2.4180791133E-002 -1.7398166795E+002  +1.3967854639E+000 -1.7716190747E+002 
4889662.078 +4.1945965033E-001 +1.3204556547E+002  +1.7873988512E-001 -1.5327974290E+002  +7.0207623310E-002 +1.5021253914E+002  +4.1655327711E+000 +1.4808561799E+002 
5014807.259 +3.5291656479E-001 +1.4112553246E+002  +4.6367285395E-002 -1.3129632240E+002  +3.8008808476E-002 +1.5234335149E+002  +2.7548428115E+000 +1.7147165246E+002 
5139952.441 +4.4841302943E-001 +1.3341114505E+002  +2.0360009449E-002 +1.1060384349E+002  +7.0402846811E-002 +7.0026627167E+001  +2.5671852792E+000 +7.4018955853E+001 
5265097.622 +3.5305659913E-001 +1.2840930845E+002  +3.3305092911E-001 +4.5377468072E+001  +1.3806395514E+000 +2.1745588199E+001  +6.4090214721E+001 +1.7658025250E+001 
5390242.804 +4.7231561131E-001 +1.2845457888E+002  +5.0586202384E-002 +1.7518985609E+002  +2.8621586809E-002 +1.1642935401E+002  +2.1416463077E+000 +1.2836751331E+002 
5515387.985 +4.2387193325E-001 +1.3361820210E+002  +3.8400283608E-002 +9.2740345487E+001  +4.7306329195E-002 +4.9089144378E+001  +1.8735132118E+000 +9.1810985214E+001 
5640533.166 +5.0424569140E-001 +1.2252057502E+002  +2.9238842567E-002 +1.2240208550E+002  +1.3880382579E-002 +4.7069039722E+001  +2.0492749534E+000 +9.5702440008E+001 
5765678.348 +5.3402681598E-001 +1.2385768126E+002  +6.3545871508E-002 +1.4342241414E+002  +3.2327064227E-002 +3.9850342381E+001  +1.8172631659E+000 +9.5410515525E+001 
5890823.529 +5.5678890534E-001 +1.2366871820E+002  +4.9760267550E-002 +9.1845051323E+001  +9.0441666068E-002 +5.3998971218E+001  +3.5886764991E+000 +6.6556028158E+001 
6015968.711 +5.7823313581E-001 +1.1418106072E+002  +8.6226832640E-002 +5.4889114991E+001  +6.6570603326E-002 +2.2918256698E+001  +3.2224673691E+000 +3.8466810859E+001 
6141113.892 +8.9003518974E-001 +1.1695883586E+002  +6.2122827809E-002 +6.8918601598E+001  +5.1298145532E-002 +1.6790327343E+001  +1.9994497724E+000 +2.5920577072E+001 
6266259.074 +8.9611045801E-001 +1.0290891608E+002  +3.2856078086E-002 +7.4306186722E+001  +6.6143028755E-002 +3.3223846360E+001  +1.8654052231E+000 +1.6768099202E+001 
6391404.255 +1.1490657666E+000 +9.8245208096E+001  +5.5327893557E-002 +3.0029058586E+001  +6.4976953213E-002 +3.1451786497E+001  +1.3312631200E+000 +6.2936738935E+000 
6516549.437 +1.0530279609E+000 +6.7659814979E+001  +4.8452202075E-002 +2.4879008959E+001  +7.2544097831E-002 +2.2033226957E+001  +1.8000967688E+000 +1.8500568333E+001 
6641694.618 +1.2867866850E+000 +7.8150776691E+001  +4.5778085546E-002 +2.4405494820E+001  +5.2724704621E-002 +2.4351602589E+001  +1.0350811648E+000 -2.3119982615E+000 
6766839.800 +1.3065817760E+000 +6.7335155812E+001  +4.9480345003E-002 +1.3293159340E+001  +4.4565880553E-002 +1.0018315624E+001  +1.4527376283E+000 -3.9287570843E-001 
6891984.981 +1.7693983295E+000 +2.7052608723E+001  +5.7478787881E-002 +9.8885309691E+000  +7.7842970563E-002 -9.3836961723E+000  +1.3480194225E+000 +2.0190703747E+000 
7017130.163 +2.0702624983E+000 +2.0444822648E+001  +6.0916834229E-002 -1.2856440919E+001  +7.1600194230E-002 -5.0658800517E+000  +1.2581338700E+000 -5.2456722553E+000 
7142275.344 +1.4588344164E+000 +2.2188154293E+000  +3.0678703189E-002 -1.1330725739E+001  +3.9172317640E-002 -1.5037236390E+001  +1.3213664853E+000 -1.0495793850E+001 
7267420.526 +1.4013804385E+000 +1.8484526196E+000  +4.3853357597E-002 -2.2587070073E+001  +3.5926868490E-002 -9.1186693900E+000  +1.2323111338E+000 -1.5328913207E+001 
7392565.707 +1.2554817453E+000 -2.2081389907E-001  +2.8170856368E-002 +1.3884191291E+001  +2.7830075987E-002 +2.4291582549E+000  +1.2534020194E+000 -6.6812153870E+000 
7517710.889 +1.1167003433E+000 +9.4586323903E-001  +3.0180085406E-002 -2.6757063728E+000  +3.0809631141E-002 +1.2340087324E+001  +1.1961575369E+000 -2.9704290762E+000 
7642856.070 +1.0944264696E+000 +2.1734515119E+000  +3.0470787448E-002 +8.9128120461E+000  +2.9848901623E-002 -9.3265718649E-001  +1.1251852050E+000 -8.4495107955E+000 
7768001.252 +8.5721925393E-001 +9.0432505689E+000  +1.7878258640E-002 -8.6868367329E+000  +2.4579682005E-002 +1.5724614610E+001  +9.7811442881E-001 -3.9803319924E+000 
7893146.433 +9.0802158106E-001 +1.2184814082E+001  +2.4564614780E-002 +1.4877629449E+001  +2.7371387964E-002 +1.6114510959E+001  +9.5388041951E-001 -1.3176641007E+000 
8018291.615 +8.3094410156E-001 +1.1243797145E+001  +2.6069789057E-002 +5.0178635548E+000  +1.8295346741E-002 +3.5391516486E+000  +9.1030326446E-001 -5.9286913913E+000 
8143436.796 +6.7172432816E-001 +8.9646651203E+000  +2.0577282675E-002 -9.8259131122E+000  +2.0720391516E-002 +6.7831694912E+000  +7.3184406477E-001 -7.6937175182E-001 
8268581.977 +8.2687587576E-001 +6.6418279280E+000  +1.7159399654E-002 +8.4363728998E+000  +1.9660089557E-002 +1.8433627047E+001  +7.7252992003E-001 +6.5167506390E-001 
8393727.159 +7.6140519077E-001 +7.3062402076E+000  +2.0356147186E-002 -8.9572972276E+000  +2.4548575142E-002 +2.3869186256E+000  +6.6070575321E-001 -9.8263138171E-001 
8518872.340 +7.0423937123E-001 +1.5028447089E+001  +2.3134616393E-002 -5.7200430570E+000  +2.1330741161E-002 +1.3317405182E+001  +7.1788505914E-001 -2.1496289170E+000 
8644017.522 +6.2232115272E-001 +5.1144799407E+000  +1.8952535745E-002 -9.1514034484E+000  +2.1704982650E-002 +7.6539584623E+000  +7.1593717825E-001 +1.9516440030E-001 
8769162.703 +6.2325062533E-001 +9.1302637196E+000  +2.3327400933E-002 -5.1739403637E+000  +2.0817991010E-002 +1.6601614832E+001  +6.8669539822E-001 +2.1180485376E+000 
8894307.885 +6.0279342756E-001 +2.8175470070E+000  +1.9750741003E-002 +5.3989199013E+000  +2.1066734650E-002 +1.5620357671E+001  +6.4195346438E-001 -1.8521694922E+000 
9019453.066 +5.5161408239E-001 +5.7290454442E+000  +1.4333781223E-002 +2.3726467944E+000  +1.5958336857E-002 +1.2772904400E+001  +6.0820620729E-001 +2.7427268119E-001 
9144598.248 +5.9257087079E-001 +9.0936744715E+000  +2.3603478376E-002 -3.5970913665E+000  +1.9327215631E-002 +1.0713417654E+001  +5.8019904565E-001 +2.3880550541E+000 
9269743.429 +5.7160560476E-001 +4.0124050147E+000  +1.5242549851E-002 -3.2264157467E+000  +2.1839438885E-002 +4.5656867345E+000  +6.0220841979E-001 -2.5665326672E+000 
9394888.611 +5.2912610453E-001 +9.6491843437E+000  +2.2554677689E-002 -4.2953466304E+000  +1.9891667518E-002 +3.0535603319E+000  +5.9727517741E-001 -1.2149171994E+000 
9520033.792 +5.8874535841E-001 +3.7365432059E+000  +1.8866183606E-002 +7.0585370003E+000  +1.8920716262E-002 +9.2006563476E+000  +5.4747039735E-001 -5.9798287515E+000 
9645178.974 +5.4248176173E-001 +7.2403196445E+000  +1.8225864145E-002 -6.2375067320E+000  +1.9935640735E-002 +2.4567442994E+001  +6.0310317472E-001 -9.3949252819E-001 
9770324.155 +5.2285607829E-001 +1.2010919349E+000  +1.8618485651E-002 -1.0621084177E+000  +1.9794805519E-002 +1.1155246683E+001  +5.8021668626E-001 -6.9783188477E+000 
9895469.337 +5.2801395080E-001 -2.8842837256E+000  +2.5177063893E-002 -5.7439277554E+000  +2.1881143253E-002 +1.2127059705E+001  +5.7353523155E-001 -4.3794690342E+000 
10020614.518 +5.0169707679E-001 +2.0133680311E+000  +2.3140908077E-002 -6.0337984188E+000  +2.0072415798E-002 +1.2657515009E+001  +5.7061595339E-001 -7.1406106598E+000 
10145759.700 +5.3776305683E-001 +4.7647286312E+000  +2.0101925701E-002 +4.3421894373E+000  +1.9296558379E-002 +7.8277733164E+000  +5.6080129931E-001 -4.7564250730E+000 
10270904.881 +5.5939631813E-001 +3.0332808974E+000  +2.1962283045E-002 -4.5508715551E-001  +1.8505701715E-002 +1.5433702591E+001  +5.6414091146E-001 -3.2864793251E+000 
10396050.063 +5.1242194741E-001 +9.3183797248E+000  +1.8257036889E-002 +1.7510439621E+000  +1.6883754336E-002 +1.2690997326E+001  +5.6948472980E-001 -5.6850920364E+000 
10521195.244 +5.5709574755E-001 +6.6953777209E+000  +2.1872815757E-002 +1.0712796451E+000  +1.9576342875E-002 +7.1364249156E+000  +6.1076644895E-001 +7.4518212631E-001 
10646340.426 +5.6379920529E-001 +7.6257879156E+000  +2.0408201787E-002 +3.1339934544E-001  +1.9978404114E-002 +1.0147132365E+001  +6.1112589769E-001 +2.0896287156E-001 
10771485.607 +5.6427608991E-001 +1.3143289308E+001  +2.1861237079E-002 -4.3886148629E-001  +2.0004174048E-002 +1.8044330916E+001  +5.7780446206E-001 +4.3801129302E-001 
10896630.788 +5.4754674033E-001 +6.4049838952E+000  +1.9503930943E-002 +5.8665237336E+000  +1.9018754682E-002 +1.2733922758E+001  +5.8550523444E-001 +2.0334456850E+000 
11021775.970 +5.6807710103E-001 +8.9280382848E+000  +1.9439896568E-002 +8.1235719773E-001  +1.9440185774E-002 +9.2364326744E+000  +5.6979651422E-001 +1.3216524175E+000 
11146921.151 +6.1937445150E-001 +7.3199789088E+000  +1.8100804756E-002 +6.3963701610E-001  +1.8941525479E-002 +1.4990212445E+001  +6.0896011498E-001 +2.8032242150E+000 
11272066.333 +6.0664839978E-001 +8.6931680762E+000  +2.0627535442E-002 +6.2203574563E+000  +2.0817043246E-002 +1.6962788758E+001  +6.1655764399E-001 -6.0610207023E-001 
11397211.514 +5.7680990929E-001 +5.7817332538E+000  +2.0757695137E-002 +1.2767464397E+000  +2.2330541778E-002 +9.5110445804E+000  +6.5508401999E-001 -2.5993445492E-001 
11522356.696 +6.0389579331E-001 +6.4220133961E+000  +2.1835824393E-002 +1.0707262888E+000  +2.0976668341E-002 +1.0126237500E+001  +6.2046092652E-001 +9.2719383551E-001 
11647501.877 +6.0383311649E-001 +7.9474031648E+000  +2.2242591041E-002 -1.7143742697E+000  +2.1174207543E-002 +1.5542506791E+001  +6.4184415730E-001 +2.0701623358E+000 
11772647.059 +6.4451367101E-001 +7.1624959086E+000  +2.0512398350E-002 +7.1855278191E-001  +2.2202851275E-002 +1.0063092814E+001  +6.5584820526E-001 +2.9217071518E+000 
11897792.240 +6.7417501321E-001 +4.8404694793E+000  +2.3373375085E-002 -8.8862693433E-001  +2.4112225729E-002 +1.7999924824E+001  +6.9579741725E-001 +8.1830626843E-001 
12022937.422 +6.7361207467E-001 +4.0273640727E+000  +2.3220630930E-002 +8.6797535841E-002  +2.2310032123E-002 +2.1124211277E+001  +6.5548783542E-001 +1.8941582053E+000 
12148082.603 +6.6907453261E-001 +4.5849678122E+000  +2.2426469769E-002 +3.8152417833E+000  +2.3533301949E-002 +9.0141509227E+000  +6.8369091006E-001 +2.5997261700E-001 
12273227.785 +6.8483267834E-001 +4.9124623672E+000  +2.3656425890E-002 +3.5837627127E+000  +2.2850383941E-002 +1.3444504883E+001  +7.1894185669E-001 +8.5654656783E-001 
12398372.966 +7.0532431461E-001 +3.7350310032E+000  +2.3588815655E-002 +1.8633836255E-001  +2.2084058735E-002 +9.8754212783E+000  +6.8975250943E-001 +3.7649602234E-001 
12523518.148 +6.8571632478E-001 +3.4653077692E+000  +2.3527771588E-002 +6.3818429277E+000  +2.4559024354E-002 +1.2241381941E+001  +7.3206784793E-001 +2.6097951530E-001 
12648663.329 +7.1348336490E-001 +3.0594705886E+000  +2.4107170154E-002 -3.2516707853E-001  +2.1516100032E-002 +8.3150285984E+000  +7.2511876750E-001 +9.7300798335E-001 
12773808.511 +7.4814827400E-001 +2.6250306716E+000  +2.4680008823E-002 +2.6908702326E+000  +2.2288242765E-002 +7.0889850468E+000  +7.2860026209E-001 +5.1143178630E-001 
12898953.692 +7.5437933005E-001 +2.0536370940E+000  +2.3929604779E-002 +5.4540780683E+000  +2.4122305027E-002 +9.8427941749E+000  +7.5965789374E-001 -6.7467014763E-001 
13024098.874 +7.4731427427E-001 -2.7076307019E-001  +2.5023940269E-002 +3.4827968796E+000  +2.4886574131E-002 +4.8013461740E+000  +7.7286174038E-001 +4.0526490874E-001 
13149244.055 +7.8675738703E-001 +4.8996163810E-001  +2.4559396231E-002 +2.7865447084E+000  +2.3504557599E-002 +5.5497210031E+000  +7.8861264772E-001 -3.2047993478E+000 
13274389.237 +7.9432059108E-001 +9.8746630572E-001  +2.3672965898E-002 +6.3574030798E+000  +2.4487823770E-002 +8.4969338965E+000  +8.2190750774E-001 -2.8576078383E+000 
13399534.418 +8.2325869054E-001 +4.8892346803E-001  +2.4435021416E-002 +3.2180598521E+000  +2.4641427439E-002 +9.8101685947E+000  +8.2781917904E-001 -1.0393832168E+000 
13524679.599 +8.2698720997E-001 -2.1133481705E+000  +2.4856057529E-002 +4.9013960562E-001  +2.3863192413E-002 +3.9081527482E+000  +8.3806625375E-001 -3.5690757360E+000 
13649824.781 +8.6058318544E-001 -2.9078193318E+000  +2.6308034639E-002 +1.1307726282E+000  +2.6076319532E-002 +7.8425783122E+000  +8.5305998087E-001 -2.1972284671E+000 
13774969.962 +8.7556641268E-001 -2.0007085262E+000  +2.5542173198E-002 +4.4372930886E+000  +2.4687048785E-002 +3.0298015022E+000  +8.8231309856E-001 -4.0301087672E+000 
13900115.144 +8.7909561686E-001 -2.6261772466E+000  +2.5445834021E-002 +2.8235635665E+000  +2.6291581758E-002 +5.2068478924E+000  +8.9288310125E-001 -4.4267212250E+000 
14025260.325 +8.9606399876E-001 -2.2904100279E+000  +2.5964659117E-002 +5.1609469464E+000  +2.5855104576E-002 +4.7374129422E+000  +9.2116743655E-001 -3.4141766632E+000 
14150405.507 +9.3815748646E-001 -4.0786399480E+000  +2.5724895001E-002 +2.4652475865E-001  +2.4812909774E-002 +4.0418575352E+000  +9.4041117227E-001 -5.0679267332E+000 
14275550.688 +9.3127349887E-001 -4.6893176484E+000  +2.6830896962E-002 +9.4425215243E-001  +2.5749881324E-002 +2.3787211638E+000  +9.3272055508E-001 -4.2947184563E+000 
14400695.870 +9.4766045268E-001 -4.6506401296E+000  +2.5814725117E-002 +3.1725015983E+000  +2.6778833153E-002 +1.0404946935E+000  +9.5501923316E-001 -4.0355623231E+000 
