!  2-Port S-parameters saved by WinCal
! VAR MeasName=S-Parameters (CALIBRATED_DATA) read from VNA (P5004A)
! VAR MeasDate=29/08/2024 10:54:54
! VAR NAME=S2_r9c2_SET1_9k-100M_1
! VAR FILENAME=S2_r9c2_SET1_9k-100M_1.S2P
! VAR DATE=29/08/2024 10:54:54
! VAR PHYS_PORTS=1,2
! VAR ObjTypeName=DATASET
! VAR IndexType=Frequency
!
# Hz S MA R 50
9000.000 +8.9592162320E-002 -1.5222416867E+002  +1.0224986143E-002 -1.0120292854E+002  +5.5489539140E-003 +5.3952497499E+001  +2.4130944974E-001 -1.5347886185E+002 
134145.181 +1.1090274647E-001 +1.6971879768E+002  +4.0658116099E-004 -1.7740116170E+002  +6.0382065627E-004 +5.8785946194E+001  +2.4009226415E-001 -1.7085030240E+002 
259290.363 +1.1078602416E-001 +1.6988521681E+002  +1.5603034525E-003 -4.5847894742E+001  +4.7446107581E-004 +1.4089096927E+002  +2.4127048095E-001 -1.6782477611E+002 
384435.544 +1.1384644681E-001 +1.6993528240E+002  +6.3322990801E-004 -4.5795375896E+001  +4.1935900451E-004 -4.2480464832E+001  +2.3916888613E-001 -1.6883353927E+002 
509580.726 +1.1432707052E-001 +1.7023080495E+002  +7.4256452789E-004 -1.3063130625E+002  +1.4102291612E-003 +9.8611934319E+001  +2.3917436324E-001 -1.6279761800E+002 
634725.907 +1.1756833293E-001 +1.7148141078E+002  +8.9947451581E-004 -1.3952808120E+002  +5.5102468314E-004 -3.0134625461E+001  +2.4601435663E-001 -1.6392248014E+002 
759871.089 +1.2135690793E-001 +1.7089236521E+002  +5.2530259038E-004 -1.0767933974E+002  +2.7960889640E-004 +7.8912126318E+001  +2.5172604675E-001 -1.6764286563E+002 
885016.270 +1.2047547183E-001 +1.6937697416E+002  +2.6368719234E-004 -4.1318144655E+001  +3.8228566388E-004 +3.4227333134E+000  +2.4252091610E-001 -1.6648530080E+002 
1010161.452 +1.1687102296E-001 +1.7021892219E+002  +6.3651151173E-004 -5.1717093670E+001  +9.7346829683E-004 -1.4339385207E+002  +1.9870158021E-001 -1.6731131453E+002 
1135306.633 +1.1860579616E-001 +1.6905969856E+002  +8.2735913706E-004 +8.6037683294E+000  +9.9378508604E-004 -2.1100331805E-001  +2.0559612618E-001 -1.6680583748E+002 
1260451.815 +1.1815898999E-001 +1.7143298661E+002  +1.5643153972E-003 -1.2827704379E+002  +2.8868109305E-003 +3.4460138177E+001  +2.1272862061E-001 -1.5914207506E+002 
1385596.996 +1.2705406316E-001 +1.7265643683E+002  +4.9382091752E-004 +1.3287195419E+002  +9.0199951794E-004 -2.0551261623E+001  +2.8281347829E-001 -1.5797963307E+002 
1510742.178 +1.3015781624E-001 +1.7298936497E+002  +1.7322175475E-003 -6.6731295155E+001  +1.6554616903E-003 +1.6542511473E+002  +2.4553005203E-001 -1.5941207740E+002 
1635887.359 +1.2967039074E-001 +1.7064533449E+002  +1.3332068253E-003 +1.2849898457E+001  +3.4925937817E-004 -1.0011324685E+002  +2.3140000883E-001 -1.5551007317E+002 
1761032.541 +1.2673970555E-001 +1.7023285937E+002  +1.2422100190E-003 +2.0307856009E+000  +1.7966557057E-003 +7.7066308969E+001  +2.3605134995E-001 -1.5668586897E+002 
1886177.722 +1.3003911875E-001 +1.6781460861E+002  +1.1908857809E-003 +6.9268186362E+001  +2.1227292913E-003 -5.2310716851E+001  +2.2772582716E-001 -1.5978840711E+002 
2011322.904 +1.2844810954E-001 +1.6738562496E+002  +2.1209574553E-003 +2.8143639515E+001  +5.3289706669E-004 -1.1658228769E+002  +2.2857590155E-001 -1.5641030443E+002 
2136468.085 +1.2952026860E-001 +1.6777432404E+002  +3.8111283079E-003 +5.2551704021E+001  +5.4709845520E-003 -6.6593636323E+001  +1.4216316099E-001 -1.6870551310E+002 
2261613.267 +1.3602043469E-001 +1.6510403420E+002  +3.6500517034E-003 +7.4285450881E+001  +6.2468872403E-003 -5.0266661126E+001  +1.8556250374E-001 -1.6023382693E+002 
2386758.448 +1.3557702797E-001 +1.6355801442E+002  +1.0663524194E-002 +6.3731937111E+001  +9.8428421104E-003 -1.8277018271E+001  +1.2747600100E-001 +1.6674825257E+002 
2511903.630 +1.3015033614E-001 +1.6363732836E+002  +1.2176414046E-002 +5.2240434355E+001  +1.2638211105E-002 -5.7494348657E+001  +1.0883019731E-001 +1.5218823746E+002 
2637048.811 +1.0818147561E-001 +1.7022680324E+002  +1.6397476034E-002 +6.9177367980E+001  +1.2626220211E-002 -2.2754260633E+001  +1.8593403182E-001 +1.6585472077E+002 
2762193.992 +1.1252762957E-001 +1.6304053450E+002  +3.9049367245E-002 -1.0729372710E+002  +8.1205373290E-002 -1.5882449018E+002  +7.9834034990E-001 -8.3701755988E+001 
2887339.174 +1.1437892499E-001 +1.7364814223E+002  +1.5172346635E-002 -4.4344414015E+001  +4.8867450055E-003 -1.1303890692E+002  +2.5970642915E-001 -1.1468788752E+002 
3012484.355 +1.2743368978E-001 +1.6631301252E+002  +9.1518457589E-003 +1.5412930538E+001  +9.9806580523E-003 -1.1361279866E+002  +3.8962089802E-002 -8.6484638551E+001 
3137629.537 +1.3171076820E-001 +1.7553080081E+002  +1.0494999356E-002 -1.2488563074E+001  +5.6580078995E-003 -1.3932712722E+002  +1.4033997081E-001 -1.4522133304E+002 
3262774.718 +1.3569156137E-001 +1.7165872687E+002  +5.9432498926E-002 -3.6921019923E+001  +6.7227008224E-002 -1.6573233821E+002  +7.0460848018E-001 -4.7306723109E+001 
3387919.900 +1.3308606279E-001 +1.6384998899E+002  +1.2965063179E-002 +4.7083452114E+001  +2.2276551364E-002 -2.4658084339E+001  +2.0906532553E-001 +1.2260730711E+002 
3513065.081 +1.7333925005E-001 +1.5365777512E+002  +1.5528359653E-002 +9.1644366347E+001  +1.5156378637E-002 -2.4612223834E+001  +2.9334157391E-001 +1.0380122531E+002 
3638210.263 +1.6180396228E-001 +1.4539013392E+002  +4.2743271558E-002 +1.0696516863E+002  +4.8820503179E-002 +4.8508036508E+001  +7.2195061896E-001 +1.1810545470E+002 
3763355.444 +1.8041353638E-001 +1.4483663808E+002  +1.6089631224E-002 +1.1221929406E+002  +2.1885307267E-002 +4.9432713907E+001  +4.1478917949E-001 +1.5744963922E+002 
3888500.626 +1.7713968309E-001 +1.5570762944E+002  +1.6042187835E-002 +6.2919581564E+001  +1.1100657874E-002 +2.8357715084E+001  +1.7851837156E-001 +1.5182851444E+002 
4013645.807 +1.9137445106E-001 +1.5099856739E+002  +3.0398388079E-002 +1.1384239545E+002  +2.3402212719E-002 +2.9532697837E+001  +5.3978257857E-001 +1.3635460779E+002 
4138790.989 +2.0693020864E-001 +1.3718656649E+002  +1.9336449551E-002 +1.0894955226E+002  +3.1556894116E-002 +1.7328010674E+001  +2.9291684010E-001 +1.4787240107E+002 
4263936.170 +1.9250213941E-001 +1.4781227899E+002  +1.9058096790E-002 +1.1294954778E+002  +1.5240061379E-002 +5.1234871487E+001  +5.5369476117E-001 +1.4423503008E+002 
4389081.352 +1.8478832697E-001 +1.4308703396E+002  +3.2144602443E-002 +8.3903966420E+001  +2.1600453556E-002 +1.5312031120E+001  +4.0919107817E-001 +1.3757133319E+002 
4514226.533 +2.1902189716E-001 +1.3642186836E+002  +3.6590862511E-002 +8.8110280045E+001  +2.6258216638E-002 +3.0825722885E+001  +4.9892550975E-001 +1.3011847180E+002 
4639371.715 +2.7779121161E-001 +1.3226803131E+002  +7.4602712030E-002 +1.4061813456E+002  +6.8146713623E-002 +6.4329775240E+001  +1.1906192881E+000 +1.3173709591E+002 
4764516.896 +3.4404857971E-001 +1.2761209929E+002  +1.6829765444E-001 +1.1874877429E+002  +2.0717230858E-001 +7.2973928791E+001  +2.9918967937E+000 +8.7421482167E+001 
4889662.078 +4.1078123824E-001 +1.1694998405E+002  +1.1962567778E-001 -1.5473875620E+002  +1.2208414879E-001 +1.7769386126E+002  +1.8162221707E+000 -1.7678347147E+002 
5014807.259 +3.1180513975E-001 +1.3844017804E+002  +2.8239030810E-001 -9.7530450411E+001  +2.0878943290E-001 -1.1610980089E+002  +6.0302836815E+000 -1.3649179296E+002 
5139952.441 +2.7417315231E-001 +1.2248243915E+002  +4.1660322952E-001 +1.3693823198E+001  +4.1713631121E-001 -3.0637869930E+001  +6.6932746989E+000 -8.3853779980E+000 
5265097.622 +3.6552590388E-001 +1.3146132625E+002  +7.0125680765E-002 +1.1290609961E+002  +4.9796697832E-002 +7.0020631679E+001  +1.0993687965E+000 +1.2331688352E+002 
5390242.804 +3.5761441780E-001 +1.3636731884E+002  +5.5636369945E-002 +9.2701129305E+001  +6.4068574769E-002 +5.5160490906E+001  +1.1037698354E+000 +9.6531828736E+001 
5515387.985 +4.7999810128E-001 +1.1886195349E+002  +9.7638302126E-002 +8.3484045905E+001  +9.1207927548E-002 +7.7519581944E+001  +1.3371596901E+000 +8.8010501789E+001 
5640533.166 +4.5442404655E-001 +1.3106690422E+002  +8.3666413779E-002 +7.0064062374E+001  +7.9180788284E-002 +3.3258733256E+001  +1.6088415052E+000 +5.0912183587E+001 
5765678.348 +4.2733340436E-001 +1.2353966796E+002  +9.1513993893E-002 +1.0210565714E+002  +8.3427177216E-002 +6.8482576931E+001  +1.8290604340E+000 +1.0769436479E+002 
5890823.529 +5.1533682716E-001 +1.1760765621E+002  +1.2066229115E-001 +6.2446759730E+001  +1.1366093949E-001 +3.2785913721E+001  +1.7027426401E+000 +3.8045730074E+001 
6015968.711 +6.2611111419E-001 +1.0989536709E+002  +1.5155305861E-001 +7.3472302830E+001  +1.1684677094E-001 +3.3011344432E+001  +1.7195192288E+000 +6.5744540363E+001 
6141113.892 +7.6867505662E-001 +1.0451250776E+002  +1.5610980848E-001 +6.4312564214E+001  +1.3884308064E-001 +3.2236794331E+001  +1.8198285731E+000 +4.5859792404E+001 
6266259.074 +7.7172140767E-001 +1.0783953355E+002  +1.4394376585E-001 +5.3296232366E+001  +1.1402246752E-001 +3.1045186214E+001  +1.8114160276E+000 +3.9442365258E+001 
6391404.255 +9.9492261402E-001 +9.5506149114E+001  +1.3494361469E-001 +4.6285950709E+001  +1.2600897580E-001 +3.1244418531E+001  +1.2856569244E+000 +2.3369831860E+001 
6516549.437 +1.2947065367E+000 +8.0790226906E+001  +1.6826506297E-001 +3.3431856013E+001  +1.9472957340E-001 +2.2124514579E+001  +1.3889563411E+000 +1.5351670599E+001 
6641694.618 +1.3652904569E+000 +5.8726723044E+001  +1.8657057312E-001 +1.5255384099E+001  +1.7639426869E-001 +6.9237361419E+000  +1.7059413125E+000 +8.4091478434E+000 
6766839.800 +1.3855147305E+000 +4.9502491947E+001  +1.9138127689E-001 +1.1352897109E+001  +1.5813673510E-001 +1.5439177453E+000  +1.3384046640E+000 +6.6273831419E-001 
6891984.981 +1.7265390042E+000 +4.5007331762E+001  +1.2746957079E-001 +1.6757485709E+001  +1.4547872659E-001 +1.5482430354E+001  +1.1628747967E+000 -7.2122195232E-001 
7017130.163 +1.6467675016E+000 +1.8191653390E+001  +1.3418288027E-001 -2.8210343729E+000  +1.5363780568E-001 -1.7711110662E+000  +1.5344982754E+000 -3.1979908819E-001 
7142275.344 +1.2982962663E+000 +1.7367697624E+001  +9.3746218326E-002 +5.9833227059E+000  +1.0116382320E-001 -4.4679460219E+000  +1.2784176065E+000 -7.6543560848E+000 
7267420.526 +1.3802844330E+000 +4.7843538684E-002  +8.0102988544E-002 +8.1891454658E-001  +8.9021155065E-002 -2.4785941924E+000  +1.3500824346E+000 -1.2097357676E+001 
7392565.707 +1.1341083466E+000 +1.1704533544E+001  +6.3378312057E-002 +4.2989584086E+000  +6.5367528912E-002 +7.2425336625E+000  +1.2396246560E+000 -3.6525131582E+000 
7517710.889 +1.0948207190E+000 +6.2165086955E+000  +6.4013792360E-002 +2.8349155494E+000  +6.5073477244E-002 +5.0214588240E+000  +1.1759650116E+000 -1.1352692434E+001 
7642856.070 +9.5055973064E-001 -7.6302178987E+000  +6.6760485690E-002 -1.3663381337E+000  +6.2632966155E-002 +8.5956207924E+000  +9.8974102214E-001 -4.3192290175E+000 
7768001.252 +9.9270834225E-001 +3.1763953327E+000  +5.7944146588E-002 -7.9715738603E-001  +5.9839755769E-002 +5.9438335221E+000  +9.7262102750E-001 -5.9724611239E+000 
7893146.433 +9.3550674150E-001 +4.7729368777E+000  +6.3998665813E-002 +1.2399892598E+000  +6.2007893203E-002 +3.5621258157E+000  +7.9222950779E-001 -4.3091914528E+000 
8018291.615 +7.2942520586E-001 +9.1740299155E+000  +5.0256946281E-002 -3.5063479896E+000  +6.1466417723E-002 +8.3944328332E+000  +7.6963788250E-001 -6.2375224007E+000 
8143436.796 +7.3746037621E-001 +6.5524214700E+000  +5.8198485596E-002 -1.7275819255E+000  +5.0256972647E-002 +1.4267125567E+001  +8.9055693525E-001 -2.4333048818E+000 
8268581.977 +7.2216407708E-001 +8.2987006786E-002  +5.2263753504E-002 -8.0402164282E+000  +5.7404790094E-002 +1.4361672320E+001  +6.0958975133E-001 -1.1591447527E-001 
8393727.159 +6.9335883575E-001 +5.2595848590E+000  +5.5178400513E-002 +1.0119392890E+000  +5.4814307550E-002 +1.4204068716E+001  +6.9040184888E-001 +5.8698746169E+000 
8518872.340 +6.1111722138E-001 +8.9088808732E+000  +5.7283749667E-002 -1.2071020831E+000  +5.1942427365E-002 +4.3512645608E+000  +6.9243200419E-001 +3.1092594572E+000 
8644017.522 +5.8410713394E-001 +8.7438078848E+000  +5.4299169240E-002 +6.5528182602E-001  +4.6680793901E-002 +6.4900778060E+000  +6.5877342528E-001 +4.5008086302E+000 
8769162.703 +5.8461779123E-001 +1.2207964164E+001  +5.1472355032E-002 +1.4347987151E+000  +5.4333302586E-002 +1.0350134588E+001  +6.2167582561E-001 -4.8857718499E+000 
8894307.885 +5.8384076259E-001 +7.6607414739E+000  +5.1321540717E-002 -2.9541912050E+000  +5.1791049107E-002 +7.2388315326E+000  +5.4546466341E-001 +7.7514772848E-001 
9019453.066 +5.5157245348E-001 +5.2899487394E+000  +5.5583775316E-002 -5.5132188326E+000  +5.0030742072E-002 +7.2395917669E+000  +5.7000831530E-001 +3.8952432503E+000 
9144598.248 +5.4596028476E-001 +1.6497228924E+000  +4.6181869417E-002 -5.4966974108E+000  +5.0103553842E-002 +1.1590806028E+001  +5.4237546958E-001 +3.9646733885E+000 
9269743.429 +4.8267507792E-001 +8.7295676290E+000  +5.0641356187E-002 -4.2584506221E+000  +4.9660915000E-002 +5.6184255995E+000  +5.2850861324E-001 +1.4489459299E+000 
9394888.611 +4.8493357685E-001 +1.1352654553E+001  +4.8818644334E-002 -4.4617648694E+000  +5.0849086442E-002 +1.2732829776E+001  +6.0256144086E-001 -7.0278127566E+000 
9520033.792 +4.9630494251E-001 +3.1680453956E+000  +5.0857359880E-002 -6.2422929585E+000  +4.8507125641E-002 +1.3971853981E+001  +5.2575366152E-001 -5.9145145249E+000 
9645178.974 +4.6905160885E-001 +3.8007222706E+000  +5.1143647973E-002 -6.3515069439E+000  +5.0086249579E-002 +1.2490975860E+001  +5.5053346770E-001 -3.4189021183E+000 
9770324.155 +4.9316435509E-001 -3.1563343262E+000  +5.0079852105E-002 -2.7132940848E+000  +4.8861549930E-002 +9.1639593305E+000  +5.3565736194E-001 -2.5203483637E+000 
9895469.337 +4.9383754223E-001 +2.1948085127E+000  +5.0504731357E-002 -4.6220276342E+000  +5.1660349669E-002 +1.5580622605E+001  +5.3965053768E-001 -1.6525535701E+000 
10020614.518 +4.8907694529E-001 +3.2444091019E+000  +5.1174354517E-002 -6.0033271428E+000  +5.1438245473E-002 +1.4208030768E+001  +5.0952441201E-001 -6.0252162943E+000 
10145759.700 +5.0204994516E-001 +5.3792369803E+000  +5.2511054240E-002 -3.4713342525E+000  +5.0625107686E-002 +1.4469808392E+001  +5.8982493938E-001 -5.0082698611E+000 
10270904.881 +4.7157258528E-001 +3.6947411344E+000  +5.3126469673E-002 +2.8474589021E-001  +4.7264928968E-002 +1.4908874978E+001  +5.1751791408E-001 -5.8630991345E+000 
10396050.063 +4.8178661784E-001 +8.6527199548E+000  +4.9362460854E-002 -3.1804062456E+000  +5.1823030998E-002 +1.3989554428E+001  +5.5882868444E-001 -1.7644852926E+000 
10521195.244 +5.1709522456E-001 +7.2278750194E+000  +5.2310620325E-002 -7.3875808530E-001  +5.1407758270E-002 +1.3620647753E+001  +5.2354009477E-001 -9.9680971755E-001 
10646340.426 +5.4755059794E-001 +1.1569819302E+001  +5.4896855722E-002 -1.3260491940E+000  +5.2270432860E-002 +1.5287045164E+001  +5.2679403545E-001 +1.7361750627E+000 
10771485.607 +5.4813327525E-001 +8.0249438918E+000  +5.3898776071E-002 +1.3554614905E+000  +5.5340048258E-002 +1.5402614427E+001  +5.3688418089E-001 +3.1606933732E+000 
10896630.788 +5.3645242764E-001 +7.2871022113E+000  +5.2333663638E-002 -1.1591592092E+000  +5.4778584826E-002 +1.3921758179E+001  +5.5659977126E-001 +1.8332425338E+000 
11021775.970 +5.7044512119E-001 +9.5086878787E+000  +5.2400161238E-002 +9.8182769638E-001  +5.3199229421E-002 +1.2945230915E+001  +5.6194470303E-001 +4.7776372639E+000 
11146921.151 +5.1480138756E-001 +4.5213654323E+000  +5.5484285889E-002 -6.7369907158E-001  +5.2202432783E-002 +1.4743962413E+001  +5.6894015448E-001 +2.0139117242E+000 
11272066.333 +5.8247900015E-001 +8.6560096205E+000  +5.4989859971E-002 +4.5533831188E-001  +5.3630944740E-002 +1.2941506211E+001  +5.7857932605E-001 +4.2226736517E+000 
11397211.514 +5.5004986663E-001 +7.9884458139E+000  +5.5158499467E-002 +1.4273029104E+000  +5.4893264044E-002 +1.3494917197E+001  +5.8655781489E-001 +1.8303857926E+000 
11522356.696 +5.9803841978E-001 +8.2885831845E+000  +5.5959749130E-002 +1.7983638239E+000  +5.4752505538E-002 +1.3436686786E+001  +6.0711378289E-001 +2.1302244135E+000 
11647501.877 +5.7156432457E-001 +8.4928585954E+000  +5.7358738157E-002 -1.8248823664E+000  +5.4674318852E-002 +1.1563956118E+001  +6.0402472581E-001 +2.0132445791E+000 
11772647.059 +6.0412585384E-001 +4.6657256652E+000  +5.6905210474E-002 +2.4276989357E+000  +5.7396098215E-002 +1.2589644427E+001  +6.2935650398E-001 +1.9950205152E-001 
11897792.240 +5.6676990406E-001 +5.6398284248E+000  +5.8762160026E-002 +2.8311619232E+000  +5.7795829297E-002 +1.1909390367E+001  +6.2127228191E-001 +1.0763800657E+000 
12022937.422 +6.1102312663E-001 +5.9064744904E+000  +5.8320642708E-002 +1.0455056502E+000  +5.6067312416E-002 +9.6156143784E+000  +6.3363534416E-001 +1.9874728147E+000 
12148082.603 +6.4963393745E-001 +3.2093756535E+000  +5.8607324617E-002 +3.0988812423E+000  +5.9079260589E-002 +9.8054022206E+000  +6.6216249876E-001 +7.0176329992E-001 
12273227.785 +6.5592011686E-001 +6.9942516598E+000  +6.0384530265E-002 +6.7291798176E-001  +5.7434669699E-002 +1.0552082977E+001  +6.3836283377E-001 -9.1045956575E-001 
12398372.966 +6.5360761877E-001 +4.4526389670E+000  +6.0848175489E-002 +3.4285325900E+000  +6.1063571547E-002 +1.0744472722E+001  +6.7788736029E-001 +9.4187596529E-001 
12523518.148 +6.5211592065E-001 +3.9955446650E+000  +5.9969891462E-002 +1.9334890213E+000  +6.0964871278E-002 +1.0360554211E+001  +6.9310299053E-001 +5.9716691439E-001 
12648663.329 +6.8464618442E-001 +1.5181448837E+000  +6.2554207269E-002 +6.7785864642E-001  +6.2062886332E-002 +9.3122929168E+000  +7.2195412936E-001 -7.6136016083E-001 
12773808.511 +7.1877803398E-001 +2.5081285663E+000  +6.1646292675E-002 +2.9951770228E+000  +6.0910962670E-002 +9.4289202324E+000  +6.9260643893E-001 -2.8803188283E-001 
12898953.692 +7.1282067681E-001 +1.9733656975E+000  +6.2468519380E-002 +2.3575572686E+000  +6.2532791651E-002 +8.9270635971E+000  +7.2034598518E-001 -2.1928547751E+000 
13024098.874 +7.3344509358E-001 +9.1140031820E-001  +6.3404990419E-002 +2.4381198366E+000  +6.2896518289E-002 +8.9823843083E+000  +7.2055891973E-001 -1.0055322610E+000 
13149244.055 +7.4856562307E-001 +6.1132145182E-002  +6.5484067449E-002 +2.9658717932E+000  +6.3790663099E-002 +6.8098096078E+000  +7.3115286602E-001 -1.7382225349E+000 
13274389.237 +7.4045453252E-001 -4.4258840331E-001  +6.4421187377E-002 +3.2306612818E+000  +6.2490524655E-002 +8.0941219904E+000  +7.8346306483E-001 -6.1291275927E-001 
13399534.418 +7.8191094155E-001 -1.0881551630E+000  +6.5591499065E-002 +1.7956361029E+000  +6.6023098462E-002 +5.9377110460E+000  +7.9933530288E-001 -3.3557707032E+000 
13524679.599 +7.9745959073E-001 -1.4797580056E+000  +6.6216377437E-002 +2.2982312445E+000  +6.4427065738E-002 +4.4211764354E+000  +7.9214076960E-001 -1.4459400422E+000 
13649824.781 +8.2551358103E-001 -2.4715469669E+000  +6.6583710972E-002 +3.8645349025E+000  +6.5150810598E-002 +4.9058729374E+000  +8.0414379201E-001 -2.5577859212E+000 
13774969.962 +8.2050581096E-001 -2.2552188904E+000  +6.7279369313E-002 +3.0678141740E+000  +6.4484154508E-002 +4.5515532487E+000  +8.6279900527E-001 -1.9508863378E+000 
13900115.144 +8.5076462538E-001 -3.6438741056E+000  +6.7748754454E-002 +2.6668156603E+000  +6.8130649410E-002 +5.5697847180E+000  +8.4641906739E-001 -4.6334253390E+000 
14025260.325 +8.5398619843E-001 -3.9731270965E+000  +6.7927435670E-002 +2.3963757478E+000  +6.5577962991E-002 +4.1762873687E+000  +8.6472111995E-001 -5.0443545829E+000 
14150405.507 +8.7045532224E-001 -4.5036121928E+000  +6.7785770088E-002 +2.1436700968E+000  +6.5703091993E-002 +1.9665309287E+000  +8.9679541230E-001 -2.4293464254E+000 
14275550.688 +8.9186518600E-001 -6.0004728110E+000  +6.8003368250E-002 +2.0773783167E+000  +6.5932988341E-002 +2.1053996761E+000  +8.8775887298E-001 -4.3449864961E+000 
14400695.870 +9.0291551969E-001 -5.3080884262E+000  +6.8922941492E-002 +8.5982148284E-001  +6.7830294392E-002 +2.2318328779E+000  +8.9820370324E-001 -4.4898964292E+000 
