!  2-Port S-parameters saved by WinCal
! VAR MeasName=S-Parameters (CALIBRATED_DATA) read from VNA (P5004A)
! VAR MeasDate=29/08/2024 12:19:24
! VAR NAME=S2_r9c5_RESET2_9k-100M_2
! VAR FILENAME=S2_r9c5_RESET2_9k-100M_2.S2P
! VAR DATE=29/08/2024 12:19:24
! VAR PHYS_PORTS=1,2
! VAR ObjTypeName=DATASET
! VAR IndexType=Frequency
!
# Hz S MA R 50
9000.000 +1.0057496500E-001 -1.5606732075E+002  +7.9715860717E-003 -1.7330849368E+002  +1.2462559079E-002 +3.9154918451E+001  +2.0377428556E-001 -1.2748950416E+002 
134145.181 +1.1084604784E-001 +1.6975709898E+002  +4.9861970127E-004 +2.4040347562E+001  +1.9763927878E-004 -1.4772658812E+002  +2.4216222991E-001 -1.7148766763E+002 
259290.363 +1.1285905208E-001 +1.7043722457E+002  +5.2097613768E-004 +3.3908217355E+001  +6.0227901785E-004 -5.2818682484E+001  +2.4783272879E-001 -1.7017704721E+002 
384435.544 +1.1514998558E-001 +1.7050984114E+002  +2.0965788625E-004 +6.7427342497E+001  +8.0158513523E-004 +1.4251779917E+002  +2.4518166699E-001 -1.6856780937E+002 
509580.726 +1.1337121413E-001 +1.7045814465E+002  +2.2622860653E-003 +8.7124889512E+001  +2.1799666916E-003 -1.6324311849E+002  +2.4885328957E-001 -1.6499565337E+002 
634725.907 +1.1712246485E-001 +1.7242237710E+002  +9.6828445287E-004 +2.3063450858E+001  +1.0760325225E-003 -1.2476830841E+002  +2.6038109517E-001 -1.6653872524E+002 
759871.089 +1.2121700807E-001 +1.7174210223E+002  +4.5102707803E-004 +7.2667916181E-001  +6.1334382253E-004 +6.6481641030E+001  +2.5033345778E-001 -1.6763212817E+002 
885016.270 +1.2080623345E-001 +1.6872462997E+002  +1.7336963454E-004 +1.1197880049E+002  +5.3483755538E-004 +2.7570943960E+001  +2.4508682125E-001 -1.6628811523E+002 
1010161.452 +1.1981147789E-001 +1.6946616207E+002  +9.3715509580E-004 +8.3751445131E+001  +2.5693783512E-004 +7.1965898384E+001  +1.8956538892E-001 -1.7214271802E+002 
1135306.633 +1.1925407486E-001 +1.6815675093E+002  +5.3818336027E-004 -1.9871097172E+001  +1.0143624372E-003 -7.7404361292E+001  +1.9945976088E-001 -1.7002893443E+002 
1260451.815 +1.1939145351E-001 +1.7146066321E+002  +1.9642431065E-003 -8.8945448681E+001  +2.6907875079E-003 -8.6388604450E+001  +2.2374205836E-001 -1.5748481037E+002 
1385596.996 +1.2285272490E-001 +1.7208123746E+002  +1.9149789200E-003 -1.1818564271E+002  +1.3639694578E-003 +8.6472395697E+001  +2.5373218941E-001 -1.5840956728E+002 
1510742.178 +1.2811088780E-001 +1.7203974357E+002  +1.1154994789E-003 -9.2491425265E+001  +6.1597787846E-004 -1.1985810236E+002  +2.6442874489E-001 -1.5551444469E+002 
1635887.359 +1.2282479168E-001 +1.7065270774E+002  +5.1668999644E-004 -1.2310136759E+002  +1.4334933262E-003 -1.7836146569E+002  +2.4416307251E-001 -1.5909605587E+002 
1761032.541 +1.2787691890E-001 +1.6903163366E+002  +1.3206413702E-003 +1.4283744076E+002  +7.8998692212E-004 -9.1901702955E+001  +2.4969835093E-001 -1.5249934621E+002 
1886177.722 +1.3157513463E-001 +1.6834063754E+002  +6.4123541832E-004 +7.2314043834E+001  +1.1082943066E-003 -9.7719886438E-001  +2.0276625640E-001 -1.6394726004E+002 
2011322.904 +1.3256226702E-001 +1.6580790938E+002  +2.6490637236E-003 +1.7419558679E+002  +1.1957773598E-003 +1.4041688515E+002  +1.9690516751E-001 -1.5840592742E+002 
2136468.085 +1.2573390937E-001 +1.6689605543E+002  +1.3751201160E-003 +3.0779808060E+001  +2.7911210717E-003 +1.2148692000E+002  +1.5488206244E-001 -1.5963073635E+002 
2261613.267 +1.2938973563E-001 +1.6265794077E+002  +4.8554309144E-003 -1.7855464239E+002  +1.3988762821E-004 -1.3057870216E+002  +3.0835694149E-001 +1.5268752736E+002 
2386758.448 +1.3643628155E-001 +1.6229515527E+002  +1.4573353565E-003 -9.8363451808E+001  +1.5598094504E-002 -2.8964432806E+001  +9.2562621452E-002 +1.3909396102E+002 
2511903.630 +1.3114970224E-001 +1.5856752420E+002  +1.5581216093E-003 +7.9761462227E+001  +4.0602228840E-003 +1.5456441532E+002  +2.0989763242E-001 -1.7758355700E+002 
2637048.811 +1.2964923593E-001 +1.5302407570E+002  +1.2867269235E-002 -1.6032909250E+002  +8.0093124666E-003 +1.2875336242E+002  +1.7505268860E-001 +1.3431596646E+002 
2762193.992 +1.1745091134E-001 +1.6678786988E+002  +1.5734533924E-002 -1.0820628151E+002  +3.5548434590E-003 +1.5439606026E+002  +3.8770768825E-001 -9.6521965237E+001 
2887339.174 +1.1704611331E-001 +1.6548629120E+002  +1.1439777794E-002 +4.7873344226E+001  +9.6854671405E-003 +8.0319847005E+001  +4.2015053892E-001 +1.1420864150E+002 
3012484.355 +1.1569494939E-001 +1.7774770030E+002  +4.7345727607E-003 -1.3539243631E+001  +1.5387051282E-002 -1.0238674079E+002  +1.7884159956E-001 -3.4336167183E+001 
3137629.537 +1.0856605524E-001 +1.5697975505E+002  +9.6462854281E-003 +4.7093555734E+001  +8.1652419407E-003 -5.8074336600E+001  +1.6043226675E-001 -1.3469848886E+002 
3262774.718 +1.2997932133E-001 +1.6150167671E+002  +6.1585542308E-003 -2.0912624801E+000  +1.6376608129E-002 -9.4234126920E+001  +2.2383379821E-001 +3.2831615178E+001 
3387919.900 +1.6087860986E-001 +1.3769044449E+002  +3.5953011124E-002 +1.1572092444E+002  +1.5378903944E-002 +1.0783771341E+001  +8.9556654892E-001 +7.7338091648E+001 
3513065.081 +1.4234977726E-001 +1.5045735370E+002  +3.2876407352E-003 +1.7318821324E+002  +9.2777012520E-003 -5.2671026915E+001  +8.2993783186E-002 +5.9737561915E+001 
3638210.263 +1.7637729683E-001 +1.3947619939E+002  +9.7182355864E-003 -1.3895147807E+002  +9.2007489782E-003 +5.2020996009E+001  +6.7820509532E-001 +1.0729779783E+002 
3763355.444 +1.6355970747E-001 +1.4726990482E+002  +5.1223281634E-004 -1.6208225609E+002  +6.5978436632E-003 -1.0810474493E+002  +4.9790304161E-001 +1.5993200474E+002 
3888500.626 +1.5975941538E-001 +1.4732866147E+002  +6.9908528021E-003 -1.6160644763E+002  +8.5219466590E-003 -1.2410152337E+002  +3.5400638914E-001 +1.0114182625E+002 
4013645.807 +1.8050014145E-001 +1.4409004257E+002  +1.4479729875E-002 +5.8462457160E+001  +8.6573962527E-003 -1.1916667840E+002  +1.3300496817E+000 +1.6129821484E+002 
4138790.989 +1.8789538898E-001 +1.3722841560E+002  +9.3252919963E-003 +1.2902885867E+002  +9.5889371990E-003 -7.9407367580E+001  +5.4829426789E-001 +1.1901796450E+002 
4263936.170 +1.4590297139E-001 +1.5017215770E+002  +2.1426472081E-002 -4.2824338290E+001  +7.6234331924E-003 +3.2901770292E+000  +8.8702495226E-001 +1.0423287081E+002 
4389081.352 +1.9646313080E-001 +1.3917069310E+002  +9.2832957501E-003 +1.0657227320E+002  +7.2812867198E-003 -7.0440568460E+001  +4.4134652406E-001 +1.2063773986E+002 
4514226.533 +2.1931133781E-001 +1.3384839788E+002  +1.1752346506E-002 +1.4547377310E+002  +3.3419459381E-003 +1.1708610516E+002  +5.1642724943E-001 +1.2725735980E+002 
4639371.715 +3.0304808287E-001 +1.3343263103E+002  +1.8133066768E-002 +1.2508336365E+002  +1.9682661920E-002 -1.0427309242E+002  +1.2790196338E+000 +3.2997347702E+001 
4764516.896 +3.2688195061E-001 +1.2542293734E+002  +6.9645201826E-002 -1.5350570127E+002  +6.9661588534E-002 +1.6233557913E+002  +3.2483987888E+000 +1.7809097155E+002 
4889662.078 +4.4118831411E-001 +1.2772884034E+002  +2.5817902720E-002 -1.5490587328E+002  +1.8196057437E-002 +1.1802930340E+002  +2.2562146416E+000 -1.2312625804E+002 
5014807.259 +3.9557561922E-001 +1.1884571578E+002  +5.8189738381E-002 -9.1372430172E+001  +5.4376063279E-002 +4.4354399353E+001  +4.6480332022E+000 +1.3115797641E+002 
5139952.441 +4.0421141521E-001 +1.2387232744E+002  +1.5683286339E-001 +5.3560682895E+001  +8.0152203014E-002 +3.4939050189E+001  +7.5052552839E+000 +8.1306601177E+001 
5265097.622 +4.3953329046E-001 +1.3424337280E+002  +1.5610491643E-002 -1.0603090418E+002  +1.9095229232E-002 +1.9351590600E+001  +1.7212593883E+000 +3.3421320169E+001 
5390242.804 +4.1158863193E-001 +1.3399809852E+002  +1.1552378541E-002 -1.2768782183E+002  +2.7677411112E-002 +1.1571998034E+002  +3.1771525251E+000 +8.6745828664E+001 
5515387.985 +4.6731115510E-001 +1.2954622988E+002  +1.7025533075E-002 -8.9218399293E+001  +5.0521936482E-003 -1.3730337752E+002  +2.5505544250E+000 +8.4503237786E+001 
5640533.166 +4.6441251136E-001 +1.2884419805E+002  +3.8615182397E-002 +9.3839561795E+001  +8.3561605226E-003 +1.3740577072E+002  +1.9496119979E+000 +7.5062885754E+001 
5765678.348 +4.5799743887E-001 +1.2765117982E+002  +2.2269763308E-002 -1.7294297675E+002  +8.1412721322E-003 +1.6620854526E+002  +1.7898658451E+000 +4.5132075942E+001 
5890823.529 +4.6921942464E-001 +1.2292990674E+002  +1.3318237790E-002 +3.5385396004E+001  +1.9454838890E-002 +1.5747336941E+002  +2.4236766140E+000 +8.5868865717E+001 
6015968.711 +7.8098282753E-001 +1.1937802196E+002  +3.9354830288E-002 +7.4061162191E+001  +1.2062508734E-002 -1.3931274034E+002  +1.7047340344E+000 +4.9176932387E+001 
6141113.892 +8.5816808389E-001 +1.1075017272E+002  +4.5438799613E-004 -3.3105707256E+001  +2.7248653270E-002 +1.1806028677E+002  +1.5993359416E+000 +3.9428390987E+001 
6266259.074 +9.1860320192E-001 +1.0711629972E+002  +2.3652407157E-002 +5.5177171521E+001  +3.7095790078E-002 +1.9074965645E+001  +1.6503557258E+000 +3.0696172394E+001 
6391404.255 +9.7927062436E-001 +8.2801508636E+001  +2.7222981356E-002 -1.3059638172E+002  +2.8901920881E-002 +5.9386834718E+001  +1.7591608163E+000 +1.0656816368E+001 
6516549.437 +1.4881766210E+000 +9.1503930249E+001  +1.1033682251E-002 -1.3145356466E+002  +5.4271852097E-003 -4.7035354876E+001  +1.7707124156E+000 +1.2792032312E+001 
6641694.618 +1.6544927136E+000 +6.6047467173E+001  +2.0890210218E-002 +9.9276910937E+001  +3.4902552282E-002 +6.9704639225E+001  +1.3854531463E+000 +5.2753755863E+000 
6766839.800 +1.9859457516E+000 +3.5792467907E+001  +1.8973540685E-002 +6.6715404894E+001  +4.4506442336E-002 +5.8412267056E+001  +1.2621618620E+000 +1.5916592744E+000 
6891984.981 +2.4583946531E+000 +3.8729456526E+001  +5.3410459540E-003 +1.5885722372E+002  +1.3947714526E-002 +6.9233091098E+001  +1.5588706193E+000 -1.0014479455E+001 
7017130.163 +1.4750709753E+000 +3.1409456536E+001  +1.4389901204E-002 +1.8771618727E+000  +2.9237943417E-002 +3.0467708456E+001  +1.2118110562E+000 -1.6474017146E+001 
7142275.344 +1.5468393815E+000 +1.1438991392E+001  +2.0667346418E-002 -7.3790472878E+001  +9.7731897787E-003 -1.6236938323E+002  +1.2808465403E+000 -5.4697562467E+000 
7267420.526 +1.5416333481E+000 -4.3623899582E-001  +1.1380944031E-002 +8.5501085859E+000  +1.5769594521E-002 +8.6802094055E+001  +1.3856767851E+000 -1.0754928805E+001 
7392565.707 +1.2962057299E+000 -9.3418456261E+000  +2.5237706270E-003 +3.5631902022E+001  +3.7313510946E-003 +7.8539705366E+001  +1.4421795921E+000 -1.3171743459E+001 
7517710.889 +1.2374555428E+000 -1.1321517071E+000  +1.1524702597E-002 +2.5777547481E+001  +9.7297248838E-003 +2.4856231335E+001  +1.1090584525E+000 -4.2386683873E+000 
7642856.070 +1.0177491121E+000 +1.7723552497E+000  +6.4447963273E-003 -1.4825298695E+002  +7.6429970603E-003 +6.8605351041E+001  +1.1130676970E+000 -6.6943350172E+000 
7768001.252 +1.0306783344E+000 -3.2550089091E-001  +7.7537942137E-003 -1.3393238500E+002  +4.8917843750E-003 -1.5977563383E+002  +9.8919347346E-001 -5.7197876362E+000 
7893146.433 +9.8748765028E-001 +1.6897898891E+000  +1.4397996126E-002 +2.1189665201E+001  +7.6080586871E-003 -8.4905532627E+001  +8.3452635679E-001 -7.2210823830E-001 
8018291.615 +7.5237219029E-001 +6.2783556700E+000  +2.7552000342E-003 +7.8279548527E+001  +7.9755830626E-003 +7.5004795425E+001  +8.2192300414E-001 -5.9987682205E+000 
8143436.796 +7.3338930290E-001 +1.4773066200E+000  +2.5759539064E-003 +4.2127290990E+001  +9.1009755406E-003 +7.0673098788E+001  +8.1435204513E-001 -1.6982637238E+000 
8268581.977 +6.6743203725E-001 +8.8114302619E+000  +8.5389735123E-003 +3.8512432161E+001  +5.3615885410E-003 +3.6727981772E+001  +8.3036647796E-001 -3.5398039238E+000 
8393727.159 +6.7535251771E-001 +1.1776393054E+001  +7.8844537248E-003 +3.7307150100E+001  +8.2220453109E-003 +3.0937099117E+001  +6.9086109767E-001 +8.8474659299E-001 
8518872.340 +7.4995322643E-001 +1.1149990566E+001  +5.9960251180E-003 +9.7761304739E+001  +1.1540844259E-003 +1.1510042375E+002  +6.4186940863E-001 -1.5647650522E+000 
8644017.522 +6.1539007342E-001 +1.1699573780E+001  +6.0170387379E-003 +5.0159232793E+001  +3.0259902401E-003 +2.3221985017E+000  +6.4977888355E-001 +5.0640107034E+000 
8769162.703 +6.2500076945E-001 +9.5291833540E+000  +2.3893442154E-003 -2.5053322257E+001  +1.1731157362E-003 -8.4714282515E+001  +6.5650467699E-001 -2.1278502835E+000 
8894307.885 +6.3783258838E-001 +7.1000325682E+000  +2.7873468967E-003 -3.9770622771E+000  +6.7651374133E-003 +5.1978858338E+000  +6.6221692961E-001 +3.8092048709E+000 
9019453.066 +5.6781166178E-001 +5.9316487848E+000  +5.4597226290E-003 -1.0356626340E+001  +3.4969022066E-003 +6.9653357095E+001  +6.4583992904E-001 +1.1978795772E+000 
9144598.248 +5.4494462142E-001 +1.2212044985E+000  +5.3237170693E-003 -3.3509035156E+001  +3.7981821029E-003 -1.6446721499E+001  +6.0196219243E-001 -2.0651872874E+000 
9269743.429 +5.5897415612E-001 +2.4630792434E+000  +2.0319662245E-003 +9.4998323077E+001  +2.7637526377E-003 +5.6501730198E+001  +6.0272154959E-001 -2.0640272368E+000 
9394888.611 +5.5426122426E-001 +9.6932472416E+000  +3.3766866801E-003 -1.7228457240E+001  +1.7308366746E-003 -1.6723428747E+001  +5.9753728569E-001 -2.1265419735E+000 
9520033.792 +6.0410927543E-001 +2.2747564265E+000  +3.8602001114E-003 +5.7529919331E+001  +6.9305420952E-003 +6.4651279398E+000  +5.4716904503E-001 -7.4544030653E+000 
9645178.974 +5.0505242988E-001 -6.8395148744E-001  +3.8602396092E-003 +1.4673218758E+001  +3.9509141402E-003 -4.2857727048E+001  +5.5695921565E-001 -5.7993480229E+000 
9770324.155 +5.6045324175E-001 +5.1404096948E+000  +4.7715211945E-003 -1.3981938680E+001  +5.0952993261E-003 +7.9162707184E+001  +5.8724042335E-001 -5.4318394030E+000 
9895469.337 +5.5192014361E-001 +2.0799114304E+000  +3.7788337389E-003 +3.8207641449E+001  +2.6564845626E-003 +9.4359469828E+001  +5.7348355899E-001 -2.8884291176E+000 
10020614.518 +5.3373009020E-001 +2.0211860243E+000  +7.0887441479E-004 +6.4379016009E+001  +2.0764505938E-003 -2.1921449413E+001  +5.6755119913E-001 -3.4748488007E+000 
10145759.700 +5.4627420133E-001 +4.3368732154E+000  +3.0333697466E-003 -1.4070467294E+001  +4.6559277011E-003 +2.0970903922E+001  +5.6522027293E-001 -1.2678620118E+000 
10270904.881 +5.5917493545E-001 +2.0088666733E+000  +5.6076109347E-003 -4.9773690506E+000  +3.7543738590E-003 +3.4868200100E+001  +6.0212955854E-001 -2.8666859776E+000 
10396050.063 +5.4375880633E-001 +6.6184592047E+000  +3.9105787444E-003 +1.5248812931E+001  +3.6245470471E-003 +5.2094779405E+001  +5.5847975888E-001 -3.6702630328E+000 
10521195.244 +5.6083595954E-001 +7.4290097116E+000  +2.3520165381E-003 +2.2895483280E+001  +4.1251166357E-003 +5.4895176185E+001  +6.0684366816E-001 +1.1773221576E+000 
10646340.426 +5.7646247985E-001 +7.8828449792E+000  +4.9618642771E-003 +3.4080145765E+001  +5.8525813700E-003 +1.1781020905E+001  +5.9094732056E-001 -1.8480512925E+000 
10771485.607 +5.6615159391E-001 +5.2104890060E+000  +3.6091762750E-003 -2.9779030796E+001  +2.2886263517E-003 +4.4126688034E+001  +5.8175549150E-001 -5.1972472908E-001 
10896630.788 +5.9121191422E-001 +7.8510723488E+000  +4.1046213593E-003 +1.7510920384E+001  +5.4698322285E-003 +3.4369794593E+001  +6.4130493853E-001 +3.0130175719E+000 
11021775.970 +6.1945758368E-001 +5.0468455630E+000  +3.0781967891E-003 -7.1786664787E+000  +4.2041621935E-003 -6.0784884196E+000  +6.1171384628E-001 -1.7157792243E+000 
11146921.151 +5.9091490347E-001 +6.7522270529E+000  +5.5491449320E-003 +4.0543957410E+001  +9.5519793755E-004 -5.4228321369E+001  +6.0877515179E-001 +5.5037835636E-001 
11272066.333 +5.5955107039E-001 +6.9972255127E+000  +3.5840947315E-003 +1.6344494494E+001  +3.3682641615E-003 +6.3004356195E+000  +6.5365901157E-001 +6.4987607976E-001 
11397211.514 +6.1443181058E-001 +6.1456569625E+000  +4.1155137566E-003 +4.7033000958E+000  +3.4264186372E-003 +1.0198041543E+001  +6.2540960086E-001 +1.0791221063E+000 
11522356.696 +6.0546775270E-001 +5.8189007773E+000  +2.1072400796E-003 +1.1940463889E+001  +3.3729981593E-003 +7.0743942342E+000  +6.6019808136E-001 -7.8320427642E-001 
11647501.877 +6.5348388941E-001 +9.8446587767E+000  +2.9385365435E-003 +1.6325088243E+001  +5.6322453813E-003 +2.2552353451E+001  +6.5600619436E-001 +3.8122476397E-001 
11772647.059 +6.5464547566E-001 +6.1446805605E+000  +3.4455660873E-003 +7.0245525752E+000  +2.3180765012E-003 +3.2799695743E+001  +6.5981421329E-001 +1.3318461507E+000 
11897792.240 +6.6386611192E-001 +5.4393832900E+000  +3.7133344810E-003 -1.0857322517E+001  +4.7508122675E-003 +1.5857497596E+001  +6.8760587469E-001 -1.5652070010E+000 
12022937.422 +6.6057557974E-001 +5.8262378541E+000  +2.9436551588E-003 -1.6305712677E+001  +3.8106014774E-003 +4.2075931830E+001  +6.6104216666E-001 -3.1930037748E-001 
12148082.603 +6.9562941384E-001 +5.2841946081E+000  +5.9492655911E-003 +3.3432931637E+001  +3.6151710406E-003 +3.1029392262E+001  +6.7344385938E-001 +7.4382305489E-001 
12273227.785 +7.1452749533E-001 +3.8163074878E+000  +4.6682074493E-003 +1.5791714077E+001  +3.3322221997E-003 +4.4896578393E+001  +7.2367652546E-001 +4.1297585241E-001 
12398372.966 +6.9544392411E-001 +1.8343277178E+000  +4.1111999057E-003 +1.6518770802E+001  +4.3695787506E-003 +1.6227963829E+001  +7.3402105729E-001 -7.7199404389E-001 
12523518.148 +7.3394722428E-001 +3.3573717204E+000  +4.5911892446E-003 +2.0738501812E+001  +4.8889993360E-003 +3.5088710333E+001  +7.4223273948E-001 -2.2391319273E+000 
12648663.329 +7.4460030701E-001 +1.7443817705E+000  +4.3553248786E-003 +1.6527486731E+001  +3.4675234651E-003 +1.1748643486E+001  +7.6725944213E-001 +1.4078607167E-002 
12773808.511 +7.5797753383E-001 +3.8451871575E+000  +3.4406840835E-003 +1.7925487232E+001  +3.9944089180E-003 +3.4718032734E+001  +7.7413701568E-001 +3.8457131848E-002 
12898953.692 +7.7820192345E-001 +2.7716525075E-001  +4.6372061254E-003 +3.3680722817E+001  +3.2791442932E-003 +1.8349572989E+001  +7.9579909205E-001 -9.6337845818E-001 
13024098.874 +7.9430711858E-001 +1.1200257195E+000  +4.4702109722E-003 +5.7888660122E-001  +5.2064838862E-003 +2.7815416857E+001  +7.9710914322E-001 -2.2407636234E-001 
13149244.055 +7.9102952908E-001 -1.2829774444E-001  +4.3367622432E-003 +3.2985150624E+001  +4.2870378883E-003 +2.4658818433E+001  +8.1830158684E-001 -2.0182427065E+000 
13274389.237 +8.3546102207E-001 -1.8994855442E-001  +4.3105233619E-003 +1.1599847474E+001  +5.5647158092E-003 +2.4966460371E+001  +8.2438799456E-001 -1.5022038542E+000 
13399534.418 +8.5667205910E-001 -7.0764173101E-001  +5.1253105693E-003 +3.6753946514E+001  +5.3370371376E-003 +2.0067754666E+001  +8.5376599993E-001 -3.2199579940E+000 
13524679.599 +8.4013311913E-001 -2.3548265243E+000  +4.2738084976E-003 +1.4568979564E+001  +3.4982687487E-003 +1.2494194442E+001  +8.7189936674E-001 -4.7353154940E+000 
13649824.781 +9.0606247873E-001 -3.3642330743E+000  +5.1650606449E-003 +1.5721756250E+001  +3.0655584800E-003 +2.8977876579E+001  +8.8066848038E-001 -2.9355470482E+000 
13774969.962 +8.8913453095E-001 -3.7558800648E+000  +3.8707507290E-003 +2.8637672710E+000  +5.6993432137E-003 +4.4333186839E+001  +9.0936188718E-001 -4.2779362173E+000 
13900115.144 +8.9524641276E-001 -2.7345718754E+000  +5.5609230461E-003 +2.0161775851E+001  +4.9492168185E-003 +2.7681765319E+001  +8.8934325377E-001 -3.6643288187E+000 
14025260.325 +9.1578057739E-001 -3.7089230025E+000  +5.4470764801E-003 +2.0516051958E+001  +3.8633096402E-003 +2.0488644014E+001  +9.4180554322E-001 -3.9140817161E+000 
14150405.507 +9.4082053695E-001 -5.5476780691E+000  +5.5190994136E-003 +1.8601617981E+001  +4.5442979655E-003 +3.6290264144E+001  +9.6108010977E-001 -3.8404227025E+000 
14275550.688 +9.6588693586E-001 -6.4297644917E+000  +4.0574911793E-003 +2.6120795730E+001  +5.3104056735E-003 +3.3339091281E+001  +9.5688932229E-001 -4.6422675676E+000 
14400695.870 +9.7965740834E-001 -6.4377903129E+000  +4.6372213186E-003 +1.9357429267E+001  +3.5366450829E-003 +1.4948276713E+001  +9.8697374047E-001 -4.7907300096E+000 
