!  2-Port S-parameters saved by WinCal
! VAR MeasName=S-Parameters (CALIBRATED_DATA) read from VNA (P5004A)
! VAR MeasDate=29/08/2024 11:21:08
! VAR NAME=S2_r9c3_SET1_9k-100M_3
! VAR FILENAME=S2_r9c3_SET1_9k-100M_3.S2P
! VAR DATE=29/08/2024 11:21:08
! VAR PHYS_PORTS=1,2
! VAR ObjTypeName=DATASET
! VAR IndexType=Frequency
!
# Hz S MA R 50
9000.000 +8.7588444438E-002 -1.6394274811E+002  +7.4578910445E-003 +1.5493269684E+001  +8.3871287837E-003 +1.2153395139E+002  +2.5730616009E-001 -1.4644126510E+002 
134145.181 +1.1162691441E-001 +1.6968353428E+002  +3.7732520440E-004 -5.7172509503E+001  +3.2326661645E-004 +1.7139546559E+002  +2.3695849954E-001 -1.7019864761E+002 
259290.363 +1.1158778616E-001 +1.6998705543E+002  +5.6617283245E-004 -4.2564672398E+001  +7.2508212747E-004 +4.2723766706E+001  +2.4585452280E-001 -1.7025724339E+002 
384435.544 +1.1293415267E-001 +1.6988280908E+002  +5.3396304341E-004 -1.0383786401E+002  +6.8421160958E-004 +8.6765636338E+001  +2.4212171587E-001 -1.6911292669E+002 
509580.726 +1.1617977188E-001 +1.7083225707E+002  +6.2883999042E-004 -9.4003363697E+001  +1.9729579015E-003 +1.3764346464E+002  +2.3015457541E-001 -1.6122570999E+002 
634725.907 +1.1919624363E-001 +1.7159668809E+002  +6.0071047365E-004 +2.1493861017E+001  +1.4994863758E-003 +6.1254429133E+001  +2.4789843750E-001 -1.6330601933E+002 
759871.089 +1.1848386212E-001 +1.7035420200E+002  +6.4876299261E-004 -9.7772524036E+001  +1.3151110260E-003 +6.7722907546E+001  +2.5289453249E-001 -1.6589228657E+002 
885016.270 +1.2056735415E-001 +1.6932595069E+002  +7.4644013116E-004 -7.6716002346E+001  +5.2761650758E-004 +7.1225101475E+001  +2.4563947837E-001 -1.6644469638E+002 
1010161.452 +1.1703688820E-001 +1.7022073753E+002  +1.1487518438E-003 +1.0581082045E+002  +1.2058693378E-003 +1.1066833770E+002  +2.0386210740E-001 -1.7159430500E+002 
1135306.633 +1.1911078651E-001 +1.6882350558E+002  +1.1387645811E-003 +5.5163671233E+001  +1.0218326138E-003 +1.2708265782E+002  +2.0689266153E-001 -1.6950287465E+002 
1260451.815 +1.2115019884E-001 +1.7281036742E+002  +2.2563805769E-003 -3.4117913699E+001  +1.6418610492E-003 +9.0287070607E+001  +2.0994489586E-001 -1.5861307072E+002 
1385596.996 +1.2549715243E-001 +1.7257852733E+002  +1.7224813457E-003 -1.0847403417E+002  +1.4773256227E-003 +1.3199138127E+002  +2.5093516008E-001 -1.5803719034E+002 
1510742.178 +1.2602556663E-001 +1.7117610010E+002  +2.0543021606E-003 -2.8299528682E+001  +1.8206725590E-003 +1.4392280704E+002  +2.4503175079E-001 -1.5761241726E+002 
1635887.359 +1.2544557037E-001 +1.7124865863E+002  +1.3636025359E-003 +3.4292988304E+001  +8.8979248272E-004 -1.3443429495E+002  +2.4482314804E-001 -1.5851236667E+002 
1761032.541 +1.2725593887E-001 +1.6869889926E+002  +1.4236152943E-003 +1.1127119561E+001  +1.4417545027E-003 -1.3935851581E+002  +2.3783857936E-001 -1.5802677230E+002 
1886177.722 +1.2761390418E-001 +1.6672860729E+002  +2.2688330750E-003 +2.4739396544E+001  +3.6042730305E-003 -7.1284784973E+001  +1.9311734415E-001 -1.6820368962E+002 
2011322.904 +1.3203494313E-001 +1.6616136598E+002  +4.9547827038E-003 +5.5903182527E+001  +3.5561941043E-003 -6.3154015960E+001  +2.0783340694E-001 -1.5660391584E+002 
2136468.085 +1.3167344997E-001 +1.6800661676E+002  +4.4092001011E-003 +7.2928708671E+001  +4.5536635607E-003 -1.3308565803E+001  +2.0279532917E-001 -1.7523665584E+002 
2261613.267 +1.3429771116E-001 +1.6944892638E+002  +6.2939530260E-003 +7.1102365940E+001  +7.3901238143E-003 -7.5099245916E+001  +2.0549867258E-001 -1.6855191239E+002 
2386758.448 +1.3316689386E-001 +1.6502479096E+002  +1.1811831959E-002 +9.9140246258E+001  +1.5752586528E-002 -7.5254051620E+000  +1.2718295225E-001 +1.3826076421E+002 
2511903.630 +1.3799819577E-001 +1.6230739312E+002  +9.3721438892E-003 +8.5920212806E+001  +1.1178223326E-002 -3.0240030264E+001  +1.7338377907E-001 +1.7604053080E+002 
2637048.811 +1.1835586095E-001 +1.6207985218E+002  +3.3388505287E-002 +6.5530027502E+001  +2.6550342410E-002 -4.2195204434E+001  +1.3906827640E-001 +1.6415008034E+002 
2762193.992 +1.2497614688E-001 -1.6987979033E+002  +5.2773872681E-002 -1.1435665530E+000  +3.7550530289E-002 -1.0787476582E+002  +1.0437863578E-001 +1.3524964570E+002 
2887339.174 +1.2440302157E-001 +1.7052022269E+002  +6.6917643519E-002 -5.6589064639E+000  +8.8343664547E-002 -1.1704581828E+002  +3.4617129419E-001 -2.9569416623E+001 
3012484.355 +1.2641031339E-001 +1.7405384538E+002  +3.4927745145E-002 -1.8698664418E+001  +3.9226855674E-002 -1.0273259462E+002  +1.6691400053E-001 -7.6120150711E+001 
3137629.537 +1.3027976516E-001 +1.6427933833E+002  +3.1431354326E-002 -3.7372509411E+001  +2.4450866762E-002 -1.1571637316E+002  +3.2852799189E-001 -1.0960090530E+002 
3262774.718 +1.3251032528E-001 +1.7018647947E+002  +2.9743540431E-002 -2.6612192023E+001  +2.2763953983E-002 -1.3548015744E+002  +2.2455605191E-001 -9.5193647525E+001 
3387919.900 +1.5027263138E-001 +1.4924945682E+002  +7.1315285837E-002 +5.7826145116E+000  +6.3080828863E-002 -7.1214526411E+001  +3.8291871986E-001 -3.9512660637E+001 
3513065.081 +1.3923238631E-001 +1.5356473863E+002  +5.9713420428E-002 +8.1692697878E+001  +4.6330912960E-002 +9.9933361089E+000  +4.0247832463E-001 +1.1545218730E+002 
3638210.263 +1.7311200564E-001 +1.5043437631E+002  +3.7657574582E-002 +1.1726844819E+002  +3.7327357046E-002 +4.5169832758E+001  +4.7808657868E-001 +1.4584234639E+002 
3763355.444 +1.6813626807E-001 +1.4875975412E+002  +4.1998682127E-002 +6.9741478011E+001  +3.6249934474E-002 +4.9027990723E+000  +2.5817745292E-001 +1.3007330000E+002 
3888500.626 +1.8396375084E-001 +1.4870859920E+002  +4.2665282206E-002 +1.0890995711E+002  +3.8210783394E-002 +2.9278272208E+001  +3.8090373818E-001 +1.3087594596E+002 
4013645.807 +1.7682144209E-001 +1.5459846869E+002  +3.8335705909E-002 +7.8149841335E+001  +4.3388585853E-002 +2.9110877107E+001  +3.5729281813E-001 +1.2656274368E+002 
4138790.989 +1.8860540130E-001 +1.4470335783E+002  +4.8657594937E-002 +8.6765930990E+001  +4.6355883535E-002 +2.2585524948E+001  +3.9527551068E-001 +1.3238220165E+002 
4263936.170 +1.9891664941E-001 +1.4395919500E+002  +4.4812225062E-002 +6.7293347997E+001  +4.3747841940E-002 +1.8076472551E+001  +1.8738737635E-001 +1.3178584521E+002 
4389081.352 +1.8001333040E-001 +1.3510548036E+002  +4.3329875927E-002 +8.6186253617E+001  +6.0225697758E-002 +2.7290103312E+001  +4.0326535130E-001 +1.4572764051E+002 
4514226.533 +2.3234822592E-001 +1.3706782092E+002  +9.6477291239E-002 +1.2995463601E+002  +8.6536549458E-002 +6.7214262288E+001  +9.8252178662E-001 +1.3167583398E+002 
4639371.715 +2.0430185723E-001 +1.3279549160E+002  +1.5240286759E-001 +6.8679826976E+001  +1.4386776388E-001 +2.2315334418E+001  +1.0742728796E+000 +5.6745373032E+001 
4764516.896 +2.7948746684E-001 +1.1344763616E+002  +8.8019413002E-001 +3.8087726609E+001  +7.0583263944E-001 -1.0184866361E+001  +6.6065944572E+000 +1.4656422187E+000 
4889662.078 +3.7071230864E-001 +1.3025430526E+002  +2.4721629588E-001 -1.1625069351E+002  +2.4405218012E-001 +1.7711177092E+002  +2.4467691028E+000 -1.6882829496E+002 
5014807.259 +3.0562807734E-001 +1.2157142429E+002  +3.6457831322E-001 -4.0985427627E+000  +3.3322672366E-001 -3.9521034466E+001  +2.6847092939E+000 -4.1691497597E+001 
5139952.441 +3.9813668874E-001 +1.2923832093E+002  +3.3419992269E-001 +1.7558514216E+002  +3.9233098580E-001 +1.4921879052E+002  +3.3012432736E+000 +1.5384826845E+002 
5265097.622 +3.5205076191E-001 +1.2633490902E+002  +1.6972913056E-001 +9.7437941170E+001  +1.6660126674E-001 +6.2162078121E+001  +1.3641943002E+000 +9.7260241785E+001 
5390242.804 +3.5247118328E-001 +1.2742022408E+002  +1.5123985996E-001 +7.5816931130E+001  +1.5524564745E-001 +3.3069155172E+001  +1.1565674788E+000 +5.4896982003E+001 
5515387.985 +4.5322837322E-001 +1.3346546569E+002  +1.7021315338E-001 +1.4057361455E+002  +1.4947485988E-001 +9.8435034040E+001  +1.8827449956E+000 +1.2375773420E+002 
5640533.166 +4.2898172213E-001 +1.2113445405E+002  +1.5084592688E-001 +9.8688814976E+001  +1.4230929286E-001 +6.4228592441E+001  +1.1587355945E+000 +1.0267815853E+002 
5765678.348 +5.1793074727E-001 +1.3161943369E+002  +1.5573699267E-001 +1.1205490035E+002  +1.3372171384E-001 +8.1677444664E+001  +1.4847144434E+000 +1.0343696202E+002 
5890823.529 +5.1932288841E-001 +1.2582296734E+002  +2.0134660189E-001 +8.3367041270E+001  +1.8176471402E-001 +5.7830202026E+001  +1.6971881364E+000 +7.3788992321E+001 
6015968.711 +5.5151848767E-001 +1.1471503669E+002  +2.3854321547E-001 +6.6765397559E+001  +2.4022433624E-001 +3.6115736030E+001  +2.0073178167E+000 +4.8071704180E+001 
6141113.892 +5.7550369233E-001 +1.1014451045E+002  +2.0526043666E-001 +4.9533487834E+001  +1.9783549405E-001 +2.7617333319E+001  +1.4470139218E+000 +3.4487615690E+001 
6266259.074 +6.2474128853E-001 +9.5732539566E+001  +2.0554843468E-001 +4.5477108244E+001  +1.9547431905E-001 +3.1509030199E+001  +1.1821958711E+000 +4.4762075193E+001 
6391404.255 +7.3265067890E-001 +1.0070283637E+002  +1.8546504328E-001 +4.1606236713E+001  +1.9149661447E-001 +2.5997664519E+001  +1.1083682811E+000 +2.0853554477E+001 
6516549.437 +1.0478164512E+000 +7.8803941128E+001  +2.5860162902E-001 +3.5724910928E+001  +2.6850048513E-001 +1.8340911547E+001  +1.2244733775E+000 +1.3444387656E+001 
6641694.618 +1.6044642815E+000 +6.2366456648E+001  +3.3001237049E-001 +2.5109625732E+001  +3.4265545655E-001 +1.2719455552E+001  +1.3907398746E+000 -3.0606903617E+000 
6766839.800 +1.2805262864E+000 +5.9448935995E+001  +2.6103443667E-001 +2.8019227197E+001  +2.5590667623E-001 +1.4442491003E+001  +1.1402400073E+000 +6.4213217120E+000 
6891984.981 +1.6848507351E+000 +4.0717343543E+001  +2.6776121413E-001 +8.4462742161E+000  +2.5660532614E-001 +4.3899651281E+000  +9.6993539927E-001 -4.0251052119E+000 
7017130.163 +1.3579379121E+000 +2.9933884567E+001  +2.1053173732E-001 +5.3669224299E+000  +2.1614490612E-001 -3.1433154043E+000  +1.0629865656E+000 -1.3127863785E+001 
7142275.344 +1.3419254966E+000 +1.5722783995E+001  +1.9482143103E-001 -3.1982793186E+000  +1.8423997778E-001 -5.5040880599E+000  +1.1563502780E+000 -1.9078151907E+001 
7267420.526 +1.3693285286E+000 -1.7465207347E+000  +1.7788309135E-001 -2.5535957893E+000  +1.8053415793E-001 -5.3301514781E-001  +1.1902272752E+000 -1.7291063634E+001 
7392565.707 +1.1811382160E+000 -3.7882201786E+000  +1.4192283082E-001 +3.6061226925E+000  +1.5224054054E-001 +4.1891568749E+000  +1.2157853178E+000 -1.1652731084E+001 
7517710.889 +1.0173264287E+000 +1.6676660759E+000  +1.3976550588E-001 +4.4877164324E+000  +1.3247214075E-001 +2.9773005480E+000  +9.7327469292E-001 -3.3618724133E+000 
7642856.070 +9.0348418501E-001 +1.1076390090E-001  +1.2952963548E-001 +3.3951333420E+000  +1.3373886840E-001 +8.7159571080E+000  +1.0700116479E+000 -6.9766115336E+000 
7768001.252 +7.9786368101E-001 +5.8169529012E+000  +1.0862935699E-001 +2.8773657341E+000  +1.1597368206E-001 +5.5656877638E+000  +8.1178138560E-001 -1.7413582495E+000 
7893146.433 +7.7321344231E-001 +3.3464292394E+000  +1.1607831406E-001 +5.4060155710E+000  +1.1051532755E-001 +6.1461086193E+000  +7.8749626508E-001 +1.3596636977E+000 
8018291.615 +7.6296254750E-001 +9.8782913325E+000  +1.1588943120E-001 -2.2633086534E+000  +1.1243836997E-001 +9.7556665370E+000  +7.7972248113E-001 -6.1350942741E+000 
8143436.796 +6.6839017468E-001 +4.4371195510E+000  +1.1068468530E-001 -4.1483529604E+000  +1.0423265845E-001 +4.7392765794E+000  +6.2015243450E-001 -2.9823164927E+000 
8268581.977 +6.5053903117E-001 +1.0037691995E+001  +1.0098100895E-001 -8.0797087305E-001  +1.0835802436E-001 +9.0801429325E+000  +6.5037986723E-001 +1.8073932268E+000 
8393727.159 +6.4740382501E-001 +1.2136547300E+001  +9.8682379875E-002 -1.3829116252E+000  +9.7106529140E-002 +1.1627959768E+001  +6.4974399699E-001 -9.4650472082E-001 
8518872.340 +5.4223934838E-001 +1.0154014298E+001  +1.0349806009E-001 -1.8681696063E+000  +9.8771026900E-002 +8.8096441628E+000  +6.2571151713E-001 +3.2633869212E-001 
8644017.522 +5.2573492622E-001 +8.6139571569E+000  +1.0418016464E-001 -2.4944937246E+000  +9.8754495672E-002 +9.6257062681E+000  +5.2607286008E-001 -3.8490209388E+000 
8769162.703 +6.2007209693E-001 +6.0548283507E+000  +9.9150276707E-002 -5.4447466244E-001  +9.9295566768E-002 +9.4319686347E+000  +5.7270205329E-001 -3.3684924611E-001 
8894307.885 +5.0752032482E-001 +1.0726765700E+001  +9.9709887154E-002 -2.4120841275E+000  +9.5736154322E-002 +1.0767262903E+001  +5.9478771852E-001 -1.1485876793E+000 
9019453.066 +4.5151874995E-001 +3.8306583109E+000  +9.5364295918E-002 -3.4320535732E+000  +9.6167984477E-002 +8.2401317691E+000  +5.3720942577E-001 +8.1965220199E+000 
9144598.248 +5.1550246550E-001 +6.3607047624E+000  +9.4934962908E-002 -2.4399535271E+000  +9.6364365883E-002 +9.8820290404E+000  +5.3144047297E-001 +5.5387900674E-001 
9269743.429 +4.4793434940E-001 +3.8119071598E+000  +9.4801054392E-002 -6.0293439740E+000  +9.7375663285E-002 +1.3278248452E+001  +5.2009142058E-001 +1.4767492393E+000 
9394888.611 +4.6517716769E-001 +9.3754948525E-001  +9.8958221539E-002 -4.4442809964E+000  +9.7405664413E-002 +1.1874165247E+001  +4.8691008072E-001 -9.5683856790E-001 
9520033.792 +4.1684220440E-001 +7.1773252828E-001  +9.7898840332E-002 -4.9267786515E+000  +9.4665408112E-002 +1.1253214180E+001  +5.1914957398E-001 -5.0051146235E+000 
9645178.974 +4.8541777317E-001 -8.3789693478E-001  +9.6612928728E-002 -3.7507489948E+000  +9.5590397950E-002 +1.1411328780E+001  +5.0583176045E-001 -2.1910972715E+000 
9770324.155 +4.3857451398E-001 +5.8353992641E+000  +1.0088347792E-001 -4.4733224789E+000  +9.6429220768E-002 +1.4820630958E+001  +4.9803562843E-001 -2.7522619445E+000 
9895469.337 +4.1339119039E-001 +7.7188258116E-002  +1.0143637640E-001 -4.1724293566E+000  +9.6441104514E-002 +1.2974657847E+001  +4.6994832582E-001 -6.1359011846E+000 
10020614.518 +4.7821870835E-001 +2.4368722348E+000  +9.9509558289E-002 -2.3103681435E+000  +9.9825715063E-002 +1.2030339205E+001  +4.8673028005E-001 -5.7380869475E+000 
10145759.700 +4.8070108629E-001 +4.8651017910E+000  +9.8457448687E-002 -2.2832158720E+000  +9.7078941759E-002 +1.2085157828E+001  +4.9144293498E-001 +8.4599890355E-001 
10270904.881 +4.4699756617E-001 +1.8475869882E+000  +9.7537487146E-002 -4.5024500951E+000  +9.8014826896E-002 +1.2998977454E+001  +4.6765037107E-001 -8.5706922353E-001 
10396050.063 +4.3327535133E-001 +8.1997514898E+000  +9.9410711489E-002 -3.6703091213E+000  +9.3901187748E-002 +1.0913048001E+001  +4.4582236159E-001 +2.7689158848E+000 
10521195.244 +4.8070541571E-001 +9.8354883473E+000  +9.7278706324E-002 -2.2591288117E+000  +9.6022100129E-002 +1.3364084107E+001  +4.7933427720E-001 +1.9940899765E-001 
10646340.426 +5.0292928686E-001 +8.7697779063E+000  +1.0011847382E-001 -1.4349563115E+000  +1.0018426198E-001 +1.3839868257E+001  +5.1447710729E-001 -8.1142033541E-001 
10771485.607 +4.7640735869E-001 +8.1117113057E+000  +1.0095737355E-001 -1.2083510930E+000  +1.0041167533E-001 +1.5078290003E+001  +5.2280852929E-001 +1.5396342484E+000 
10896630.788 +4.7574338494E-001 +8.0271707125E+000  +1.0398385602E-001 -1.9355576809E+000  +1.0267966133E-001 +1.3884382332E+001  +5.0225509687E-001 -1.0615562122E+000 
11021775.970 +4.9166346287E-001 +1.0419255279E+001  +1.0100777886E-001 -3.8027049114E-001  +9.9890171677E-002 +1.2715556159E+001  +4.7684879927E-001 +3.7563208986E+000 
11146921.151 +4.8834080426E-001 +9.2841287955E+000  +1.0070636914E-001 -5.1123606752E-001  +1.0142934326E-001 +1.2407139266E+001  +5.2402853332E-001 +2.2161781993E+000 
11272066.333 +5.1763861642E-001 +6.3640415501E+000  +1.0398353191E-001 -6.4721099451E-001  +1.0364121971E-001 +1.2506067362E+001  +5.0658640394E-001 +3.6308391591E+000 
11397211.514 +5.5204880043E-001 +5.8415943622E+000  +1.0366682316E-001 +1.6388528261E+000  +1.0531453448E-001 +1.1810826535E+001  +5.5147162844E-001 +5.0737346786E+000 
11522356.696 +5.2857769450E-001 +6.5038211022E+000  +1.0400001938E-001 +4.1735115741E-001  +1.0550746172E-001 +1.1834741956E+001  +5.4897204352E-001 +3.3872814866E+000 
11647501.877 +5.0993247729E-001 +7.8081283595E+000  +1.0481826835E-001 +3.3525126043E-001  +1.0517725713E-001 +1.2426813863E+001  +5.5299759315E-001 +3.5007257382E+000 
11772647.059 +5.3441378047E-001 +5.6890379751E+000  +1.0923844295E-001 +9.5476962001E-001  +1.0810632336E-001 +1.1367912711E+001  +5.3069104183E-001 +4.1025293080E-001 
11897792.240 +5.5030596311E-001 +7.4910953089E+000  +1.0682970375E-001 +2.2887211462E+000  +1.0611737824E-001 +1.0483427735E+001  +5.6036865653E-001 +3.6134102738E+000 
12022937.422 +5.3747410559E-001 +5.7090555208E+000  +1.1079494876E-001 +1.8369749587E+000  +1.0982287478E-001 +1.0892596776E+001  +5.8485729552E-001 +2.6590718418E+000 
12148082.603 +5.8218634468E-001 +6.1848165297E+000  +1.1117328938E-001 +1.3552993131E+000  +1.1022632198E-001 +1.0187705425E+001  +5.8065612179E-001 +1.1937041725E+000 
12273227.785 +5.8818241751E-001 +3.3355558596E+000  +1.1377656874E-001 +2.5889180786E+000  +1.1152193555E-001 +1.0601505399E+001  +5.9500320086E-001 +1.6567953899E+000 
12398372.966 +5.8811614565E-001 +3.9177604046E+000  +1.1241153212E-001 +1.7261405121E+000  +1.1403755995E-001 +9.8504003589E+000  +6.2261806682E-001 +7.3127646870E-001 
12523518.148 +5.9511491421E-001 +2.8155213314E+000  +1.1463189577E-001 +1.3238267579E+000  +1.1260699812E-001 +8.4304898688E+000  +6.1676430521E-001 +3.5262505812E-001 
12648663.329 +6.4175579644E-001 +2.6434946599E+000  +1.1418456926E-001 +1.4017758659E+000  +1.1626297526E-001 +9.0240370421E+000  +6.2672335328E-001 +3.5609314741E-001 
12773808.511 +6.2989960103E-001 -1.0485607310E+000  +1.1705560364E-001 +2.7006243543E+000  +1.1580992880E-001 +8.8682732427E+000  +6.5058504422E-001 +2.0217941558E+000 
12898953.692 +6.4586706898E-001 +1.4400516870E+000  +1.1714576084E-001 +1.9696791874E+000  +1.1720581806E-001 +7.6816957599E+000  +6.6550668665E-001 +8.8683239807E-001 
13024098.874 +6.7940497889E-001 +2.3290474978E+000  +1.1774619338E-001 +2.5867653097E+000  +1.1669974165E-001 +6.9510015497E+000  +6.6099844667E-001 +8.8794801419E-001 
13149244.055 +6.7960915765E-001 +5.6818450034E-001  +1.2355810539E-001 +2.2862084348E+000  +1.2001536412E-001 +6.8629626062E+000  +7.0034132692E-001 -2.5489919653E+000 
13274389.237 +7.0024129922E-001 -1.0842628135E+000  +1.2071662813E-001 +2.2114943528E+000  +1.2255970981E-001 +5.6246468174E+000  +6.9755110161E-001 -2.2688684316E+000 
13399534.418 +7.2621465420E-001 -7.5690023974E-001  +1.2168597422E-001 +2.7851186310E+000  +1.1999105018E-001 +6.5051315021E+000  +7.2099541582E-001 -1.4005734011E+000 
13524679.599 +7.2044027368E-001 -3.6263091914E-001  +1.2560993534E-001 +2.3923475007E+000  +1.2247927609E-001 +5.3950270509E+000  +7.4368149169E-001 -3.1123896148E+000 
13649824.781 +7.3716039384E-001 -2.7617143550E+000  +1.2400128626E-001 +3.4407991125E+000  +1.2176548877E-001 +5.0229507676E+000  +7.6541577781E-001 -2.0014200416E+000 
13774969.962 +7.8971004478E-001 -3.6989103214E+000  +1.2592171218E-001 +2.9650759946E+000  +1.2502889862E-001 +5.1657723614E+000  +7.7847865756E-001 -1.2573176174E+000 
13900115.144 +7.4767787953E-001 -3.0924182304E+000  +1.2692647981E-001 +1.7692877022E+000  +1.2357991294E-001 +2.8563576713E+000  +7.8139118632E-001 -3.1170133873E+000 
14025260.325 +7.9964665159E-001 -3.2069646916E+000  +1.2728897353E-001 +1.6858423973E+000  +1.2533923163E-001 +3.8026485893E+000  +8.1424637041E-001 -4.4023233167E+000 
14150405.507 +8.1329097786E-001 -3.0973298191E+000  +1.2671404119E-001 +2.6689635292E+000  +1.2532318705E-001 +3.3127452968E+000  +8.2379006120E-001 -3.3084298023E+000 
14275550.688 +8.4659083594E-001 -4.4893889778E+000  +1.2873383687E-001 +1.8437316852E+000  +1.2739981804E-001 +3.2097252696E+000  +8.4616149247E-001 -4.3735279763E+000 
14400695.870 +8.4173302887E-001 -6.6939876422E+000  +1.2969039444E-001 +2.0141318124E+000  +1.2727666956E-001 +1.9218839080E+000  +8.6678431278E-001 -5.2969804760E+000 
