!  2-Port S-parameters saved by WinCal
! VAR MeasName=S-Parameters (CALIBRATED_DATA) read from VNA (P5004A)
! VAR MeasDate=28/08/2024 16:50:58
! VAR NAME=S2_r9c9_RESET2_9k-100M_1
! VAR FILENAME=S2_r9c9_RESET2_9k-100M_1.S2P
! VAR DATE=28/08/2024 16:50:58
! VAR PHYS_PORTS=1,2
! VAR ObjTypeName=DATASET
! VAR IndexType=Frequency
!
# Hz S MA R 50
9000.000 +7.8090432942E-002 -1.6200849432E+002  +1.1533039880E-002 +1.7102361046E+002  +5.2988384770E-003 -1.7608293641E+002  +2.9968464648E-001 -1.3587210266E+002 
134145.181 +1.1135008393E-001 +1.6955447327E+002  +3.7946833527E-004 -1.4944964815E+002  +1.2836536291E-004 -3.7907902882E+001  +2.3908107154E-001 -1.7219536453E+002 
259290.363 +1.1149686266E-001 +1.6991177644E+002  +7.6982078359E-004 -5.4064040866E+001  +6.5052303876E-004 +1.0629025471E+002  +2.4328568449E-001 -1.7112198107E+002 
384435.544 +1.1532253198E-001 +1.6975886756E+002  +1.6536915193E-004 -5.7909321784E+001  +4.9635294731E-004 +8.0406286923E+001  +2.4871615197E-001 -1.7042459886E+002 
509580.726 +1.1220757816E-001 +1.7114121478E+002  +1.6105906239E-003 -5.9409679408E+001  +2.2977081574E-003 +1.0234683703E+002  +2.4591396184E-001 -1.6630642863E+002 
634725.907 +1.1785114597E-001 +1.7081187508E+002  +1.1201780570E-003 -1.2633402719E+002  +1.2341009289E-003 +1.0542337139E+002  +2.5212002229E-001 -1.6537425553E+002 
759871.089 +1.2063736424E-001 +1.7078945865E+002  +4.5009070009E-004 -1.0530493047E+002  +1.1132647147E-003 +7.1631098555E+001  +2.5427839000E-001 -1.6567742486E+002 
885016.270 +1.2021405110E-001 +1.6870844638E+002  +6.1697108789E-004 -4.2432949505E+001  +5.9371266405E-004 +1.1250591911E+002  +2.4421746350E-001 -1.6717270738E+002 
1010161.452 +1.1610705158E-001 +1.6940588676E+002  +1.9970427145E-003 -1.7226043460E+001  +2.3474531608E-003 -1.6683973134E+002  +2.0814836010E-001 -1.6823943864E+002 
1135306.633 +1.1589544710E-001 +1.6844108549E+002  +3.1666104728E-003 -3.9694647195E+000  +2.5323253102E-003 -1.6726714508E+002  +1.8171123059E-001 -1.7213715911E+002 
1260451.815 +1.2063957198E-001 +1.7011446009E+002  +2.0416344412E-003 -6.4533113702E+001  +2.2567256722E-003 +1.5170628265E+002  +2.1691770670E-001 -1.5958779195E+002 
1385596.996 +1.2845695984E-001 +1.7252523665E+002  +1.8692835044E-003 -8.0876875678E+001  +2.4393503628E-003 +1.2288862703E+002  +2.7127712221E-001 -1.5785662510E+002 
1510742.178 +1.2830202312E-001 +1.7268866924E+002  +1.7563660480E-003 -6.2084523200E+001  +1.7643118264E-003 +1.4007737427E+002  +2.4424101895E-001 -1.5775162224E+002 
1635887.359 +1.3055071041E-001 +1.7130148967E+002  +1.4662863278E-003 -1.1162772404E+001  +1.2734064791E-003 +1.4075205994E+002  +2.4756777431E-001 -1.5926093412E+002 
1761032.541 +1.2868408348E-001 +1.6943960239E+002  +2.2858658855E-003 +7.2724735648E+001  +3.3454458697E-003 -4.8693020708E+001  +2.2110047083E-001 -1.6276151106E+002 
1886177.722 +1.2661741343E-001 +1.6852088777E+002  +4.2214553490E-003 +7.1670340119E+001  +4.7496237556E-003 -8.6395753625E+001  +2.1489558034E-001 -1.6403061793E+002 
2011322.904 +1.2990308870E-001 +1.6578371915E+002  +6.1962857833E-003 +7.8558654731E+001  +8.3020925009E-003 -7.2610355814E+001  +1.9673639860E-001 -1.6240703373E+002 
2136468.085 +1.3489949784E-001 +1.6669613039E+002  +5.1704127724E-003 +6.4419635522E+001  +6.3232083412E-003 -7.0275045717E+001  +2.2432116349E-001 -1.6259614176E+002 
2261613.267 +1.3283033694E-001 +1.6579282181E+002  +1.2161730929E-002 +7.5945619157E+001  +1.2626421959E-002 -4.9354686834E+001  +1.8051071542E-001 -1.6775573789E+002 
2386758.448 +1.3655113022E-001 +1.6751217371E+002  +1.8671641226E-002 +5.9534031396E+001  +1.7641471684E-002 -5.6642418554E+001  +1.5562630759E-001 +1.7915428103E+002 
2511903.630 +1.3971897807E-001 +1.6162411996E+002  +1.2951788801E-002 +9.7719617598E+001  +1.1287367060E-002 -1.5985908958E+001  +2.4193243496E-001 -1.7284619335E+002 
2637048.811 +1.3200507893E-001 +1.6868697748E+002  +3.3152813548E-002 +4.8228008505E+001  +3.1337060184E-002 -5.8867472433E+001  +1.0088048275E-001 -1.7756425540E+002 
2762193.992 +1.0064095582E-001 +1.7155273789E+002  +7.0196776303E-002 +3.7497671851E+001  +6.5734601671E-002 -6.6891028758E+001  +4.8280729896E-002 -1.7140220211E+002 
2887339.174 +1.3947193866E-001 +1.7379198278E+002  +7.8272072806E-002 +9.3342431696E+000  +7.4537738963E-002 -9.2613506580E+001  +2.3925741648E-001 +5.0302223629E+000 
3012484.355 +8.5995193907E-002 +1.6711641471E+002  +7.0249373041E-002 +3.0382953496E+001  +5.9356064216E-002 -7.2340001418E+001  +9.8027554428E-002 -1.6416925042E+002 
3137629.537 +1.4249351465E-001 +1.6562003663E+002  +4.4014929300E-002 +3.4647344017E+001  +4.6322130162E-002 -5.6307995702E+001  +3.3223781165E-002 +1.6035548927E+002 
3262774.718 +1.4810067117E-001 +1.7264833679E+002  +3.0499905916E-002 -5.7336053780E+000  +3.1701705491E-002 -9.9141285870E+001  +1.4413637607E-001 -1.2966562984E+002 
3387919.900 +1.3565019143E-001 +1.6170682312E+002  +4.1861160363E-002 +2.5528618266E+001  +4.4324029330E-002 -6.8845921413E+001  +1.5683735657E-001 -1.2522611822E+002 
3513065.081 +1.6242964038E-001 +1.4553274726E+002  +5.3221926703E-002 +1.0781665958E+002  +5.8869058674E-002 +2.8790114034E+001  +3.1673615890E-001 +1.4701559798E+002 
3638210.263 +1.7111217434E-001 +1.4802978387E+002  +9.0713973362E-002 +1.2684239663E+002  +9.7321122149E-002 +4.2237355090E+001  +6.3802224100E-001 +1.3340952235E+002 
3763355.444 +1.7280712550E-001 +1.4198919229E+002  +9.7087734080E-002 +1.0514758416E+002  +9.5554115306E-002 +3.3618625895E+001  +4.5356562210E-001 +1.2937377665E+002 
3888500.626 +2.1094185035E-001 +1.4053629620E+002  +8.7484900200E-002 +1.1358424366E+002  +8.8438291110E-002 +3.4545326034E+001  +3.3254932637E-001 +1.2196365387E+002 
4013645.807 +1.6241787237E-001 +1.4264150779E+002  +6.6387846919E-002 +8.3891978375E+001  +5.9130846578E-002 +1.6590087065E+001  +2.7599771405E-001 +1.5632403369E+002 
4138790.989 +1.9725828059E-001 +1.4942685490E+002  +6.8544983912E-002 +9.4892623656E+001  +6.9943879087E-002 +2.9345533897E+001  +3.4448448484E-001 +1.2560552956E+002 
4263936.170 +2.0763828345E-001 +1.5208698280E+002  +4.2872336196E-002 +1.0628014114E+002  +4.5509163928E-002 +4.1141750402E+001  +3.9985506158E-001 +1.5897775081E+002 
4389081.352 +2.1405478095E-001 +1.3562764450E+002  +7.9165252693E-002 +9.4986777766E+001  +8.3751020225E-002 +3.2701450052E+001  +2.9733675000E-001 +1.5170147293E+002 
4514226.533 +2.1254856679E-001 +1.4404872158E+002  +1.0221163576E-001 +9.7593552618E+001  +9.8199375308E-002 +3.5941306171E+001  +5.3010091065E-001 +1.2578854846E+002 
4639371.715 +2.6068893195E-001 +1.3463174473E+002  +1.1431382089E-001 +1.2900134628E+002  +1.1443023063E-001 +7.7478228271E+001  +6.9378894794E-001 +1.4990451329E+002 
4764516.896 +2.6132330722E-001 +1.2543507130E+002  +3.3588104869E-001 +5.3169822992E+001  +3.0772901301E-001 +1.5176787793E+000  +1.2966399109E+000 +1.2157365060E+001 
4889662.078 +3.9065416514E-001 +1.2413015099E+002  +3.2957522118E-001 +9.6876581587E+001  +3.2754497013E-001 +4.9474627174E+001  +9.1785616769E-001 +6.5562122522E+001 
5014807.259 +4.5119855304E-001 +1.3797546524E+002  +3.5099117047E-001 +1.6589092131E+002  +3.6440852957E-001 +1.2286294458E+002  +1.7775877649E+000 +1.4071294653E+002 
5139952.441 +3.2449768899E-001 +1.1474058020E+002  +4.5903675116E-001 +9.7717449481E+001  +4.7148804748E-001 +5.6998330001E+001  +2.1706337065E+000 +9.4158709606E+001 
5265097.622 +3.3941880476E-001 +1.3058806168E+002  +2.0734378990E-001 +1.2311430121E+002  +2.2325079636E-001 +8.1444865644E+001  +1.2609861963E+000 +1.3190416195E+002 
5390242.804 +4.0542102817E-001 +1.2627505871E+002  +2.4069066659E-001 +1.1638313640E+002  +2.2820246315E-001 +7.7794869497E+001  +1.1304262912E+000 +1.1891649401E+002 
5515387.985 +3.8773363489E-001 +1.3046744652E+002  +1.7388442795E-001 +1.0955507409E+002  +1.6661343521E-001 +7.5803958246E+001  +9.3685722655E-001 +1.3188987780E+002 
5640533.166 +4.6956780559E-001 +1.2505735399E+002  +2.8980392739E-001 +1.1127706213E+002  +2.8154062460E-001 +8.2004105567E+001  +1.4374339722E+000 +1.1365055799E+002 
5765678.348 +4.3605395641E-001 +1.2850420036E+002  +3.1299114910E-001 +9.5984837760E+001  +2.8838192518E-001 +7.0787074920E+001  +1.7857283432E+000 +1.0173511425E+002 
5890823.529 +4.1970430918E-001 +1.1608920764E+002  +2.5036210209E-001 +7.4432019365E+001  +2.4594587829E-001 +5.3555771376E+001  +1.0097739766E+000 +1.0074548173E+002 
6015968.711 +5.0034608830E-001 +1.1558946080E+002  +3.7604237449E-001 +7.3036729414E+001  +3.6364876718E-001 +5.2606492097E+001  +1.7547687467E+000 +7.4684107105E+001 
6141113.892 +6.6005595881E-001 +1.1232194495E+002  +4.3514934651E-001 +7.8874371802E+001  +4.4021187101E-001 +5.8063653444E+001  +1.9478673453E+000 +7.1682093852E+001 
6266259.074 +6.3111319508E-001 +8.7733222112E+001  +4.3982330203E-001 +5.1884904145E+001  +4.3300081305E-001 +3.6493845627E+001  +1.3699765809E+000 +6.1405365461E+001 
6391404.255 +6.6736829717E-001 +8.6001631687E+001  +3.8588229628E-001 +3.5415768459E+001  +4.0113107495E-001 +1.8623868167E+001  +1.0850211421E+000 +2.6554367486E+001 
6516549.437 +5.5107071357E-001 +8.4459847597E+001  +3.5111068326E-001 +2.7233883169E+001  +3.5215482079E-001 +1.5451944935E+001  +1.0429666870E+000 +3.5096748676E+001 
6641694.618 +9.8214202658E-001 +6.4225836485E+001  +4.7188837216E-001 +2.5841290764E+001  +4.6546163114E-001 +1.3901234688E+001  +1.1095811020E+000 +1.4618474955E+001 
6766839.800 +9.0778750426E-001 +4.8302005917E+001  +4.1817184818E-001 +1.2317438151E+001  +4.3654402810E-001 +3.7510429675E+000  +1.0486936678E+000 +8.7459045845E+000 
6891984.981 +9.7143183510E-001 +3.1131972890E+001  +4.0235867684E-001 +6.9332437670E+000  +4.0273636860E-001 +2.6911937973E+000  +8.3536587424E-001 +2.5577627411E+000 
7017130.163 +9.5765328173E-001 +9.5615768320E+000  +3.9330927700E-001 -1.7219194581E+000  +3.8605037735E-001 -8.6746512810E+000  +1.0304720447E+000 +6.1369979915E+000 
7142275.344 +9.4920750566E-001 +8.8387808106E+000  +3.6209761274E-001 -5.1385140204E+000  +3.4082730022E-001 -5.2244505502E+000  +9.8234741159E-001 -9.2060166307E+000 
7267420.526 +1.0755003093E+000 -1.3530366766E+000  +3.2886252703E-001 -2.2528465127E-001  +3.0719590254E-001 -2.4163170941E+000  +9.2915591453E-001 -1.6815076290E+001 
7392565.707 +9.4388101592E-001 -2.6502373308E+000  +2.6691763809E-001 +2.4508778196E+000  +2.6407814308E-001 +3.9288424024E+000  +9.7204564973E-001 -3.9757929972E+000 
7517710.889 +8.6743783663E-001 +1.1442121427E+001  +2.3964474400E-001 +5.5948576078E+000  +2.4422523525E-001 +5.9797231099E+000  +9.9291070963E-001 -9.3705937077E+000 
7642856.070 +7.6218913141E-001 +4.5511283250E+000  +2.3344295490E-001 +2.3229270609E+000  +2.3767496893E-001 +5.5039744231E+000  +9.1605785490E-001 -1.0619874669E+001 
7768001.252 +6.8455025330E-001 +7.0704715242E-001  +2.3193500640E-001 -1.9894337193E+000  +2.2809485728E-001 +2.8148317281E+000  +6.9395766672E-001 -3.8327448063E+000 
7893146.433 +5.7732632419E-001 +1.1278588653E+001  +2.1718075335E-001 +9.6137471467E-001  +2.1505489000E-001 +7.4878800196E+000  +7.0599870758E-001 +8.2094262722E-001 
8018291.615 +6.0733436172E-001 +6.6251654068E+000  +2.1218898861E-001 +6.4342031393E-002  +2.1174108598E-001 +5.4474613174E+000  +5.9616816107E-001 -3.2104981178E+000 
8143436.796 +5.6180792519E-001 +1.5200819077E+001  +2.0927214715E-001 -4.1929788988E-001  +2.0610005029E-001 +7.6925024522E+000  +7.2768215296E-001 +4.4950318119E+000 
8268581.977 +5.0317872964E-001 +2.6038460073E+001  +1.9597908038E-001 -2.6728742823E+000  +1.9503600705E-001 +8.8156762135E+000  +5.8815810504E-001 +1.8070988460E+000 
8393727.159 +4.0355154735E-001 +1.4152317536E+001  +1.9874833693E-001 -4.7636527498E+000  +1.9520834794E-001 +6.1343265685E+000  +4.5944607182E-001 +4.5425356814E+000 
8518872.340 +4.9076872901E-001 +1.8825403242E+001  +1.9070265218E-001 -1.3444887050E+000  +1.8444182650E-001 +8.3730802647E+000  +4.9500840908E-001 +1.0913257150E+001 
8644017.522 +4.5038263955E-001 +1.4626386268E+001  +1.9247201395E-001 -4.0099124594E+000  +1.9074757035E-001 +7.5060221563E+000  +5.2728238803E-001 +6.9034802038E+000 
8769162.703 +4.5061675822E-001 +4.8466322587E+000  +1.8959838320E-001 -3.1005909717E+000  +1.8964109642E-001 +7.8158746014E+000  +4.3132305508E-001 +1.1724202650E+001 
8894307.885 +4.3458203720E-001 +8.9830530099E+000  +1.9142143913E-001 -5.0226260580E+000  +1.8690591331E-001 +1.0068883395E+001  +4.3792137846E-001 +3.3875371327E+000 
9019453.066 +3.6675679425E-001 +2.1206246322E+001  +1.8323263168E-001 -5.1191791549E+000  +1.8303534859E-001 +1.0166924106E+001  +4.3114937802E-001 +5.0394822745E+000 
9144598.248 +3.6891385974E-001 +1.4145960409E+001  +1.8345423775E-001 -6.5773237628E+000  +1.8155401332E-001 +9.5696657477E+000  +4.0385437161E-001 +1.4372656374E+001 
9269743.429 +3.9996614497E-001 +1.3140280877E+001  +1.8507628988E-001 -4.6077243684E+000  +1.8569454509E-001 +9.4962543845E+000  +4.0247675655E-001 +9.1422579381E+000 
9394888.611 +3.5390869460E-001 +6.3185420994E+000  +1.8676584013E-001 -5.9776877980E+000  +1.8407856904E-001 +9.7248606859E+000  +3.9287312325E-001 +6.5534032579E+000 
9520033.792 +3.5405997305E-001 +3.0327901495E+000  +1.8796803022E-001 -5.4814462104E+000  +1.8614373848E-001 +1.0861486732E+001  +4.2836622277E-001 +2.6119837898E+000 
9645178.974 +3.5599414893E-001 +9.3175431636E+000  +1.8745745716E-001 -6.2543240627E+000  +1.8365763611E-001 +9.5638538050E+000  +3.5982922104E-001 -2.2550246962E+000 
9770324.155 +3.6320147563E-001 +8.5902486441E+000  +1.8723527942E-001 -5.4591460454E+000  +1.8688214074E-001 +1.1097889788E+001  +3.6299405418E-001 +5.3867854602E-001 
9895469.337 +3.2443050259E-001 +4.9793293618E+000  +1.8858376080E-001 -4.3612744987E+000  +1.8464645875E-001 +1.0599998318E+001  +3.9827119958E-001 -5.3766127169E-002 
10020614.518 +3.5536281787E-001 +9.4620500701E+000  +1.8482531691E-001 -5.0149404622E+000  +1.8885352378E-001 +1.1337673289E+001  +3.8007945106E-001 +9.7700499476E-001 
10145759.700 +3.4860580091E-001 +6.1495380486E+000  +1.8811252586E-001 -4.8654934161E+000  +1.8717405101E-001 +1.1358789206E+001  +3.8864311864E-001 +7.3010704976E+000 
10270904.881 +3.5063414967E-001 +8.4044722951E+000  +1.9196434803E-001 -3.8393053041E+000  +1.8922131869E-001 +1.1729203001E+001  +4.1955466369E-001 +3.8880079599E+000 
10396050.063 +3.7044406809E-001 +1.3948347310E+001  +1.9128187791E-001 -3.6934183819E+000  +1.8704065403E-001 +1.1819302819E+001  +3.9045756195E-001 +1.2110827080E+000 
10521195.244 +3.7983313991E-001 +1.0652337974E+001  +1.8973406766E-001 -2.0948717046E+000  +1.8912574660E-001 +1.1778360073E+001  +3.8492453352E-001 +8.3695893485E+000 
10646340.426 +3.5881571144E-001 +1.4795429857E+001  +1.9004869549E-001 -3.8769109450E+000  +1.8764971235E-001 +1.2184969564E+001  +3.6797559837E-001 +8.4395005334E+000 
10771485.607 +3.8907615738E-001 +1.0433284642E+001  +1.9148976783E-001 -2.8341881966E+000  +1.9153419905E-001 +1.1569969641E+001  +3.8830425138E-001 +9.3343161966E+000 
10896630.788 +3.9243048722E-001 +1.1597022807E+001  +1.9495150621E-001 -2.2946913721E+000  +1.9551880546E-001 +1.2014370242E+001  +4.0439576017E-001 +4.5721571761E+000 
11021775.970 +3.6460298102E-001 +1.1536725121E+001  +1.9720356828E-001 -2.9468817508E+000  +1.9418854929E-001 +1.1084235755E+001  +3.9847272737E-001 +7.4801880961E+000 
11146921.151 +4.0258635376E-001 +1.1635332135E+001  +1.9653292588E-001 -1.9871312749E+000  +1.9480135353E-001 +1.1548050434E+001  +3.9719729218E-001 +6.9115609090E+000 
11272066.333 +4.1798677070E-001 +1.0170665175E+001  +2.0004019388E-001 -1.2838780473E+000  +1.9611065102E-001 +1.1557589596E+001  +4.5269174511E-001 +8.7710976841E+000 
11397211.514 +4.4212284927E-001 +7.6605307016E+000  +2.0017601894E-001 -1.1083186089E+000  +2.0089415592E-001 +1.1199107457E+001  +4.0875614847E-001 +6.3318739303E+000 
11522356.696 +4.3317920292E-001 +1.0946462193E+001  +2.0222228705E-001 -9.1908329288E-001  +1.9790663599E-001 +1.0818755871E+001  +4.1782085780E-001 +8.1963591009E+000 
11647501.877 +4.5134907575E-001 +1.5204631263E+001  +2.0287030609E-001 -2.9307788046E-002  +2.0050740108E-001 +1.0946907342E+001  +4.3247651524E-001 +5.6989944188E+000 
11772647.059 +4.5823349447E-001 +8.5978414782E+000  +2.0820733248E-001 +4.6469870873E-001  +2.0664139687E-001 +1.1170769233E+001  +4.3041085487E-001 +7.4840811998E+000 
11897792.240 +4.4559005053E-001 +1.1522483513E+001  +2.0686687495E-001 -4.2890927055E-001  +2.0904253725E-001 +9.9853396084E+000  +4.2154216176E-001 +4.9026288969E+000 
12022937.422 +4.7293711765E-001 +7.4098581084E+000  +2.1058119554E-001 +6.9404975767E-001  +2.1104703595E-001 +9.8672716489E+000  +4.5782252956E-001 +7.1044753555E+000 
12148082.603 +4.8480670421E-001 +9.4828442935E+000  +2.1343673317E-001 +9.5189357100E-001  +2.1088177103E-001 +9.9702732492E+000  +4.8747962924E-001 +4.8100532759E+000 
12273227.785 +4.7679127239E-001 +1.2501107542E+001  +2.1573393788E-001 +1.4879117920E+000  +2.1109761716E-001 +9.4673522022E+000  +5.1128231963E-001 +4.7229139685E+000 
12398372.966 +4.9696342897E-001 +3.4503870308E+000  +2.2074464465E-001 +1.6456978273E+000  +2.1861644405E-001 +8.7043328635E+000  +5.3033415366E-001 +1.6894373706E+000 
12523518.148 +5.0728134154E-001 +5.0437291723E+000  +2.2116708751E-001 +1.5487463900E+000  +2.1939144493E-001 +8.5473645720E+000  +5.2251958402E-001 +2.8578730671E+000 
12648663.329 +5.0681864247E-001 +6.7739719657E+000  +2.2332108834E-001 +1.3132577191E+000  +2.1936619285E-001 +8.2595896845E+000  +5.1800854408E-001 +3.8383407019E+000 
12773808.511 +5.2282434528E-001 +4.1295585817E+000  +2.2666983827E-001 +1.5522891130E+000  +2.2211302310E-001 +8.3122042005E+000  +5.3843908594E-001 +2.5037703164E+000 
12898953.692 +5.5813122129E-001 +4.1437413337E+000  +2.2762646919E-001 +1.7574776238E+000  +2.2248150121E-001 +7.1270516556E+000  +5.5454277556E-001 +2.6850122163E+000 
13024098.874 +5.7643426186E-001 +1.7475724568E+000  +2.3204678962E-001 +2.1155984975E+000  +2.2915035191E-001 +7.0938839370E+000  +5.6081228139E-001 +1.3923161463E-001 
13149244.055 +5.5672204513E-001 +4.8103580128E+000  +2.3273627131E-001 +2.1148822832E+000  +2.3026882924E-001 +6.5288217209E+000  +5.8244836063E-001 -2.5384588843E+000 
13274389.237 +5.8654240300E-001 +6.2078225749E-001  +2.3678794403E-001 +2.0939622107E+000  +2.3304135487E-001 +5.8578724183E+000  +5.8805104324E-001 -2.1097083697E+000 
13399534.418 +6.0911149661E-001 +1.0056745671E+000  +2.3689352001E-001 +2.6867031550E+000  +2.3311535815E-001 +6.0424846070E+000  +6.1181782953E-001 -1.5769672250E-001 
13524679.599 +6.2905592289E-001 -1.4140780691E+000  +2.4171798508E-001 +2.1186154520E+000  +2.3619420688E-001 +5.2030558218E+000  +6.1473583762E-001 -3.2539500712E+000 
13649824.781 +6.3570188730E-001 -2.0076600066E+000  +2.4200368820E-001 +2.4614592770E+000  +2.3891675314E-001 +4.6201080623E+000  +6.3726620758E-001 -2.3075519211E+000 
13774969.962 +6.4781405520E-001 -1.2612271815E-001  +2.4240435848E-001 +2.5773766973E+000  +2.3776877707E-001 +4.2536032608E+000  +6.4811527748E-001 -1.5282972740E+000 
13900115.144 +6.4312145121E-001 -3.7582511951E+000  +2.4496436784E-001 +1.6276000398E+000  +2.4146788272E-001 +2.8615135594E+000  +6.5042531320E-001 -2.8534632796E+000 
14025260.325 +6.8289784006E-001 -3.9257274828E+000  +2.4860744746E-001 +2.1582781388E+000  +2.4447009792E-001 +3.1753529512E+000  +6.7444350232E-001 -2.3938120105E+000 
14150405.507 +6.8208764600E-001 -4.9901482112E+000  +2.4895818983E-001 +1.2278610946E+000  +2.4538113260E-001 +2.6084366412E+000  +6.9186397605E-001 -2.5879159952E+000 
14275550.688 +7.2786748527E-001 -4.1959310452E+000  +2.5186725027E-001 +2.1474928254E+000  +2.4616864687E-001 +2.8146240854E+000  +7.2842990601E-001 -4.4343615946E+000 
14400695.870 +7.1967606117E-001 -3.8030277687E+000  +2.5072464928E-001 +1.7525250218E+000  +2.4709957393E-001 +2.3103684828E+000  +7.3958985410E-001 -4.6038113630E+000 
