!  2-Port S-parameters saved by WinCal
! VAR MeasName=S-Parameters (CALIBRATED_DATA) read from VNA (P5004A)
! VAR MeasDate=29/08/2024 12:38:31
! VAR NAME=S2_r9c5_SET3_9k-100M_1
! VAR FILENAME=S2_r9c5_SET3_9k-100M_1.S2P
! VAR DATE=29/08/2024 12:38:31
! VAR PHYS_PORTS=1,2
! VAR ObjTypeName=DATASET
! VAR IndexType=Frequency
!
# Hz S MA R 50
9000.000 +8.5990391336E-002 -1.6704667524E+002  +4.1439118058E-003 -5.3704921955E+001  +2.7702113625E-003 +6.9296234757E+001  +2.5793455041E-001 -1.5910974283E+002 
134145.181 +1.1051605036E-001 +1.6937081881E+002  +1.6474164301E-004 -1.2385444344E+002  +9.7921867155E-006 +9.4256626348E+000  +2.4228430728E-001 -1.7095232207E+002 
259290.363 +1.1108311378E-001 +1.7017168749E+002  +9.9244199941E-004 -5.5200903869E+001  +1.0457272569E-003 +1.3653552707E+002  +2.4096398870E-001 -1.6765241163E+002 
384435.544 +1.1381164215E-001 +1.6962218570E+002  +2.4288041469E-004 +1.2930598320E+002  +6.4639751367E-004 +1.2457800319E+002  +2.4605668846E-001 -1.6965793210E+002 
509580.726 +1.1266727153E-001 +1.7155906680E+002  +5.3161669656E-004 -6.4757544335E+001  +1.2497146980E-003 +4.3002979488E+001  +2.3673550654E-001 -1.6482309577E+002 
634725.907 +1.1549984983E-001 +1.7124892907E+002  +4.1675507570E-004 -7.5949986999E+001  +1.0998038376E-003 +3.5071677787E+001  +2.5525158023E-001 -1.6531720003E+002 
759871.089 +1.1931000803E-001 +1.7118819300E+002  +9.9803293124E-004 -1.3533200399E+002  +1.0704494637E-003 +4.0587025875E+001  +2.4632973529E-001 -1.6797597347E+002 
885016.270 +1.1997435265E-001 +1.6919500312E+002  +6.9225184927E-004 -6.6909793360E+001  +1.1555302041E-003 +1.3773785794E+002  +2.4246089089E-001 -1.6733858197E+002 
1010161.452 +1.1852572971E-001 +1.6913061682E+002  +1.7578781600E-003 +4.6105523864E+000  +2.0198695053E-003 -1.5788385095E+002  +2.0869660458E-001 -1.7007347261E+002 
1135306.633 +1.1916890599E-001 +1.6899321855E+002  +1.8269141957E-003 -6.6702979778E+000  +3.4541278596E-003 -1.7242303054E+002  +1.9819812307E-001 -1.6851510474E+002 
1260451.815 +1.2165045972E-001 +1.7127395020E+002  +2.0618050560E-003 -6.8785065766E+001  +2.4104625658E-003 +1.3837988691E+002  +2.2742490171E-001 -1.5970524185E+002 
1385596.996 +1.2664876599E-001 +1.7279281499E+002  +8.5994083070E-004 -7.0526224837E+001  +2.1229518712E-003 +6.5393617116E+001  +2.7016776044E-001 -1.5994460383E+002 
1510742.178 +1.2729798677E-001 +1.7303396211E+002  +1.6622323013E-003 -1.1498180715E+002  +1.4376407404E-003 +1.7273776289E+002  +2.5779224981E-001 -1.6038946282E+002 
1635887.359 +1.2669020168E-001 +1.7115821563E+002  +2.0320913050E-003 -3.0215395896E+001  +1.5483275079E-003 -1.4123615719E+002  +2.4200872737E-001 -1.5845294708E+002 
1761032.541 +1.2882431318E-001 +1.6995322198E+002  +1.6907338776E-003 +3.5359227613E+001  +1.7038929448E-003 -1.0349765238E+002  +2.3040038681E-001 -1.6434781614E+002 
1886177.722 +1.2999814905E-001 +1.6893872473E+002  +3.7993622582E-003 +6.0832787047E+001  +3.8068424299E-004 -1.3993567952E+000  +2.0226191601E-001 -1.6532167289E+002 
2011322.904 +1.3079528083E-001 +1.6599881889E+002  +4.4920554345E-003 +8.2795587200E+001  +5.5460919836E-003 -4.0841656616E+001  +1.8720082853E-001 -1.6635767306E+002 
2136468.085 +1.3115697113E-001 +1.6616388237E+002  +8.8641501390E-003 +4.7273659889E+001  +1.0385688208E-002 -5.5819259438E+001  +1.6448198207E-001 -1.6592722881E+002 
2261613.267 +1.3178759212E-001 +1.6644886677E+002  +1.0048615445E-002 +5.1928092107E+001  +1.2442080904E-002 -4.4406103706E+001  +1.7574871545E-001 -1.7054188821E+002 
2386758.448 +1.3546212068E-001 +1.6689799453E+002  +1.6535993399E-002 +9.5586039187E+001  +1.1216436232E-002 -2.8645303118E+001  +1.9634324201E-001 +1.6757535588E+002 
2511903.630 +1.4147190413E-001 +1.6402088773E+002  +9.4593319212E-003 +9.2428524041E+001  +9.5802538226E-003 -2.0995612128E+001  +2.2198396604E-001 -1.7308582428E+002 
2637048.811 +1.3590239944E-001 +1.6227261613E+002  +3.0542267015E-002 +8.9842761200E+001  +2.4558085857E-002 -1.1206660366E+001  +1.8859166560E-001 +1.5839498880E+002 
2762193.992 +1.0839469917E-001 -1.7910870759E+002  +6.6091163779E-002 +1.3658028007E+001  +8.8488988758E-002 -1.0183282649E+002  +6.5648331032E-002 -7.0514395642E+001 
2887339.174 +1.3177260901E-001 +1.7981102896E+002  +1.0162730604E-001 -4.5737084192E+001  +1.2310039924E-001 -1.3317544647E+002  +4.8130340395E-001 -5.2214701073E+001 
3012484.355 +1.2220949542E-001 +1.7402064682E+002  +3.8905982271E-002 -7.0000450088E+000  +3.7226920087E-002 -9.8816968245E+001  +1.2990767508E-001 -1.2421648255E+002 
3137629.537 +1.3682018754E-001 +1.6277789635E+002  +6.3076848219E-002 +5.8351188001E+001  +6.7702499621E-002 -2.9785435294E+001  +2.4433785839E-001 +7.6903887140E+001 
3262774.718 +1.2514809136E-001 +1.6151370972E+002  +6.8476663406E-002 +7.1138694117E+001  +6.9817703371E-002 -2.4508122507E+001  +2.8686677262E-001 +9.5248653852E+001 
3387919.900 +1.0832280304E-001 +1.7409848131E+002  +1.2972335114E-001 +9.8333877290E+000  +1.3573475104E-001 -7.4469065506E+001  +4.1368263704E-001 +7.6427676393E-001 
3513065.081 +1.5671887846E-001 +1.4282175628E+002  +5.9176974552E-002 +6.9043411008E+001  +6.2158193294E-002 -1.8230544402E+001  +7.2796481071E-002 +1.0068663999E+002 
3638210.263 +1.7410725506E-001 +1.4779111616E+002  +1.8509204184E-001 +1.4316544761E+002  +1.3909321717E-001 +6.2415526734E+001  +1.4848419307E+000 +1.3367326808E+002 
3763355.444 +1.8265515539E-001 +1.4996999697E+002  +4.3778919895E-002 +8.9282545288E+001  +4.1359809162E-002 +1.0610234509E+001  +1.8871528496E-001 +1.5561812634E+002 
3888500.626 +2.0615933489E-001 +1.4289887145E+002  +7.7846498880E-002 +1.1195471435E+002  +6.8591933755E-002 +4.5191300080E+001  +4.3630153779E-001 +1.1986099307E+002 
4013645.807 +2.0983305632E-001 +1.4632187809E+002  +5.7063080963E-002 +1.0263016086E+002  +5.6040624076E-002 +3.8944835002E+001  +3.1824609922E-001 +1.3050960008E+002 
4138790.989 +1.5717821400E-001 +1.5286610308E+002  +1.1401933159E-001 +5.9048044089E+001  +1.2171368689E-001 -1.0830703418E+001  +5.5948639671E-001 +6.9224469627E+001 
4263936.170 +1.8430737218E-001 +1.4698724637E+002  +1.0073045081E-001 +6.1260908563E+001  +8.3952958628E-002 -8.7413968509E-001  +3.1785985369E-001 +6.9972483502E+001 
4389081.352 +2.0922127083E-001 +1.4169908792E+002  +8.5399788849E-002 +9.4311462671E+001  +8.4287446696E-002 +3.3319871410E+001  +3.6941813699E-001 +1.2256596915E+002 
4514226.533 +2.5368472907E-001 +1.3850043598E+002  +1.9670905055E-001 +1.0968029367E+002  +1.9474847861E-001 +4.6460547405E+001  +1.2285985734E+000 +9.5764254377E+001 
4639371.715 +2.8521294633E-001 +1.2925120434E+002  +2.1896041497E-001 +9.9115933824E+001  +2.2790434791E-001 +4.9533834327E+001  +1.0008682876E+000 +8.4689463930E+001 
4764516.896 +3.6806617204E-001 +1.2735196954E+002  +8.3618255137E-001 +1.3393382452E+002  +9.0630365170E-001 +9.2749179328E+001  +6.0157019480E+000 +1.2198801890E+002 
4889662.078 +3.1974871533E-001 +1.4130826579E+002  +2.1876134845E-001 -6.3051286018E+001  +1.9777936387E-001 -1.1212596761E+002  +2.1169766050E+000 -1.2676373391E+002 
5014807.259 +7.6929824090E-001 +1.4880970078E+002  +2.7191424673E+000 +1.7605151214E+002  +2.6456818291E+000 +1.2922604693E+002  +1.5173846461E+001 +1.4439895278E+002 
5139952.441 +3.9709288478E-001 +1.3523640773E+002  +2.1684693013E-001 +1.3572098071E+002  +2.0206816523E-001 +9.2063436989E+001  +1.3726693686E+000 +1.2100553913E+002 
5265097.622 +3.6745200963E-001 +1.3465833777E+002  +1.9956843541E-001 +7.4463981158E+001  +1.9337142858E-001 +3.5051206017E+001  +9.0990599126E-001 +5.1046573061E+001 
5390242.804 +3.9254664064E-001 +1.3251438741E+002  +2.0324990716E-001 +1.0271672174E+002  +2.0446623389E-001 +6.1637237829E+001  +1.1212526885E+000 +9.2833235024E+001 
5515387.985 +4.2112188467E-001 +1.3271606828E+002  +2.7286773743E-001 +1.1851701012E+002  +2.5545483433E-001 +8.6400884721E+001  +1.9263182666E+000 +1.0770590715E+002 
5640533.166 +4.1134979803E-001 +1.2962269563E+002  +1.9189540434E-001 +9.6907569044E+001  +1.9882832623E-001 +6.9922065339E+001  +1.2584795171E+000 +1.0814920435E+002 
5765678.348 +3.8707011608E-001 +1.1641150463E+002  +2.9803270467E-001 +8.4508037425E+001  +2.5676184375E-001 +5.3206835048E+001  +1.5838028197E+000 +9.7638300513E+001 
5890823.529 +5.8331769395E-001 +1.2318882039E+002  +3.1842196520E-001 +7.9934094431E+001  +2.9984677592E-001 +5.8885810182E+001  +1.6298047373E+000 +6.5582460214E+001 
6015968.711 +5.5408541036E-001 +1.1211277457E+002  +4.7091734661E-001 +6.9071832163E+001  +4.8052720886E-001 +4.3663595011E+001  +2.7974741660E+000 +5.6899431217E+001 
6141113.892 +5.9863624001E-001 +1.0220032876E+002  +3.0238943661E-001 +5.4479916576E+001  +3.1167525423E-001 +3.7121986856E+001  +1.0674738960E+000 +5.6640326531E+001 
6266259.074 +7.2369703521E-001 +1.0073467926E+002  +3.6009259392E-001 +5.5400953492E+001  +3.5553988006E-001 +3.9585695621E+001  +1.3751488897E+000 +4.4256038854E+001 
6391404.255 +6.1288124554E-001 +1.0154981099E+002  +2.7059495592E-001 +3.2084459013E+001  +2.7583835710E-001 +1.7046681940E+001  +1.2554397799E+000 +1.1937798459E+001 
6516549.437 +8.6855410868E-001 +7.7700852036E+001  +4.0013145028E-001 +3.4956732524E+001  +3.6124460321E-001 +2.2778458804E+001  +1.3710174823E+000 +3.1033157710E+001 
6641694.618 +1.0556804751E+000 +7.0878719737E+001  +3.8957080273E-001 +3.2529136633E+001  +3.8584113738E-001 +2.1057363666E+001  +1.0456668710E+000 +1.8314607741E+001 
6766839.800 +8.8287258784E-001 +6.3206351264E+001  +2.9803056934E-001 +1.8582257046E+001  +2.9063114340E-001 +7.1003936071E+000  +8.5490265412E-001 +3.1925162006E+000 
6891984.981 +1.2672695519E+000 +1.8960855155E+001  +4.0130551323E-001 +4.0056128663E+000  +3.9051355183E-001 -6.6579797016E+000  +9.4448586062E-001 +6.8717491027E+000 
7017130.163 +1.0492577070E+000 +2.4808182557E+001  +3.2484303738E-001 +3.8102797208E+000  +3.4110573118E-001 -3.5416291074E+000  +1.1473299947E+000 -6.2135185894E+000 
7142275.344 +9.9688952181E-001 +2.3173174386E+001  +2.6805850608E-001 -5.1823010955E-001  +2.8303146397E-001 +5.7064087834E-001  +1.1402601429E+000 -7.8287527998E+000 
7267420.526 +9.5568690947E-001 +4.6763187017E+000  +2.4882172160E-001 -1.0632475375E+000  +2.4207654734E-001 -8.0647306578E-002  +1.0042774400E+000 -6.4022062326E+000 
7392565.707 +1.0300900052E+000 +6.2933344052E+000  +2.1378539633E-001 +5.5893532605E+000  +2.2534133488E-001 +5.9418662182E+000  +1.0941823444E+000 -5.4786621835E+000 
7517710.889 +9.8987629489E-001 +3.3993941616E+000  +2.1089120007E-001 +3.6285015896E+000  +2.0990644233E-001 +6.7623129559E+000  +9.2315394357E-001 -4.8981906813E+000 
7642856.070 +7.8064150401E-001 +8.3907704724E+000  +1.8744740061E-001 +2.9048052035E+000  +1.9117648677E-001 +6.5582485109E+000  +8.3505007309E-001 -6.3476940065E+000 
7768001.252 +7.1085550784E-001 +2.1291271999E+000  +1.9262962460E-001 +2.3342373739E-001  +1.7924930657E-001 +4.2723217760E+000  +7.2192613955E-001 -1.6612639556E+000 
7893146.433 +6.4020194508E-001 -7.3190136994E-001  +1.8528413325E-001 -1.5498348932E+000  +1.8717435251E-001 +5.1237415040E+000  +7.5140003045E-001 -3.0448216933E+000 
8018291.615 +5.9259716984E-001 +1.1298297598E+001  +1.6925735476E-001 -2.7393612518E+000  +1.7612273986E-001 +6.7188865045E+000  +6.5645666323E-001 -7.1902762785E-001 
8143436.796 +5.8958993190E-001 +3.4495076117E+000  +1.7573384953E-001 -2.3446338334E+000  +1.7467643603E-001 +6.7426898366E+000  +6.5019420448E-001 +3.4508862863E+000 
8268581.977 +5.5726959289E-001 +1.8559621572E+001  +1.6794101000E-001 -1.9195493675E+000  +1.6388303346E-001 +8.0796519597E+000  +5.9781641024E-001 -2.7798047367E-001 
8393727.159 +4.9940819690E-001 +1.0962117337E+001  +1.6206389126E-001 -2.4560341999E+000  +1.6453546285E-001 +8.2554878308E+000  +6.4198390077E-001 +6.7048162525E+000 
8518872.340 +4.6327472943E-001 +8.6814317494E+000  +1.5915006963E-001 -3.2807787781E+000  +1.5603777362E-001 +7.5502800591E+000  +5.6313381693E-001 +7.6571361650E+000 
8644017.522 +5.3005882309E-001 +2.0162972070E+001  +1.5463108226E-001 -3.5552635388E+000  +1.5553207869E-001 +8.8370204489E+000  +4.8278791777E-001 +5.1836997532E+000 
8769162.703 +4.4790207498E-001 +9.6674935368E+000  +1.5651677767E-001 -2.0698356549E+000  +1.5351088026E-001 +9.6029606235E+000  +5.6789190232E-001 +4.6744877138E+000 
8894307.885 +4.0099000357E-001 +6.7637515703E+000  +1.5711610317E-001 -4.6595176963E+000  +1.5512298034E-001 +9.7664225522E+000  +4.9775329174E-001 -1.0448358081E+000 
9019453.066 +4.1900499874E-001 +8.6465143942E+000  +1.5521831317E-001 -3.3796081645E+000  +1.5257584715E-001 +9.3703026726E+000  +5.1599403311E-001 +5.5627919118E+000 
9144598.248 +4.0185698214E-001 +1.3565923934E+001  +1.5611838096E-001 -5.5790579692E+000  +1.5156329923E-001 +1.1277377434E+001  +5.0664781639E-001 +2.1115761595E+000 
9269743.429 +4.2966903456E-001 +9.6196651082E+000  +1.5272347296E-001 -4.8171220338E+000  +1.5520484305E-001 +1.1141872682E+001  +4.2788635082E-001 +3.8636018806E+000 
9394888.611 +4.0571775378E-001 +1.0732205319E+001  +1.5328822740E-001 -3.7810868056E+000  +1.5199187069E-001 +1.1399366956E+001  +4.7149360604E-001 +2.9766880466E+000 
9520033.792 +3.7417721744E-001 +1.0710351923E+001  +1.5535495471E-001 -4.5069703902E+000  +1.5058686104E-001 +1.0078469914E+001  +3.8168813365E-001 -1.3862743775E+000 
9645178.974 +3.3176239977E-001 +1.1320321618E+001  +1.5054792019E-001 -5.7638706278E+000  +1.5357143601E-001 +1.1862252718E+001  +4.1596963506E-001 -2.6304472798E+000 
9770324.155 +3.8265297373E-001 +2.6058571161E+000  +1.5627176429E-001 -3.9973545961E+000  +1.5575155399E-001 +1.2090329942E+001  +4.1104748348E-001 -3.0524637361E+000 
9895469.337 +3.5883080696E-001 +9.5962070907E+000  +1.5624989127E-001 -3.7119528317E+000  +1.5491243750E-001 +1.1976443592E+001  +4.0616647408E-001 -7.6719674873E+000 
10020614.518 +3.8455056723E-001 +1.1187466905E+001  +1.5574487209E-001 -3.6395137274E+000  +1.5481597795E-001 +1.1732488504E+001  +4.0224892511E-001 -6.3615876598E+000 
10145759.700 +4.0971326831E-001 +8.9287483860E+000  +1.5743731632E-001 -4.2092249212E+000  +1.5623150324E-001 +1.1997734466E+001  +4.0391128752E-001 -5.5693618613E+000 
10270904.881 +3.6392420213E-001 +1.3256627688E+001  +1.5696799606E-001 -2.9572406186E+000  +1.5517358249E-001 +1.1944389400E+001  +4.0599553482E-001 -1.4353552081E+000 
10396050.063 +3.6905041692E-001 +1.1983382803E+001  +1.5723944257E-001 -3.3117650137E+000  +1.5656781150E-001 +1.2791112729E+001  +4.2482710764E-001 -1.0735744792E+000 
10521195.244 +4.1702606792E-001 +1.1330183673E+001  +1.5803992753E-001 -3.1217118195E+000  +1.6011104350E-001 +1.2025314528E+001  +4.4530499180E-001 +1.2474108530E+000 
10646340.426 +4.0321128027E-001 +9.2651758145E+000  +1.6071468548E-001 -2.7439457417E+000  +1.5751177105E-001 +1.1359032228E+001  +4.1026993336E-001 +5.0093686006E+000 
10771485.607 +4.3852117695E-001 +9.6900841051E+000  +1.6124088324E-001 -1.4578444393E+000  +1.5943661873E-001 +1.2953738581E+001  +4.2099066221E-001 +2.5474956876E+000 
10896630.788 +4.5326188040E-001 +1.3822105908E+001  +1.6010851327E-001 -6.0874742357E-001  +1.5991898770E-001 +1.2056976228E+001  +4.4128032900E-001 +4.9487706288E+000 
11021775.970 +4.5104079627E-001 +1.1755485803E+001  +1.6188069398E-001 -1.6953642341E+000  +1.6180890018E-001 +1.3722455170E+001  +4.4466824344E-001 +3.5296539120E+000 
11146921.151 +4.3716834987E-001 +6.8500627738E+000  +1.6465354459E-001 -4.3559568143E-001  +1.6291204184E-001 +1.2442291017E+001  +4.6737743991E-001 +2.8087124627E+000 
11272066.333 +4.1032836519E-001 +1.4695861511E+001  +1.6525477556E-001 -1.5833362644E+000  +1.6568713751E-001 +1.1282301160E+001  +4.4667119463E-001 +4.5187608962E+000 
11397211.514 +4.4225036494E-001 +1.3303956272E+001  +1.6573614432E-001 +1.4758769329E-002  +1.6471612153E-001 +1.1679651374E+001  +4.5975372481E-001 +5.0296381192E+000 
11522356.696 +4.7108800862E-001 +1.1516470067E+001  +1.6953306196E-001 -2.4166218716E-001  +1.6683206010E-001 +1.0794418538E+001  +4.6501672521E-001 +3.2058983409E+000 
11647501.877 +4.6538545276E-001 +1.1879668528E+001  +1.7106547537E-001 +4.5983811413E-001  +1.6887695857E-001 +1.1767941448E+001  +4.8999310582E-001 +4.9835678324E+000 
11772647.059 +4.6976651899E-001 +9.0138408755E+000  +1.7240964018E-001 -2.3472823725E-001  +1.6833277349E-001 +1.1418259163E+001  +4.8256774620E-001 +3.5242452492E+000 
11897792.240 +4.8066246023E-001 +7.9969819492E+000  +1.7668329322E-001 -3.5539319022E-001  +1.7384859799E-001 +1.0689420035E+001  +5.0750469753E-001 +3.8420571737E+000 
12022937.422 +5.0791567726E-001 +8.3681893493E+000  +1.7578461153E-001 +8.1778430237E-001  +1.7251127908E-001 +1.1203263893E+001  +5.2317333858E-001 +6.1757048770E+000 
12148082.603 +5.2048693798E-001 +6.6505932920E+000  +1.7858573522E-001 +1.2953707370E+000  +1.7569501197E-001 +9.6824969321E+000  +5.2463672895E-001 +2.8351467961E+000 
12273227.785 +5.2067546931E-001 +8.3576189131E+000  +1.7871170586E-001 +1.1141861818E+000  +1.7862010385E-001 +9.1811692219E+000  +5.1928364800E-001 +4.3572690663E-001 
12398372.966 +5.5424654332E-001 +5.1654971122E+000  +1.8329067021E-001 +1.5377144928E+000  +1.8016109761E-001 +1.0078784914E+001  +5.3894692790E-001 +6.1034397250E-001 
12523518.148 +5.4920924264E-001 +3.1124711339E+000  +1.8409173340E-001 +1.6085129393E+000  +1.8220539359E-001 +9.1311764475E+000  +5.6460580520E-001 +2.6523104938E+000 
12648663.329 +5.4939492682E-001 +2.9671990580E+000  +1.8797143174E-001 +1.2511087868E+000  +1.8352967338E-001 +8.1525106514E+000  +5.4135976788E-001 +4.5924910082E-001 
12773808.511 +5.8120559852E-001 +3.4117113219E+000  +1.8647470642E-001 +2.1426928528E+000  +1.8524163943E-001 +8.2155181292E+000  +5.9563529478E-001 +9.2410257285E-002 
12898953.692 +5.8955923322E-001 +8.2025914194E-001  +1.9042582039E-001 +1.3818514240E+000  +1.8763732762E-001 +7.3971064853E+000  +5.8813344057E-001 -5.6265177368E-001 
13024098.874 +5.9251683658E-001 +2.7013992415E+000  +1.9083471845E-001 +2.5480550067E+000  +1.8739499249E-001 +6.8024715854E+000  +6.0142753949E-001 +4.7362223119E-001 
13149244.055 +5.9468732114E-001 -1.3240174165E-001  +1.9481531637E-001 +1.4735654573E+000  +1.9065752048E-001 +6.6576610274E+000  +6.0245187537E-001 -1.9544977868E+000 
13274389.237 +6.1063410113E-001 +1.1353326890E+000  +1.9446847291E-001 +1.8116523897E+000  +1.9210093590E-001 +6.0756599305E+000  +6.3058099477E-001 -6.1505741908E-001 
13399534.418 +6.3592151477E-001 +4.0883832695E-001  +1.9596617156E-001 +2.1107700560E+000  +1.9358661789E-001 +5.1387494260E+000  +6.5072186046E-001 -2.2292329827E+000 
13524679.599 +6.4386718308E-001 -2.1397071133E+000  +1.9911165852E-001 +1.9468742033E+000  +1.9585951416E-001 +4.8191822529E+000  +6.6865749291E-001 -1.3222597512E+000 
13649824.781 +6.6631458186E-001 -8.5740481797E-001  +1.9905913171E-001 +2.1480780542E+000  +1.9514809673E-001 +4.6811537889E+000  +6.8879062123E-001 -2.0563788225E+000 
13774969.962 +6.7138105327E-001 -3.7175888461E+000  +2.0332123932E-001 +1.8790866909E+000  +1.9933444419E-001 +4.0005613200E+000  +6.9532764538E-001 -4.0485786136E+000 
13900115.144 +7.0032367226E-001 -2.5924909529E+000  +2.0389674514E-001 +1.9304567745E+000  +2.0043480491E-001 +4.0083095465E+000  +7.3651104729E-001 -5.2890812388E+000 
14025260.325 +7.2727640142E-001 -4.3398470640E+000  +2.0387559522E-001 +2.3076485569E+000  +2.0171535352E-001 +3.5002912420E+000  +7.2728605662E-001 -2.6692931829E+000 
14150405.507 +7.4574524555E-001 -4.0741928730E+000  +2.0416695610E-001 +1.7439681008E+000  +2.0162480991E-001 +2.8383991610E+000  +7.5484198130E-001 -3.2822280591E+000 
14275550.688 +7.6362205244E-001 -6.7265584826E+000  +2.0890634650E-001 +1.5651680520E+000  +2.0516775911E-001 +2.2535131610E+000  +7.5770364337E-001 -5.4966336838E+000 
14400695.870 +8.0684413262E-001 -4.7728380649E+000  +2.0737717689E-001 +1.7226641640E+000  +2.0590993788E-001 +2.5284485785E+000  +7.9297059093E-001 -6.4513080025E+000 
