!  2-Port S-parameters saved by WinCal
! VAR MeasName=S-Parameters (CALIBRATED_DATA) read from VNA (P5004A)
! VAR MeasDate=29/08/2024 11:16:48
! VAR NAME=S2_r9c3_RESET3_9k-100M_3
! VAR FILENAME=S2_r9c3_RESET3_9k-100M_3.S2P
! VAR DATE=29/08/2024 11:16:48
! VAR PHYS_PORTS=1,2
! VAR ObjTypeName=DATASET
! VAR IndexType=Frequency
!
# Hz S MA R 50
9000.000 +9.6068006959E-002 -1.7472750323E+002  +3.3166405436E-003 -5.9697576166E+001  +4.3025000130E-003 +8.2731411816E+001  +2.8916142549E-001 -1.4517007501E+002 
134145.181 +1.1172249200E-001 +1.6965217864E+002  +2.7701937047E-004 -1.2592848734E+002  +1.5334548673E-004 -1.0584649227E+002  +2.4029638481E-001 -1.7066689355E+002 
259290.363 +1.1160831824E-001 +1.7020512662E+002  +5.9785305876E-004 -1.5715492957E+002  +8.0678266708E-004 -1.7023245085E+002  +2.4447471442E-001 -1.6845980483E+002 
384435.544 +1.1479342310E-001 +1.6965007574E+002  +4.5468486072E-004 -2.2927699376E+000  +2.0822688148E-004 +2.7129577882E+001  +2.4532974564E-001 -1.6850642763E+002 
509580.726 +1.1266920405E-001 +1.7192752022E+002  +2.9233930608E-003 -1.3984065124E+002  +3.2392988110E-003 +7.6586964680E+001  +2.4795642761E-001 -1.6335461386E+002 
634725.907 +1.1753176214E-001 +1.7033393519E+002  +1.6420508822E-003 -6.9219057752E+001  +6.4191577963E-004 +6.3155274565E+001  +2.5463639457E-001 -1.6310781956E+002 
759871.089 +1.2212079044E-001 +1.7114180915E+002  +7.8206725873E-004 -5.9904167856E+001  +1.0564675983E-003 +4.6173224027E+001  +2.5014594846E-001 -1.6670688742E+002 
885016.270 +1.2121111295E-001 +1.6903240836E+002  +7.1148069472E-004 -5.2039990657E+001  +3.4435766464E-004 +1.5598744977E+001  +2.4537467240E-001 -1.6665815419E+002 
1010161.452 +1.1592185252E-001 +1.6996559674E+002  +9.4192887637E-004 +2.1091073390E+001  +2.6758676060E-004 -1.0888339954E+002  +2.0678657804E-001 -1.6882950027E+002 
1135306.633 +1.1371553919E-001 +1.6913002561E+002  +5.9438642232E-004 +1.5404531731E+002  +7.0344660467E-004 -7.8971191421E+001  +2.0060284011E-001 -1.7011989632E+002 
1260451.815 +1.2081372641E-001 +1.7135529691E+002  +1.7209119311E-003 -5.5681576025E+001  +2.5794677830E-003 +1.5106418291E+002  +2.2166182072E-001 -1.5840947108E+002 
1385596.996 +1.2718961207E-001 +1.7192400772E+002  +3.0374526536E-004 -4.3145471842E+001  +6.4645708634E-004 +7.8737457238E+001  +2.5767559172E-001 -1.6003847635E+002 
1510742.178 +1.2834330274E-001 +1.7360217843E+002  +3.6002556936E-004 -5.1005430000E+001  +7.2171182588E-004 +8.6912238584E+001  +2.5977899094E-001 -1.5975890578E+002 
1635887.359 +1.2794953160E-001 +1.7094594356E+002  +9.9175549367E-004 -7.2310730898E+001  +1.2139576703E-003 -1.7898228157E+002  +2.3712080664E-001 -1.5650620814E+002 
1761032.541 +1.3160894106E-001 +1.7023416099E+002  +7.3661040987E-004 -8.8890524426E+000  +1.3210435964E-003 -1.3310287792E+002  +2.4098416750E-001 -1.5897766044E+002 
1886177.722 +1.2923290309E-001 +1.6819786527E+002  +2.6861134634E-003 +5.6066023513E+001  +2.0115508829E-003 -1.5166557321E+002  +2.2121427824E-001 -1.5428170914E+002 
2011322.904 +1.3031208783E-001 +1.6844554917E+002  +3.2658255470E-003 +5.4174275090E+001  +3.1635091191E-003 -1.0561595216E+002  +1.9017417349E-001 -1.6693408620E+002 
2136468.085 +1.3413690637E-001 +1.6522578607E+002  +7.5557269778E-003 +9.8783809748E+001  +7.2451191714E-003 -5.2702273638E+001  +1.4031083549E-001 -1.6541961258E+002 
2261613.267 +1.3184856006E-001 +1.6414313981E+002  +6.1600276852E-003 +1.0011130869E+002  +5.7469795659E-003 -2.7010835473E+001  +2.0714476334E-001 +1.7672884282E+002 
2386758.448 +1.3422143240E-001 +1.6586105386E+002  +7.5748372440E-003 +7.8208264689E+001  +1.1093959376E-002 -4.6169892761E+001  +1.8940711063E-001 +1.7508259144E+002 
2511903.630 +1.3446249170E-001 +1.6421706960E+002  +1.4637482743E-002 +1.0129148309E+002  +1.1370977123E-002 -2.8654787497E+001  +1.7811098027E-001 +1.6817604114E+002 
2637048.811 +1.2420783045E-001 +1.7117547008E+002  +1.9750576955E-002 +3.8147220698E+001  +2.0027186041E-002 -9.6635443497E+001  +8.0577601618E-002 -1.0879283814E+002 
2762193.992 +1.1614515148E-001 +1.7265573405E+002  +5.4500035707E-002 +4.4117619875E+001  +4.6203624928E-002 -7.7584786510E+001  +4.1708434979E-001 +3.3099582239E+001 
2887339.174 +1.2594676044E-001 +1.5733125644E+002  +3.5721775461E-002 -2.4756161950E+001  +3.6948768188E-002 -1.0719873325E+002  +3.6587219549E-001 -6.7420269613E+001 
3012484.355 +1.4312507428E-001 +1.7148008897E+002  +1.3436378963E-002 +3.9511458035E+000  +1.0879926967E-002 -1.0290158222E+002  +1.3203075206E-001 -1.5516468528E+002 
3137629.537 +1.2689693206E-001 +1.6871368600E+002  +2.5249597900E-002 -6.9505417827E+000  +2.0778082122E-002 -1.1656508104E+002  +2.6976672854E-001 -7.8178052546E+001 
3262774.718 +1.2951587482E-001 +1.7307680177E+002  +2.7988027314E-002 -4.7707612018E+001  +2.0177401570E-002 -1.2249223980E+002  +2.4761442981E-001 -8.2553382974E+001 
3387919.900 +1.2767608667E-001 +1.6127262594E+002  +8.5822318231E-002 +1.1850065717E+001  +8.5810890898E-002 -8.4808898418E+001  +8.3648247075E-001 -2.4520850145E+000 
3513065.081 +1.4864672703E-001 +1.4718189935E+002  +2.5808741957E-002 +1.1246572672E+002  +3.2214075902E-002 +7.3678480482E+000  +3.1764830298E-001 +1.4731090998E+002 
3638210.263 +1.7380287281E-001 +1.5397845815E+002  +1.8299548248E-002 +1.0034812201E+002  +2.1794916843E-002 +4.5392367817E+000  +3.0711743585E-001 +1.4161060368E+002 
3763355.444 +1.5485245954E-001 +1.3132405568E+002  +6.2854155000E-002 +9.9119002465E+001  +7.3233658872E-002 +7.2809238970E+000  +4.1622322768E-001 +1.2770154212E+002 
3888500.626 +1.7116250769E-001 +1.5428943675E+002  +1.9402846713E-002 +9.2314232552E+001  +2.3529174943E-002 +1.9106280097E+001  +3.3730832486E-001 +1.4836573303E+002 
4013645.807 +1.6348346632E-001 +1.4900354843E+002  +2.1956389321E-002 +6.6797154720E+001  +2.4264878889E-002 -2.9499054265E-001  +2.0862081752E-001 +1.5280501016E+002 
4138790.989 +1.4021058182E-001 +1.3948909917E+002  +5.3739750509E-002 +6.1766498631E+001  +4.6841411178E-002 -4.5978701680E+000  +2.5307197712E-001 +1.0981484367E+002 
4263936.170 +1.8528140872E-001 +1.4988912046E+002  +5.1335154331E-002 +6.8057350864E+001  +4.9826273935E-002 -7.7904507184E+000  +3.7035680793E-001 +8.0587190619E+001 
4389081.352 +2.0239161393E-001 +1.3265072646E+002  +6.7668063861E-002 +7.4857208841E+001  +6.0688042347E-002 +2.1771387066E+001  +3.7027352174E-001 +8.9502847758E+001 
4514226.533 +2.4593580684E-001 +1.4000684035E+002  +1.0171335210E-001 +1.2560667669E+002  +1.0521495954E-001 +7.3190035939E+001  +1.5442388478E+000 +1.1316793979E+002 
4639371.715 +2.4255152574E-001 +1.3580509388E+002  +3.2086912067E-001 +1.3927362890E+002  +3.3361849415E-001 +6.6698279670E+001  +4.4385297284E+000 +1.0840798449E+002 
4764516.896 +2.6419127621E-001 +1.3009506509E+002  +4.7597917837E-001 -1.8123394830E+001  +5.3113788857E-001 -7.5549639860E+001  +5.9267397394E+000 -7.1486368394E+001 
4889662.078 +3.9344235490E-001 +1.1639350893E+002  +4.0716656054E-001 +9.3612584467E+000  +3.6650225824E-001 -3.4705822701E+001  +3.1288449279E+000 -5.4900393995E+001 
5014807.259 +3.5488112917E-001 +1.2664453022E+002  +5.7281867259E-001 +1.1863312499E+002  +5.3105905903E-001 +7.6783628651E+001  +6.4893896697E+000 +9.2987064152E+001 
5139952.441 +3.8636088343E-001 +1.3178864244E+002  +3.0551565242E-001 +1.4316574886E+002  +2.4269016575E-001 +9.8813533053E+001  +3.7268803268E+000 +1.1333346576E+002 
5265097.622 +2.8045974056E-001 +1.2289278859E+002  +1.1494576903E-001 +5.4020135049E+001  +1.4933807377E-001 +1.6807819114E+001  +9.9555973354E-001 +4.7780499567E+001 
5390242.804 +3.7773312858E-001 +1.3582482070E+002  +1.4355089054E-001 +1.0053335825E+002  +1.5509496931E-001 +6.6217297467E+001  +2.0292437285E+000 +8.2220785687E+001 
5515387.985 +4.4510284437E-001 +1.2363429914E+002  +2.9424501463E-001 +8.1064795326E+001  +2.9824860200E-001 +4.6691695906E+001  +3.5232639735E+000 +5.6785891034E+001 
5640533.166 +5.0258575341E-001 +1.2890188544E+002  +1.3386057011E-001 +1.2779162569E+002  +1.6948565525E-001 +9.9048113647E+001  +2.3471234699E+000 +1.0827031929E+002 
5765678.348 +4.6729505390E-001 +1.2482758535E+002  +1.2081192645E-001 +7.9872437746E+001  +1.3999783201E-001 +5.6535043258E+001  +1.4967151418E+000 +8.0905181657E+001 
5890823.529 +3.4031305625E-001 +1.2185336086E+002  +1.5626346657E-001 +6.1743606229E+001  +1.6342878951E-001 +3.0717138578E+001  +2.0980823882E+000 +7.6190391157E+001 
6015968.711 +6.2762543768E-001 +1.1637107311E+002  +2.1970124468E-001 +8.1618047545E+001  +2.4390259244E-001 +4.9539483350E+001  +2.3518045688E+000 +5.6432753591E+001 
6141113.892 +5.9064883863E-001 +1.1392112131E+002  +1.7761745113E-001 +4.8801298748E+001  +1.5350504016E-001 +2.7856642063E+001  +1.4725101241E+000 +2.9617613088E+001 
6266259.074 +5.9476921458E-001 +1.0455604541E+002  +1.6301830007E-001 +4.8890487454E+001  +1.7264303825E-001 +2.7663537017E+001  +1.4646910288E+000 +4.0930951428E+001 
6391404.255 +7.1944085855E-001 +9.9341921012E+001  +1.9462769366E-001 +3.3099582929E+001  +1.6876323010E-001 +2.2801711497E+001  +1.4535945689E+000 +2.4898165941E+001 
6516549.437 +1.1863319626E+000 +8.5880053964E+001  +2.7247060464E-001 +3.6341168946E+001  +2.3086350217E-001 +2.8341973946E+001  +1.6927722861E+000 +2.4435692974E+001 
6641694.618 +1.2696226465E+000 +8.1105953500E+001  +1.9636475034E-001 +3.4801299915E+001  +2.0032328539E-001 +2.5985734738E+001  +1.2030526010E+000 +2.4258013382E+000 
6766839.800 +1.0452761753E+000 +5.5569568439E+001  +1.8916041009E-001 +1.4898029456E+001  +1.8291077360E-001 +3.5705498302E+000  +1.2088357514E+000 +3.8395369735E+000 
6891984.981 +1.3530089180E+000 +3.9053641246E+001  +1.9366184770E-001 +7.8404224755E+000  +1.9407301211E-001 -4.6138805887E+000  +1.2855995227E+000 -4.9779198669E+000 
7017130.163 +1.5417831126E+000 +2.6706577081E+001  +1.6824061311E-001 +3.9211266989E+000  +1.8321984412E-001 +2.4734554950E+000  +9.8886068830E-001 -9.1411403596E+000 
7142275.344 +1.4176879623E+000 +1.2376966583E+001  +1.6487348690E-001 -2.1688847017E+000  +1.5523644087E-001 -3.5098968323E+000  +9.8247142292E-001 -5.6843541891E+000 
7267420.526 +1.2720986896E+000 -7.0125290864E-001  +1.3820833266E-001 -3.2714969724E+000  +1.3147686646E-001 -3.6188202338E+000  +1.3199913929E+000 -1.7806200443E+001 
7392565.707 +1.2052530672E+000 +2.8303573361E+000  +1.1084968304E-001 +6.8752536876E+000  +1.1038708024E-001 +5.2286272223E+000  +1.2964961174E+000 -8.5910954161E+000 
7517710.889 +1.0246481051E+000 +2.7799508492E+000  +1.0562079506E-001 +4.6394390940E+000  +9.6599000450E-002 +6.8361106902E+000  +1.0637936394E+000 -5.9119250108E+000 
7642856.070 +9.4686262908E-001 +2.4803309278E-001  +1.0161333500E-001 -1.6809446477E+000  +1.0020892213E-001 +3.9634225830E+000  +9.8940619816E-001 -8.0310034670E+000 
7768001.252 +8.1590261852E-001 +5.0923331481E+000  +8.8430622331E-002 +6.6740536329E-001  +8.4970369444E-002 +2.2294901023E+000  +9.8777589308E-001 -8.9974824272E+000 
7893146.433 +7.7662735050E-001 +2.8105306743E+000  +9.1954326678E-002 -1.1481207357E+000  +9.2890517009E-002 +5.0999955733E+000  +7.9355162809E-001 -2.1723425559E+000 
8018291.615 +7.1294605403E-001 +9.1878459474E+000  +9.0208748470E-002 -2.3748751345E+000  +8.3278330046E-002 +4.0340693483E+000  +7.5497896038E-001 -4.0886539163E+000 
8143436.796 +7.3610382847E-001 +6.5531358084E+000  +8.2445454085E-002 -2.0500608355E+000  +8.1053121877E-002 +7.2336046218E+000  +6.7234876944E-001 -1.1062631832E+000 
8268581.977 +6.5966967447E-001 +1.5157122439E+001  +7.8529332036E-002 -3.7556075324E+000  +7.9291179798E-002 +5.5266757611E+000  +7.3236805382E-001 +4.5865956243E+000 
8393727.159 +6.2298154320E-001 +1.3994672576E+001  +8.0622970569E-002 -3.8691627051E+000  +8.2421525678E-002 +9.2665190636E+000  +7.1637175382E-001 +1.1011776943E+000 
8518872.340 +5.8047323168E-001 +1.1539829504E+001  +8.1904297662E-002 -1.4375164245E+000  +7.9080838683E-002 +1.0018920765E+001  +6.5594809293E-001 -1.9940091262E+000 
8644017.522 +5.5101645543E-001 +1.0819701786E+001  +7.8064898151E-002 -2.0296357888E+000  +7.5637040511E-002 +7.5943381953E+000  +6.3696931897E-001 -3.9518187260E+000 
8769162.703 +5.8823539040E-001 +5.8758089653E+000  +7.6209601704E-002 -5.7465984441E+000  +8.0122786629E-002 +1.0071832536E+001  +5.7418623716E-001 -2.9150997786E+000 
8894307.885 +5.6284712764E-001 +1.1123747951E+001  +7.4086737496E-002 -3.1498467975E+000  +7.5969263569E-002 +9.0136782720E+000  +5.3489011656E-001 +2.3931792936E+000 
9019453.066 +4.9924318902E-001 +5.4019426023E+000  +7.6793325092E-002 -4.1062698921E+000  +7.6790504504E-002 +1.2518129410E+001  +5.6507030072E-001 +3.7474511583E+000 
9144598.248 +4.9293164218E-001 +8.8738084059E+000  +7.7509233866E-002 -3.9426483813E+000  +7.3985477952E-002 +9.3966480775E+000  +5.4132628949E-001 +5.0280452857E+000 
9269743.429 +4.7934218054E-001 +8.5160153932E+000  +7.7019839259E-002 -4.7555498931E+000  +7.5606425616E-002 +1.0531219319E+001  +5.1163034995E-001 -3.6200207972E+000 
9394888.611 +4.8733491008E-001 +5.1651193618E+000  +7.8256186819E-002 -4.9013983566E+000  +7.6437827138E-002 +6.7183589335E+000  +5.3619172967E-001 +6.9587246936E-001 
9520033.792 +4.8127348143E-001 +2.8022351972E+000  +7.6587874766E-002 -4.6828079454E+000  +7.6972829811E-002 +1.3234245968E+001  +4.8100893117E-001 -6.9940119911E-001 
9645178.974 +4.6533082449E-001 -2.1406748194E+000  +7.6764991800E-002 -2.3189696559E+000  +8.0345951898E-002 +1.4216977636E+001  +5.3361492457E-001 -3.6837961010E-002 
9770324.155 +4.7221033406E-001 +6.0933500516E+000  +7.7284384701E-002 -2.5543411309E+000  +7.5561065276E-002 +1.3612181254E+001  +5.5392816005E-001 -4.4220057076E+000 
9895469.337 +4.8665659016E-001 +6.8965990571E+000  +7.8588376846E-002 -3.3013157699E+000  +7.3746020671E-002 +1.1006544124E+001  +4.7986336871E-001 -4.0616190485E+000 
10020614.518 +4.5134808716E-001 +4.1779980933E+000  +7.5797044252E-002 -3.0135184266E+000  +7.8005791338E-002 +1.3692539146E+001  +4.9717495759E-001 -1.1787898530E-001 
10145759.700 +4.8174612051E-001 +7.9026453811E+000  +7.4761731186E-002 -1.1329650276E+000  +7.3885394212E-002 +1.3227522037E+001  +4.8937439975E-001 -1.7608508750E+000 
10270904.881 +4.7115516176E-001 +9.2034137970E+000  +7.8839612575E-002 -2.9356691481E+000  +7.5897409537E-002 +1.3680871213E+001  +5.2734574938E-001 -1.3040775787E+000 
10396050.063 +5.1876485516E-001 +6.6166096627E+000  +7.6159429759E-002 -4.2290102849E+000  +7.4828792498E-002 +1.3563293064E+001  +4.8506668198E-001 -2.6416795143E-001 
10521195.244 +4.9728601979E-001 +1.4440053598E+001  +7.5670260290E-002 -2.8613662484E+000  +7.6523599251E-002 +1.3735161034E+001  +5.2517976341E-001 +8.1360646348E-001 
10646340.426 +5.1471548706E-001 +1.2200722740E+001  +7.5888038532E-002 -2.6153701979E-001  +7.7547275789E-002 +1.3172721722E+001  +5.2780779520E-001 +2.5308322265E-001 
10771485.607 +4.7743325308E-001 +9.0656260944E+000  +7.7813910664E-002 -8.9679676696E-001  +8.0916067733E-002 +1.1484737806E+001  +5.2123120397E-001 +4.7592066336E+000 
10896630.788 +4.9575110446E-001 +9.3063750763E+000  +8.1720904915E-002 -1.8517980979E+000  +7.9929080738E-002 +1.3550124079E+001  +5.5036644488E-001 +5.0363954602E-001 
11021775.970 +4.9835866282E-001 +7.1043076580E+000  +8.4566502753E-002 -1.5738510071E+000  +8.0283344978E-002 +1.0938154024E+001  +4.8078782884E-001 +1.2602789206E+000 
11146921.151 +5.0558447420E-001 +7.4597176884E+000  +8.0273598306E-002 -1.9293710205E+000  +8.1740805589E-002 +1.2929176436E+001  +5.3416300724E-001 +2.6815753463E-001 
11272066.333 +5.3567608827E-001 +9.1940598560E+000  +8.0165808758E-002 +1.2206573635E+000  +8.3143427803E-002 +1.3030692211E+001  +5.3828357772E-001 +5.2070841524E+000 
11397211.514 +4.9801553315E-001 +8.7226373750E+000  +8.3024209982E-002 -1.1962914791E+000  +8.1056774340E-002 +1.3391018279E+001  +5.5817286116E-001 +2.3884771220E+000 
11522356.696 +5.3785759249E-001 +1.1476169355E+001  +8.4335952472E-002 +1.6156361217E+000  +8.3972750589E-002 +1.1820191562E+001  +5.5095762581E-001 +1.2210764469E+000 
11647501.877 +5.7319757133E-001 +6.8798501923E+000  +8.5960310313E-002 +1.1840552752E+000  +8.4767257146E-002 +1.2814748299E+001  +5.6375656209E-001 +3.7585800188E+000 
11772647.059 +5.3444086021E-001 +7.1492853333E+000  +8.5947073539E-002 -1.0851691567E+000  +8.5461467797E-002 +1.2602623969E+001  +6.0595889524E-001 -5.8685742890E-001 
11897792.240 +5.5945719755E-001 +7.4628958820E+000  +8.7419451987E-002 +7.6148204426E-001  +8.3987920229E-002 +1.1984760145E+001  +5.7560964597E-001 +2.6929052059E+000 
12022937.422 +5.9559345683E-001 +5.9428250371E+000  +8.8815772749E-002 +1.2287643750E+000  +8.6395655410E-002 +1.0954968771E+001  +5.8171181892E-001 +1.6439199682E+000 
12148082.603 +5.9706297328E-001 +4.7087866275E+000  +8.7618490149E-002 +2.3637992092E+000  +8.8103512544E-002 +1.1573597171E+001  +6.0404202301E-001 +4.0909770001E+000 
12273227.785 +6.1956087985E-001 +3.5775907542E+000  +8.8844613524E-002 +1.9098666806E+000  +8.9731258093E-002 +1.0601397313E+001  +6.5024035750E-001 +1.5931361555E+000 
12398372.966 +6.2535857572E-001 +4.6171695694E+000  +8.9965893689E-002 +1.1153578333E+000  +8.8684265893E-002 +9.7162439615E+000  +6.3961350939E-001 +1.0406673121E+000 
12523518.148 +6.6527434049E-001 +5.2844576108E+000  +9.1095326031E-002 +2.7140526252E+000  +9.2476922059E-002 +1.1184254951E+001  +6.5649330879E-001 -6.2488482942E-001 
12648663.329 +6.6357753473E-001 +3.5588851551E+000  +9.4013535401E-002 +2.5055436676E+000  +8.8570433900E-002 +1.0589476991E+001  +6.4031443587E-001 +1.3449810865E-001 
12773808.511 +6.8859108195E-001 +3.4906704639E+000  +9.1725031101E-002 +2.1759789751E+000  +9.0174878140E-002 +8.4450410272E+000  +6.5202956310E-001 +1.9738550215E+000 
12898953.692 +6.7773975933E-001 +1.7509878377E+000  +9.6472198799E-002 +2.5360019903E+000  +9.4685681782E-002 +9.1306919635E+000  +6.8482373507E-001 -2.3844131574E+000 
13024098.874 +6.5348410688E-001 +9.1859148810E-001  +9.5589541538E-002 +1.5190933616E+000  +9.4264428118E-002 +7.7476521161E+000  +6.9726496096E-001 -1.3730458980E+000 
13149244.055 +7.0877682740E-001 +5.2643605602E-001  +9.6956244991E-002 +3.5035025638E+000  +9.6901111197E-002 +7.3318742711E+000  +7.3257052339E-001 -1.3902479565E+000 
13274389.237 +7.3516778892E-001 -1.5699243435E+000  +9.6107593091E-002 +2.9034515564E+000  +9.5390501168E-002 +7.5849295744E+000  +7.3795714122E-001 +2.8978860885E-001 
13399534.418 +7.5962404471E-001 -6.4024911024E-001  +9.8080759570E-002 +3.6475297003E+000  +9.5868482054E-002 +6.6127943248E+000  +7.6574649908E-001 -2.5897777857E+000 
13524679.599 +7.4408858079E-001 -2.7976481128E+000  +9.7498555560E-002 +2.3713831891E+000  +9.7545852214E-002 +5.2437388717E+000  +7.8037827812E-001 -4.3177117127E+000 
13649824.781 +7.6046917186E-001 -9.1631060353E-001  +9.9162038096E-002 +2.6770986644E+000  +9.6891110598E-002 +4.4209248815E+000  +7.6630257074E-001 -3.4379050323E+000 
13774969.962 +7.7877976002E-001 -2.5938994404E+000  +1.0046508907E-001 +2.4202156473E+000  +9.8538588772E-002 +5.3966251717E+000  +8.0003113470E-001 -1.8736542417E+000 
13900115.144 +8.2083900283E-001 -3.4487043234E+000  +1.0117433298E-001 +2.2678647604E+000  +9.9302596755E-002 +3.7884702483E+000  +8.2153686695E-001 -4.3680375783E+000 
14025260.325 +8.3242024978E-001 -4.1910918274E+000  +1.0246273132E-001 +2.4450338469E+000  +9.9792243452E-002 +4.1145323907E+000  +8.3260041131E-001 -3.4359537262E+000 
14150405.507 +8.5235527627E-001 -4.8304972553E+000  +1.0204978935E-001 +1.8628639755E+000  +1.0248421322E-001 +3.2205037998E+000  +8.5022039406E-001 -4.8407341186E+000 
14275550.688 +8.3627231558E-001 -5.3971009971E+000  +1.0372311699E-001 +2.3507065845E+000  +1.0160871903E-001 +2.6887273652E+000  +8.4668346256E-001 -3.3101343607E+000 
14400695.870 +8.6341198405E-001 -5.0009567672E+000  +1.0261272632E-001 +1.0638436867E+000  +1.0062352360E-001 +1.3051398804E+000  +9.0226636901E-001 -5.6284155820E+000 
