!  2-Port S-parameters saved by WinCal
! VAR MeasName=S-Parameters (CALIBRATED_DATA) read from VNA (P5004A)
! VAR MeasDate=29/08/2024 14:17:37
! VAR NAME=S2_r9c6_RESET5_9k-100M_2
! VAR FILENAME=S2_r9c6_RESET5_9k-100M_2.S2P
! VAR DATE=29/08/2024 14:17:37
! VAR PHYS_PORTS=1,2
! VAR ObjTypeName=DATASET
! VAR IndexType=Frequency
!
# Hz S MA R 50
9000.000 +7.5261281661E-002 -1.7336010288E+002  +1.2898619382E-003 +1.6963657667E+002  +1.1484157074E-002 +9.4531358084E+001  +2.8749607486E-001 -1.4566253180E+002 
134145.181 +1.1128677934E-001 +1.6960432840E+002  +2.7797845820E-004 -8.6736114171E+001  +1.4804491699E-004 -1.4352840975E+002  +2.3683197567E-001 -1.7142326858E+002 
259290.363 +1.1099233357E-001 +1.6971455094E+002  +2.5629450105E-004 -6.9633523498E+001  +8.7165172851E-004 -2.7591896459E+001  +2.4829425486E-001 -1.6917920380E+002 
384435.544 +1.1438661251E-001 +1.6973751439E+002  +9.0518975546E-004 -5.1004378424E+001  +1.1084119914E-003 +2.7178004139E+000  +2.5695088380E-001 -1.6811338677E+002 
509580.726 +1.1341502057E-001 +1.7021104209E+002  +1.4671925478E-003 -1.5776692524E+001  +1.3701386450E-003 +5.1291695451E+001  +2.2400414213E-001 -1.6603760633E+002 
634725.907 +1.1769106768E-001 +1.7128563534E+002  +9.2852614680E-004 -1.4587193363E+002  +4.5383664011E-004 +1.2714305630E+002  +2.6106283077E-001 -1.6500142678E+002 
759871.089 +1.1907076369E-001 +1.7116248231E+002  +1.0128082286E-003 -1.4604710513E+002  +8.9055065769E-004 +2.1873554518E+000  +2.6282616137E-001 -1.6384794095E+002 
885016.270 +1.1954520485E-001 +1.6947941877E+002  +4.1484819021E-004 +1.0065678279E+002  +3.5804263906E-004 +6.5908173143E+001  +2.4139581646E-001 -1.6715051674E+002 
1010161.452 +1.1588459635E-001 +1.7030161105E+002  +8.1395876898E-004 -8.6061108487E+001  +1.7618677115E-003 +1.6840601655E+002  +2.0502147841E-001 -1.7064856533E+002 
1135306.633 +1.1536615549E-001 +1.6976826309E+002  +2.2151244903E-003 -5.0013189221E+001  +1.8752468056E-003 -1.0145096937E+002  +1.8883174543E-001 -1.6677935894E+002 
1260451.815 +1.1800071177E-001 +1.7041607356E+002  +6.3790409776E-004 +1.4254253462E+002  +6.3309459774E-004 -1.2888914264E+002  +2.3923350304E-001 -1.6216992902E+002 
1385596.996 +1.2376699185E-001 +1.7340856835E+002  +8.5057113396E-004 -1.1682828835E+002  +1.4016396290E-003 +1.4446773446E+001  +2.6698380754E-001 -1.5492999691E+002 
1510742.178 +1.2989799606E-001 +1.7235401426E+002  +3.5865782544E-004 -5.3853108872E+001  +1.1169725633E-003 +1.1888714817E+002  +2.6991207406E-001 -1.5820781008E+002 
1635887.359 +1.3092722131E-001 +1.7277626778E+002  +1.2906644547E-003 +1.4517527751E+002  +1.5473505249E-003 +6.4779233656E+000  +2.2922120565E-001 -1.5680879596E+002 
1761032.541 +1.2703792286E-001 +1.6912077451E+002  +1.4102506248E-003 +2.6051888295E+001  +1.4771220906E-003 -1.4484569065E+002  +2.1488760646E-001 -1.5060700849E+002 
1886177.722 +1.2585565268E-001 +1.6745539188E+002  +1.0314301314E-004 -1.7974015238E+002  +1.2966399282E-003 -9.9779929605E+001  +2.0091494316E-001 -1.6273134216E+002 
2011322.904 +1.2873344222E-001 +1.6628571187E+002  +3.7206365676E-003 -6.1098330934E+001  +3.0203258072E-003 -2.5720607456E+000  +1.8216762156E-001 -1.5532811161E+002 
2136468.085 +1.2931810393E-001 +1.6552681940E+002  +2.9858075657E-003 +1.7016236378E+002  +6.4178282313E-003 -8.0538251173E+000  +1.5705994877E-001 -1.5890007088E+002 
2261613.267 +1.3150422996E-001 +1.6655343759E+002  +3.6557163499E-003 +1.0064211121E+002  +3.8861578026E-003 -8.7174258132E+001  +2.3435335041E-001 +1.6606037191E+002 
2386758.448 +1.3595676619E-001 +1.6663543902E+002  +2.1123985249E-003 +3.7099710182E+001  +4.6039116214E-003 -5.2681957693E+001  +1.9049604477E-001 +1.7159736335E+002 
2511903.630 +1.3805542380E-001 +1.6391225612E+002  +6.2122744375E-003 +6.8553882042E+001  +6.1154658335E-003 +3.8891172728E+001  +2.7644108696E-001 +1.5530754515E+002 
2637048.811 +1.3499689710E-001 +1.6401576612E+002  +9.5140469267E-003 +1.0137866225E+002  +7.3696591611E-003 +1.4517456604E+001  +3.2920499360E-001 +1.3990792443E+002 
2762193.992 +1.1252544963E-001 +1.7002320523E+002  +1.4253013650E-002 -1.5405641279E+002  +1.3414609066E-002 +8.6117316941E+001  +9.6491644137E-001 -1.6700035411E+002 
2887339.174 +1.3632825823E-001 +1.7480051239E+002  +2.7612050882E-002 -9.7135583269E+001  +2.1577652209E-002 +1.5334105625E+002  +6.8932971066E-001 -5.8853575946E+001 
3012484.355 +1.3480564958E-001 +1.7621036858E+002  +1.0397890290E-002 -3.8415289571E+001  +7.8020786657E-003 -1.5571756690E+002  +3.7965993616E-001 -1.0653701271E+002 
3137629.537 +9.7582777996E-002 +1.7516766708E+002  +2.6000196908E-002 -1.5915064940E+001  +1.7550618538E-002 -6.2719300104E+001  +1.4870021976E-001 -2.4565476916E+001 
3262774.718 +1.4235755474E-001 +1.5451368636E+002  +6.2906820454E-003 +8.7582841391E+001  +1.3681922660E-002 -6.1194695683E+001  +8.4068893143E-002 -8.3208715970E+001 
3387919.900 +1.5809096312E-001 +1.5421331255E+002  +1.2838108695E-002 -4.5341074617E+000  +2.1954241542E-002 -8.0274751001E+001  +2.3138417810E-001 -1.5651621351E+001 
3513065.081 +1.5693083484E-001 +1.4010833397E+002  +4.8234003958E-002 +1.1203713356E+002  +2.3134727209E-002 -6.8913419198E+000  +1.0780326129E+000 +8.8646271540E+001 
3638210.263 +1.4083384551E-001 +1.5323337030E+002  +1.4504372222E-002 -1.2835819861E+002  +9.7681582310E-005 +5.4399900239E+001  +1.0010507656E+000 +1.5674441863E+002 
3763355.444 +1.8525668099E-001 +1.4437193020E+002  +3.4304211039E-003 +1.0739602296E+002  +4.5730168612E-003 +1.0882554827E+002  +3.5134546328E-001 +1.4552557492E+002 
3888500.626 +1.6849623507E-001 +1.5068202454E+002  +1.2217723746E-002 +6.8136764149E+001  +1.7438329054E-002 +5.4840565482E+001  +3.7937489463E-001 +1.3884988717E+002 
4013645.807 +1.7314595035E-001 +1.5461630484E+002  +7.3137267059E-003 +5.0414014343E+001  +9.4567478269E-003 +2.2881459981E+001  +2.5536769043E-001 +1.4051864397E+002 
4138790.989 +1.8637929893E-001 +1.5050844259E+002  +1.4085928876E-002 +9.4825766873E+001  +1.1374252914E-002 +5.5648446972E+001  +3.7048996212E-001 +1.3558372221E+002 
4263936.170 +1.8446147344E-001 +1.5315082107E+002  +1.2176052122E-002 +3.8486462227E+001  +1.1814972609E-002 -1.7069811470E+001  +2.0566889763E-001 +1.3576680247E+002 
4389081.352 +2.2023667501E-001 +1.5080685362E+002  +1.3858232043E-002 +5.7635506005E+001  +1.9341956102E-002 +3.1453128304E+001  +6.1389233268E-001 +7.8896566299E+001 
4514226.533 +2.3566527167E-001 +1.3944049759E+002  +7.7898710513E-003 -1.7183751870E+002  +4.2139354802E-002 +6.2485154074E+001  +1.0735102002E+000 +1.2909208259E+002 
4639371.715 +2.6481385546E-001 +1.3166349603E+002  +4.3879018544E-002 +1.4429404415E+002  +4.0686410658E-002 +9.8720963475E+001  +2.1252515800E+000 +1.1170334449E+002 
4764516.896 +4.1911913947E-001 +1.1954615323E+002  +1.4467006118E-001 -5.5606474105E+001  +6.0121566809E-002 -9.0338831010E+001  +3.6569409452E+000 -1.1938247845E+002 
4889662.078 +3.7131851268E-001 +1.2826777505E+002  +3.1663507417E-001 +1.0300262625E+002  +3.7232765069E-001 +5.8771102996E+001  +9.2554501565E+000 +8.0416019893E+001 
5014807.259 +4.6072037192E-001 +1.2890585779E+002  +9.6605380904E-001 +6.8723029776E+001  +1.0346540000E+000 +6.3967230151E+000  +2.1830160360E+001 +1.1961628084E+000 
5139952.441 +3.6109179215E-001 +1.3144771724E+002  +1.4623102921E-001 -5.0025655807E+001  +1.0906350490E-001 -1.0086242622E+002  +5.3041799303E+000 -9.0249598134E+001 
5265097.622 +3.6412924400E-001 +1.3371693234E+002  +2.0843690754E-001 +9.7350240114E+001  +2.2221928579E-001 +5.9921253366E+001  +1.0437241755E+001 +7.3193018886E+001 
5390242.804 +3.7756027711E-001 +1.3633538586E+002  +6.0210075445E-002 +9.5027938167E+001  +5.6939753908E-002 +4.9490580311E+001  +2.2801556084E+000 +7.4160041025E+001 
5515387.985 +5.0421518682E-001 +1.3417219141E+002  +6.6469904661E-002 +1.3743352077E+002  +3.1798379815E-002 +9.7763408079E+001  +2.0881952011E+000 +1.1477808936E+002 
5640533.166 +5.2237287832E-001 +1.2686688575E+002  +9.8773926884E-002 +1.2927233463E+002  +1.5990285932E-001 +1.0409006531E+002  +4.7484187393E+000 +8.4293605078E+001 
5765678.348 +4.9679085670E-001 +1.3042784740E+002  +4.8216417988E-002 +1.2705623703E+002  +4.3465464002E-002 +1.0725973661E+002  +2.3596398621E+000 +1.0617629979E+002 
5890823.529 +6.0580670526E-001 +1.2514897624E+002  +6.6139271071E-002 +9.4056288192E+001  +6.7955579504E-002 +5.7018591795E+001  +1.8780515174E+000 +4.6615165484E+001 
6015968.711 +6.1765106521E-001 +1.2801196644E+002  +6.2404196294E-002 +7.1944097786E+001  +3.9822740101E-002 +6.1620860957E+001  +2.3096126749E+000 +5.3492787723E+001 
6141113.892 +6.1043411047E-001 +1.0018941309E+002  +4.6268196203E-002 +5.2417403377E+001  +4.1723678132E-002 +3.8464411789E+001  +1.2316439908E+000 +3.6056687616E+001 
6266259.074 +9.8020103764E-001 +1.0134501652E+002  +7.5643463469E-002 +5.4124460132E+001  +5.6681304445E-002 +2.5717871758E+001  +1.5744132835E+000 +3.1994960181E+001 
6391404.255 +8.9862019737E-001 +9.8519967740E+001  +8.7800326202E-002 +5.5735779287E+001  +5.7881017239E-002 +1.9615016621E+001  +1.9071349775E+000 +1.3752775334E+001 
6516549.437 +1.0237821699E+000 +7.1211049227E+001  +7.3660595774E-002 +1.2968195767E+001  +6.4602588884E-002 +1.7357816456E+000  +1.3741416464E+000 +4.4125047914E+000 
6641694.618 +1.4144370548E+000 +8.3098203055E+001  +4.6113003519E-002 +3.7627442190E+001  +5.8261882322E-002 +2.0057765649E+001  +1.3028982062E+000 -5.8782725186E+000 
6766839.800 +1.2623319658E+000 +5.5543540448E+001  +4.4301925870E-002 +1.3885431926E+001  +4.5806442193E-002 +1.1867871310E+001  +1.4304044318E+000 -1.4914036387E+001 
6891984.981 +1.8548561787E+000 +4.1627280819E+001  +7.8493048864E-002 +1.0888744707E+001  +8.2557939036E-002 +5.7877313518E+000  +1.2452154317E+000 +7.3894402528E+000 
7017130.163 +1.4753129582E+000 +1.1315525446E+001  +7.7151459665E-002 -8.8441694560E-001  +4.1713888702E-002 -1.6167759283E+001  +1.3096241013E+000 -8.1348259132E+000 
7142275.344 +1.7212299233E+000 +1.4359751768E+001  +5.7211936251E-002 +9.9638982055E-001  +5.0676620780E-002 +7.1556029002E+000  +1.2090785913E+000 +1.1245058489E+000 
7267420.526 +1.3469425783E+000 -4.7744317108E-001  +4.2351181983E-002 +2.7266505587E+000  +4.3286863215E-002 -2.3243425473E+001  +1.2225175164E+000 -8.2628353948E+000 
7392565.707 +1.3736785525E+000 -1.0712104813E+000  +3.0329443548E-002 -6.1181451658E+000  +3.5205038793E-002 -2.0381655194E+000  +1.2657387290E+000 -1.2090424755E+001 
7517710.889 +1.2430688853E+000 +5.6921980651E-001  +2.8920201262E-002 -5.4454932725E+000  +3.1074711467E-002 +1.0851180099E+001  +1.0733217287E+000 -4.8376552597E+000 
7642856.070 +1.1175797532E+000 -1.6616984563E+000  +3.3956634319E-002 +1.4448322230E+001  +3.6837590430E-002 +4.9548959255E+000  +9.5536001061E-001 -7.3896765700E+000 
7768001.252 +8.3347008601E-001 +4.8254558707E+000  +2.9723251510E-002 +1.3311664582E+001  +3.8585281497E-002 +1.0714735952E+001  +1.0650249581E+000 -6.0073012654E+000 
7893146.433 +7.5700317737E-001 +3.6672307482E+000  +3.0526431944E-002 -1.5922972821E+000  +2.7563711607E-002 -2.3626790960E+000  +8.8898923662E-001 -7.4607480324E-001 
8018291.615 +7.6541323115E-001 +6.2602194475E+000  +2.5562016490E-002 +4.2831104804E+000  +2.8122677357E-002 -3.9926418909E+000  +8.1912761756E-001 +1.9173325472E+000 
8143436.796 +8.1923623871E-001 +3.8400830395E+000  +2.8329497010E-002 -4.4649454785E+000  +2.0806200789E-002 +1.0264825665E+001  +8.6711838466E-001 +3.6914581418E+000 
8268581.977 +7.5105068564E-001 +1.4586585634E+001  +2.3641893408E-002 +5.3476291095E+000  +2.5548492001E-002 +6.0190794869E+000  +7.1234682738E-001 -6.6123436756E+000 
8393727.159 +7.0261698724E-001 +1.0320462420E+001  +2.8937415253E-002 -5.3262822902E+000  +2.0320270171E-002 +1.9786706566E+001  +6.8788505517E-001 -1.8565595809E+000 
8518872.340 +5.8173951728E-001 +6.9310776400E+000  +2.3180785822E-002 -1.8780059209E+001  +2.4719328737E-002 +1.8353995570E+001  +7.0318536587E-001 +4.4928162670E+000 
8644017.522 +6.7579640322E-001 +6.4000456521E+000  +2.5687203531E-002 +8.6700342940E+000  +2.3411618506E-002 +1.1722573092E+001  +6.5030343467E-001 -5.0208668741E-002 
8769162.703 +5.8011339188E-001 +8.7149428837E+000  +2.1535068077E-002 +6.1398869143E-002  +2.4601725470E-002 +1.9898028456E+001  +6.0135695258E-001 -5.7544981400E+000 
8894307.885 +5.9445073918E-001 +7.7474843803E+000  +2.1435659272E-002 -6.2936997522E-002  +3.0064282856E-002 +9.1217847168E+000  +6.4955972781E-001 -2.3934161968E+000 
9019453.066 +5.4712484810E-001 +7.7802922805E+000  +2.1237705554E-002 -1.1133075577E+001  +2.0880049741E-002 +4.7332437421E+000  +5.8701136459E-001 +1.2769279071E-001 
9144598.248 +5.7366386195E-001 +7.7334945482E+000  +2.6965079106E-002 -1.6158450663E+000  +2.5419751738E-002 +1.5482576221E+001  +5.5086200439E-001 +1.8768158880E+000 
9269743.429 +5.3502089481E-001 +4.0590110501E+000  +2.3579115084E-002 +8.9285916954E-001  +2.3312891414E-002 +1.0944799271E+001  +5.6137345315E-001 +8.9095752956E-001 
9394888.611 +5.5799068164E-001 +6.5221251236E+000  +2.4207563900E-002 -5.8150259022E+000  +2.0724138690E-002 +1.2493126305E+001  +6.0144660989E-001 -6.1046014862E+000 
9520033.792 +5.0538290294E-001 +4.0002815955E+000  +2.5865788077E-002 -3.6450729187E+000  +2.1893950948E-002 +1.3515301758E+001  +5.8173202073E-001 -1.6141399311E+000 
9645178.974 +5.5283566398E-001 +3.2123007023E+000  +2.4506146415E-002 +3.9224778799E+000  +2.5829403869E-002 +7.6253573090E+000  +5.7633896413E-001 -3.1378803989E+000 
9770324.155 +5.6252255611E-001 +1.4063265035E-001  +2.3663314358E-002 -2.9976353891E+000  +2.7563155709E-002 +1.4708792952E+001  +6.1518817365E-001 -9.6802875581E+000 
9895469.337 +4.8551335476E-001 +4.8139581270E+000  +2.4085397668E-002 -8.0284294467E-001  +2.5186895318E-002 +8.4735785135E+000  +5.3314864058E-001 -4.9748330475E+000 
10020614.518 +5.5346518988E-001 +2.0987820352E+000  +2.4801091383E-002 -6.3675097193E+000  +2.3437387977E-002 +9.0455580514E+000  +5.7435115484E-001 -1.5021253898E+000 
10145759.700 +5.3841387271E-001 +5.5053118402E+000  +2.0433177640E-002 +2.0680317602E-002  +2.3431652184E-002 +1.5141085200E+001  +5.9451423251E-001 -2.3014815970E+000 
10270904.881 +5.5868625136E-001 +3.9038803862E+000  +2.5497133899E-002 -1.4777611381E-001  +2.6230459135E-002 +1.9792619077E+001  +5.6063899542E-001 -2.7226293415E+000 
10396050.063 +5.5745794064E-001 +5.4601508011E+000  +2.7476016917E-002 -1.0735443917E+000  +2.3550178569E-002 +1.7267225629E+001  +5.7073620565E-001 -2.6560412158E+000 
10521195.244 +5.7221380836E-001 +9.6069563915E+000  +2.4536852517E-002 -7.0894075590E-001  +2.5716217494E-002 +1.5916708906E+001  +5.3862206981E-001 +2.7341171791E+000 
10646340.426 +5.1509666588E-001 +8.1636789276E+000  +2.5184183244E-002 +1.2484209156E+000  +2.1412435923E-002 +1.0939584587E+001  +5.8125270764E-001 +9.6399660398E-001 
10771485.607 +5.6974181097E-001 +8.2878157919E+000  +2.6197728663E-002 -8.3971550817E-001  +2.5809057784E-002 +1.6366845521E+001  +5.8971870222E-001 +2.1405533573E-001 
10896630.788 +5.5605311288E-001 +7.2936290611E+000  +2.5155929580E-002 -2.3077851861E+000  +2.3701538718E-002 +9.8744022647E+000  +5.7421911052E-001 -7.4062642519E-002 
11021775.970 +5.9521020640E-001 +7.4701746025E+000  +2.5598532726E-002 +5.5018412884E-001  +2.4926144439E-002 +8.5831312259E+000  +5.6107862943E-001 +3.0089078233E+000 
11146921.151 +5.5681017547E-001 +5.7025980585E+000  +2.3485616253E-002 +3.9280850569E+000  +2.5418792441E-002 +1.6890423157E+001  +5.6541402569E-001 +3.2363886174E+000 
11272066.333 +5.9721315418E-001 +7.4901467948E+000  +2.5738283176E-002 -8.0274697645E-002  +2.7969761534E-002 +1.3501175551E+001  +6.2363859217E-001 +1.2077347499E+000 
11397211.514 +6.2779852451E-001 +7.6929362798E+000  +2.7459406167E-002 -7.8096335526E-001  +2.6459587279E-002 +1.2393753816E+001  +5.9889437456E-001 +2.4862385356E+000 
11522356.696 +6.0782441617E-001 +7.8374881259E+000  +2.5492423600E-002 +3.3337597714E+000  +2.6066797446E-002 +1.2676203452E+001  +6.0660624770E-001 +2.7435250908E+000 
11647501.877 +6.0818311011E-001 +5.9181611602E+000  +2.4761250257E-002 -8.0929478323E+000  +2.8196955862E-002 +1.2470524653E+001  +6.3686218923E-001 -4.1812426319E-001 
11772647.059 +6.5355696812E-001 +6.9550917793E+000  +2.7526492130E-002 -6.2844046161E-001  +2.5852559005E-002 +5.6990347515E+000  +6.3245618972E-001 +3.7401998189E+000 
11897792.240 +6.4680691690E-001 +4.3986195052E+000  +2.6516767190E-002 +4.5984358735E+000  +2.7679995468E-002 +1.2100300279E+001  +6.6983739443E-001 +1.3407321658E+000 
12022937.422 +6.6113372376E-001 +5.0628998253E+000  +2.8444834665E-002 +2.3780280153E+000  +2.9842679129E-002 +1.3908104823E+001  +6.7884012177E-001 -4.4165142557E-001 
12148082.603 +6.6383833716E-001 +5.7750932834E+000  +2.9237190237E-002 +1.2893097229E+000  +2.7402977379E-002 +7.4497492522E+000  +7.0221292858E-001 +9.9038176523E-001 
12273227.785 +6.8887786894E-001 +6.1497098330E+000  +2.7662833239E-002 +3.4489273072E+000  +2.8658254927E-002 +9.4144820853E+000  +6.9054784163E-001 +1.5725404669E+000 
12398372.966 +6.7248766501E-001 +5.9497625220E+000  +2.9823467770E-002 +6.1122847721E+000  +2.9267960607E-002 +1.0748704890E+001  +7.0896026754E-001 +1.0600178354E+000 
12523518.148 +7.2302915612E-001 +3.0226586218E+000  +2.8457334973E-002 +5.8438581235E+000  +2.7907997004E-002 +1.6754349670E+001  +7.2454174309E-001 -1.4612986957E+000 
12648663.329 +7.2799580462E-001 -1.2669708965E-001  +2.8989018446E-002 +2.3671646668E+000  +3.0692954507E-002 +1.2209458836E+001  +7.4850612318E-001 +5.8201994843E-001 
12773808.511 +7.1048259529E-001 +1.9392577782E+000  +2.8989647970E-002 +3.5415617085E+000  +2.6822788274E-002 +8.9759658398E+000  +7.3246798959E-001 -1.1108759051E+000 
12898953.692 +7.3297242850E-001 +2.2215791335E+000  +2.9397486318E-002 +3.1738410904E+000  +2.9137400597E-002 +7.3467047858E+000  +7.7501790934E-001 +1.8512171174E-001 
13024098.874 +7.7046260633E-001 +1.2388719592E+000  +2.9323540433E-002 +4.6588422308E+000  +3.0427686361E-002 +9.6597686396E+000  +7.8135098170E-001 -6.9456621763E-001 
13149244.055 +7.8717777801E-001 +7.4004587042E-001  +3.2051710093E-002 +1.2401743522E+000  +2.8620675948E-002 +3.2914643968E+000  +7.8938931902E-001 -1.7928402117E+000 
13274389.237 +8.1216187355E-001 -5.5713642782E-001  +3.0984006932E-002 +6.3258148349E+000  +2.9850312219E-002 +7.0198834353E+000  +7.7070250575E-001 -1.7787301943E+000 
13399534.418 +8.0893864844E-001 -6.9742852120E-001  +3.2393092919E-002 +1.7322232396E+000  +2.9294774780E-002 +5.5104087247E+000  +8.3610978475E-001 -1.1290506701E+000 
13524679.599 +8.3336506797E-001 -2.3267158952E+000  +3.1492901701E-002 +7.2048706447E+000  +3.1578639359E-002 +7.6839214643E+000  +8.3473604493E-001 -2.7304975171E+000 
13649824.781 +8.3188173991E-001 -2.8686835694E+000  +3.2564986058E-002 +1.8610298878E+000  +2.9997787886E-002 +5.2127507834E+000  +8.4947048686E-001 -2.7207968112E+000 
13774969.962 +8.4502981667E-001 -2.7412299576E+000  +3.1739821005E-002 +3.4111500883E+000  +3.2090206417E-002 +7.7139928763E+000  +8.6882120221E-001 -3.0795001307E+000 
13900115.144 +8.9185561255E-001 -2.4545464074E+000  +3.2213740205E-002 +2.5076923520E+000  +3.1952764415E-002 +4.4988991743E+000  +9.0775528422E-001 -3.5180830263E+000 
14025260.325 +8.9769592343E-001 -4.7038814995E+000  +3.1310067133E-002 +1.1722884136E+000  +3.1146413506E-002 +4.0849824221E+000  +9.1286380517E-001 -3.8109373760E+000 
14150405.507 +9.1559739372E-001 -5.1615340954E+000  +3.3703646650E-002 +2.7338248052E+000  +3.1460654053E-002 +3.1618563896E+000  +8.9141554542E-001 -4.3086008813E+000 
14275550.688 +9.3016423237E-001 -4.3961109875E+000  +3.1873466185E-002 +6.2524084733E-001  +3.2001121694E-002 +3.7361397337E+000  +9.3298865664E-001 -5.1817497202E+000 
14400695.870 +9.6430930969E-001 -6.5967133784E+000  +3.2475026953E-002 +3.0505252606E+000  +3.1831139567E-002 -1.2842618072E-001  +9.8774949820E-001 -4.0759510378E+000 
