!  2-Port S-parameters saved by WinCal
! VAR MeasName=S-Parameters (CALIBRATED_DATA) read from VNA (P5004A)
! VAR MeasDate=29/08/2024 10:07:58
! VAR NAME=S2_r9c1_RESET2_9k-100M_3
! VAR FILENAME=S2_r9c1_RESET2_9k-100M_3.S2P
! VAR DATE=29/08/2024 10:07:58
! VAR PHYS_PORTS=1,2
! VAR ObjTypeName=DATASET
! VAR IndexType=Frequency
!
# Hz S MA R 50
9000.000 +9.5503188606E-002 -1.6391744090E+002  +3.3471339111E-002 -7.3560734174E+001  +3.5602196861E-003 +1.7465201063E+002  +2.9654427768E-001 -8.4750550199E+001 
134145.181 +1.1054581704E-001 +1.6965114612E+002  +3.7759946606E-004 +1.0635748811E+002  +1.8149119505E-004 -1.5374411280E+002  +2.3923089054E-001 -1.7061434752E+002 
259290.363 +1.1216304957E-001 +1.6976819542E+002  +5.8651015819E-004 +2.4382765984E+001  +5.9036696299E-004 +4.8905071740E+001  +2.3722400149E-001 -1.6696277508E+002 
384435.544 +1.1502088343E-001 +1.7006496607E+002  +2.7975590416E-004 -1.3155390242E+002  +9.5377652590E-004 -2.4850720523E+000  +2.4506552970E-001 -1.6894147706E+002 
509580.726 +1.1414700186E-001 +1.7168686103E+002  +3.4753834765E-004 +2.2848648959E+001  +2.0576589425E-003 +6.1065838213E+001  +2.5078140974E-001 -1.6432472243E+002 
634725.907 +1.1862594261E-001 +1.7100246415E+002  +1.7175987909E-003 -8.7648201151E+001  +7.9460796153E-004 +4.2861531890E+001  +2.6003407858E-001 -1.6335333601E+002 
759871.089 +1.1882059182E-001 +1.7118737222E+002  +3.7464257380E-004 -1.4728989055E+002  +9.6980058597E-004 +6.7115881680E+001  +2.5526312872E-001 -1.6686265797E+002 
885016.270 +1.1922537217E-001 +1.6884751253E+002  +6.8456996067E-004 -3.7067398758E+001  +2.7729919334E-004 -1.4447641366E+002  +2.4712655323E-001 -1.6709154951E+002 
1010161.452 +1.1760426341E-001 +1.6918668474E+002  +1.1754130685E-003 -7.8395136694E+001  +1.0120291588E-003 -1.4514098422E+002  +2.0959011546E-001 -1.7061362152E+002 
1135306.633 +1.1938570443E-001 +1.6729996074E+002  +1.5713902369E-003 -4.6098977054E+000  +2.3361877467E-003 +1.7566201059E+002  +1.9504695303E-001 -1.6784331480E+002 
1260451.815 +1.2218016349E-001 +1.7154519911E+002  +1.8270540217E-003 -5.2321900849E+001  +2.7928429694E-003 +1.6039325802E+002  +2.3217773314E-001 -1.5748814617E+002 
1385596.996 +1.2420938523E-001 +1.7278066983E+002  +8.9228666719E-004 -1.2926037808E+002  +4.6444549609E-004 +1.6441063554E+002  +2.7130462584E-001 -1.5932046617E+002 
1510742.178 +1.2760365882E-001 +1.7143786050E+002  +3.3159458783E-004 -1.4497399093E+002  +3.4621416349E-004 +5.7949932979E+001  +2.6861448153E-001 -1.5905544857E+002 
1635887.359 +1.2666914294E-001 +1.7141387011E+002  +1.5972532422E-003 -5.9541318549E+001  +5.6286965179E-004 -1.3657755189E+002  +2.3885620805E-001 -1.5671335305E+002 
1761032.541 +1.3095080865E-001 +1.6931820664E+002  +1.2481137204E-003 +1.5729821482E+001  +1.9714054224E-003 -9.8257299151E+001  +2.3031306187E-001 -1.6011478004E+002 
1886177.722 +1.3040803945E-001 +1.6741411125E+002  +2.7329736881E-003 +8.6917560354E+001  +2.2015002342E-003 -7.0018561011E+001  +2.0381564910E-001 -1.6253825593E+002 
2011322.904 +1.3239456848E-001 +1.6702749216E+002  +3.0106378311E-003 +5.7770436595E+001  +3.1542150342E-003 -4.9048394210E+001  +2.0172896708E-001 -1.6119846255E+002 
2136468.085 +1.2768871589E-001 +1.6690021918E+002  +1.0500128038E-002 +7.4271076999E+001  +1.0954720875E-002 -2.3828392193E+001  +1.5559617107E-001 +1.5789220002E+002 
2261613.267 +1.3810203571E-001 +1.6396755214E+002  +4.9437516362E-003 +6.7599373013E+001  +5.4746027587E-003 -1.5560538641E+001  +1.5575071536E-001 -1.7523134671E+002 
2386758.448 +1.2715209230E-001 +1.6506072493E+002  +9.8840477763E-003 +7.5896327722E+001  +7.2774738521E-003 -5.3184702571E+001  +2.2095805810E-001 -1.7905302333E+002 
2511903.630 +1.3555230645E-001 +1.6381952981E+002  +1.2394086003E-002 +8.0051868486E+001  +1.6852522507E-002 -3.6376014975E+001  +1.3256426093E-001 +1.5834181635E+002 
2637048.811 +1.2357595666E-001 +1.6500975938E+002  +6.0442699228E-002 +6.4081006589E+001  +6.1059218781E-002 -4.6358762189E+001  +3.2025701630E-001 +6.9307481400E+001 
2762193.992 +9.6423942870E-002 -1.7682538334E+002  +5.8980261277E-002 +1.9808773659E+001  +1.4297282350E-001 -1.0385246427E+002  +2.5578059167E-001 +1.0943541139E+000 
2887339.174 +1.4186417912E-001 +1.7540422541E+002  +3.2378312479E-002 -3.3733027112E+001  +3.0686736773E-002 -1.3513189233E+002  +1.6846256862E-001 -5.5897354401E+001 
3012484.355 +1.2869749300E-001 +1.7154773498E+002  +2.6509943977E-002 -5.1911907573E+000  +2.8832693451E-002 -1.1437118672E+002  +8.3776665431E-002 -8.1016838477E+001 
3137629.537 +1.1137782905E-001 +1.6642728753E+002  +8.1380223768E-002 +1.0702572798E+001  +7.2460720927E-002 -8.9100930784E+001  +3.1488141725E-001 -1.9329571377E+001 
3262774.718 +1.3637665682E-001 +1.6657994055E+002  +2.8556980360E-002 +1.6924721118E+001  +2.2272014604E-002 -6.7902061183E+001  +1.1259719820E-001 -1.0907141140E+002 
3387919.900 +1.5083922783E-001 +1.5911463057E+002  +3.6150120892E-002 +2.3326227609E+001  +4.2733863901E-002 -5.0130918761E+001  +1.4068691955E-001 -2.4378726905E+001 
3513065.081 +1.5521887888E-001 +1.5643228351E+002  +3.5091480422E-002 +8.8512923915E+001  +3.9714935723E-002 +3.2555548480E+000  +3.8945070057E-001 +1.2670787430E+002 
3638210.263 +1.7201609517E-001 +1.4442276790E+002  +3.5225402671E-002 +1.1366445588E+002  +4.1818619019E-002 +4.3181787504E+001  +4.1418621939E-001 +1.4550365251E+002 
3763355.444 +1.8914078011E-001 +1.4970306457E+002  +3.3141464224E-002 +1.2503321039E+002  +3.6988603337E-002 +5.3863229775E+001  +5.0656696934E-001 +1.4846889080E+002 
3888500.626 +1.9394798800E-001 +1.4989341700E+002  +5.5136565288E-002 +1.1882298607E+002  +5.5452089283E-002 +4.5710792271E+001  +5.9175180508E-001 +1.2716485372E+002 
4013645.807 +1.8053271952E-001 +1.3919492085E+002  +6.2517746271E-002 +8.0730733903E+001  +9.4069477087E-002 +1.6375265469E+001  +4.6743992006E-001 +9.9350883071E+001 
4138790.989 +1.9421738164E-001 +1.4647370049E+002  +5.5461739595E-002 +1.2134747638E+002  +5.4900535963E-002 +6.2789924405E+001  +6.9653808661E-001 +1.3293656429E+002 
4263936.170 +1.8823293243E-001 +1.4463378126E+002  +4.5183059524E-002 +1.0180185578E+002  +4.4337046654E-002 +3.6170917778E+001  +4.3538172540E-001 +1.4520694334E+002 
4389081.352 +2.0204783080E-001 +1.4375467386E+002  +1.0730790214E-001 +6.7681832228E+001  +9.2392583316E-002 +1.5409056678E+001  +7.4508566613E-001 +6.4729772268E+001 
4514226.533 +2.1056255558E-001 +1.3950185361E+002  +6.6618363793E-002 +9.3305895486E+001  +6.9201306827E-002 +4.1886882104E+001  +5.5489160358E-001 +1.2322296431E+002 
4639371.715 +2.6990071204E-001 +1.2914337662E+002  +1.9330042833E-001 +1.1054167866E+002  +1.7246547086E-001 +6.4634469874E+001  +1.6275587328E+000 +9.7786782581E+001 
4764516.896 +4.3281310892E-001 +1.2726174569E+002  +3.3176673489E-001 +1.4522627302E+002  +3.5031751739E-001 +9.1291975262E+001  +2.4406940726E+000 +1.0218022990E+002 
4889662.078 +3.3121505364E-001 +1.3282295396E+002  +4.6210511216E-001 -5.6602669843E+001  +4.7350925813E-001 -9.7570653331E+001  +4.6007505604E+000 -1.1803502029E+002 
5014807.259 +4.0132954949E-001 +1.4154992228E+002  +4.3984110112E-001 -1.7383277497E+002  +4.2883000667E-001 +1.4644131381E+002  +5.6011022876E+000 +1.4431856269E+002 
5139952.441 +3.9744239104E-001 +1.3174568077E+002  +2.0228466798E-001 +1.5637323186E+002  +2.3098265371E-001 +1.1172268790E+002  +2.1614045261E+000 +1.2989641760E+002 
5265097.622 +4.4623896091E-001 +1.3173915547E+002  +1.7482723587E-001 +1.3925896533E+002  +1.7894348733E-001 +9.7794436397E+001  +1.7030296234E+000 +1.1711252354E+002 
5390242.804 +4.1857867705E-001 +1.2797722585E+002  +1.5913125261E-001 +1.1240202466E+002  +1.2950064321E-001 +7.1043737248E+001  +1.2419035474E+000 +1.1000821994E+002 
5515387.985 +4.2790431069E-001 +1.2328942346E+002  +2.3225005324E-001 +7.9148805036E+001  +2.1805968909E-001 +4.5771634800E+001  +1.6863382049E+000 +5.8857620065E+001 
5640533.166 +4.3513558495E-001 +1.3244420521E+002  +1.4705526832E-001 +8.9301666753E+001  +1.3566280304E-001 +5.9611303512E+001  +1.4256218355E+000 +7.7252453925E+001 
5765678.348 +4.5845404554E-001 +1.2280425463E+002  +1.5500182185E-001 +7.2748443213E+001  +1.3115259086E-001 +4.0796363806E+001  +1.0262631451E+000 +6.1416298642E+001 
5890823.529 +4.3353285683E-001 +1.1465195037E+002  +1.6776263654E-001 +5.7710325702E+001  +2.0900671494E-001 +3.7751725669E+001  +1.3954718811E+000 +4.9639526543E+001 
6015968.711 +5.1015018420E-001 +1.1221229418E+002  +1.6752254177E-001 +7.4055176043E+001  +1.6503907729E-001 +4.5127048958E+001  +1.2168881538E+000 +7.7139858687E+001 
6141113.892 +7.0875803455E-001 +1.1562700156E+002  +2.0368623706E-001 +7.0500705645E+001  +1.9748926731E-001 +5.4221843272E+001  +1.3147420184E+000 +5.5110375632E+001 
6266259.074 +8.0456962173E-001 +1.1202410050E+002  +2.0392520543E-001 +5.9594668342E+001  +1.6063396586E-001 +4.0573331443E+001  +1.0655435081E+000 +2.7088290262E+001 
6391404.255 +7.0308042349E-001 +8.2461803804E+001  +2.2992070977E-001 +2.4366663625E+001  +2.5543131025E-001 +4.0096066809E+000  +1.4163951667E+000 +7.4347034143E+000 
6516549.437 +1.1199969529E+000 +9.0226479912E+001  +2.2544560022E-001 +3.8151532983E+001  +2.3521359113E-001 +3.3224950774E+001  +1.1356133061E+000 +1.2063080170E+001 
6641694.618 +8.6172163577E-001 +5.9878473155E+001  +2.4139454497E-001 +1.1562132044E+001  +2.2714740293E-001 +3.4740931971E+000  +1.3902899107E+000 -8.7342303313E-001 
6766839.800 +1.5420524387E+000 +5.1992505820E+001  +2.9989407847E-001 +1.9985009177E+001  +2.8782939622E-001 +1.2079449359E+001  +1.2015078687E+000 +7.1072302535E+000 
6891984.981 +1.3139499380E+000 +2.5658062296E+001  +2.4325311279E-001 +3.3713088486E+000  +2.6321386993E-001 +2.3192855161E+000  +1.2296435903E+000 +4.0666710641E+000 
7017130.163 +1.3272365862E+000 +2.0463962813E+001  +2.4041390407E-001 -3.9323828713E-001  +2.0411601791E-001 -4.8545410178E+000  +1.1216361412E+000 -9.8037672996E+000 
7142275.344 +1.5002193518E+000 +2.0010854577E+001  +2.0177830967E-001 +6.7101880676E+000  +1.9805403986E-001 +8.3978262745E-001  +1.1656211908E+000 -1.2022689596E+001 
7267420.526 +1.2029490966E+000 +7.9562621312E+000  +1.6082943918E-001 -2.4254216554E+000  +1.6154396163E-001 -2.2495568518E+000  +1.1779027988E+000 -1.4823247553E+001 
7392565.707 +1.2315487835E+000 +3.5624558599E+000  +1.4830621484E-001 +5.7156495440E+000  +1.4348442227E-001 +9.6695172746E+000  +1.1913211870E+000 -8.8643176058E+000 
7517710.889 +1.0831258468E+000 -2.0847181957E-001  +1.3927033827E-001 +3.7177206925E+000  +1.2260266156E-001 +4.3962946178E+000  +1.1078269841E+000 -1.2310383482E+001 
7642856.070 +8.6519553817E-001 +3.7676699420E+000  +1.1695920085E-001 +7.5950963235E-001  +1.2047943267E-001 +7.0560480940E+000  +9.4222180238E-001 -6.3026529182E+000 
7768001.252 +7.7273107296E-001 +8.5496023118E+000  +1.1692221042E-001 +2.4038313495E+000  +1.0946053971E-001 +7.4924292484E+000  +9.9039966023E-001 -1.1918065244E+001 
7893146.433 +8.3752355616E-001 -7.7476068994E-001  +1.1252044559E-001 -4.6835498620E-001  +1.2047850195E-001 +1.0670946184E+001  +7.8106248313E-001 -4.5035408968E+000 
8018291.615 +6.7223346335E-001 +4.4825531683E+000  +1.1443701601E-001 -1.8772369139E+000  +1.1289923036E-001 +6.8424360229E+000  +7.4961365187E-001 -3.3000891481E+000 
8143436.796 +6.6493258352E-001 +6.7779190428E+000  +1.0752672857E-001 -7.8549068006E-001  +1.0310329647E-001 +1.0471237423E+001  +7.6764846587E-001 +2.5928396380E+000 
8268581.977 +6.6488041576E-001 +9.0634349846E+000  +1.0130985274E-001 -4.7193328184E-001  +1.0154485110E-001 +5.0204239467E+000  +6.4119794465E-001 +4.7325216526E+000 
8393727.159 +4.6330309565E-001 +1.0910961389E+001  +1.0034050226E-001 -6.7460485013E+000  +9.8164615821E-002 +1.0264994601E+001  +6.5722414497E-001 +3.5507029434E+000 
8518872.340 +5.6785249769E-001 +1.2373033585E+001  +1.0265997826E-001 -1.6845737438E+000  +9.9417137771E-002 +8.7403604359E+000  +6.3285197815E-001 +1.5041139073E+000 
8644017.522 +5.6637052283E-001 +1.0389764903E+001  +9.9896988024E-002 -4.5082461537E+000  +9.6306894141E-002 +9.0987169796E+000  +5.7859449762E-001 -6.6907849828E-001 
8769162.703 +5.1971897585E-001 +4.3171489329E-001  +1.0418615377E-001 -4.6264336594E+000  +9.8041038890E-002 +8.8522031162E+000  +6.2535276781E-001 -3.5456259473E+000 
8894307.885 +5.3982039005E-001 +3.8453471228E+000  +9.9474370869E-002 -3.4244855167E+000  +1.0093243130E-001 +1.2049755067E+001  +5.9812664975E-001 -1.6666145779E+000 
9019453.066 +5.0536636377E-001 +2.7867314901E+000  +9.8601695657E-002 -2.7416860552E+000  +9.8823438721E-002 +1.2730362757E+001  +5.7521798997E-001 -1.4309266550E+000 
9144598.248 +4.2195886220E-001 +1.0741499153E+001  +9.7880569353E-002 -4.6765191427E+000  +9.3949531507E-002 +9.0168723403E+000  +5.7495111061E-001 -2.1065717196E+000 
9269743.429 +4.7709975647E-001 +1.0244605748E+001  +9.4482267396E-002 -4.8032132091E+000  +9.7581904052E-002 +1.2386590319E+001  +5.0625643518E-001 +1.9254520346E+000 
9394888.611 +4.8732942964E-001 +8.8290161853E+000  +9.5060712746E-002 -3.9683959736E+000  +9.6294553913E-002 +1.2003737291E+001  +4.9819071088E-001 -1.4806276689E+000 
9520033.792 +4.4872014744E-001 +7.3037709151E+000  +9.6059351428E-002 -3.5535392425E+000  +9.4791009722E-002 +1.1549551882E+001  +4.5962894964E-001 -3.9400460402E+000 
9645178.974 +4.4847975248E-001 +4.7530051137E+000  +9.3459033002E-002 -4.1688416109E+000  +9.4148515510E-002 +1.1316300228E+001  +4.5983453531E-001 +3.9660304321E-001 
9770324.155 +4.2126841830E-001 +8.4861150943E+000  +9.7368849793E-002 -2.6207505063E+000  +9.2995716270E-002 +1.2814849530E+001  +5.2147981090E-001 -5.4869930666E+000 
9895469.337 +4.7991847433E-001 +9.9502331266E+000  +9.9130364682E-002 -4.0664839573E+000  +1.0086907115E-001 +1.2885263559E+001  +5.1193806607E-001 -1.0794286736E+001 
10020614.518 +4.8249114004E-001 -1.8363137573E-001  +1.0160810018E-001 -3.4773862656E+000  +1.0084401314E-001 +1.2419862151E+001  +5.0124454647E-001 -4.0192861984E+000 
10145759.700 +4.7515035711E-001 +5.4135383471E+000  +9.8837785100E-002 -1.0935089656E+000  +1.0010350344E-001 +1.2949963946E+001  +4.9060158937E-001 -3.3332622183E+000 
10270904.881 +4.6796766932E-001 +6.5943124986E+000  +9.5357456594E-002 -2.4786315251E+000  +9.8942577166E-002 +1.3406844058E+001  +4.9165169807E-001 -1.2284177365E+000 
10396050.063 +4.4980088939E-001 +1.4829840891E+001  +9.8657551493E-002 -2.1661788087E+000  +9.8235721274E-002 +1.3837088152E+001  +4.8928373480E-001 -3.5978511980E+000 
10521195.244 +4.5561590147E-001 +7.3561668856E+000  +9.7948791333E-002 -2.0513856191E+000  +9.8437543526E-002 +1.3600708228E+001  +4.9868133384E-001 -1.0121675382E+000 
10646340.426 +4.5708345956E-001 +6.1653883175E+000  +1.0103633166E-001 -2.7077582527E+000  +9.8469610606E-002 +1.2109148272E+001  +4.8366935437E-001 +2.5984104037E+000 
10771485.607 +4.8267575301E-001 +1.0872401561E+001  +1.0075672613E-001 -2.5074331328E+000  +9.9861444360E-002 +1.2195759962E+001  +4.8298424292E-001 -1.1266239053E+000 
10896630.788 +5.3036644306E-001 +9.1998360803E+000  +1.0286930747E-001 +1.8618068040E-002  +9.7696317002E-002 +1.4015219824E+001  +5.1396961455E-001 +1.0109503133E+000 
11021775.970 +5.2260981790E-001 +7.6154101404E+000  +1.0482223887E-001 -1.1574723886E+000  +1.0243877539E-001 +1.3956951706E+001  +5.2449052693E-001 +3.8002849678E+000 
11146921.151 +4.9948448101E-001 +8.7971993991E+000  +1.0300656537E-001 +2.0346534223E-001  +1.0181286994E-001 +1.3327255082E+001  +5.4114351839E-001 +2.7418764342E+000 
11272066.333 +5.1934538154E-001 +6.4033302410E+000  +1.0500317238E-001 -2.0615819099E-001  +1.0219079082E-001 +1.3592288038E+001  +5.3350568412E-001 +1.3243923682E+000 
11397211.514 +5.0695103821E-001 +9.8049037792E+000  +1.0490454172E-001 +1.2693575802E+000  +1.0501691976E-001 +1.3486807712E+001  +5.5020565861E-001 +8.8138638050E-001 
11522356.696 +5.1288572397E-001 +7.3337182926E+000  +1.0724108990E-001 +1.4897902988E+000  +1.0667300838E-001 +1.2071681026E+001  +5.3491970295E-001 +3.6715159636E+000 
11647501.877 +5.3198628094E-001 +5.5475281597E+000  +1.0860106397E-001 +9.2049644737E-001  +1.0444676716E-001 +1.3164456579E+001  +5.8173519123E-001 +5.6286971374E-001 
11772647.059 +5.4942451396E-001 +7.7136992774E+000  +1.0736077683E-001 +1.1776255494E+000  +1.0610173127E-001 +1.2030983082E+001  +5.7948456872E-001 +9.3365698163E-001 
11897792.240 +5.2902853163E-001 +6.5696065607E+000  +1.1045138484E-001 +1.3151133122E+000  +1.0945887814E-001 +1.1354557147E+001  +5.7355555371E-001 +1.0348190052E+000 
12022937.422 +5.4139282157E-001 +4.1641493116E+000  +1.1135553510E-001 +2.0331503186E+000  +1.1055231244E-001 +1.1261091497E+001  +5.9126697988E-001 +4.5496650352E+000 
12148082.603 +5.9238738875E-001 +4.6076637385E+000  +1.1192445718E-001 +2.1472760393E+000  +1.1306446567E-001 +9.2589034790E+000  +5.6575168041E-001 +1.6450803894E+000 
12273227.785 +5.5133283140E-001 +6.9962464494E+000  +1.1136517568E-001 +2.0635138222E+000  +1.1192389471E-001 +9.8132078627E+000  +5.8238535631E-001 -1.1487920323E+000 
12398372.966 +6.0990923586E-001 +4.1091995477E+000  +1.1502223410E-001 +2.3482294677E+000  +1.1359971592E-001 +9.6899405592E+000  +6.0456739364E-001 +1.6207365379E+000 
12523518.148 +6.1374677238E-001 +5.4038942922E+000  +1.1548468191E-001 +2.0083909805E+000  +1.1400356165E-001 +8.5190161188E+000  +6.1798665013E-001 -7.3604566927E-001 
12648663.329 +6.2690740928E-001 +2.1102658680E+000  +1.1652555893E-001 +2.5569790268E+000  +1.1788012076E-001 +9.2547225165E+000  +6.3066945747E-001 +2.7054679835E+000 
12773808.511 +6.5288401307E-001 +1.6088694196E+000  +1.1750993718E-001 +2.7678592446E+000  +1.1807038891E-001 +8.4835759742E+000  +6.6374612713E-001 +2.9354034518E-001 
12898953.692 +6.8180392832E-001 +1.5321828076E+000  +1.1890449998E-001 +2.7586017081E+000  +1.1893287912E-001 +8.8750797435E+000  +6.7056877217E-001 +8.8284255579E-003 
13024098.874 +6.4964906798E-001 +2.4371466912E+000  +1.2058100805E-001 +2.4967720584E+000  +1.1922953841E-001 +8.0305152282E+000  +6.8554398020E-001 -1.7102385351E+000 
13149244.055 +7.0285158771E-001 +1.1210093431E+000  +1.2178960559E-001 +3.1786666573E+000  +1.1997330296E-001 +7.8046087164E+000  +7.1666511629E-001 -1.5736051913E+000 
13274389.237 +7.2354641342E-001 +1.2346934165E+000  +1.2324948296E-001 +2.9212710767E+000  +1.1975955948E-001 +6.9880239742E+000  +7.0609261724E-001 -1.6517654339E+000 
13399534.418 +7.2354965335E-001 +1.1350700739E-001  +1.2472322042E-001 +2.6901518176E+000  +1.2213491735E-001 +6.0120372603E+000  +7.2839211592E-001 -4.2906156794E+000 
13524679.599 +7.1878331538E-001 -1.8006745781E+000  +1.2394517493E-001 +1.8112686027E+000  +1.2267208063E-001 +5.5515128695E+000  +7.3192738342E-001 -2.3261525214E+000 
13649824.781 +7.4730718616E-001 -1.9096286153E+000  +1.2541341435E-001 +1.9475727561E+000  +1.2339683339E-001 +4.9652294272E+000  +7.6246509800E-001 -3.3820116734E+000 
13774969.962 +7.7583118489E-001 -2.4924955078E+000  +1.2666837362E-001 +3.3368135515E+000  +1.2406101285E-001 +3.7247568834E+000  +7.7197633745E-001 -4.1234925330E+000 
13900115.144 +7.9529978549E-001 -3.4842831808E+000  +1.2747639431E-001 +2.4648585485E+000  +1.2624632378E-001 +4.2272404965E+000  +8.0266922545E-001 -4.2700718499E+000 
14025260.325 +8.0594180934E-001 -4.2662822335E+000  +1.2769986676E-001 +2.2796056692E+000  +1.2743079050E-001 +3.1669935025E+000  +7.8847913581E-001 -4.7330007655E+000 
14150405.507 +8.2755710637E-001 -4.2438484466E+000  +1.2772055073E-001 +2.2926732132E+000  +1.2774599358E-001 +3.0697654651E+000  +8.3491595519E-001 -5.8966042206E+000 
14275550.688 +8.5464141239E-001 -4.2523366531E+000  +1.3018481438E-001 +2.1375135898E+000  +1.2946522209E-001 +3.5130053438E+000  +8.6513134717E-001 -5.5061588656E+000 
14400695.870 +8.5026011390E-001 -5.8271191681E+000  +1.2870811511E-001 +1.3975608388E+000  +1.2929060018E-001 +1.5317197206E+000  +8.4485800748E-001 -4.7018926571E+000 
