!  2-Port S-parameters saved by WinCal
! VAR MeasName=S-Parameters (CALIBRATED_DATA) read from VNA (P5004A)
! VAR MeasDate=29/08/2024 13:40:10
! VAR NAME=S2_r9c6_RESET1_9k-100M_1
! VAR FILENAME=S2_r9c6_RESET1_9k-100M_1.S2P
! VAR DATE=29/08/2024 13:40:10
! VAR PHYS_PORTS=1,2
! VAR ObjTypeName=DATASET
! VAR IndexType=Frequency
!
# Hz S MA R 50
9000.000 +8.5692886577E-002 -1.7064374162E+002  +6.7279663819E-003 +6.7954464279E+001  +3.7384538951E-003 -5.9457050566E+001  +2.6345221023E-001 -1.4446504141E+002 
134145.181 +1.1105236087E-001 +1.6990176620E+002  +8.5333989351E-004 -8.8405900599E+001  +5.5983325461E-004 +1.2333528274E+001  +2.4165230182E-001 -1.7148988100E+002 
259290.363 +1.1301417413E-001 +1.7004864702E+002  +4.2444385851E-004 +1.2925610589E+001  +2.6918417112E-004 +7.2661235083E+001  +2.4805096079E-001 -1.6969842557E+002 
384435.544 +1.1444724505E-001 +1.7006076986E+002  +1.0241581265E-003 -8.8773883926E+001  +7.0715609164E-004 +1.6062839141E+002  +2.4231124525E-001 -1.7004121872E+002 
509580.726 +1.1321578356E-001 +1.7025014704E+002  +9.1145422603E-004 -3.0993954113E+001  +1.3971829566E-003 +6.9603385553E+001  +2.4068617085E-001 -1.6699504483E+002 
634725.907 +1.1885953712E-001 +1.7068366789E+002  +1.0132780908E-003 -1.1338133623E+002  +1.4727083817E-003 +7.1559031827E+001  +2.5397606080E-001 -1.6614244536E+002 
759871.089 +1.1995869023E-001 +1.7051827869E+002  +5.2837741864E-004 -1.3404535495E+002  +6.5406240343E-004 +8.3977666875E+001  +2.4463257414E-001 -1.6711861129E+002 
885016.270 +1.2097715765E-001 +1.6872271232E+002  +5.5968829148E-004 -1.6384488760E+001  +7.7866686436E-004 +1.2275412446E+002  +2.4787583879E-001 -1.6652057115E+002 
1010161.452 +1.1793870536E-001 +1.6933047559E+002  +9.8798295846E-004 -6.0819363928E+001  +2.8109318609E-003 +1.6349470682E+002  +2.2018913742E-001 -1.6784036580E+002 
1135306.633 +1.1161281010E-001 +1.6809307600E+002  +2.8775717282E-003 -1.0863430044E+001  +6.6335910262E-004 -1.4341481619E+002  +2.0436882492E-001 -1.7100663158E+002 
1260451.815 +1.1896628335E-001 +1.7032892008E+002  +2.7468366261E-003 -1.8183838618E+001  +4.2604808353E-003 +1.7449749785E+002  +2.1660809737E-001 -1.5895401930E+002 
1385596.996 +1.2527917032E-001 +1.7269795665E+002  +2.9378397314E-003 -4.7894162418E+001  +2.4543248259E-003 +7.8666312301E+001  +2.5273992725E-001 -1.5282303982E+002 
1510742.178 +1.2765453194E-001 +1.7183100022E+002  +6.3948433616E-004 -6.1407367665E+001  +1.5349428512E-003 +1.5480643265E+002  +2.5310641697E-001 -1.5890277337E+002 
1635887.359 +1.2883153151E-001 +1.7156576736E+002  +1.2365708615E-003 -4.0358829425E+001  +1.4731617950E-003 -1.6282407688E+002  +2.5195769976E-001 -1.5731649659E+002 
1761032.541 +1.2851574712E-001 +1.6922365974E+002  +1.5483610313E-003 +7.9732169476E+001  +1.8956554656E-003 -1.2986965630E+002  +2.2888871944E-001 -1.6180022039E+002 
1886177.722 +1.2762001928E-001 +1.6821947593E+002  +2.1922201080E-003 +2.1390671330E+001  +2.7574828046E-003 -5.5229644490E+001  +2.3013762375E-001 -1.5883294801E+002 
2011322.904 +1.2985892647E-001 +1.6859755424E+002  +5.3867090198E-003 +8.1282782635E+001  +3.2071480713E-003 -9.4339068352E+001  +2.0936599237E-001 -1.5855146458E+002 
2136468.085 +1.2781287681E-001 +1.6319074163E+002  +1.0297968306E-002 +6.5422037470E+001  +8.1484986076E-003 -6.6414722741E+001  +1.9937755507E-001 -1.5815408964E+002 
2261613.267 +1.3382793229E-001 +1.6805097447E+002  +1.2094260492E-002 +6.7139478083E+001  +1.0238787727E-002 -6.1248521937E+001  +1.4459475647E-001 -1.6962058959E+002 
2386758.448 +1.3892201437E-001 +1.6518368767E+002  +8.2785146501E-003 +9.0231282147E+001  +8.0073904421E-003 -3.6931184677E+001  +2.2455017139E-001 -1.7805959869E+002 
2511903.630 +1.3221918792E-001 +1.6324386612E+002  +2.0144690897E-002 +9.2527299265E+001  +2.3700799802E-002 -7.3956799444E-001  +2.2244783264E-001 +1.5782354751E+002 
2637048.811 +1.1622252733E-001 +1.5635848808E+002  +2.7062767745E-002 +1.0843206192E+002  +3.1799052936E-002 -5.7952848653E+000  +2.3623540183E-001 +1.6937072298E+002 
2762193.992 +1.2981742522E-001 +1.7423294676E+002  +6.5380029337E-002 +4.0395085828E+001  +5.7925583891E-002 -7.1649522358E+001  +1.8382169382E-001 +8.9891667546E+001 
2887339.174 +1.3619362702E-001 +1.7552309880E+002  +5.2754750116E-002 -8.1827660911E+000  +6.0779098218E-002 -9.8233208282E+001  +1.7089736852E-001 -3.8300386425E+001 
3012484.355 +1.2782035655E-001 +1.7587148643E+002  +5.6029281762E-002 +1.7184371287E+001  +6.1675300101E-002 -9.1066549728E+001  +4.6533815212E-002 -2.6991208013E+000 
3137629.537 +1.3000154682E-001 +1.6717829768E+002  +4.7039676312E-002 +1.9685574335E+001  +3.7246555869E-002 -8.4267531269E+001  +8.5074489935E-002 -1.5523058908E+002 
3262774.718 +1.3240747789E-001 +1.6850397674E+002  +5.1440199177E-002 +7.7140772031E+000  +4.9798294396E-002 -8.1154164082E+001  +9.1289988916E-002 -4.2071745893E+001 
3387919.900 +1.4969798691E-001 +1.6337299392E+002  +3.5287935047E-002 +5.0825342035E+001  +3.4545346184E-002 -2.8103667648E+001  +1.3472388934E-001 +1.3408631519E+002 
3513065.081 +1.6287372247E-001 +1.5199162674E+002  +5.0736195991E-002 +5.3226576463E+001  +4.6714839142E-002 -3.9297378891E+001  +5.2029005232E-002 -9.7257259701E+001 
3638210.263 +1.9345114535E-001 +1.4972940914E+002  +5.5243785727E-002 +1.1458532761E+002  +4.8064750504E-002 +3.3309771957E+001  +3.2234524630E-001 +1.3851237931E+002 
3763355.444 +1.9028809672E-001 +1.5182200766E+002  +4.1732793374E-002 +1.3106215190E+002  +5.0077204747E-002 +5.5262918114E+001  +5.0827544006E-001 +1.4892463198E+002 
3888500.626 +1.6917509660E-001 +1.5424854904E+002  +4.2097153941E-002 +7.6895514407E+001  +4.0153024309E-002 +6.9475356650E-001  +2.4246624279E-001 +1.5099855569E+002 
4013645.807 +1.7627296583E-001 +1.4953691733E+002  +5.3227215516E-002 +9.1415625468E+001  +5.2357590354E-002 +1.5439123601E+001  +3.0031380449E-001 +1.4928456533E+002 
4138790.989 +1.4013925167E-001 +1.4938791544E+002  +7.4853463512E-002 +6.1854758451E+001  +7.1648763237E-002 -1.6302020626E+000  +2.4730135502E-001 +1.3719021078E+002 
4263936.170 +1.9768486603E-001 +1.5246896757E+002  +5.6633243031E-002 +1.0240543536E+002  +6.7781160668E-002 +3.6600332756E+001  +5.1030453011E-001 +1.3384399032E+002 
4389081.352 +2.0506020190E-001 +1.3320254028E+002  +1.0817515416E-001 +8.8250825699E+001  +1.2031002876E-001 +1.6932714164E+001  +3.5480384598E-001 +1.0675486423E+002 
4514226.533 +1.8948267296E-001 +1.4253446179E+002  +1.3206658840E-001 +7.0993256963E+001  +1.2282980562E-001 +1.5201995571E+001  +5.7316472554E-001 +8.2701993874E+001 
4639371.715 +3.0408564680E-001 +1.1868885119E+002  +3.0953212111E-001 +1.0768721075E+002  +2.9187412660E-001 +5.0076286025E+001  +1.1516039221E+000 +9.1228325885E+001 
4764516.896 +3.9159924382E-001 +1.3230210158E+002  +3.8308358834E-001 +1.6629314594E+002  +3.0821420891E-001 +1.2679383051E+002  +1.8160257101E+000 +1.4605357162E+002 
4889662.078 +4.7045986635E-001 +1.4264603152E+002  +6.4809876830E-001 +1.6889081608E+002  +6.3329293259E-001 +1.1890850515E+002  +3.5784855757E+000 +1.2413304915E+002 
5014807.259 +4.0050426812E-001 +1.3298050460E+002  +4.6352432261E-001 +1.4530788834E+002  +4.3535932521E-001 +1.0735394181E+002  +2.8257398785E+000 +1.2661091546E+002 
5139952.441 +3.2200304863E-001 +1.1715109849E+002  +6.9349108935E-001 +5.3173904772E+001  +6.0471802508E-001 +1.4911656717E+001  +3.8076860355E+000 +2.8455715513E+001 
5265097.622 +3.7616088183E-001 +1.3459077654E+002  +3.7500613535E-001 +1.2325107353E+002  +3.3798697842E-001 +8.2029179604E+001  +2.6201426805E+000 +1.0839988293E+002 
5390242.804 +4.1533665743E-001 +1.3374344042E+002  +2.1594106771E-001 +1.1978148135E+002  +2.1287387798E-001 +8.5758395165E+001  +1.4066483809E+000 +1.1113823943E+002 
5515387.985 +4.2318678155E-001 +1.3658965197E+002  +1.4006906837E-001 +1.3014284260E+002  +1.3968860451E-001 +1.0045413085E+002  +1.1863662703E+000 +1.3864505901E+002 
5640533.166 +4.0337450476E-001 +1.2988710420E+002  +2.0697234086E-001 +9.6728303107E+001  +1.8438955845E-001 +6.0602404182E+001  +1.1138756360E+000 +1.0339096172E+002 
5765678.348 +4.7676415793E-001 +1.3061791114E+002  +2.2519405534E-001 +9.7639940381E+001  +2.0401242712E-001 +6.8067570978E+001  +1.2465627366E+000 +9.3575728392E+001 
5890823.529 +5.1367138532E-001 +1.1842791042E+002  +2.7821623804E-001 +8.6639246131E+001  +2.7960745693E-001 +6.2312168694E+001  +1.4060294282E+000 +8.9486485136E+001 
6015968.711 +5.7046558671E-001 +1.1648693715E+002  +3.6327784507E-001 +7.5304310096E+001  +3.4545428313E-001 +5.2331605757E+001  +1.8332982186E+000 +6.5116829215E+001 
6141113.892 +5.1733177026E-001 +1.0096420653E+002  +3.1991180600E-001 +5.6328915282E+001  +3.2136542406E-001 +3.6175613081E+001  +1.3110482683E+000 +6.5697104257E+001 
6266259.074 +5.7819988859E-001 +1.0449636480E+002  +2.7666727860E-001 +4.1103168404E+001  +2.6446275333E-001 +2.2683052364E+001  +9.8621527901E-001 +2.8578301970E+001 
6391404.255 +6.9457669681E-001 +8.9802442591E+001  +3.5749009761E-001 +3.7019648369E+001  +3.7933712441E-001 +2.5890752359E+001  +1.4495207559E+000 +3.1323629928E+001 
6516549.437 +7.0306712018E-001 +7.6972630636E+001  +3.3713454899E-001 +2.8243746402E+001  +3.1993229546E-001 +1.3068210981E+001  +9.9982148836E-001 +2.0768163089E+001 
6641694.618 +1.1196499568E+000 +7.7543352643E+001  +4.1814576683E-001 +3.1557954161E+001  +3.9963146150E-001 +1.8798739476E+001  +1.4392435666E+000 +1.0377534468E+001 
6766839.800 +1.1136462486E+000 +5.7675149067E+001  +3.5405451033E-001 +1.9043494137E+001  +3.5545997202E-001 +1.0138084174E+001  +7.9633625854E-001 +5.2156729283E+000 
6891984.981 +9.7425544690E-001 +3.9045364032E+001  +3.3813701344E-001 +4.8473474012E+000  +3.3627157799E-001 -3.0151256392E+000  +1.0302156178E+000 -7.1874857395E+000 
7017130.163 +1.0019528920E+000 +1.1888366901E+001  +3.4249776359E-001 -2.3151868095E+000  +3.2867788857E-001 -7.6020647535E+000  +9.6282125846E-001 -1.5362599104E+000 
7142275.344 +1.2666550150E+000 +5.1482902042E+000  +3.1598235002E-001 -2.8708135088E+000  +3.1864306396E-001 -5.4764501627E+000  +9.6202360128E-001 -5.6832578057E+000 
7267420.526 +1.1794927135E+000 -3.5018155414E+000  +2.9568536329E-001 -4.4139716158E-001  +2.8154148285E-001 -3.6088865006E+000  +1.1713198884E+000 -1.7373999781E+001 
7392565.707 +1.0829509186E+000 -6.7162433570E+000  +2.3073603451E-001 +2.9350073148E-001  +2.3379705136E-001 +4.2127483201E+000  +9.5397233794E-001 -1.3065512556E+001 
7517710.889 +9.0158861280E-001 +4.2832362591E+000  +2.1745146396E-001 +3.4441146688E+000  +2.0819022966E-001 +6.0588736590E+000  +9.3951613736E-001 -4.2164314506E+000 
7642856.070 +8.2547338705E-001 -1.2255227328E-002  +2.0066217456E-001 +1.3066416811E+000  +1.9496296272E-001 +7.6385546259E+000  +9.4926065853E-001 -4.9188529056E+000 
7768001.252 +8.3763682613E-001 +1.1900655044E+001  +1.8159311254E-001 +2.0611438429E+000  +1.9015890223E-001 +6.6636586423E+000  +7.5596829716E-001 -7.2182090545E+000 
7893146.433 +6.6670882668E-001 +3.4386949615E+000  +1.8749812092E-001 -1.7370049190E+000  +1.8751387140E-001 +4.8526867804E+000  +7.2459291944E-001 +3.4780298512E+000 
8018291.615 +6.3864542314E-001 +8.5041438084E+000  +1.7786147636E-001 +1.4812576407E+000  +1.8476824050E-001 +8.4261529266E+000  +7.3583607030E-001 -3.0525624586E+000 
8143436.796 +5.8995919042E-001 +1.0195583033E+001  +1.7440894343E-001 +2.1972400044E-001  +1.7341883125E-001 +6.5566130679E+000  +6.6529122287E-001 +9.1630667259E+000 
8268581.977 +4.9451049342E-001 +2.1320200125E+001  +1.6588078994E-001 -2.6525331326E+000  +1.6866176903E-001 +5.8571243452E+000  +5.9785794534E-001 +3.7325833651E+000 
8393727.159 +5.5381512125E-001 +1.7087239948E+001  +1.6226019891E-001 -1.1219524948E+000  +1.6257209790E-001 +8.1873680242E+000  +5.7250104222E-001 +9.9721883276E+000 
8518872.340 +4.4417007204E-001 +1.2424467982E+001  +1.6265092683E-001 -6.6457196412E+000  +1.6673569887E-001 +8.3339746513E+000  +5.3424899739E-001 +2.2845005950E+000 
8644017.522 +4.5384013292E-001 +9.1677617673E+000  +1.5767801252E-001 -4.1665376006E+000  +1.5821730324E-001 +8.1412131841E+000  +5.0968096488E-001 +1.3177243197E+001 
8769162.703 +4.3985841644E-001 +4.7352517559E+000  +1.6290606281E-001 -4.9933555027E+000  +1.6390136187E-001 +8.0530642156E+000  +4.4793738115E-001 -4.0115525122E-001 
8894307.885 +5.1434193521E-001 +7.9385417976E+000  +1.6238225963E-001 -3.1429340893E+000  +1.6278236585E-001 +8.4462292524E+000  +4.8766698763E-001 +6.0847034776E+000 
9019453.066 +4.3569048188E-001 +6.7064802732E+000  +1.6025514025E-001 -5.1180012111E+000  +1.5572579443E-001 +1.0066568045E+001  +4.4981669871E-001 +5.3505233171E+000 
9144598.248 +4.1656692123E-001 +8.8412918133E+000  +1.5829952293E-001 -3.4378321439E+000  +1.5909445077E-001 +1.0658989188E+001  +4.5553662404E-001 +4.1866063769E+000 
9269743.429 +4.3505891774E-001 +1.3484871784E+001  +1.5945191009E-001 -2.9243302732E+000  +1.5871666949E-001 +9.9449972320E+000  +4.5529353765E-001 +1.7736242221E+000 
9394888.611 +3.8457488589E-001 +1.0853306703E+001  +1.5932969361E-001 -3.1279341398E+000  +1.5675217773E-001 +9.2900792541E+000  +4.2284361346E-001 +1.7473177866E+000 
9520033.792 +3.9679137532E-001 +9.9689245043E+000  +1.5821545082E-001 -4.1822204902E+000  +1.6065343222E-001 +1.0973454815E+001  +4.4319976497E-001 +1.1555484998E+000 
9645178.974 +3.5335621727E-001 +7.0829925103E+000  +1.5947178247E-001 -4.6656092278E+000  +1.5844210931E-001 +1.0327378658E+001  +3.8903178089E-001 -2.2603152258E+000 
9770324.155 +3.6689195486E-001 +6.6755037103E+000  +1.5987314994E-001 -3.8864972193E+000  +1.5752857406E-001 +1.2479509760E+001  +3.9540338191E-001 -3.6000069931E-001 
9895469.337 +4.2419636698E-001 +4.6531869278E+000  +1.6522341604E-001 -4.6347335890E+000  +1.6243622376E-001 +1.1547448906E+001  +3.7951928165E-001 -6.8496670885E+000 
10020614.518 +3.9207995071E-001 +7.8373743282E+000  +1.6201289068E-001 -4.9439324107E+000  +1.6011997110E-001 +1.1788901225E+001  +4.0247703580E-001 -5.7904989019E+000 
10145759.700 +4.2665090426E-001 +9.3734351242E+000  +1.6548861392E-001 -4.1771236770E+000  +1.6060120828E-001 +1.2085195534E+001  +3.9420663658E-001 -6.1974342246E-001 
10270904.881 +3.6307437481E-001 +8.3363991672E+000  +1.6248117273E-001 -3.8941604113E+000  +1.5946082115E-001 +1.3129148889E+001  +4.6916206475E-001 +6.7427816951E+000 
10396050.063 +4.4190059276E-001 +4.1689785188E+000  +1.6435273722E-001 -2.8158798167E+000  +1.6343367774E-001 +1.2643871973E+001  +4.0856090168E-001 +7.9540455450E-001 
10521195.244 +4.3112051055E-001 +1.4753970748E+001  +1.6236034340E-001 -2.3880053310E+000  +1.5950249777E-001 +1.3368495436E+001  +4.3556696460E-001 +6.2800781810E+000 
10646340.426 +3.4516989749E-001 +1.2022435908E+001  +1.6049585947E-001 -2.8752264665E+000  +1.6185058420E-001 +1.1555743809E+001  +4.5020107208E-001 +1.1227894330E+001 
10771485.607 +4.0718966025E-001 +8.7517606776E+000  +1.6682026010E-001 -2.4257870579E+000  +1.6367465760E-001 +1.2731122429E+001  +4.2802073740E-001 +2.2812986418E+000 
10896630.788 +4.1837325648E-001 +9.7603563293E+000  +1.6806130779E-001 -1.8875114048E+000  +1.6609139122E-001 +1.2874248456E+001  +4.4741069581E-001 +3.4741620088E+000 
11021775.970 +4.2379501426E-001 +1.2141834490E+001  +1.6714466116E-001 -1.6045739336E+000  +1.6633176390E-001 +1.2118761243E+001  +4.7815177406E-001 +5.6692903366E+000 
11146921.151 +4.3489864896E-001 +1.3499454201E+001  +1.6668290438E-001 -1.2491591007E+000  +1.6654614924E-001 +1.1900789579E+001  +4.4294157345E-001 +4.3725788009E+000 
11272066.333 +4.3011279251E-001 +1.5707533709E+001  +1.7106981668E-001 -6.0455317865E-001  +1.6987896736E-001 +1.1705960632E+001  +4.8380332671E-001 +3.8831507094E+000 
11397211.514 +4.3647443043E-001 +1.1825621654E+001  +1.7307710316E-001 -3.7500243990E-001  +1.7209708978E-001 +1.2212809506E+001  +4.7204090304E-001 +5.3308325610E+000 
11522356.696 +4.5725120188E-001 +1.0064155263E+001  +1.7349773758E-001 -2.9761545754E-001  +1.6896408762E-001 +1.0903527719E+001  +4.5924216861E-001 +8.7316380170E+000 
11647501.877 +4.7466460002E-001 +1.0396954566E+001  +1.7722331214E-001 -4.8786949720E-001  +1.7391370137E-001 +1.1397089613E+001  +4.7443581077E-001 +2.1482189665E+000 
11772647.059 +4.7641786280E-001 +8.3708769098E+000  +1.7912357205E-001 +2.7497674960E-001  +1.7460651892E-001 +1.1224654046E+001  +4.8731382054E-001 +3.7846934935E+000 
11897792.240 +4.9263053059E-001 +8.6299270644E+000  +1.8260555130E-001 -5.1556115588E-001  +1.7952304241E-001 +1.0957380668E+001  +4.7623395712E-001 +4.0187705958E+000 
12022937.422 +4.8868327134E-001 +1.1525073318E+001  +1.7973121688E-001 +3.8745956007E-001  +1.7754637592E-001 +1.0578526376E+001  +5.1889129646E-001 +6.0891543439E+000 
12148082.603 +5.0413576120E-001 +6.4673860990E+000  +1.8575147077E-001 +1.0845532479E+000  +1.8308349296E-001 +9.7845359360E+000  +5.1478694150E-001 +4.0020122944E+000 
12273227.785 +5.1817720518E-001 +7.0782681249E+000  +1.8492699484E-001 +8.9218468762E-001  +1.8076448054E-001 +9.4873418616E+000  +5.1880579782E-001 +5.7539622501E+000 
12398372.966 +5.1777229686E-001 +5.5464933144E+000  +1.8824075903E-001 +1.1104538177E+000  +1.8595109593E-001 +9.2492829566E+000  +5.3687526542E-001 +1.6926581040E+000 
12523518.148 +5.5110454729E-001 +3.8199949398E+000  +1.9037206702E-001 +1.2064590677E+000  +1.8916396725E-001 +8.6048262119E+000  +5.2541252889E-001 +1.1094383639E+000 
12648663.329 +5.7021747242E-001 +6.2469570498E+000  +1.9228632665E-001 +2.1327584242E+000  +1.8921702279E-001 +8.6646461349E+000  +5.8802144329E-001 +6.7107371046E-002 
12773808.511 +5.6284018360E-001 +3.8689413723E+000  +1.9315420397E-001 +1.6627838050E+000  +1.9179044596E-001 +8.1119986765E+000  +5.7578351742E-001 -7.4720423288E-001 
12898953.692 +5.8119528047E-001 +2.0330325315E+000  +1.9632258284E-001 +1.6921650367E+000  +1.9186943877E-001 +7.8618546579E+000  +5.9419869065E-001 +3.3830800412E-001 
13024098.874 +5.8069374033E-001 +2.1540706195E+000  +1.9791229162E-001 +2.2623143806E+000  +1.9364619100E-001 +7.2524176130E+000  +6.0488400161E-001 +6.3464511936E-001 
13149244.055 +6.1658285630E-001 +2.2793636990E+000  +1.9985398250E-001 +2.3714857529E+000  +1.9870164595E-001 +6.5288865232E+000  +6.1191529671E-001 -2.0586598804E+000 
13274389.237 +6.2776175530E-001 +4.7144020424E-002  +2.0090084796E-001 +1.8181755537E+000  +1.9772226983E-001 +5.9614752401E+000  +6.2511851502E-001 +1.7034565218E-001 
13399534.418 +6.4092586500E-001 +4.6470616685E-001  +2.0301102483E-001 +2.0206182887E+000  +1.9951545589E-001 +5.4518441157E+000  +6.5543754337E-001 -1.6142867421E+000 
13524679.599 +6.2870276872E-001 -1.6355356923E+000  +2.0486949490E-001 +2.0896769306E+000  +2.0367140691E-001 +4.7325793108E+000  +6.6028309865E-001 -1.0213987224E+000 
13649824.781 +6.5703227537E-001 -3.2357128701E+000  +2.0701183193E-001 +1.6197400211E+000  +2.0428769456E-001 +3.7962338782E+000  +6.6436897821E-001 -4.3474284116E+000 
13774969.962 +6.6875711805E-001 -3.6726060101E+000  +2.0719153944E-001 +2.2269018569E+000  +2.0627540624E-001 +4.1633171622E+000  +7.0900153196E-001 -3.0060740483E+000 
13900115.144 +6.9818211390E-001 -3.1329606189E+000  +2.0871422807E-001 +2.0064736665E+000  +2.0782186897E-001 +3.4024213546E+000  +7.0429296401E-001 -3.6097833643E+000 
14025260.325 +7.2367983082E-001 -4.1319880378E+000  +2.1393258162E-001 +1.9589572215E+000  +2.0903631660E-001 +3.1692304925E+000  +7.2494800180E-001 -4.0362166358E+000 
14150405.507 +7.2885055425E-001 -3.0237225767E+000  +2.1218116277E-001 +1.3463082458E+000  +2.0917950347E-001 +2.3491999113E+000  +7.1346002880E-001 -5.8056218148E+000 
14275550.688 +7.4281566104E-001 -5.7074216242E+000  +2.1373596616E-001 +1.2612113188E+000  +2.1035444712E-001 +2.0391014256E+000  +7.5773799549E-001 -3.4623093037E+000 
14400695.870 +7.6352411626E-001 -5.6712324072E+000  +2.1414783637E-001 +1.1274012405E+000  +2.0925680185E-001 +1.4898463507E+000  +7.4917655661E-001 -4.8410806753E+000 
