!  2-Port S-parameters saved by WinCal
! VAR MeasName=S-Parameters (CALIBRATED_DATA) read from VNA (P5004A)
! VAR MeasDate=29/08/2024 09:58:45
! VAR NAME=S2_r9c1_pristine_9k-100M_2
! VAR FILENAME=S2_r9c1_pristine_9k-100M_2.S2P
! VAR DATE=29/08/2024 09:58:45
! VAR PHYS_PORTS=1,2
! VAR ObjTypeName=DATASET
! VAR IndexType=Frequency
!
# Hz S MA R 50
9000.000 +9.2968459960E-002 -1.7269699399E+002  +4.7015165604E-003 -7.5183289794E+001  +4.5033816716E-003 -1.6317423318E+002  +2.5789817253E-001 -1.4098581962E+002 
134145.181 +1.1154399278E-001 +1.6942430046E+002  +2.3821113675E-004 -1.0145939618E+002  +5.2724714448E-004 -6.4306433645E+001  +2.3815788541E-001 -1.7036423744E+002 
259290.363 +1.1214770909E-001 +1.7035141100E+002  +1.6555930704E-004 +3.7780631348E+001  +2.0560247489E-004 +9.7066662166E+001  +2.3981681413E-001 -1.6992472164E+002 
384435.544 +1.1469931881E-001 +1.6987542465E+002  +1.6162240781E-004 +4.3446841767E+001  +9.1903175085E-004 +8.9683260918E+001  +2.4195683837E-001 -1.6988136968E+002 
509580.726 +1.1347552272E-001 +1.7195806647E+002  +1.6594517548E-003 -5.2382745433E+001  +1.1853118613E-003 +1.1688373561E+002  +2.3574611528E-001 -1.6715723343E+002 
634725.907 +1.1603011636E-001 +1.7264696349E+002  +2.1001848028E-003 -8.7752788249E+001  +2.3040663604E-003 +5.7782563162E+001  +2.5177509870E-001 -1.6314220289E+002 
759871.089 +1.2005537464E-001 +1.7106357199E+002  +8.5581174097E-004 -1.0064398950E+002  +8.8533846847E-004 +6.4708721307E+001  +2.5037937405E-001 -1.6791658263E+002 
885016.270 +1.2022640931E-001 +1.6874361563E+002  +4.7697166588E-004 -8.1545206093E+001  +1.2822101698E-003 +1.5716462249E+002  +2.3920117986E-001 -1.6698800351E+002 
1010161.452 +1.1756050626E-001 +1.7000263342E+002  +1.5579652268E-003 -7.3105784269E+000  +2.0746493751E-003 -1.4903656051E+002  +2.0677036971E-001 -1.7109607175E+002 
1135306.633 +1.1757697186E-001 +1.7015232686E+002  +2.5034698142E-003 -2.0649310383E+001  +1.3994110655E-003 +1.5066428059E+002  +2.1577158868E-001 -1.6469520196E+002 
1260451.815 +1.1876008429E-001 +1.7077206249E+002  +3.7600852934E-003 -1.2332369944E+001  +4.0972866235E-003 +1.6626208636E+002  +1.9960841060E-001 -1.6278621697E+002 
1385596.996 +1.2579416823E-001 +1.7216881163E+002  +2.2798387994E-003 -4.8363331511E+001  +2.3266679207E-003 +1.3260378358E+002  +2.6347683924E-001 -1.5760790824E+002 
1510742.178 +1.2692549127E-001 +1.7155022604E+002  +2.2063067775E-003 -7.1427201118E+001  +1.7172412858E-003 +1.6806872322E+002  +2.5640366268E-001 -1.5821644909E+002 
1635887.359 +1.2738450053E-001 +1.7047081378E+002  +1.6903250632E-003 -2.0939620199E+001  +1.6109314506E-003 -1.5212358790E+002  +2.4854988691E-001 -1.5981512343E+002 
1761032.541 +1.2884759184E-001 +1.6925389619E+002  +1.8398658318E-003 +9.5329421845E+000  +2.6575908958E-003 -1.2419989877E+002  +2.2603857951E-001 -1.5880329018E+002 
1886177.722 +1.3381518149E-001 +1.6882520314E+002  +2.9086317852E-003 +4.7708849906E+001  +3.8267111253E-003 -7.2389146040E+001  +2.2547608652E-001 -1.6371673679E+002 
2011322.904 +1.3566678169E-001 +1.6867767316E+002  +4.2561373821E-003 +5.6026354929E+001  +2.5613200356E-003 -4.5324464424E+001  +2.0893779804E-001 -1.6494520922E+002 
2136468.085 +1.3259998234E-001 +1.6578951717E+002  +9.4066864798E-003 +9.5663800799E+001  +1.0099008405E-002 -3.0018885830E+001  +1.7160976774E-001 -1.7352485150E+002 
2261613.267 +1.2468617502E-001 +1.6822681964E+002  +1.9438573304E-002 +5.7122144838E+001  +2.5565879972E-002 -7.2321420415E+001  +1.5016818167E-001 -1.6290390515E+002 
2386758.448 +1.3309612265E-001 +1.6429732387E+002  +1.4422937267E-002 +8.2772034400E+001  +1.2588197743E-002 -3.2832983871E+001  +2.1817380698E-001 -1.7193022435E+002 
2511903.630 +1.3515797496E-001 +1.6923581814E+002  +1.9322704703E-002 +5.2874785133E+001  +2.3697698882E-002 -5.2993779704E+001  +1.5876846096E-001 -1.7490136054E+002 
2637048.811 +1.2913388601E-001 +1.6235816670E+002  +2.9208845763E-002 +9.3676296094E+001  +3.0096783517E-002 -2.0964620943E+001  +2.2415150674E-001 +1.7316149743E+002 
2762193.992 +1.3059500571E-001 +1.7216832936E+002  +6.4983885235E-002 +2.8035821980E+001  +5.6221882770E-002 -8.0219457109E+001  +2.9188005673E-002 -9.2254380011E+001 
2887339.174 +1.3656113346E-001 +1.7255160537E+002  +5.6946055141E-002 -1.8830573043E+001  +5.1398090104E-002 -1.1400811971E+002  +2.1612108787E-001 -1.0345642273E+002 
3012484.355 +1.3468559064E-001 +1.7233662191E+002  +6.5117363771E-002 -8.2400218908E+000  +6.4163234793E-002 -1.0219309728E+002  +1.9815337698E-001 -7.1539312588E+001 
3137629.537 +1.2800624414E-001 +1.7124400024E+002  +1.0780597134E-001 +1.3657489809E+000  +1.1009683937E-001 -9.1637788117E+001  +3.8596604340E-001 -4.0167747924E+001 
3262774.718 +1.3616113524E-001 +1.6410037157E+002  +4.8709113745E-002 +2.4388110666E+001  +5.1360794823E-002 -7.3632091754E+001  +1.3151932703E-001 -1.2034390306E+002 
3387919.900 +1.1818556387E-001 +1.7969560048E+002  +1.2753073062E-001 +3.3256592108E+001  +1.3269017691E-001 -4.5069165546E+001  +3.6718735961E-001 +6.7618643981E+001 
3513065.081 +1.6057889632E-001 +1.5440229650E+002  +5.0645927388E-002 +8.1445614233E+001  +4.7495765497E-002 +2.7730315842E+000  +2.0854248559E-001 +1.5221197257E+002 
3638210.263 +1.5488631930E-001 +1.5580261021E+002  +7.5423816399E-002 +8.5651674649E+001  +7.3336291463E-002 +9.1685735276E+000  +3.3027826909E-001 +1.2636030833E+002 
3763355.444 +1.7674189519E-001 +1.4872857982E+002  +1.0900981795E-001 +1.0541328335E+002  +1.0656257844E-001 +3.3220015131E+001  +5.1620588453E-001 +1.1936712225E+002 
3888500.626 +1.9307677996E-001 +1.5434356283E+002  +4.5583133934E-002 +8.8276683580E+001  +4.3803937321E-002 +1.0752569392E+001  +1.9993329780E-001 +1.5221719813E+002 
4013645.807 +1.8647105115E-001 +1.5693213914E+002  +3.7315416719E-002 +8.5430438622E+001  +3.2542227329E-002 +1.2764399256E+001  +3.0317382550E-001 +1.7164721412E+002 
4138790.989 +1.7277647308E-001 +1.4819458305E+002  +6.0409025398E-002 +8.0762684171E+001  +6.6123830596E-002 +1.6595944641E+001  +2.9533940199E-001 +1.5966685305E+002 
4263936.170 +1.8105839848E-001 +1.4625142458E+002  +1.3295810122E-001 +7.4197574238E+001  +1.1879510701E-001 +1.2230606578E+001  +4.0746330435E-001 +9.1497054137E+001 
4389081.352 +1.8856990898E-001 +1.4674844952E+002  +1.2008920958E-001 +8.2453646390E+001  +1.2189214440E-001 +2.0357957198E+001  +4.6274837382E-001 +1.0476905538E+002 
4514226.533 +2.4533398097E-001 +1.3755904668E+002  +1.2633576969E-001 +7.2326410297E+001  +1.2510205135E-001 +2.1009879640E+001  +1.8459886366E-001 +6.7811110682E+001 
4639371.715 +2.8410611851E-001 +1.4323453162E+002  +2.2089693418E-001 +1.2521232385E+002  +2.1300756317E-001 +7.4760669006E+001  +1.2179972726E+000 +1.1474301738E+002 
4764516.896 +3.9553525621E-001 +1.3811707042E+002  +3.7526948843E-001 +1.7430423965E+002  +3.4688064944E-001 +1.2303943183E+002  +1.4691830602E+000 +1.5139889229E+002 
4889662.078 +2.6435884976E-001 +1.4160134041E+002  +3.5764229038E-001 -7.2674384181E+001  +3.6498959240E-001 -1.1847777880E+002  +2.1872795447E+000 -1.2859103926E+002 
5014807.259 +3.9474885390E-001 +1.2562628151E+002  +4.8345745445E-001 +1.3814573928E+002  +4.7952382698E-001 +9.2977849887E+001  +2.0311213751E+000 +1.2828872570E+002 
5139952.441 +3.5377586781E-001 +1.3849863898E+002  +2.7067158877E-001 +1.5414097608E+002  +2.4174022349E-001 +1.1190849861E+002  +1.5801466229E+000 +1.4840943908E+002 
5265097.622 +3.3896512221E-001 +1.2097610813E+002  +3.9641054021E-001 +9.6487074255E+001  +3.7993712896E-001 +5.8917747634E+001  +1.6090368139E+000 +9.8208089984E+001 
5390242.804 +3.1867538891E-001 +1.2658697151E+002  +2.6329568088E-001 +7.4232594240E+001  +2.4540996345E-001 +3.7067819367E+001  +8.0300544331E-001 +8.2720340801E+001 
5515387.985 +4.3543304183E-001 +1.3241052315E+002  +2.5101522720E-001 +1.1982271386E+002  +2.4806705681E-001 +8.7200313444E+001  +1.2433267782E+000 +1.2385299267E+002 
5640533.166 +4.4951371190E-001 +1.2714118945E+002  +2.6551337995E-001 +1.1278055351E+002  +2.7459954242E-001 +8.0989366915E+001  +1.1852992866E+000 +1.1988452910E+002 
5765678.348 +3.8717199627E-001 +1.1334935517E+002  +4.0257289227E-001 +6.3209204498E+001  +3.9260603348E-001 +3.3931163373E+001  +1.3415537671E+000 +6.3786705823E+001 
5890823.529 +4.2911988500E-001 +1.1375886742E+002  +3.3803169765E-001 +7.6528538617E+001  +3.4316664670E-001 +5.1967431082E+001  +1.2548348898E+000 +9.2563736543E+001 
6015968.711 +4.4795864862E-001 +1.1443438862E+002  +3.8184052027E-001 +6.9686517009E+001  +3.8533896300E-001 +4.4850809608E+001  +1.5933963248E+000 +7.8678245694E+001 
6141113.892 +5.7685186532E-001 +1.0490557320E+002  +5.1660189498E-001 +6.8530959006E+001  +5.0677953792E-001 +4.7268877386E+001  +1.8964023516E+000 +6.8220396086E+001 
6266259.074 +5.9106849698E-001 +9.6626889000E+001  +4.7899652414E-001 +5.9851114453E+001  +4.5432190443E-001 +3.8788584663E+001  +1.5143924461E+000 +6.4752466684E+001 
6391404.255 +7.1671496270E-001 +9.5460154626E+001  +4.6980733927E-001 +4.9861963474E+001  +4.5738828236E-001 +3.2101548212E+001  +1.2691353010E+000 +4.3655928474E+001 
6516549.437 +6.8220901096E-001 +8.7821808140E+001  +4.0992198946E-001 +3.3788644121E+001  +4.0576246231E-001 +2.0070079573E+001  +1.0184292686E+000 +2.6141003251E+001 
6641694.618 +9.6465696462E-001 +7.4233078455E+001  +5.4025417361E-001 +3.0440751418E+001  +5.4096219746E-001 +2.2055259901E+001  +1.3898650453E+000 +1.7576572888E+001 
6766839.800 +9.3287113615E-001 +4.7501510443E+001  +5.0080983164E-001 +1.5119751874E+001  +4.9741990144E-001 +6.1888361713E+000  +9.0428880967E-001 +1.2987107654E+001 
6891984.981 +1.0237983401E+000 +4.2140094825E+001  +4.5920828638E-001 +1.4362957129E+001  +4.4068517569E-001 +9.4585154609E+000  +7.1571321548E-001 +1.2785663821E+001 
7017130.163 +8.7885499447E-001 +2.0894380278E+001  +4.3762105464E-001 +3.2525460544E+000  +4.3189467628E-001 -4.7674365317E+000  +1.0058822044E+000 +3.3264159951E+000 
7142275.344 +9.5687736632E-001 +1.4577920506E+001  +3.9819012658E-001 +7.4633897868E-001  +4.0321056149E-001 -1.8671533495E+000  +1.0832484683E+000 -7.3553787982E-001 
7267420.526 +8.0459005151E-001 -4.6238008337E+000  +3.6225225095E-001 -1.3121792896E+000  +3.5765580069E-001 -4.7731241523E+000  +1.0037319710E+000 -1.1635122451E+001 
7392565.707 +8.4617885779E-001 -1.7839112684E+000  +3.2000942304E-001 +2.1143518130E+000  +3.1277400842E-001 +4.1485309758E+000  +9.0845787239E-001 -5.0630444582E+000 
7517710.889 +8.1999596468E-001 +3.3986860004E+000  +2.8530986491E-001 +4.1010065023E+000  +2.8370595160E-001 +4.0352903150E+000  +8.4464045310E-001 -2.0180965104E+000 
7642856.070 +5.7894165948E-001 +3.7873282700E+000  +2.6639343095E-001 +1.0437973184E+000  +2.6907905811E-001 +5.5942828971E+000  +8.4094735581E-001 +4.7451889744E+000 
7768001.252 +7.2089625623E-001 +4.2021853447E+000  +2.6644891477E-001 +8.4790901582E-001  +2.7245132034E-001 +6.2251181351E+000  +7.0973764588E-001 -2.7112191074E+000 
7893146.433 +6.0980461972E-001 +1.4069271274E+001  +2.5013628350E-001 -2.6760074858E-002  +2.5568917388E-001 +7.5277382804E+000  +6.6053970949E-001 +9.0891600903E-001 
8018291.615 +5.4092030052E-001 +5.2333356250E+000  +2.4317366161E-001 -1.0131320745E+000  +2.4707895050E-001 +5.7266286892E+000  +5.7664760143E-001 +1.0162680476E+001 
8143436.796 +4.8930763772E-001 +1.7623985916E+001  +2.2837961282E-001 -1.6524140522E+000  +2.3510061130E-001 +6.4633249642E+000  +5.5634040089E-001 +5.4603357261E+000 
8268581.977 +5.6618786343E-001 +1.0402925303E+001  +2.3355049198E-001 -1.8214461383E+000  +2.3329631239E-001 +8.7659207068E+000  +4.8107949448E-001 +7.3788375068E+000 
8393727.159 +5.0188242786E-001 +1.3320612921E+001  +2.2956469417E-001 -3.4120775812E+000  +2.2961797795E-001 +9.2964585564E+000  +5.3589527814E-001 +6.7030198720E+000 
8518872.340 +4.2215514246E-001 +1.4636345016E+001  +2.2329036912E-001 -3.6861715351E+000  +2.2625899574E-001 +8.6853324674E+000  +5.0515887957E-001 +1.0560714357E+001 
8644017.522 +4.5915087078E-001 +1.0428057962E+001  +2.2751975172E-001 -3.7475807275E+000  +2.2739237140E-001 +9.3471012435E+000  +4.0697021471E-001 +7.8077592043E+000 
8769162.703 +3.4312917231E-001 +1.2739604944E+001  +2.2575529470E-001 -4.8485010745E+000  +2.2666584885E-001 +8.0800493975E+000  +4.8433813502E-001 +7.4050163634E+000 
8894307.885 +3.6928661468E-001 +1.5040850486E+001  +2.2019970641E-001 -5.2686997353E+000  +2.2105838871E-001 +9.2371542578E+000  +3.7556026815E-001 +8.7214883376E+000 
9019453.066 +3.7630972224E-001 +2.0915743414E+001  +2.1568224498E-001 -4.4482588158E+000  +2.1546625564E-001 +1.0005392445E+001  +3.8197410782E-001 +7.3043932550E+000 
9144598.248 +3.8570537869E-001 +1.2291099437E+001  +2.2009261238E-001 -4.3868265885E+000  +2.1859416570E-001 +1.0225661564E+001  +3.7817019815E-001 +4.7803769790E+000 
9269743.429 +2.8397558313E-001 +1.0634153289E+001  +2.2129818744E-001 -6.4039408118E+000  +2.1568068233E-001 +8.9422881953E+000  +3.8435384477E-001 -2.2893227447E-001 
9394888.611 +3.0451633632E-001 +4.2183636060E+000  +2.2189464478E-001 -5.5636182696E+000  +2.1923136498E-001 +9.4414595203E+000  +3.4971252490E-001 +1.8461842306E+000 
9520033.792 +3.1452261487E-001 +8.6044182023E+000  +2.2469858083E-001 -5.9908219062E+000  +2.1973667229E-001 +1.0006427555E+001  +3.7132716427E-001 -7.4451532615E+000 
9645178.974 +2.9109980384E-001 +8.2514936884E+000  +2.2268834680E-001 -4.6428436067E+000  +2.1795474978E-001 +1.0402377249E+001  +4.1498171509E-001 +5.8676173258E+000 
9770324.155 +2.9388567237E-001 +1.1274046323E+001  +2.1725023073E-001 -6.0142555458E+000  +2.1807227388E-001 +1.0172235997E+001  +3.2536137880E-001 -4.9183186392E+000 
9895469.337 +3.0525999583E-001 +3.0694538221E+000  +2.2353155205E-001 -5.8570300611E+000  +2.1816361597E-001 +1.0301967646E+001  +3.3358311680E-001 +8.3929254502E-002 
10020614.518 +3.4003446895E-001 +5.7616143840E+000  +2.2028344181E-001 -5.1375206007E+000  +2.2076821869E-001 +1.1580585520E+001  +3.3978776921E-001 -2.8590351750E+000 
10145759.700 +3.1377992701E-001 +3.5655346437E+000  +2.2417526441E-001 -4.0574365076E+000  +2.2128810884E-001 +1.1165826024E+001  +3.5269338985E-001 +2.4254809135E+000 
10270904.881 +3.1553830943E-001 +1.1142502102E+001  +2.2406673550E-001 -4.4526652949E+000  +2.2323527023E-001 +1.2435060479E+001  +4.2005117275E-001 +6.4189778907E-001 
10396050.063 +3.3664486364E-001 +1.3484343122E+001  +2.2282952104E-001 -4.2645415852E+000  +2.2252253591E-001 +1.1403540507E+001  +3.3675785868E-001 +5.2394901379E+000 
10521195.244 +3.3206258355E-001 +9.5411065706E+000  +2.2435600653E-001 -3.2810827112E+000  +2.1954540747E-001 +1.2034419773E+001  +3.8286811652E-001 +6.9125110203E+000 
10646340.426 +3.0668971505E-001 +1.3964755473E+001  +2.2889514363E-001 -3.1002078278E+000  +2.2325446170E-001 +1.1441813594E+001  +3.6520099565E-001 +3.5121249287E+000 
10771485.607 +3.3880404083E-001 +1.1724981663E+001  +2.3044445019E-001 -2.8192993937E+000  +2.2452874912E-001 +1.1565870080E+001  +3.5719903390E-001 +1.0369309429E+001 
10896630.788 +3.4299004025E-001 +1.3298961822E+001  +2.2856327720E-001 -2.1755411647E+000  +2.2647561042E-001 +1.1253682869E+001  +3.7398748005E-001 +9.5518213245E+000 
11021775.970 +3.6306112389E-001 +1.1622926822E+001  +2.3044480015E-001 -2.5728022101E+000  +2.2650915078E-001 +1.1492620710E+001  +3.8312257430E-001 +1.0835283751E+001 
11146921.151 +3.4912732118E-001 +1.2302873318E+001  +2.3238346194E-001 -1.9043462218E+000  +2.3133490395E-001 +1.1579959618E+001  +4.1308756314E-001 +7.2275548107E+000 
11272066.333 +4.2372302344E-001 +1.6010062674E+001  +2.3168811997E-001 -1.3086672929E+000  +2.3049761206E-001 +1.1819736388E+001  +3.9742981017E-001 +6.6716035630E+000 
11397211.514 +3.8077173508E-001 +1.4516094507E+001  +2.3713587808E-001 -1.2543347048E+000  +2.3670876243E-001 +1.1169279762E+001  +3.7203124482E-001 +5.7519981749E+000 
11522356.696 +4.0090447666E-001 +1.3290904975E+001  +2.3849972257E-001 -1.0064891839E+000  +2.3608716388E-001 +1.0765722545E+001  +4.1636697130E-001 +9.5560159552E+000 
11647501.877 +3.9585790750E-001 +1.3967613642E+001  +2.3918525874E-001 -7.1533902281E-001  +2.3688488842E-001 +1.0481546499E+001  +4.0792893454E-001 +8.0649667597E+000 
11772647.059 +4.0561425796E-001 +1.2335297834E+001  +2.4310204035E-001 -2.1770044037E-001  +2.4309991662E-001 +1.0239586451E+001  +4.1206280024E-001 +4.6175997355E+000 
11897792.240 +3.9237712309E-001 +9.3840446513E+000  +2.4467386788E-001 +1.0452609419E-001  +2.4355441029E-001 +9.7465942379E+000  +4.4928442667E-001 +6.4967210308E+000 
12022937.422 +4.2527707656E-001 +1.1884284942E+001  +2.4636395170E-001 -1.9207519973E-002  +2.4417440000E-001 +9.6362031590E+000  +4.4516131024E-001 +8.9621107455E+000 
12148082.603 +4.3921105362E-001 +1.0809875451E+001  +2.4928598489E-001 +5.1821481434E-001  +2.4792758792E-001 +9.4129063149E+000  +4.4440675845E-001 +5.8182758622E+000 
12273227.785 +4.3959662447E-001 +1.1962260108E+001  +2.5273365135E-001 +6.9680065551E-001  +2.5015189612E-001 +9.0083023089E+000  +4.5063919155E-001 +4.0364595641E+000 
12398372.966 +4.4968515831E-001 +5.1138203856E+000  +2.5633291174E-001 +8.7425350095E-001  +2.5445958829E-001 +8.7998669055E+000  +4.6930604908E-001 +2.5964015536E+000 
12523518.148 +4.7728485448E-001 +8.0884351058E+000  +2.5913970213E-001 +1.0465564491E+000  +2.5559606528E-001 +8.7791416530E+000  +4.7090768169E-001 +2.3440674500E+000 
12648663.329 +4.9954238367E-001 +3.4100821176E+000  +2.6294199745E-001 +1.5260692458E+000  +2.6058250092E-001 +7.8719370997E+000  +4.7184442429E-001 +5.5180596140E+000 
12773808.511 +4.9002836186E-001 +4.5423585464E+000  +2.6410800573E-001 +1.2900229449E+000  +2.6044102809E-001 +7.3498146110E+000  +4.8232187568E-001 +4.0343175355E+000 
12898953.692 +4.8168324221E-001 +4.0920580182E+000  +2.6545197920E-001 +1.3751701443E+000  +2.6306107596E-001 +6.6284746154E+000  +5.1847391156E-001 +2.8190729549E+000 
13024098.874 +4.9330830690E-001 +1.9846264928E+000  +2.7020548009E-001 +1.0684548720E+000  +2.7133953763E-001 +6.3537197908E+000  +5.1531681323E-001 -2.0705049848E+000 
13149244.055 +5.1793784913E-001 +3.3048409246E+000  +2.7113002231E-001 +1.5369263629E+000  +2.6758313589E-001 +5.8979417339E+000  +5.4219180994E-001 +1.0509171016E+000 
13274389.237 +5.6463352909E-001 -9.6934386074E-001  +2.7587717361E-001 +1.9697648321E+000  +2.7142710784E-001 +6.0957829418E+000  +5.6638994606E-001 +2.2307853297E+000 
13399534.418 +5.7271892369E-001 +9.6510445155E-001  +2.7917234987E-001 +1.7694314103E+000  +2.7513156827E-001 +5.1814607346E+000  +5.4979598418E-001 -2.8155637655E+000 
13524679.599 +5.9392325045E-001 +8.7301083039E-001  +2.7901875546E-001 +2.2968762661E+000  +2.7737364791E-001 +4.9507969760E+000  +5.9102678498E-001 -1.9506490770E+000 
13649824.781 +5.8783301410E-001 -2.0421163179E+000  +2.8355099019E-001 +1.8153944241E+000  +2.7930233762E-001 +4.0839567956E+000  +5.8578923813E-001 -5.5047157734E-001 
13774969.962 +6.0512956962E-001 +3.4728873320E-001  +2.8401227172E-001 +1.8051687773E+000  +2.7959184654E-001 +3.5195660728E+000  +5.9495367534E-001 -3.9666568138E+000 
13900115.144 +6.2905556985E-001 -2.4261359000E+000  +2.8528344098E-001 +2.0796230810E+000  +2.8212338752E-001 +3.8923637389E+000  +6.3152549456E-001 -6.1514002180E-001 
14025260.325 +6.1330072088E-001 -3.0536025231E+000  +2.8926548653E-001 +1.5024889426E+000  +2.8340479524E-001 +2.9015089891E+000  +6.3491205392E-001 -2.9312155857E+000 
14150405.507 +6.3460008969E-001 -4.6388272010E+000  +2.9279689008E-001 +1.5619223729E+000  +2.8946142975E-001 +2.3548004127E+000  +6.6110927073E-001 -5.5049364201E+000 
14275550.688 +6.7254792704E-001 -5.1608883488E+000  +2.9363344625E-001 +1.3646543078E+000  +2.8952354308E-001 +2.1085964090E+000  +6.7249905121E-001 -4.8525092589E+000 
14400695.870 +6.8109521159E-001 -5.0654309903E+000  +2.9187158275E-001 +1.7240134796E+000  +2.9073938138E-001 +1.8208220854E+000  +6.9365397799E-001 -4.0127581285E+000 
