!  2-Port S-parameters saved by WinCal
! VAR MeasName=S-Parameters (CALIBRATED_DATA) read from VNA (P5004A)
! VAR MeasDate=29/08/2024 10:23:26
! VAR NAME=S2_r9c1_SET2_9k-100M_1
! VAR FILENAME=S2_r9c1_SET2_9k-100M_1.S2P
! VAR DATE=29/08/2024 10:23:26
! VAR PHYS_PORTS=1,2
! VAR ObjTypeName=DATASET
! VAR IndexType=Frequency
!
# Hz S MA R 50
9000.000 +7.5293327701E-002 -1.6656494822E+002  +9.6490136616E-003 -1.8478746181E+001  +1.5895391131E-002 +1.9287243017E+001  +3.1489654525E-001 -1.4748668701E+002 
134145.181 +1.1121783350E-001 +1.6996795375E+002  +3.4686180098E-004 +1.7648576691E+002  +7.7164016940E-004 -7.8655839350E+001  +2.4262530884E-001 -1.7072176593E+002 
259290.363 +1.1238565591E-001 +1.6971832958E+002  +3.0665498766E-004 -5.0949409313E+001  +6.3251260476E-004 +2.8502916281E+001  +2.4107252238E-001 -1.6924036176E+002 
384435.544 +1.1353422267E-001 +1.7042635270E+002  +2.4898118152E-004 -2.4759655736E+001  +1.4267345511E-003 -2.6723188251E+001  +2.5007944859E-001 -1.6689236332E+002 
509580.726 +1.1473790548E-001 +1.7185679117E+002  +1.5253933208E-003 -1.5892249364E+002  +4.7440074542E-004 -7.4737779589E+001  +2.4317710111E-001 -1.6209147276E+002 
634725.907 +1.1869284164E-001 +1.7107715471E+002  +1.1863750599E-003 -1.5037632053E+002  +6.3858639842E-004 -1.1410991264E+001  +2.5290028669E-001 -1.6363080778E+002 
759871.089 +1.1972054663E-001 +1.7146927706E+002  +6.8030918037E-004 -3.2640884167E+001  +2.6475381443E-004 -8.9167257030E+001  +2.5360407648E-001 -1.6686126868E+002 
885016.270 +1.2138624402E-001 +1.6925404496E+002  +3.4677572102E-004 -1.3382975451E+002  +2.7416202919E-004 +1.2388216897E+002  +2.3765511976E-001 -1.6664621153E+002 
1010161.452 +1.1668139041E-001 +1.6977735873E+002  +1.0299970844E-003 -2.4629770508E+001  +1.8111063107E-004 +7.4418062967E+001  +2.1744593253E-001 -1.6741401688E+002 
1135306.633 +1.1832376397E-001 +1.6930112634E+002  +8.3117169782E-004 +2.8552743937E+001  +9.6508135063E-004 -1.1202751778E+002  +1.9273981479E-001 -1.6494238094E+002 
1260451.815 +1.1471176212E-001 +1.7316111995E+002  +1.1132063169E-003 +1.2720004810E+002  +7.0205582128E-004 -5.6811761793E+001  +2.3203016057E-001 -1.6194213938E+002 
1385596.996 +1.2583904451E-001 +1.7285092088E+002  +1.4543606968E-003 -1.4580979648E+002  +2.3949410175E-003 +6.5678333978E+001  +2.7850691621E-001 -1.5780722982E+002 
1510742.178 +1.2399805534E-001 +1.7218403494E+002  +3.1782792071E-004 -1.2041985845E+002  +5.0828842438E-004 -8.0941794258E+001  +2.6672339476E-001 -1.5674361124E+002 
1635887.359 +1.2743231009E-001 +1.7063324956E+002  +2.1959094575E-003 -1.2822808417E+002  +2.1446358587E-003 -1.7012033943E+001  +2.0594056774E-001 -1.4957913745E+002 
1761032.541 +1.2815271183E-001 +1.6954572087E+002  +6.3195728604E-004 +4.3366675730E+001  +4.4906499223E-004 -7.1038548098E+001  +2.4712441214E-001 -1.6069021702E+002 
1886177.722 +1.3085484445E-001 +1.6874573615E+002  +1.4591245960E-004 -6.9496261427E+001  +1.4174655514E-003 -1.4706021329E+002  +2.1191931749E-001 -1.6453266978E+002 
2011322.904 +1.2661163104E-001 +1.7089992195E+002  +3.4177963573E-003 +6.6192018975E+000  +2.7328582881E-003 -6.2895899371E+001  +2.0624124202E-001 -1.4692439706E+002 
2136468.085 +1.2732480020E-001 +1.6692697450E+002  +4.9160391733E-003 +4.8018666888E+001  +3.4823946191E-003 -1.0170535118E+002  +2.0221150191E-001 -1.6416459961E+002 
2261613.267 +1.3737216445E-001 +1.6700294688E+002  +2.9582560496E-003 +6.3990565339E+001  +2.3302952143E-003 -3.0688205826E+001  +2.1271664187E-001 +1.7925950409E+002 
2386758.448 +1.2939338536E-001 +1.6176836435E+002  +7.3892318008E-003 +4.8590280463E+001  +1.0872946376E-002 -3.6238859386E+001  +1.7824502210E-001 -1.7671066355E+002 
2511903.630 +1.3550261561E-001 +1.6254552420E+002  +1.4496948760E-003 +1.2692689996E+002  +3.4594166174E-003 -2.2201952940E+001  +2.2361618936E-001 +1.6503785575E+002 
2637048.811 +1.3393148453E-001 +1.6341052392E+002  +9.1609954180E-003 +5.5810660666E+001  +1.2194413336E-002 -1.1514617770E+002  +1.2701993263E-001 +2.3476700086E+001 
2762193.992 +9.7275334731E-002 +1.5564389287E+002  +2.6572325156E-002 +7.2998515246E+001  +1.2959893544E-002 -4.2907669728E+001  +1.2498478204E-001 +1.2069896319E+002 
2887339.174 +1.0939914135E-001 +1.7604294478E+002  +5.1170287041E-002 +4.9160660029E+001  +4.9258317416E-002 -4.8693990405E+001  +7.6848027493E-001 +8.7360027788E+001 
3012484.355 +1.3511734256E-001 -1.7800968338E+002  +2.0501763051E-002 -5.1635846181E+001  +1.8718691147E-002 +1.7179936815E+002  +4.5775782605E-001 -8.8483359026E+001 
3137629.537 +1.1309337017E-001 +1.6505618292E+002  +2.8873401147E-002 +5.4860354874E+000  +3.2530438745E-002 -1.4183748660E+002  +4.2050975331E-001 -3.5266112325E+001 
3262774.718 +1.3650205392E-001 +1.5789914452E+002  +1.5827074600E-002 +1.5447416225E+001  +2.7067887276E-002 -1.2168682289E+002  +5.2106031927E-001 -4.7134150805E+001 
3387919.900 +1.5032140363E-001 +1.5705188112E+002  +4.2684990523E-002 +2.5074663128E+001  +2.8681613868E-002 -4.4752656593E+001  +4.6598406691E-001 +1.1573924774E+001 
3513065.081 +1.1389429390E-001 +1.5946968696E+002  +5.3814553991E-002 +1.5927442088E+002  +2.3482087716E-002 +3.1502822689E+001  +1.3468348348E+000 +1.5921486542E+002 
3638210.263 +1.6039353519E-001 +1.5368568687E+002  +1.4024733587E-002 +8.4213271361E+001  +9.7950134686E-003 +1.4365607464E+001  +4.4310053691E-001 +1.3050302542E+002 
3763355.444 +1.7348408216E-001 +1.5582295307E+002  +2.0004658018E-002 +9.5966097233E+001  +1.8701491883E-003 +7.9548602472E+001  +3.6553031867E-001 +1.2952169456E+002 
3888500.626 +1.4625131706E-001 +1.4396000006E+002  +1.4404261201E-002 +5.2701718210E+001  +8.0238275894E-003 +4.6541023477E+001  +4.4497805338E-001 +1.4746720648E+002 
4013645.807 +1.8366577071E-001 +1.4868658272E+002  +1.7464147916E-002 +1.1301571403E+002  +6.2708868218E-003 +3.2153002962E+001  +2.5886098341E-001 +1.5576492839E+002 
4138790.989 +1.7284835584E-001 +1.4882973497E+002  +1.0047222858E-002 +1.4971319527E+002  +2.3883404374E-002 +9.2824274279E+000  +3.6240110803E-001 +1.2584607651E+002 
4263936.170 +1.9852790829E-001 +1.4618555835E+002  +7.2554940639E-003 +1.0103423225E+002  +8.8959991933E-003 +4.4084345034E+001  +4.7556624937E-001 +1.4672627937E+002 
4389081.352 +1.8408919745E-001 +1.4328528976E+002  +1.3475704876E-002 +7.9987356306E+001  +1.6749406518E-002 +4.9806683826E+001  +5.9127897887E-001 +1.3636986280E+002 
4514226.533 +2.2243940210E-001 +1.4009710900E+002  +1.0637665680E-001 +1.1982615067E+002  +9.3058786913E-002 +4.3841298174E+001  +2.5605938851E+000 +8.0807816978E+001 
4639371.715 +2.9878348780E-001 +1.4110802635E+002  +5.4343713270E-002 +7.0386874791E+001  +8.1157534273E-002 +2.8651166263E+001  +1.6305788198E+000 +1.6364778474E+001 
4764516.896 +3.2435869405E-001 +1.2509290362E+002  +2.6559961885E-001 -3.8716751194E+001  +3.5404367990E-001 -1.1107280513E+002  +1.0736474719E+001 -1.0717018466E+002 
4889662.078 +4.4890934507E-001 +1.2385256880E+002  +5.9290592533E-001 -1.5030246905E+002  +3.7188498848E-001 +1.5545093808E+002  +8.1621578010E+000 +1.7466079126E+002 
5014807.259 +3.9356350914E-001 +1.1877421205E+002  +8.6590436408E-002 +8.6618674036E+001  +1.7752124332E-001 +6.9348633309E+001  +2.0934083800E+000 +6.8826385441E+001 
5139952.441 +3.8852060358E-001 +1.2731250296E+002  +1.0975332353E-001 +1.0574799028E+002  +1.1005191151E-001 +9.2133218021E+001  +2.8502683766E+000 +1.0935321192E+002 
5265097.622 +3.3937069588E-001 +1.3527292461E+002  +1.0724253244E-001 +2.6702736527E+001  +2.5645453324E-001 -3.3828455998E+000  +6.8926710242E+000 +8.0970740239E+000 
5390242.804 +3.4662659441E-001 +1.2568789750E+002  +8.3698178781E-002 +6.4292174395E+001  +6.3836804535E-002 +4.2708449353E+001  +1.9520449357E+000 +4.2178313751E+001 
5515387.985 +4.4328924476E-001 +1.3545914005E+002  +8.9174894400E-002 +1.1695032476E+002  +1.0808856849E-001 +9.8652751359E+001  +3.1305108579E+000 +1.1097090773E+002 
5640533.166 +4.7922268291E-001 +1.2972228747E+002  +9.0416231259E-002 +1.0436527944E+002  +8.7180611110E-002 +6.1497574773E+001  +2.4550421900E+000 +1.0045630348E+002 
5765678.348 +5.0435751880E-001 +1.2224221840E+002  +1.1928501422E-001 +8.0950858528E+001  +8.7887319487E-002 +3.3253985231E+001  +3.3883148247E+000 +6.3293523734E+001 
5890823.529 +5.1403441143E-001 +1.2261510721E+002  +5.7888784429E-002 +5.2693554602E+001  +7.8327839942E-002 +3.6470036531E+001  +1.5328615707E+000 +3.2710550538E+001 
6015968.711 +6.2908559060E-001 +1.0673009780E+002  +1.2200320563E-001 +4.6635530690E+001  +1.2287500527E-001 +4.7907858781E+001  +2.3971154312E+000 +5.2642729957E+001 
6141113.892 +7.3677497282E-001 +1.0168729228E+002  +9.0583679941E-002 +7.6304005153E+001  +9.5682632978E-002 +5.5205354542E+001  +1.9718300763E+000 +5.6725876733E+001 
6266259.074 +7.1990373541E-001 +1.1185099654E+002  +5.1135364404E-002 +4.7089705826E+001  +6.1190964622E-002 +2.5680229988E+001  +1.3831629365E+000 +9.6851212721E+000 
6391404.255 +9.0876373135E-001 +9.4438437496E+001  +6.2203845432E-002 +4.3011951000E+001  +6.3991801699E-002 +7.8696357532E+000  +1.2004703904E+000 +2.2311824029E+001 
6516549.437 +1.1880359639E+000 +8.2669960994E+001  +9.9819063278E-002 +3.1784065805E+001  +8.3273733740E-002 +8.9587557440E+000  +1.3186372905E+000 +3.0558239057E-001 
6641694.618 +1.4409068907E+000 +7.3587231533E+001  +1.2154129758E-001 +1.1393326572E+001  +1.0065358237E-001 +2.5256038312E+001  +1.4507967872E+000 +9.1725821998E-001 
6766839.800 +1.5377809185E+000 +5.8018504147E+001  +1.1655201381E-001 +7.1708945211E+000  +1.1389589444E-001 +1.8272001231E+001  +1.4665958918E+000 +6.8062442270E-001 
6891984.981 +1.7204023947E+000 +2.4210516054E+001  +1.2057418362E-001 +5.0304975213E+000  +8.6391165219E-002 -1.6397921742E+001  +1.3658316214E+000 +1.2413759044E+000 
7017130.163 +1.4782760158E+000 +1.1016952625E+001  +6.8722115987E-002 -1.9681398959E+000  +7.6070390516E-002 -8.8466759338E+000  +1.3834674112E+000 -6.6299278015E+000 
7142275.344 +1.6244403884E+000 +7.7934406735E+000  +8.0621738603E-002 +1.8198455641E-001  +7.3548673371E-002 -3.7451266729E+000  +1.3251198865E+000 -9.7210035742E+000 
7267420.526 +1.3475248458E+000 +8.3079565966E+000  +6.2916752597E-002 -9.9978297178E-001  +5.0202526383E-002 +3.7101090303E+000  +1.4715054974E+000 -4.5992846409E+000 
7392565.707 +1.2181213875E+000 -9.6084444526E-001  +4.6234835154E-002 +4.5005220964E+000  +4.9210810984E-002 -1.9340840400E+000  +1.3572108201E+000 -8.3077881404E+000 
7517710.889 +1.1028794533E+000 -1.5566805748E+000  +4.5476368486E-002 -1.0674978771E+000  +3.8370523031E-002 +7.4249148328E-001  +1.1504572129E+000 -2.5210380243E+000 
7642856.070 +1.0564276744E+000 -1.4050863927E+000  +4.0937596392E-002 -8.7599836801E-001  +3.6566178960E-002 +1.2690155076E+001  +1.0374144743E+000 -5.0122121030E+000 
7768001.252 +8.6794447116E-001 -1.7028740145E+000  +3.3376447059E-002 +5.9656496622E+000  +3.6186787955E-002 +4.9190084564E+000  +1.0266844574E+000 +1.6521833170E+000 
7893146.433 +7.7351505067E-001 +5.2423142686E+000  +3.5001294521E-002 +6.8573532378E+000  +3.8647844469E-002 +4.1822360215E+000  +9.8780096159E-001 -5.2059919960E-001 
8018291.615 +8.2090182830E-001 +7.3467333711E+000  +3.4277242530E-002 +1.8619269133E+001  +3.6897731316E-002 +9.2533020575E+000  +8.2668300924E-001 +1.3518700421E+000 
8143436.796 +7.2108645515E-001 +5.1406869426E+000  +3.3682531686E-002 +7.9346532869E+000  +3.7495727897E-002 +9.5490532530E+000  +7.8806167146E-001 +1.2596034260E+000 
8268581.977 +7.0686128776E-001 +6.9930626193E+000  +2.9821120589E-002 -5.7699587635E+000  +3.2609201641E-002 +1.3504091703E+001  +7.7118885423E-001 +1.7117930360E+000 
8393727.159 +6.9020993141E-001 +1.0891403305E+001  +3.2670039882E-002 -1.4704740731E+000  +3.5212925762E-002 +7.2401174796E+000  +7.4130347483E-001 -4.6779218452E-001 
8518872.340 +7.1780701313E-001 +6.9097510763E+000  +4.2367881432E-002 -5.1955883300E+000  +3.2708474556E-002 +4.3452315183E+000  +7.0188974301E-001 -4.9011254073E-001 
8644017.522 +5.7117251605E-001 +1.1446056158E+001  +3.2308557317E-002 -1.1458565643E+000  +3.3506821446E-002 +1.3163223586E+001  +6.6083437931E-001 -6.8360617903E-001 
8769162.703 +5.8755740834E-001 +1.1862034071E+001  +3.3387517314E-002 -4.8498639770E+000  +3.1992229675E-002 +1.2408706266E+001  +6.3821453227E-001 -1.9862090682E+000 
8894307.885 +5.1060394124E-001 +2.9694940189E+000  +3.0114572913E-002 +1.9870173865E-001  +3.4217539540E-002 +1.0815690419E+001  +5.8413893578E-001 +3.7068314878E-001 
9019453.066 +6.0529243012E-001 +3.9611072144E+000  +2.9938112335E-002 -6.5715850050E+000  +2.8582219269E-002 +1.0597903109E+001  +5.3428874788E-001 +1.8699838223E+000 
9144598.248 +4.9911623011E-001 +2.9293986776E+000  +3.3299215325E-002 -1.3051642044E+000  +3.3770889911E-002 +9.2662774798E+000  +6.2069925791E-001 -6.4630751168E-001 
9269743.429 +5.5233297949E-001 +7.9158012967E+000  +3.9281596946E-002 +2.8293909792E+000  +3.1646466256E-002 +1.0126813516E+001  +6.0516115699E-001 -5.2821013821E-001 
9394888.611 +5.1138865342E-001 +6.0837824961E+000  +3.2317031111E-002 +1.4725665533E+000  +3.3060564370E-002 +1.2247541773E+001  +5.7104240864E-001 +4.9466838213E+000 
9520033.792 +5.1755589394E-001 +1.3549888564E+000  +3.4639071068E-002 +1.8496648458E+000  +3.3360795048E-002 +9.6639599880E+000  +5.2166207348E-001 -1.0548764891E+000 
9645178.974 +5.2368486465E-001 +2.6252568279E+000  +3.2174014842E-002 -1.0632731948E+001  +3.0137348397E-002 +1.6524638842E+001  +5.7274891895E-001 -5.5086273576E+000 
9770324.155 +5.1082241238E-001 +3.6914357007E+000  +3.4522810594E-002 -2.7241356107E+000  +3.0457122153E-002 +2.1394959263E+001  +5.5402964594E-001 -2.2274148574E+000 
9895469.337 +4.9844460790E-001 +2.8955897930E+000  +3.1810079172E-002 -1.8264335938E+000  +3.4079745563E-002 +1.1058587829E+001  +5.7246872502E-001 -5.6571345515E+000 
10020614.518 +5.1368518937E-001 +4.2256102081E+000  +3.1962408401E-002 -1.8928590445E+000  +3.6139121980E-002 +1.2186655596E+001  +5.2114657452E-001 -3.0404385889E+000 
10145759.700 +4.9895802988E-001 +4.8721281629E+000  +3.4820245644E-002 -6.0445642812E+000  +3.6548007282E-002 +1.2284450745E+001  +5.5002572610E-001 -5.7483512649E+000 
10270904.881 +5.0891781225E-001 +1.6613440304E+000  +3.8030531679E-002 -1.1857565991E+000  +3.4381642628E-002 +1.6550349468E+001  +5.4575263136E-001 -2.9219262635E+000 
10396050.063 +5.5310215718E-001 +4.4089511316E+000  +3.0998984857E-002 -4.6642402983E+000  +3.2438848084E-002 +1.2343101888E+001  +5.8740095211E-001 -2.8134394545E+000 
10521195.244 +5.2761662137E-001 +1.0396725838E+001  +3.3276601322E-002 -1.1249354793E+000  +3.8612739543E-002 +1.5691586427E+001  +5.3442686354E-001 -3.7552013446E-002 
10646340.426 +5.3842883727E-001 +1.4042407549E+000  +3.5169303190E-002 +4.3328099140E-001  +3.5208514478E-002 +1.4735629726E+001  +5.9144370516E-001 +2.8311924048E+000 
10771485.607 +5.4334153058E-001 +6.0853899331E+000  +3.1791542278E-002 +3.1668331395E+000  +3.4959618520E-002 +1.3337764216E+001  +5.7640776994E-001 +2.2421451502E+000 
10896630.788 +5.5808400404E-001 +8.4766332741E+000  +3.3829951741E-002 +5.3677810295E-001  +3.5041121625E-002 +1.5433769351E+001  +5.9263526623E-001 +4.4058597113E+000 
11021775.970 +5.7344929008E-001 +8.3660946830E+000  +3.4508565258E-002 +1.1030028706E+000  +3.6116088305E-002 +1.1398919209E+001  +5.8363504765E-001 +1.2968881124E+000 
11146921.151 +5.8441781022E-001 +5.5851864276E+000  +3.6211864885E-002 +3.8588767060E-001  +3.6779940421E-002 +1.4153220569E+001  +5.8724963195E-001 -5.5601962183E-001 
11272066.333 +5.6055577726E-001 +5.9950532747E+000  +3.4476162585E-002 +3.3527688034E+000  +3.5144358449E-002 +1.3281047035E+001  +6.4084905292E-001 +2.7611096228E+000 
11397211.514 +5.6694850395E-001 +4.2372827498E+000  +3.7280944789E-002 +2.6039553873E+000  +3.5500282882E-002 +1.3594066828E+001  +6.2247887774E-001 +2.9705227986E+000 
11522356.696 +5.8197392719E-001 +6.8977369751E+000  +3.7245228084E-002 +2.5755796938E+000  +3.6005171049E-002 +1.3946991600E+001  +6.2739171210E-001 +2.2935570951E+000 
11647501.877 +5.9100031808E-001 +6.8360492530E+000  +3.8102609791E-002 +2.9797221742E+000  +3.6967245181E-002 +1.3121420453E+001  +6.4159648239E-001 +1.4735661317E+000 
11772647.059 +6.0803250852E-001 +6.4307983706E+000  +3.7449636679E-002 +5.5832978287E-001  +3.5327607496E-002 +1.1902379318E+001  +6.3560308607E-001 +3.2718763438E+000 
11897792.240 +6.4887503110E-001 +4.3366977055E+000  +3.7951646357E-002 +5.9333405724E+000  +3.8064487384E-002 +1.4321373690E+001  +6.4403297367E-001 +1.0991890359E+000 
12022937.422 +6.4074305255E-001 +3.8090472871E+000  +3.9673709069E-002 +3.2863089730E+000  +3.7284504143E-002 +1.0138031991E+001  +6.5816864431E-001 +1.5877452337E+000 
12148082.603 +6.4397522823E-001 +4.0491316634E+000  +3.9293250158E-002 +2.3557998274E+000  +3.9109876079E-002 +1.2905044316E+001  +6.9550719801E-001 -3.9012504435E-001 
12273227.785 +6.5750345781E-001 +5.1709215625E+000  +3.7051722914E-002 +1.1099206667E+000  +3.9871209076E-002 +1.1369072343E+001  +6.7425709393E-001 -6.9236079522E-001 
12398372.966 +6.7598990891E-001 +2.9091376303E+000  +3.8407383078E-002 +5.1986978291E-001  +3.8340717089E-002 +1.1479284181E+001  +6.8758373343E-001 -6.5283612427E-001 
12523518.148 +7.0663481977E-001 +2.9714816709E+000  +3.8250728397E-002 +3.2967741315E+000  +3.9132711241E-002 +1.0324948764E+001  +6.8352905672E-001 +1.3222598715E+000 
12648663.329 +7.0416529316E-001 +3.6931905631E+000  +3.9376847568E-002 +4.3402193558E-002  +4.0970017660E-002 +8.4116387444E+000  +7.2116570670E-001 -9.1973903386E-001 
12773808.511 +7.2983861368E-001 +1.5018759876E-001  +4.1423756679E-002 +3.2267427944E+000  +3.8621788340E-002 +9.7696071288E+000  +7.4339789440E-001 +6.5090964001E-002 
12898953.692 +7.3652214940E-001 +1.9224702281E+000  +4.0253750345E-002 +3.9996269291E+000  +4.1033041369E-002 +1.0170146767E+001  +7.7189759828E-001 -1.3810281281E+000 
13024098.874 +7.5796269071E-001 +1.6586018732E+000  +4.0812074218E-002 +4.5070526777E+000  +4.0338485156E-002 +9.3972221057E+000  +7.7663494282E-001 -1.3095488407E+000 
13149244.055 +7.7306003040E-001 +4.6006374738E-001  +4.0207533966E-002 +3.5649078030E+000  +4.0268908743E-002 +9.2679463382E+000  +7.8551959171E-001 -1.0252553195E+000 
13274389.237 +7.9021580774E-001 -1.1040613517E+000  +4.1952197862E-002 +1.7757860446E+000  +4.0948875558E-002 +8.7429829923E+000  +7.9598282249E-001 -2.8826961614E+000 
13399534.418 +8.1962462085E-001 -1.6557338522E+000  +4.2189857521E-002 +3.6736031363E+000  +4.2067154200E-002 +8.2774614787E+000  +7.9811457083E-001 -2.3566012532E+000 
13524679.599 +8.2439917417E-001 -2.7296262016E+000  +4.4733365529E-002 +4.6617634800E+000  +4.0980153219E-002 +6.1809039084E+000  +8.4672728861E-001 -3.2863027026E+000 
13649824.781 +8.5160896513E-001 -2.8440725381E+000  +4.2822332635E-002 +3.1531291490E+000  +4.1123406461E-002 +5.8195668826E+000  +8.4923007353E-001 -2.3723477419E+000 
13774969.962 +8.4269134204E-001 -2.9134994558E+000  +4.4115693581E-002 +3.0445045558E+000  +4.2706361324E-002 +2.6324418630E+000  +8.7827783880E-001 -4.1745276003E+000 
13900115.144 +8.5502826332E-001 -3.8979355406E+000  +4.3062306020E-002 +2.6857912188E+000  +4.3473758341E-002 +4.4977931945E+000  +8.9528230668E-001 -2.6348523206E+000 
14025260.325 +8.8453373856E-001 -2.3746383522E+000  +4.3847890078E-002 +5.5784736827E+000  +4.2344361270E-002 +3.8838664434E+000  +8.9529482146E-001 -4.5249324874E+000 
14150405.507 +9.0920156031E-001 -5.0108220552E+000  +4.4424208641E-002 +3.1973104944E+000  +4.4917046983E-002 +4.0178045790E+000  +9.3675558618E-001 -4.0236083309E+000 
14275550.688 +9.2580702690E-001 -5.7649346248E+000  +4.3785386358E-002 +2.7559481545E+000  +4.2227130353E-002 +2.7085104201E+000  +9.3197580743E-001 -3.7355529540E+000 
14400695.870 +9.2134476015E-001 -5.4952538350E+000  +4.5276038872E-002 +2.6892725163E+000  +4.2723420867E-002 +2.1679772400E+000  +9.5101943000E-001 -5.9704077203E+000 
