!  2-Port S-parameters saved by WinCal
! VAR NAME=S2_r9c4_SET3_9k-100M_2
! VAR DATE=29/08/2024 12:02:01
! VAR FILENAME=S2_r9c4_SET3_9k-100M_2.S2P
! VAR MeasName=S-Parameters (CALIBRATED_DATA) read from VNA (P5004A)
! VAR MeasDate=29/08/2024 12:01:49
! VAR PHYS_PORTS=1,2
! VAR ObjTypeName=DATASET
! VAR IndexType=Frequency
!
# Hz S MA R 50
9000.000 +7.0949826683E-002 -1.6097922117E+002  +2.7181331530E-002 -2.3548781159E+001  +2.4741842154E-002 -1.6592418779E+002  +2.8651183744E-001 -1.2224358918E+002 
134145.181 +1.1082366459E-001 +1.6993809238E+002  +4.1052369333E-004 +1.1953311580E-001  +3.2571195757E-004 +1.1514929754E+002  +2.3956053979E-001 -1.7197287655E+002 
259290.363 +1.1206610867E-001 +1.7044780484E+002  +9.6881050901E-004 -8.0024662041E+001  +1.2529775878E-004 +3.4626157971E+001  +2.4111363571E-001 -1.6868350125E+002 
384435.544 +1.1368699844E-001 +1.6985211565E+002  +6.4041590835E-004 -9.7419926332E+001  +3.8449804610E-004 +1.7254244390E+002  +2.4148835682E-001 -1.6926775061E+002 
509580.726 +1.1449023991E-001 +1.7097188774E+002  +4.5878374319E-004 -4.3724097662E+001  +1.6313280039E-003 +1.0760641712E+002  +2.4577380988E-001 -1.6533476292E+002 
634725.907 +1.1864660960E-001 +1.7090164235E+002  +1.3612029942E-003 -1.1288698358E+002  +6.1479631209E-004 +7.7036275957E+001  +2.4652778283E-001 -1.6285688334E+002 
759871.089 +1.1746550160E-001 +1.7040669394E+002  +1.0707725099E-003 -4.6824382781E+001  +5.0467739116E-004 +1.2209384439E+002  +2.4934459841E-001 -1.6671056316E+002 
885016.270 +1.2182388089E-001 +1.6882858201E+002  +9.3757011387E-004 -9.7425793804E+001  +2.4009397660E-004 +1.5913133484E+002  +2.4229997419E-001 -1.6655087377E+002 
1010161.452 +1.1733757038E-001 +1.6941235547E+002  +1.3475326763E-004 -5.7544009579E+001  +8.9719814718E-004 -4.5234629080E+001  +2.1657196380E-001 -1.7021742444E+002 
1135306.633 +1.1397069491E-001 +1.6914839418E+002  +3.2468224767E-003 -3.7500259424E+001  +3.5749653299E-003 +1.7898817478E+002  +1.9272320957E-001 -1.6432297267E+002 
1260451.815 +1.1681997476E-001 +1.7072753060E+002  +2.5162302395E-003 +9.4419191905E+000  +2.5239851113E-003 -1.7869041793E+002  +1.9340257289E-001 -1.6206660189E+002 
1385596.996 +1.2429760849E-001 +1.7276172124E+002  +5.0781245738E-004 -2.8409919480E+001  +6.4746063454E-004 +1.7221585966E+002  +2.6843748605E-001 -1.5874913878E+002 
1510742.178 +1.2921615062E-001 +1.7177459894E+002  +8.2897825892E-004 -7.0486708594E+001  +2.2474108035E-003 +8.5486682233E+001  +2.6760197677E-001 -1.5898847305E+002 
1635887.359 +1.2777602025E-001 +1.7035116474E+002  +9.3990753975E-004 -3.2459017813E+001  +1.0747747170E-003 +1.0382495818E+002  +2.4976624134E-001 -1.5764392417E+002 
1761032.541 +1.2873280747E-001 +1.6771624284E+002  +1.1912333026E-003 +8.7603424137E+001  +2.0691835770E-003 -1.2652310010E+002  +2.4333559152E-001 -1.6069725014E+002 
1886177.722 +1.3069942974E-001 +1.6977949186E+002  +2.0379668997E-003 +8.1060951388E+000  +5.0172034664E-003 -8.2273765135E+001  +2.1945445127E-001 -1.6003698168E+002 
2011322.904 +1.3002585016E-001 +1.6751108615E+002  +4.3563698194E-003 +7.5077262367E+001  +4.3858711111E-003 -4.5480943498E+001  +2.0917979178E-001 -1.7182413643E+002 
2136468.085 +1.3097345980E-001 +1.6558136397E+002  +6.3885762862E-003 +9.0870422667E+001  +7.9894041866E-003 -4.8086282135E+001  +2.0080099654E-001 -1.7021238503E+002 
2261613.267 +1.3033529545E-001 +1.6128876183E+002  +1.0504473129E-002 +1.1007416953E+002  +7.3723568359E-003 -1.9198982833E+001  +2.1510096488E-001 -1.7507473579E+002 
2386758.448 +1.3465520034E-001 +1.6310200683E+002  +1.2513722750E-002 +7.4845534336E+001  +1.3655733594E-002 -4.8607369988E+001  +1.8355779142E-001 -1.6742031493E+002 
2511903.630 +1.3554849395E-001 +1.6474195260E+002  +1.2738421897E-002 +5.9307606199E+001  +1.5889110379E-002 -4.5537855371E+001  +1.7605599895E-001 -1.7786715616E+002 
2637048.811 +1.3592530887E-001 +1.6096584641E+002  +1.7437317458E-002 +9.2116508010E+001  +1.6396075821E-002 -1.4333397396E+001  +2.2776442400E-001 +1.7293921979E+002 
2762193.992 +8.6383448382E-002 +1.5804242519E+002  +1.0604078606E-001 +7.2692190026E+001  +9.7142453612E-002 -1.8635065319E+001  +3.8092104979E-001 +1.0205865567E+002 
2887339.174 +1.1883822551E-001 +1.6697152465E+002  +5.1446826970E-002 +2.1962240537E+001  +4.9247993147E-002 -5.4289505977E+001  +6.3965633841E-002 +8.5779550072E+001 
3012484.355 +1.2804958568E-001 +1.7568691713E+002  +3.0374482079E-002 -3.8261016224E+001  +3.6286378719E-002 -1.3468605582E+002  +2.2053631358E-001 -1.2343353461E+002 
3137629.537 +1.0114615080E-001 +1.7259375902E+002  +7.3235149409E-002 -1.6225593573E+001  +7.1666288884E-002 -1.0949738532E+002  +2.2587301733E-001 -7.2944102618E+001 
3262774.718 +1.3582180619E-001 +1.5646324314E+002  +5.1905777868E-002 +5.2690369666E+001  +4.9904714243E-002 -2.9472023452E+001  +1.1835180949E-001 +9.6729809192E+001 
3387919.900 +1.4782940367E-001 +1.4891678149E+002  +6.2820831959E-002 +5.1511313565E+001  +4.9265053002E-002 -2.9065847425E+001  +1.3741080903E-001 +9.3266258347E+000 
3513065.081 +1.3091982738E-001 +1.5317518106E+002  +5.3239270405E-002 +5.8771964730E+001  +6.0012199972E-002 -1.5863863933E+001  +1.7228288448E-001 +1.0315085593E+002 
3638210.263 +1.7597099090E-001 +1.4614991104E+002  +4.0121927279E-002 +1.1267653425E+002  +5.5936402505E-002 +2.3668282666E+001  +3.5277181587E-001 +1.3963570389E+002 
3763355.444 +1.8642605233E-001 +1.4749339541E+002  +4.4234126180E-002 +1.1239096792E+002  +4.9053928259E-002 +4.0736476501E+001  +3.8430838644E-001 +1.4357515335E+002 
3888500.626 +1.6450393425E-001 +1.4240824399E+002  +6.6089399191E-002 +1.0261869387E+002  +6.3461707366E-002 +2.6908562427E+001  +4.0157622203E-001 +1.3379978587E+002 
4013645.807 +1.6628238120E-001 +1.5181208095E+002  +8.6735674991E-002 +6.2121729006E+001  +9.9268411132E-002 +4.3628886957E+000  +4.8840682418E-001 +7.3143333297E+001 
4138790.989 +1.7715582370E-001 +1.4641159764E+002  +9.2749544383E-002 +8.3369591616E+001  +9.1278236045E-002 +1.4821872951E+001  +5.1889938208E-001 +9.1488590888E+001 
4263936.170 +1.5064653512E-001 +1.4055424067E+002  +1.1379444140E-001 +6.8347595544E+001  +1.1361328564E-001 -4.9718270158E+000  +4.7752650821E-001 +7.9433163240E+001 
4389081.352 +1.7433495842E-001 +1.4101049281E+002  +1.1592400540E-001 +1.0111326909E+002  +1.1082739679E-001 +4.0521594421E+001  +8.5433392384E-001 +1.2483120347E+002 
4514226.533 +2.0702928079E-001 +1.3532284418E+002  +1.1999647599E-001 +9.3515529355E+001  +1.0870111378E-001 +4.2706538228E+001  +6.3011065062E-001 +1.1616327255E+002 
4639371.715 +2.1174849978E-001 +1.3776878775E+002  +1.5825205706E-001 +6.7137634639E+001  +1.8358952308E-001 +1.8512977096E+001  +9.8751986923E-001 +6.6484773397E+001 
4764516.896 +3.2324411874E-001 +1.1797040910E+002  +2.5773947239E-001 +9.3747458895E+001  +2.6616100102E-001 +5.3903117805E+001  +1.1105106250E+000 +8.7161396054E+001 
4889662.078 +3.5862013054E-001 +1.3611628399E+002  +5.5891554604E-001 -3.6496768572E+001  +5.9396345817E-001 -7.5509193539E+001  +4.6452100836E+000 -1.0916836039E+002 
5014807.259 +4.0359982829E-001 +1.3510014461E+002  +4.3239114182E-001 +1.7397149366E+002  +3.6998843998E-001 +1.3699515639E+002  +2.7883228907E+000 +1.4848030866E+002 
5139952.441 +3.6999835409E-001 +1.3209722474E+002  +3.8793301535E-001 +1.3028976371E+002  +4.5808257545E-001 +9.0777897003E+001  +3.3520912131E+000 +1.1398578434E+002 
5265097.622 +3.0005139239E-001 +1.2891398639E+002  +1.5044936365E-001 +9.1348892631E+001  +1.7963935530E-001 +5.4895136637E+001  +1.1189717566E+000 +1.0158964856E+002 
5390242.804 +3.7562369743E-001 +1.3369896101E+002  +1.1169871647E-001 +1.2606319468E+002  +1.0648138360E-001 +8.2507190694E+001  +9.3834028693E-001 +1.3619178221E+002 
5515387.985 +3.6639868408E-001 +1.3382011907E+002  +1.4246506780E-001 +8.7892676968E+001  +1.3921781662E-001 +5.6450899836E+001  +9.5102319698E-001 +9.6564871623E+001 
5640533.166 +4.2301398802E-001 +1.1480218610E+002  +2.1115520404E-001 +8.0140572976E+001  +2.0769090740E-001 +5.1932254298E+001  +9.2317972057E-001 +8.7983587521E+001 
5765678.348 +5.2825863204E-001 +1.2405772016E+002  +2.0676665246E-001 +1.2818323168E+002  +2.0138368169E-001 +9.8348844668E+001  +1.6092028710E+000 +1.2790364830E+002 
5890823.529 +4.9535170241E-001 +1.1180858841E+002  +4.2214784589E-001 +9.0509564445E+001  +3.9721763776E-001 +6.2702645284E+001  +2.9309338937E+000 +8.9644406227E+001 
6015968.711 +4.4247605712E-001 +1.1578540422E+002  +2.3757624335E-001 +4.5506514830E+001  +2.0217331169E-001 +2.2692726298E+001  +1.1293534096E+000 +4.1770567993E+001 
6141113.892 +5.5779440843E-001 +9.6484685641E+001  +3.8335979478E-001 +4.4850102374E+001  +3.2926661212E-001 +2.1390452440E+001  +1.7296189582E+000 +3.9334262580E+001 
6266259.074 +6.2410953799E-001 +9.9467504704E+001  +2.6348257583E-001 +4.1755857172E+001  +2.6761242376E-001 +2.4570277780E+001  +1.1013339761E+000 +3.4499593036E+001 
6391404.255 +7.6839474910E-001 +8.4013001155E+001  +3.3620099548E-001 +3.9055279086E+001  +3.3870408047E-001 +2.2952742041E+001  +1.3368421834E+000 +3.1280125673E+001 
6516549.437 +8.7285470717E-001 +8.0132735562E+001  +3.8731053306E-001 +3.7387618244E+001  +3.8183448078E-001 +2.0133131796E+001  +1.7336038540E+000 +2.5989727441E+001 
6641694.618 +1.0281832217E+000 +8.1292999118E+001  +3.0586664124E-001 +2.9937972473E+001  +2.8996848909E-001 +2.1560922871E+001  +1.1317414715E+000 -8.1320175314E-002 
6766839.800 +1.2205315106E+000 +5.8744274446E+001  +3.3835006872E-001 +2.0403499742E+001  +3.2440034426E-001 +1.0675090498E+001  +1.2121290368E+000 +2.8674281088E-001 
6891984.981 +1.3147655339E+000 +3.8362695240E+001  +3.2353796977E-001 +1.4883798094E+001  +3.2316185788E-001 +6.7928107235E+000  +1.0062247700E+000 +5.1615180188E+000 
7017130.163 +1.1463509907E+000 +3.0268757833E+001  +2.7408033326E-001 +4.8172496617E+000  +2.8250298560E-001 -3.4110044926E+000  +1.1492799775E+000 -2.5590144656E+000 
7142275.344 +1.1568167579E+000 +1.0756978331E+001  +2.5176804570E-001 +1.8281144567E+000  +2.5823476048E-001 -4.5618282877E+000  +1.1382835325E+000 -5.2353702444E+000 
7267420.526 +1.2776977921E+000 -6.6380992189E+000  +2.4157115648E-001 -1.3271618557E+000  +2.4654635663E-001 -4.7655155684E+000  +1.1075451016E+000 -1.4203813870E+001 
7392565.707 +1.0346616217E+000 -6.8898293735E+000  +2.0087605031E-001 +2.5786665824E+000  +1.8370012846E-001 +4.1206938883E+000  +1.0684686842E+000 -9.2089417005E+000 
7517710.889 +9.7671298925E-001 +4.3730573081E+000  +1.7517632163E-001 +1.2585415135E+000  +1.6820195089E-001 +6.9284132650E+000  +8.5740655289E-001 +4.5967050036E-001 
7642856.070 +8.9735662286E-001 +3.2747607039E+000  +1.7009175975E-001 +2.9666660961E+000  +1.7060443618E-001 +6.3448284986E+000  +8.8155447791E-001 -7.0920667541E+000 
7768001.252 +7.5070874715E-001 +7.7385752133E+000  +1.6223882945E-001 +1.0912139022E+000  +1.6340754987E-001 +6.7793232072E+000  +8.4626605526E-001 -2.4184658733E+000 
7893146.433 +7.2543221124E-001 +1.8134949617E+000  +1.6041281069E-001 -4.1065221815E-001  +1.5693519876E-001 +6.1444606999E+000  +7.1845854800E-001 +1.7678516582E+000 
8018291.615 +5.8810015864E-001 +2.7441581421E+000  +1.4492208093E-001 -2.6275730287E+000  +1.5103486461E-001 +5.2888919500E+000  +7.3839957657E-001 -1.4137812304E+000 
8143436.796 +6.5550816046E-001 +2.0625498057E+000  +1.4829708726E-001 -2.2090650090E+000  +1.4414342836E-001 +3.3562801045E+000  +5.1244995482E-001 +6.0512115781E+000 
8268581.977 +5.8527269604E-001 +1.6229387715E+001  +1.3986833265E-001 -4.0608020448E+000  +1.3587200953E-001 +7.8101340277E+000  +5.8419041569E-001 +3.3630510284E+000 
8393727.159 +5.6009053999E-001 +1.1001981764E+001  +1.3514776908E-001 -2.1688730705E+000  +1.3912841911E-001 +8.0010381532E+000  +6.1359261597E-001 -2.6333445176E+000 
8518872.340 +4.7046038803E-001 +1.3328352596E+001  +1.3754514418E-001 -4.2841382427E+000  +1.3952478239E-001 +7.5359137774E+000  +5.9115953159E-001 -4.3985928426E+000 
8644017.522 +4.4690031075E-001 +1.5977894575E+001  +1.3279417427E-001 -4.2033958283E+000  +1.3651031840E-001 +1.0042892364E+001  +5.8477255240E-001 -2.8888070365E+000 
8769162.703 +4.6275472150E-001 +1.1017303110E+001  +1.3268960693E-001 -4.2409303088E+000  +1.3371606833E-001 +8.6027943314E+000  +5.1207740026E-001 +1.0399621168E+000 
8894307.885 +5.0175563541E-001 +1.0422044508E+001  +1.3541282290E-001 -4.0980669844E+000  +1.3425360634E-001 +1.0364373619E+001  +5.3440805599E-001 +2.2646053203E+000 
9019453.066 +4.4818210684E-001 +7.3076011226E+000  +1.3498485303E-001 -4.8449964963E+000  +1.3223062750E-001 +1.1245885814E+001  +4.5250986250E-001 -2.8801294918E+000 
9144598.248 +4.3223207853E-001 +9.9158105341E-001  +1.3218883255E-001 -5.5434194537E+000  +1.3584266185E-001 +1.1623564386E+001  +4.8849240796E-001 -1.5187737739E+000 
9269743.429 +3.9609418521E-001 +1.4993406994E+001  +1.3064767682E-001 -4.6081912320E+000  +1.2973449984E-001 +9.1893298580E+000  +4.4886409029E-001 +1.2976397048E+000 
9394888.611 +3.9054350661E-001 +6.0499822885E+000  +1.3298639115E-001 -5.3060728659E+000  +1.3467701827E-001 +1.0669013626E+001  +4.8685777962E-001 +4.6898576931E-001 
9520033.792 +4.0988965906E-001 +2.2888360505E+000  +1.3162596520E-001 -5.7108645355E+000  +1.2851226382E-001 +9.9687847367E+000  +4.2819070961E-001 +2.2770671112E+000 
9645178.974 +4.4990549852E-001 +3.0984948300E+000  +1.3537389433E-001 -4.8928367200E+000  +1.3565211478E-001 +1.2063312064E+001  +4.2700402051E-001 -5.8114055351E-002 
9770324.155 +4.0747500432E-001 +7.3807957019E+000  +1.3440084672E-001 -5.9197590501E+000  +1.3140003096E-001 +1.1269744782E+001  +4.0035881637E-001 -2.0859214334E+000 
9895469.337 +3.7857268152E-001 +3.9018680954E+000  +1.3308582277E-001 -4.7535673070E+000  +1.3322112281E-001 +1.0089642067E+001  +3.8658343874E-001 -1.0262481856E+000 
10020614.518 +4.0783413060E-001 +2.4859325178E+000  +1.3248043675E-001 -3.9461960654E+000  +1.3301784824E-001 +1.1973681125E+001  +4.4274213565E-001 -1.5287996278E-001 
10145759.700 +3.9325907929E-001 +4.7215026616E-001  +1.3726188214E-001 -4.0010927907E+000  +1.3304712587E-001 +1.1167340898E+001  +3.9245530012E-001 -6.7235126861E+000 
10270904.881 +4.1809824598E-001 +1.1788705257E+001  +1.3482584368E-001 -3.3098801494E+000  +1.3198346726E-001 +1.3230164494E+001  +4.3270016049E-001 +3.0401708145E+000 
10396050.063 +4.1106022672E-001 +6.4409369910E+000  +1.3742610398E-001 -1.8202521231E+000  +1.3296108117E-001 +1.2378509906E+001  +4.8103666869E-001 +2.6048663372E+000 
10521195.244 +4.1843190364E-001 +7.2201048718E+000  +1.3399782275E-001 -3.6680681962E+000  +1.3352131620E-001 +1.1212345306E+001  +4.7672132753E-001 +1.8143397040E+000 
10646340.426 +4.0899218156E-001 +7.3942452241E+000  +1.3838155896E-001 -2.7655944711E+000  +1.3614904084E-001 +1.1999345512E+001  +4.3298232534E-001 +6.2450130912E-001 
10771485.607 +4.1859370907E-001 +1.1329211425E+001  +1.3863937507E-001 -1.6170034297E+000  +1.3685205013E-001 +1.2500648266E+001  +4.7150740665E-001 +4.0991096077E+000 
10896630.788 +4.4008129673E-001 +1.4029600556E+001  +1.3914471447E-001 -2.2673717208E+000  +1.3478744081E-001 +1.2389987808E+001  +4.6563089139E-001 +5.7300282808E+000 
11021775.970 +4.5557798769E-001 +9.6496271413E+000  +1.3905349855E-001 -1.0650964471E+000  +1.3887330688E-001 +1.1919916318E+001  +4.7550295132E-001 +3.5454529340E+000 
11146921.151 +4.3408569517E-001 +8.2129699987E+000  +1.3795482091E-001 -4.3702885579E-001  +1.3935191520E-001 +1.2517677847E+001  +4.8918333752E-001 +6.8221626334E+000 
11272066.333 +4.2959285736E-001 +7.7440603711E+000  +1.4337739904E-001 -1.0345177955E+000  +1.3977971142E-001 +1.2611134912E+001  +4.6475339413E-001 +3.6050231256E+000 
11397211.514 +4.5662844182E-001 +8.5884716267E+000  +1.4274068487E-001 -1.5534330272E-001  +1.4052421631E-001 +1.3051417914E+001  +5.1391845211E-001 +2.8479161742E+000 
11522356.696 +4.7613191514E-001 +1.0338217684E+001  +1.4438194813E-001 -8.1678436492E-001  +1.4330453317E-001 +1.1382179226E+001  +4.8738609058E-001 +5.7500267748E+000 
11647501.877 +4.8454879501E-001 +9.9392094674E+000  +1.4444478228E-001 +1.9691625112E-001  +1.4472251343E-001 +1.2193492281E+001  +5.0272896618E-001 +3.8732166437E+000 
11772647.059 +4.8078645217E-001 +6.9145301195E+000  +1.4894677940E-001 +6.3255844644E-001  +1.4722943441E-001 +1.1981009130E+001  +5.1690384924E-001 +2.4789348656E+000 
11897792.240 +5.2654745834E-001 +1.0447241094E+001  +1.4727671541E-001 +1.0248522490E+000  +1.4768833003E-001 +1.1320342672E+001  +5.4246755469E-001 +3.4198819582E+000 
12022937.422 +5.3236487945E-001 +7.5756747949E+000  +1.4773554178E-001 +1.4347745229E+000  +1.4853639961E-001 +1.0918026472E+001  +5.3116217479E-001 +4.5410809645E+000 
12148082.603 +5.4857931332E-001 +7.1687012380E+000  +1.5445657310E-001 +8.6130386615E-001  +1.5249683238E-001 +1.0184964936E+001  +5.4847697711E-001 +9.0178146301E-001 
12273227.785 +5.1600386739E-001 +4.0439773804E+000  +1.5675980267E-001 +2.2338163621E+000  +1.5386404302E-001 +9.2525985046E+000  +5.7892957858E-001 +2.3795985458E+000 
12398372.966 +5.5564403985E-001 +4.2185226648E+000  +1.5686215472E-001 +1.3080114490E+000  +1.5602433868E-001 +9.5744385502E+000  +5.7424604728E-001 +3.6170013169E-001 
12523518.148 +5.7242151838E-001 +4.3323821263E+000  +1.5932942810E-001 +1.6934417493E+000  +1.5655831245E-001 +9.5339345062E+000  +5.9105800669E-001 +1.3760824436E+000 
12648663.329 +6.3155162590E-001 +4.4049279171E+000  +1.6057871780E-001 +2.7101777476E+000  +1.5640087210E-001 +9.4165570871E+000  +5.8857340408E-001 +1.6335164596E-001 
12773808.511 +5.8605622137E-001 +4.5233225747E+000  +1.5994109031E-001 +1.4952589641E+000  +1.5701524222E-001 +8.4571987069E+000  +5.7823607890E-001 +8.8206737259E-001 
12898953.692 +6.1590078166E-001 +2.4770932381E+000  +1.6224274343E-001 +2.4358787407E+000  +1.6194681487E-001 +7.7319070265E+000  +6.1732960861E-001 +3.0022678721E-001 
13024098.874 +6.2665243456E-001 +1.8470088217E+000  +1.6412694857E-001 +2.8428449891E+000  +1.6202937455E-001 +7.1148101950E+000  +6.4294976551E-001 +2.8568846399E-001 
13149244.055 +6.3224813981E-001 +1.5472777202E+000  +1.6494799245E-001 +3.0835036899E+000  +1.6281955420E-001 +6.9583918326E+000  +6.6259024516E-001 -1.0575785240E+000 
13274389.237 +6.4730669347E-001 -8.2001284747E-001  +1.6874147825E-001 +2.5261857452E+000  +1.6499667010E-001 +6.2579552519E+000  +6.8194834641E-001 -1.6310777698E+000 
13399534.418 +6.7392031969E-001 +2.3582461195E-001  +1.7132072168E-001 +2.2118671011E+000  +1.6715336973E-001 +6.1338317210E+000  +6.9547066291E-001 -3.5584910551E+000 
13524679.599 +7.0167244505E-001 -5.5745106658E-001  +1.7085204442E-001 +3.2925608334E+000  +1.6833144291E-001 +5.5411185427E+000  +6.8881825553E-001 -2.0841468986E+000 
13649824.781 +6.8989206177E-001 -3.4338930173E+000  +1.7406117688E-001 +2.3089704993E+000  +1.7218481020E-001 +5.2301515839E+000  +7.2840408881E-001 -3.1844194935E+000 
13774969.962 +7.2865313053E-001 -2.5183800574E+000  +1.7345035058E-001 +2.3576249034E+000  +1.7219371914E-001 +4.7118119238E+000  +7.2757369345E-001 -4.6112744714E+000 
13900115.144 +7.3894724664E-001 -1.4979264967E+000  +1.7349639425E-001 +2.1563610397E+000  +1.6958695761E-001 +4.1432994692E+000  +7.5129941522E-001 -2.6943744767E+000 
14025260.325 +7.3925222122E-001 -4.3720119447E+000  +1.7649805498E-001 +2.3190756024E+000  +1.7307716312E-001 +3.3147904804E+000  +7.6194380881E-001 -2.9090244034E+000 
14150405.507 +7.8897369009E-001 -5.4413623508E+000  +1.7757852328E-001 +2.8304043833E+000  +1.7627053232E-001 +3.2733887105E+000  +7.8202170666E-001 -4.5916340447E+000 
14275550.688 +7.6340125593E-001 -4.7421920467E+000  +1.7841349879E-001 +1.3711309532E+000  +1.7352928149E-001 +2.6129691150E+000  +7.8772844659E-001 -3.7953358583E+000 
14400695.870 +7.9893404109E-001 -4.5277145695E+000  +1.7723522185E-001 +1.0038230320E+000  +1.7450015065E-001 +2.0453507745E+000  +7.9144053250E-001 -5.2953538998E+000 
