!  2-Port S-parameters saved by WinCal
! VAR MeasName=S-Parameters (CALIBRATED_DATA) read from VNA (P5004A)
! VAR MeasDate=28/08/2024 17:00:12
! VAR NAME=S2_r9c9_RESET4_9k-100M_1
! VAR FILENAME=S2_r9c9_RESET4_9k-100M_1.S2P
! VAR DATE=28/08/2024 17:00:12
! VAR PHYS_PORTS=1,2
! VAR ObjTypeName=DATASET
! VAR IndexType=Frequency
!
# Hz S MA R 50
9000.000 +9.4742191440E-002 -1.7027511256E+002  +8.7433426801E-003 -1.5245712851E+002  +5.5720424932E-003 +9.6707835035E+001  +2.4380933337E-001 -1.5083086563E+002 
134145.181 +1.1146574416E-001 +1.6962785048E+002  +4.5943409000E-004 +4.2121443170E+001  +2.1531561834E-004 -1.1381189431E+002  +2.4557362363E-001 -1.7068935855E+002 
259290.363 +1.1280040695E-001 +1.6968604423E+002  +4.4736092692E-004 -1.0396224642E+002  +4.4470868250E-004 -1.6428606443E+002  +2.4011009668E-001 -1.6980551323E+002 
384435.544 +1.1348889030E-001 +1.7018046386E+002  +6.5675469087E-004 -2.0354745116E+001  +7.3927760943E-004 +1.5977012370E+002  +2.4145208870E-001 -1.6911296594E+002 
509580.726 +1.1358001815E-001 +1.7056043400E+002  +8.0735768668E-004 -1.1653117796E+002  +2.8354287268E-004 +1.1728669860E+002  +2.4134663967E-001 -1.6603344338E+002 
634725.907 +1.1984870044E-001 +1.7282371841E+002  +8.5530848176E-004 +1.2876997449E+002  +6.0567999553E-004 +1.6330810862E+002  +2.5589815075E-001 -1.6468736713E+002 
759871.089 +1.2061777256E-001 +1.7068691249E+002  +6.6981685943E-004 +1.2800483734E+002  +3.6272502948E-004 +6.2685225104E+001  +2.5249598426E-001 -1.6644592356E+002 
885016.270 +1.1979162505E-001 +1.6872834912E+002  +2.8185101466E-004 +3.9527657453E+001  +3.7825783184E-004 -1.2001121959E+002  +2.4549393324E-001 -1.6692225612E+002 
1010161.452 +1.2156860212E-001 +1.7143295607E+002  +8.8363146812E-004 -1.6101824003E+002  +8.1793853245E-004 +4.1740904091E+001  +2.1568690214E-001 -1.6619359539E+002 
1135306.633 +1.1948300831E-001 +1.6902146262E+002  +1.2650098422E-003 +7.8182262911E+001  +8.4753378728E-004 -4.4478702293E+001  +1.9058668257E-001 -1.6937502069E+002 
1260451.815 +1.1987728055E-001 +1.7136463054E+002  +5.7527463309E-004 +1.6676856956E+002  +2.1880398037E-003 -1.2099008594E+002  +2.0845680884E-001 -1.6525725039E+002 
1385596.996 +1.2512434027E-001 +1.7136033723E+002  +5.5424988355E-004 -3.1124119875E+001  +1.3621855992E-003 +1.4096037287E+002  +2.7105458771E-001 -1.5943298939E+002 
1510742.178 +1.2616126532E-001 +1.7116874441E+002  +1.8147733120E-004 +1.5293369284E+002  +7.6455949738E-004 -4.9143652944E+001  +2.6582461930E-001 -1.5940116622E+002 
1635887.359 +1.2765885524E-001 +1.7105582378E+002  +9.7407523704E-004 +7.3008928765E+001  +8.2947993292E-004 -1.2818772736E+001  +2.5662662156E-001 -1.5759753122E+002 
1761032.541 +1.3150000352E-001 +1.7061345968E+002  +4.3085635103E-004 -1.7144471752E+002  +6.9344110200E-004 +1.3684938499E+002  +2.2650061521E-001 -1.5803281552E+002 
1886177.722 +1.2851368029E-001 +1.6871468948E+002  +1.7133348776E-003 +1.5270024661E+002  +3.3491700795E-003 -8.6941480736E+001  +1.8192761766E-001 -1.5920972460E+002 
2011322.904 +1.3020310442E-001 +1.6924048348E+002  +1.0241487083E-003 -9.6745791084E+001  +1.7674416624E-003 +2.6754588541E+001  +2.2642186872E-001 -1.6262091724E+002 
2136468.085 +1.2703255104E-001 +1.6774773088E+002  +2.3040482214E-003 -5.2421421133E+001  +1.7288602686E-003 +1.4424784630E+002  +1.8303172655E-001 -1.6149901429E+002 
2261613.267 +1.3683203414E-001 +1.6712863846E+002  +7.4687733985E-004 +2.1743880216E+001  +8.5251822884E-004 +1.5075252340E+002  +2.0851107850E-001 -1.7463433179E+002 
2386758.448 +1.2414519611E-001 +1.6431495197E+002  +1.7722489400E-003 +1.3330478174E+002  +3.0891900635E-003 -9.0960500677E+001  +2.3693088529E-001 -1.6967439552E+002 
2511903.630 +1.3745953603E-001 +1.6085984529E+002  +3.7211092724E-003 +1.0453312211E+002  +5.7014564254E-003 +5.0209886010E+001  +8.4911989508E-002 +1.2963747942E+002 
2637048.811 +1.1639812237E-001 +1.6682191054E+002  +1.3373761371E-002 -6.2954753974E+001  +1.8787591344E-002 +1.7256614388E+002  +2.6642943589E-001 +1.1692553473E+002 
2762193.992 +1.1680260914E-001 +1.6367038664E+002  +2.7664576986E-002 -4.7858511377E+000  +5.9306133256E-003 +4.3944932885E+001  +7.8875211058E-001 +1.2955015346E+002 
2887339.174 +1.0009544114E-001 -1.7926789901E+002  +1.8093047169E-002 -9.1094032262E+001  +5.6679135055E-003 +9.2388153846E+001  +5.0611356857E-001 -1.0516563121E+002 
3012484.355 +1.0027597665E-001 +1.6627886569E+002  +2.7784964077E-002 -6.7253847705E+001  +1.7575604871E-002 +1.3950895134E+002  +8.7694787534E-001 -2.1439932387E+001 
3137629.537 +1.0351735871E-001 +1.5560042363E+002  +1.0659299503E-002 +2.6430919746E+001  +1.0407872473E-002 -1.6996054233E+002  +4.2272448813E-001 -1.0677753911E+002 
3262774.718 +1.0440177639E-001 +1.7201971257E+002  +5.0586075079E-003 +1.2785931734E+002  +9.5602815533E-003 -1.7174304796E+002  +1.4860930812E-001 +8.8209102184E+000 
3387919.900 +1.2512997801E-001 +1.5746865949E+002  +3.2238532643E-003 +1.3631714407E+002  +4.1556497092E-003 +7.6196242203E+001  +2.1945591725E-001 -1.1559569578E+002 
3513065.081 +1.4050959379E-001 +1.4577394513E+002  +2.1439923977E-002 -1.5913875100E+001  +3.8807560465E-002 +5.8075235754E+001  +9.0660130118E-001 +1.0975785959E+001 
3638210.263 +1.6873575252E-001 +1.3324537419E+002  +2.2133587664E-002 +8.3407481210E+001  +2.4999154845E-002 -8.7703551639E+000  +5.0907154225E-001 +1.0875247092E+002 
3763355.444 +1.5528445450E-001 +1.3308379798E+002  +1.1174086628E-002 -7.4179379598E+001  +1.2782959831E-002 +9.9469481645E+001  +3.2460276010E-001 +1.4538823565E+002 
3888500.626 +1.6308444505E-001 +1.5345009428E+002  +2.7296191235E-003 +1.7392894870E+002  +7.8528653618E-003 -1.5027486401E+002  +3.4752717525E-001 +1.2961654849E+002 
4013645.807 +1.5834460568E-001 +1.4857874417E+002  +5.7125528840E-003 -1.3225068209E+002  +8.2106528213E-003 +1.5451611390E+002  +4.5090731063E-001 +6.2145631383E+001 
4138790.989 +2.0534897343E-001 +1.3870113431E+002  +8.1180379285E-003 +1.5117892473E+002  +6.2404075060E-003 -1.2753163094E+002  +4.4760846204E-001 +1.4563369483E+002 
4263936.170 +1.9570680391E-001 +1.4925743487E+002  +1.0011638519E-002 -5.5251620075E+001  +3.3663734627E-003 -1.0613014901E+002  +4.7202585015E-001 +1.0070074110E+002 
4389081.352 +1.6132463163E-001 +1.4113018320E+002  +9.2442148614E-003 -1.5716346490E+002  +7.1553043389E-003 -1.0880978592E+002  +6.8650468157E-001 +9.4948609048E+001 
4514226.533 +2.2665011167E-001 +1.3606583331E+002  +1.3775211890E-001 -8.2007197091E+001  +1.6187418937E-001 +9.7679847421E+001  +1.2161986911E+001 +1.6507992759E+002 
4639371.715 +2.0395249303E-001 +1.3906003294E+002  +7.4771915652E-003 -1.6428079201E+002  +1.6739007402E-002 -1.2082383636E+002  +7.6829533422E-001 +8.6657034691E+001 
4764516.896 +2.6429352176E-001 +1.2364398873E+002  +8.0914502598E-002 +7.6260347933E+001  +8.1922277868E-002 +4.0653778452E+001  +7.9049697766E+000 -1.6693467865E+002 
4889662.078 +4.1529276981E-001 +1.3468865183E+002  +3.2349757757E-002 +3.4920364751E+001  +1.9307909283E-002 -9.9044131446E+000  +2.1098200209E+000 -7.6632135376E+001 
5014807.259 +3.9365350583E-001 +1.3042810986E+002  +8.2222208337E-002 -1.0436345926E+002  +1.1756913927E-001 +7.3289218819E+001  +8.1024643496E+000 -1.2204063354E+002 
5139952.441 +3.5612700911E-001 +1.2188997805E+002  +2.6607469533E-003 -6.4983452119E+001  +2.1438382628E-002 +9.4910810242E+001  +3.3792080766E+000 +2.0645295814E+001 
5265097.622 +4.1636429715E-001 +1.3586263640E+002  +2.8279268109E-002 -2.6140458233E+001  +2.5905019293E-002 +1.5134700970E+001  +2.8463563736E+000 +1.4368606014E+002 
5390242.804 +3.9114879856E-001 +1.2151032494E+002  +2.2523473193E-002 +1.0095336313E+002  +1.3274736553E-002 +9.1230286590E+001  +2.1488211070E+000 +1.1409707379E+002 
5515387.985 +3.8540158960E-001 +1.2619756505E+002  +7.6888502822E-003 -5.2919207547E+001  +3.6282138017E-003 +4.2251340918E+001  +1.3297003836E+000 +9.2072052487E+001 
5640533.166 +4.4100514238E-001 +1.2566192110E+002  +1.3030344910E-002 -5.9589368487E+001  +3.2878326966E-002 +7.3762478055E+001  +2.9112225646E+000 +7.0132939269E+001 
5765678.348 +4.2724610321E-001 +1.1645214956E+002  +2.7264898676E-002 +1.3569221185E+002  +2.1412717217E-002 +5.7393043705E+001  +1.6161604754E+000 +6.4893822755E+001 
5890823.529 +5.2313730876E-001 +1.1923253552E+002  +1.1414921141E-002 -8.7858492264E+001  +2.7642433032E-002 +1.3795850818E+002  +1.7712477784E+000 +5.0208316513E+001 
6015968.711 +5.4562030431E-001 +1.1074482444E+002  +3.0237306149E-002 -5.8033868680E+001  +7.0892629436E-003 -9.1782915328E+001  +2.4350794641E+000 +6.6624287549E+001 
6141113.892 +7.0644613947E-001 +1.1643942218E+002  +1.7268110640E-002 -9.6736511599E+001  +2.0827463200E-002 -3.6929068548E+001  +2.0104381629E+000 +3.7058384391E+001 
6266259.074 +9.0295489414E-001 +1.0073675428E+002  +3.8644240202E-003 -1.5303648749E+002  +2.4074191843E-002 +9.0879686996E+001  +1.7658408166E+000 +4.1148743111E+001 
6391404.255 +1.0373438602E+000 +1.0122604582E+002  +1.0100846787E-002 +9.1964777655E+000  +1.2007696883E-002 -7.7856322610E+001  +1.6757520340E+000 -2.6417142885E+000 
6516549.437 +1.2746064053E+000 +9.2328243973E+001  +1.4783106894E-002 +3.1916010802E+001  +3.8262035383E-002 +5.8919170720E+001  +1.2713049359E+000 +1.2670976476E+000 
6641694.618 +1.2181302802E+000 +5.0202507625E+001  +2.0384577698E-002 +8.3505575493E+000  +1.2534360050E-002 +1.6103885740E+002  +1.5088760615E+000 +1.1138717382E+000 
6766839.800 +1.7615204984E+000 +6.3624459332E+001  +3.4465267217E-002 -3.3140452089E+001  +6.2824540347E-003 -2.4245158422E+001  +1.2995971670E+000 -1.1759802920E+000 
6891984.981 +1.4955132508E+000 +3.6897158789E+001  +1.0350437896E-002 +1.6938499729E+002  +5.9798933274E-003 -6.9306207882E+001  +1.2732600995E+000 -4.9699283838E+000 
7017130.163 +2.0235688764E+000 +2.3194073852E+001  +1.0873773783E-002 -1.1205802048E+002  +1.7587841314E-002 -1.4503540701E+002  +1.2399065124E+000 -1.1127178393E+001 
7142275.344 +1.6929927045E+000 +1.5588194391E+001  +1.9974978256E-002 -5.4467328769E+001  +5.8103013884E-003 +1.7850167012E+002  +1.3776889162E+000 -9.6650931899E+000 
7267420.526 +1.5835873396E+000 +5.5775777760E-001  +8.1244510154E-003 +8.0152891328E+001  +1.1046153164E-002 -1.1187920232E+002  +1.4045142482E+000 -1.6270981174E+001 
7392565.707 +1.2464188012E+000 +2.5444791254E+000  +7.2320501943E-003 -3.0798498912E+001  +4.2253517940E-003 -5.0266500566E+001  +1.3174480865E+000 -1.3839316045E+001 
7517710.889 +1.0500449457E+000 +4.9845085808E+000  +2.0459211259E-003 +1.1446158644E+002  +5.8441640383E-003 +5.2737982904E+001  +1.1049073264E+000 +8.0791622299E-001 
7642856.070 +1.0797713262E+000 +4.8280756297E+000  +1.8862728777E-003 -1.7754437917E+001  +6.3059687595E-003 -8.7438877127E+001  +1.0325305879E+000 +3.3646808783E-001 
7768001.252 +9.8295978545E-001 +1.7849122315E+000  +3.1682901187E-003 +8.6651323561E+001  +1.2218077501E-003 +4.9223366921E+001  +1.0542722550E+000 -3.5813075106E+000 
7893146.433 +8.8612186138E-001 +4.1665635225E+000  +5.8867133882E-003 +3.2180933984E+000  +6.6722189686E-003 +2.8951208053E+001  +9.4663563863E-001 -5.9301129725E+000 
8018291.615 +7.9761417331E-001 +8.6296709324E+000  +3.8295556471E-003 +6.3159748073E+001  +5.0125827428E-003 +1.1073935121E+002  +8.5156416908E-001 +5.6149992526E+000 
8143436.796 +6.9198639270E-001 +7.9499616548E+000  +7.2715784079E-003 +1.5499150170E+002  +2.7665401026E-003 +1.4092091545E+002  +8.7062078153E-001 +1.0985867185E+000 
8268581.977 +7.8377052048E-001 +7.6832018489E+000  +1.8397997923E-003 +9.5138713392E+001  +4.8746479813E-003 +8.2735492741E+001  +7.6070521138E-001 -1.0746067102E+000 
8393727.159 +6.9561283695E-001 +5.5498904740E+000  +5.4911193747E-003 +1.3258180278E+002  +1.8449187172E-003 +1.0707608972E+002  +7.6738400514E-001 +1.3114086508E+000 
8518872.340 +6.5564780026E-001 +1.1557716924E+001  +1.3263053490E-003 -1.4348995107E+002  +7.6629634264E-003 -1.2096840267E+002  +7.9305090934E-001 +1.4841316979E+000 
8644017.522 +6.4345646697E-001 +4.7107628116E+000  +5.9576460962E-004 +5.2786045447E+000  +3.7128009651E-003 +1.3368085544E+002  +7.2908229410E-001 -1.4858275529E-001 
8769162.703 +6.6380494999E-001 +8.2264683196E+000  +1.7419625803E-003 +3.1517493075E+001  +1.8124854748E-003 +1.7163386967E+002  +6.4133591207E-001 +1.9592313077E+000 
8894307.885 +6.1114839438E-001 +1.0524121762E+000  +6.8418186839E-003 -1.3958644525E+002  +1.3781284985E-003 -6.0261620822E+001  +7.0136559625E-001 +4.4235441062E+000 
9019453.066 +6.3658785040E-001 +5.9045932678E+000  +1.9641364354E-003 -1.1592369531E+002  +5.2599845458E-003 +1.5769829020E+002  +6.2948300616E-001 -1.1524296506E-001 
9144598.248 +5.3384029926E-001 +7.0523869390E+000  +1.3415475564E-003 +6.9711799047E+001  +3.3749687015E-003 -1.2713690457E+002  +6.7145219759E-001 +1.8020886519E+000 
9269743.429 +5.3756782008E-001 +6.7045865939E+000  +3.0302284241E-003 -3.4178706121E+001  +3.9355196197E-003 +7.9405926078E+001  +5.7042959755E-001 +2.4553850070E+000 
9394888.611 +5.5859887567E-001 +2.2640843117E+000  +7.4435817416E-004 -8.1600217492E+001  +2.0466683555E-003 +1.3710666668E+002  +5.7335308902E-001 -8.5068179601E+000 
9520033.792 +5.6323748300E-001 -2.1329232338E+000  +3.0728239000E-003 -5.7355590908E+001  +1.5013909625E-003 -1.1732136086E+001  +5.7023761649E-001 -5.6204733808E+000 
9645178.974 +5.5760891587E-001 +2.0978703958E+000  +3.5788617083E-003 +7.6608181974E+001  +3.7286326914E-003 -1.2532809004E+002  +5.8415980181E-001 -2.9093605558E+000 
9770324.155 +5.6909207998E-001 +3.0822164094E+000  +2.7749519027E-004 +9.7172978925E+001  +2.6919803163E-003 +1.7368177355E+002  +5.6776095410E-001 -1.9448661408E+000 
9895469.337 +5.7696162663E-001 +1.4760217320E+000  +1.2430503712E-003 +6.6083277541E+001  +1.9723866906E-003 +5.6080672491E+001  +5.8071650151E-001 -4.4645845789E+000 
10020614.518 +5.6609115423E-001 +3.6568669972E+000  +9.7826609111E-004 +9.3698433055E+001  +1.6024190843E-003 -8.9882138073E+001  +5.8065728068E-001 -5.9974647335E+000 
10145759.700 +5.6996481629E-001 +1.7805055088E+000  +1.6787641898E-003 +4.8208657900E+001  +1.0808002710E-003 -7.9052087004E+001  +5.5553432612E-001 -3.0322704612E+000 
10270904.881 +5.7715804568E-001 +5.7851417281E+000  +2.4318750549E-003 +1.5817781119E+002  +3.8497624477E-003 +6.3077102198E+001  +5.3041770614E-001 -4.8685016205E+000 
10396050.063 +5.7601507653E-001 +7.7371529772E+000  +1.4143793884E-003 +3.2039356016E+000  +2.3169803882E-003 -1.0288629009E+002  +5.6540665809E-001 +5.9357251578E+000 
10521195.244 +5.5828557932E-001 +9.5919984588E+000  +1.2250742790E-003 +2.5593640539E+001  +1.6503007589E-003 -1.3741639023E+001  +5.8580330654E-001 +7.2720961716E-001 
10646340.426 +5.9418074452E-001 +8.4452751158E+000  +2.2408255760E-003 -3.8148804184E+001  +4.9020799119E-003 +1.6381814182E+001  +5.9627477931E-001 +4.9670457672E+000 
10771485.607 +5.8362868823E-001 +5.3800545771E+000  +1.3342860018E-003 -1.2551955053E+002  +2.0236556006E-003 -2.0061623689E+001  +5.9333561208E-001 +1.2688074254E+000 
10896630.788 +5.9088841057E-001 +8.0975549567E+000  +3.2701321531E-003 +3.9598859235E+001  +6.0539221103E-004 -1.1672078431E+002  +6.2550298468E-001 +1.9747948698E+000 
11021775.970 +6.0867347545E-001 +8.6318441632E+000  +1.2339952160E-003 -5.0330022480E+001  +1.1580871930E-003 +1.3347751106E+002  +6.1417577363E-001 +2.4110115011E+000 
11146921.151 +6.0127723073E-001 +9.1533000374E+000  +4.7443894055E-003 +9.2258821327E+001  +2.6761253702E-003 -1.6464987682E+002  +6.3398833838E-001 +5.0140968286E-001 
11272066.333 +5.8353916432E-001 +7.8889515999E+000  +6.7306882881E-004 -1.3879683327E+002  +1.6333913625E-003 +1.5524805803E+002  +6.3121741391E-001 +3.6445995984E+000 
11397211.514 +6.1361005473E-001 +6.7230740922E+000  +5.1308284373E-004 -4.6253216443E+001  +1.8866816861E-003 +3.0917915858E+001  +6.3182604031E-001 -2.7930789937E-001 
11522356.696 +6.1470918064E-001 +9.2210546823E+000  +7.4677941760E-004 -1.6075096549E+002  +5.5544184858E-004 +1.2753509331E+002  +6.5053635190E-001 +1.9174076629E+000 
11647501.877 +6.4299683063E-001 +6.8278329703E+000  +2.1966476698E-003 -1.6588573469E+002  +2.8967512787E-003 -1.3163478821E+002  +6.9301909285E-001 +5.1052499594E+000 
11772647.059 +6.4111767319E-001 +7.3685546681E+000  +1.1200363828E-003 -6.3182501710E+001  +1.4605549970E-003 -5.5202360551E+001  +6.8778839157E-001 +2.0932990464E+000 
11897792.240 +6.5442434771E-001 +7.3074022833E+000  +9.1607266240E-004 -1.1273806148E+000  +8.9893053393E-004 +2.1666644906E+001  +6.7145043429E-001 +2.5058373072E+000 
12022937.422 +6.6533322488E-001 +4.7307365999E+000  +9.7435168025E-004 +4.5790546223E+001  +2.6710668279E-004 +9.1858554520E+000  +6.9306488186E-001 +2.0406657780E+000 
12148082.603 +6.7469806481E-001 +7.4587741109E+000  +1.2583406030E-003 +4.3174256081E+001  +2.5492361768E-004 +1.2122810486E+002  +6.7865515630E-001 +2.4932131974E+000 
12273227.785 +6.8844528581E-001 +4.3484220612E+000  +1.2856554775E-003 +3.0473400950E+001  +1.9912687489E-003 +4.1618088356E+001  +7.1895952715E-001 +1.5061368195E+000 
12398372.966 +7.1737132752E-001 +4.3018666605E+000  +9.6279170168E-004 -1.4087673652E+001  +4.5240014753E-004 +9.3727675760E+001  +7.1676456660E-001 +9.4076199732E-001 
12523518.148 +7.2706103543E-001 +4.6071165818E+000  +2.0248510981E-003 -1.1591726414E+002  +2.0648231797E-003 +1.0823849242E+002  +7.3672180258E-001 +1.1803677392E+000 
12648663.329 +7.6072615664E-001 +2.6636044926E+000  +1.8001038725E-003 -5.9928166882E+001  +1.7182724725E-003 +1.3137188831E+001  +7.4597660663E-001 -5.5618302671E-001 
12773808.511 +7.4843105515E-001 +3.5751272489E+000  +1.0144615955E-003 -2.0317458089E+001  +1.4935583529E-003 +8.6504111495E+001  +7.8116625344E-001 +3.7717232324E-001 
12898953.692 +7.8024225335E-001 +1.7470427255E+000  +9.3202387113E-004 +1.6176962717E+002  +7.4101676347E-004 -4.2528568186E+001  +7.9858627555E-001 -1.2447087341E+000 
13024098.874 +7.7988100245E-001 +2.4888057242E+000  +1.2238859917E-003 -1.6815426570E+002  +1.5107402961E-003 -1.2760691529E+002  +8.2803500136E-001 -8.8657068647E-001 
13149244.055 +7.8725431452E-001 +1.1422618329E+000  +1.3259482003E-003 +1.2763640305E+002  +9.8914780633E-004 +3.4995472619E+001  +8.1610756172E-001 -1.1535341615E+000 
13274389.237 +8.1290764097E-001 -7.0692830839E-001  +1.5712622201E-004 +1.3875597282E+002  +1.0337109624E-003 +8.7264186131E+001  +8.2758770588E-001 -2.0661350967E+000 
13399534.418 +8.2592325399E-001 -1.0401041092E-001  +1.5608675075E-003 +1.3267676184E+002  +8.8776759302E-004 +7.8823236643E+000  +8.5549972463E-001 -2.6427125391E+000 
13524679.599 +8.4664175974E-001 -9.7764207567E-002  +6.2212590190E-004 -5.1739626151E+000  +3.5255716897E-004 +2.5273812062E+001  +8.7020553643E-001 -3.0491610365E+000 
13649824.781 +8.7304968304E-001 -1.4294268048E+000  +1.5120385922E-003 +1.2709099953E+002  +2.3406829927E-003 -1.1886550185E+002  +8.8450388270E-001 -3.0478416803E+000 
13774969.962 +9.0165846983E-001 -1.5122705876E+000  +5.3014663383E-004 +2.3637528583E+001  +7.7521687204E-004 +3.2078670771E+001  +9.1299794766E-001 -3.1740348475E+000 
13900115.144 +8.9953736680E-001 -3.4810797160E+000  +4.9234791551E-004 +1.2463464517E+002  +1.7298414403E-003 -1.3612383359E+002  +9.0598226722E-001 -4.0948536141E+000 
14025260.325 +8.9753233150E-001 -3.7091265794E+000  +8.1861621085E-004 +1.7480828873E+002  +3.8625186962E-004 +1.2195736215E+002  +9.3623065898E-001 -4.2413135961E+000 
14150405.507 +9.4861647157E-001 -4.4719860659E+000  +5.9867656226E-004 +8.1802708434E+001  +2.3673312341E-003 +1.3630267008E+002  +9.4987082138E-001 -3.4720165899E+000 
14275550.688 +9.5271452254E-001 -4.9980985103E+000  +1.0828546761E-003 +1.4765116854E+002  +5.6124508872E-004 +1.3806097869E+002  +9.7559333777E-001 -4.8392547947E+000 
14400695.870 +9.7346141112E-001 -4.4291235867E+000  +9.7323051746E-004 -2.3537112032E+001  +1.9362987036E-003 -8.4482751708E+001  +9.8143069484E-001 -3.0642137116E+000 
