!  2-Port S-parameters saved by WinCal
! VAR MeasName=S-Parameters (CALIBRATED_DATA) read from VNA (P5004A)
! VAR MeasDate=29/08/2024 11:10:33
! VAR NAME=S2_r9c3_RESET1_9k-100M_3
! VAR FILENAME=S2_r9c3_RESET1_9k-100M_3.S2P
! VAR DATE=29/08/2024 11:10:33
! VAR PHYS_PORTS=1,2
! VAR ObjTypeName=DATASET
! VAR IndexType=Frequency
!
# Hz S MA R 50
9000.000 +8.2675655713E-002 -1.5301679927E+002  +1.2570543259E-002 +1.6719808396E+002  +3.8784307769E-003 -3.5745702024E+001  +2.9099708047E-001 -1.5246720322E+002 
134145.181 +1.1086235775E-001 +1.6955136549E+002  +3.2437897319E-004 -8.4379530429E+001  +3.7948149956E-004 +1.5674390090E+002  +2.3906912436E-001 -1.7097967509E+002 
259290.363 +1.1152944586E-001 +1.6938166002E+002  +5.6522349353E-004 +1.6757570171E+001  +4.9719474878E-004 -1.6961213889E+002  +2.3417008938E-001 -1.7049921724E+002 
384435.544 +1.1526163407E-001 +1.6996677723E+002  +4.6351788059E-004 -4.3626686207E+001  +5.3015812091E-004 -1.7055493620E+002  +2.5205278389E-001 -1.6823514446E+002 
509580.726 +1.1194797672E-001 +1.7049494792E+002  +2.0449546630E-003 -1.0158774796E+002  +3.8700380054E-003 +9.2355601705E+001  +2.6054794429E-001 -1.6445958422E+002 
634725.907 +1.1742835088E-001 +1.7143141382E+002  +1.3965148354E-003 -6.5826992841E+001  +2.0371713564E-003 +1.2585701759E+002  +2.6677849604E-001 -1.6136125794E+002 
759871.089 +1.2030862854E-001 +1.7040176444E+002  +1.1378195113E-003 -6.8628892047E+001  +7.4450117086E-004 +1.2988983273E+002  +2.4695106896E-001 -1.6711551185E+002 
885016.270 +1.2135796071E-001 +1.6901580708E+002  +7.4598781453E-004 -5.2718892552E+001  +1.0360713994E-003 +9.5796747526E+001  +2.4421493247E-001 -1.6665156976E+002 
1010161.452 +1.1594369346E-001 +1.6950608264E+002  +1.6081580971E-003 -1.6690730441E+001  +1.2918650375E-003 -1.5164330011E+002  +2.1419780328E-001 -1.6973623053E+002 
1135306.633 +1.1987046238E-001 +1.6903436419E+002  +1.4006331736E-003 +3.5037143641E+001  +1.4080979001E-003 -1.6699530963E+002  +2.0613282717E-001 -1.7182143009E+002 
1260451.815 +1.1993602928E-001 +1.7091496452E+002  +3.3337589960E-003 -3.0155351009E+001  +2.1111193931E-003 +1.6773776881E+002  +2.1491887290E-001 -1.6381514612E+002 
1385596.996 +1.2215105726E-001 +1.7294482129E+002  +2.5790059134E-003 -8.7714796089E+001  +4.0870654827E-003 +1.2712863576E+002  +2.5801836377E-001 -1.5803652327E+002 
1510742.178 +1.2569948892E-001 +1.7186215157E+002  +1.2285222650E-003 -5.3621427614E+001  +2.2680292976E-003 +1.4868496943E+002  +2.6218878836E-001 -1.5879430032E+002 
1635887.359 +1.2693906608E-001 +1.7121944436E+002  +1.8124437286E-003 +8.6166142442E+000  +1.0709448831E-003 -1.4148457387E+002  +2.4690930184E-001 -1.5961788643E+002 
1761032.541 +1.3019631082E-001 +1.6951162290E+002  +1.7745102067E-003 -7.3243409956E+000  +2.7364797477E-003 -1.4296160615E+002  +2.5033494585E-001 -1.5725086449E+002 
1886177.722 +1.3075169451E-001 +1.6940041749E+002  +5.6742870457E-003 +6.3701630163E+001  +6.9672861017E-003 -7.5369718696E+001  +2.0008186421E-001 -1.6424121374E+002 
2011322.904 +1.3367026791E-001 +1.6971050004E+002  +3.8921414779E-003 +5.6045099130E+001  +5.7100988604E-003 -7.5032680400E+001  +2.1875820433E-001 -1.6748177561E+002 
2136468.085 +1.3138565204E-001 +1.6809670643E+002  +8.5613175718E-003 +7.0401737456E+001  +6.0042716477E-003 -7.1124670676E+001  +2.1666669987E-001 -1.6352198417E+002 
2261613.267 +1.3553303586E-001 +1.6589850166E+002  +1.4377769615E-002 +8.0082914617E+001  +1.2836912931E-002 -4.4606165958E+001  +1.7684561684E-001 -1.7372284744E+002 
2386758.448 +1.3944684164E-001 +1.6502983640E+002  +9.1956006454E-003 +9.1447551645E+001  +1.0836294966E-002 -3.1387593221E+001  +2.1956948335E-001 -1.7547847666E+002 
2511903.630 +1.4158150711E-001 +1.6453989022E+002  +1.0671877327E-002 +8.8823164920E+001  +1.4268142970E-002 -4.4585973939E+001  +2.2430486760E-001 -1.7212737285E+002 
2637048.811 +1.0984492159E-001 +1.5566595585E+002  +9.0946468540E-002 +7.4229065672E+001  +1.0066953611E-001 -3.6222727772E+001  +1.3040014342E-001 +5.4477508685E+001 
2762193.992 +1.2657220785E-001 +1.7242074247E+002  +4.3354074242E-002 +3.0185060651E+001  +4.1712816408E-002 -7.4979578957E+001  +1.3090020890E-001 -1.7347545161E+002 
2887339.174 +1.3705420729E-001 +1.7407351292E+002  +2.5614584282E-002 -2.0572456434E+001  +2.9892368936E-002 -1.2135198802E+002  +2.3350678884E-001 -1.3431791582E+002 
3012484.355 +1.3493079254E-001 +1.7262735837E+002  +3.6004196394E-002 +1.1046606610E+001  +3.4686998040E-002 -8.5130902520E+001  +1.3923036119E-001 -1.5302800860E+002 
3137629.537 +1.3741988120E-001 +1.6907152760E+002  +4.3640886246E-002 -8.3079013293E+000  +3.7456263534E-002 -1.1295118376E+002  +2.4534088708E-001 -1.1394939578E+002 
3262774.718 +1.4416072950E-001 +1.7076336096E+002  +4.7830503420E-002 +3.6005953425E+001  +4.1909920530E-002 -5.9031516483E+001  +9.4521515770E-002 +1.6148982514E+002 
3387919.900 +1.3132265391E-001 +1.5992553598E+002  +1.5703232782E-001 +3.5878940713E+001  +1.6132908188E-001 -4.4722022819E+001  +6.3518829085E-001 +1.0691196098E+001 
3513065.081 +1.1857896783E-001 +1.5878298423E+002  +1.0690072768E-001 +6.7861008827E+001  +1.0863793604E-001 -1.6756872534E+001  +3.1284139425E-001 +9.9787577568E+001 
3638210.263 +1.6516652728E-001 +1.5574065898E+002  +4.3666685088E-002 +1.1782984342E+002  +4.1691778566E-002 +3.8128482069E+001  +4.1067236682E-001 +1.6580339621E+002 
3763355.444 +1.6627964481E-001 +1.5054515723E+002  +9.2085529241E-002 +9.3323286914E+001  +8.6730555754E-002 +1.9425910539E+001  +3.8309372022E-001 +1.2241892557E+002 
3888500.626 +1.7606315327E-001 +1.5263895747E+002  +1.0272462389E-001 +8.6915791682E+001  +1.0575741586E-001 +9.6161920944E+000  +4.5586095381E-001 +9.5246883658E+001 
4013645.807 +1.7635829135E-001 +1.5176194757E+002  +8.3367071096E-002 +7.9269992178E+001  +7.2907656870E-002 +9.5082201546E+000  +2.6396821270E-001 +1.2754241778E+002 
4138790.989 +1.7454169293E-001 +1.5680234530E+002  +8.5027480967E-002 +8.6891979040E+001  +8.3750002801E-002 +1.5314643441E+001  +4.6677244605E-001 +1.2616869525E+002 
4263936.170 +1.6503346313E-001 +1.4988496200E+002  +1.0036898480E-001 +6.2125821356E+001  +1.0189408469E-001 +1.3778281605E-001  +2.2613833072E-001 +1.0981405813E+002 
4389081.352 +2.0191949425E-001 +1.5204994633E+002  +8.9272693064E-002 +6.7625169631E+001  +8.9911825521E-002 +7.5321801364E+000  +2.3226233634E-001 +9.4986943284E+001 
4514226.533 +2.2996070172E-001 +1.4485070737E+002  +1.0588427151E-001 +9.7212953941E+001  +1.1154226092E-001 +3.9338608169E+001  +4.4607762662E-001 +1.2324382077E+002 
4639371.715 +2.4216513016E-001 +1.3380768845E+002  +2.6494840125E-001 +1.2318101412E+002  +2.6389375006E-001 +6.2547565677E+001  +1.3022072223E+000 +1.2327513191E+002 
4764516.896 +1.2335345721E-001 +1.0733343301E+002  +9.3979286269E-001 -1.0015307902E+001  +9.0984708127E-001 -6.2241684389E+001  +4.6287662593E+000 -5.9076218763E+001 
4889662.078 +5.0411170474E-001 +1.1183678887E+002  +7.5112963294E-001 +8.9106263909E+001  +7.1889758827E-001 +4.4798609134E+001  +2.0691274934E+000 +5.3162901749E+001 
5014807.259 +3.4768574495E-001 +1.2997634793E+002  +3.5425275660E-001 +9.1879519817E+001  +3.5033799405E-001 +4.9160094994E+001  +1.3755753662E+000 +7.2138302960E+001 
5139952.441 +3.9567634475E-001 +1.3439952418E+002  +3.2057867438E-001 +1.4638160481E+002  +3.0599759435E-001 +1.0629553135E+002  +1.5148938419E+000 +1.3804697664E+002 
5265097.622 +2.8540638784E-001 +1.3525698398E+002  +1.5847924006E-001 +8.3762692176E+001  +1.5719092895E-001 +4.2539221135E+001  +5.5391209657E-001 +1.1522354764E+002 
5390242.804 +3.4841955140E-001 +1.2710056693E+002  +2.7318909376E-001 +1.0892280016E+002  +2.4913646460E-001 +7.0675179421E+001  +1.1995488165E+000 +1.2080153947E+002 
5515387.985 +3.8523732338E-001 +1.3484387180E+002  +2.1754592045E-001 +1.0673066391E+002  +2.0504642925E-001 +7.3244792491E+001  +1.1045786217E+000 +1.1703264908E+002 
5640533.166 +4.6489461663E-001 +1.2224211579E+002  +2.7173341142E-001 +1.1639874466E+002  +2.6565264180E-001 +8.3788510219E+001  +1.1351808591E+000 +1.3082793859E+002 
5765678.348 +4.2172782364E-001 +1.2609985991E+002  +2.5941565195E-001 +7.4077517875E+001  +2.5574367155E-001 +4.8426426295E+001  +8.2594754997E-001 +7.8270983299E+001 
5890823.529 +3.9642872453E-001 +1.1935176191E+002  +3.0079822142E-001 +6.6554222721E+001  +2.9432412851E-001 +3.8021440680E+001  +1.0511537819E+000 +7.7257934605E+001 
6015968.711 +4.3649112562E-001 +1.2218713823E+002  +3.3323191875E-001 +6.2355773949E+001  +3.1571731013E-001 +4.1103581436E+001  +1.2671538519E+000 +6.9509652018E+001 
6141113.892 +5.6237043443E-001 +1.1105104621E+002  +4.9521906542E-001 +5.4343612500E+001  +4.6726680777E-001 +3.2231632000E+001  +1.7931023016E+000 +4.0368789079E+001 
6266259.074 +5.4955348084E-001 +1.1172996990E+002  +3.7176731342E-001 +6.0655040413E+001  +3.5437709759E-001 +3.9685939143E+001  +1.3281633930E+000 +6.7996908692E+001 
6391404.255 +7.5412144637E-001 +1.0180308583E+002  +4.3292938414E-001 +5.1773354465E+001  +4.5741686792E-001 +3.6715967786E+001  +1.3487276358E+000 +3.6008457581E+001 
6516549.437 +7.0028872993E-001 +7.9987814348E+001  +4.3401046351E-001 +3.2631896701E+001  +4.2527338914E-001 +1.8139867554E+001  +8.8930651199E-001 +2.9933611597E+001 
6641694.618 +9.5826796738E-001 +7.6662321720E+001  +5.1171789773E-001 +3.2967213163E+001  +4.9582338125E-001 +2.4463751140E+001  +1.1670170574E+000 +2.3113634610E+001 
6766839.800 +7.9674622112E-001 +5.3069210285E+001  +4.7156979736E-001 +1.2608353951E+001  +4.4674196508E-001 +3.3716927297E+000  +9.0291950925E-001 +3.7159914864E+000 
6891984.981 +8.2001973525E-001 +4.3503995531E+001  +4.5275828777E-001 +9.5640281186E+000  +4.3354852701E-001 +2.1256810391E+000  +9.7921280331E-001 +7.6576520735E+000 
7017130.163 +8.8984167922E-001 +2.0446223073E+001  +4.3231605859E-001 -6.8832648812E-001  +4.3181116932E-001 -5.4365191802E+000  +9.4903325806E-001 -3.5169333557E+000 
7142275.344 +1.1777605672E+000 +2.2645458161E+001  +4.0420590474E-001 +5.3085022106E+000  +4.1631600755E-001 +1.2482809497E+000  +9.2016436283E-001 -7.7265393247E+000 
7267420.526 +9.7675280987E-001 -1.7454984869E+000  +3.6884457250E-001 -3.1022606045E+000  +3.6673846882E-001 -3.4005387138E+000  +9.2616028526E-001 -5.6521545790E+000 
7392565.707 +8.8654848362E-001 -2.8367515030E+000  +3.1698024928E-001 +3.8159333039E+000  +3.2786291303E-001 +5.9682677080E+000  +1.0667525806E+000 -5.0072840501E+000 
7517710.889 +6.7406894553E-001 +8.4102286369E+000  +2.8848351401E-001 +1.1442980192E+000  +2.8929559512E-001 +2.7734577700E+000  +8.0030242138E-001 -6.8967857645E+000 
7642856.070 +6.7194137696E-001 +8.3383460093E+000  +2.7962660912E-001 +1.6065177826E+000  +2.8553283092E-001 +5.8761119574E+000  +7.8124398461E-001 -1.1606777572E+001 
7768001.252 +5.8705222062E-001 +3.9315304531E+000  +2.6893429778E-001 -1.4793203025E+000  +2.6724680546E-001 +4.1696907451E+000  +7.1184936538E-001 -7.2234119087E+000 
7893146.433 +5.8093472435E-001 +1.3559970738E+001  +2.5730207601E-001 +2.0638831514E-001  +2.5500624980E-001 +6.0286929307E+000  +6.6328071822E-001 -2.8410760320E+000 
8018291.615 +6.1302268849E-001 +2.5093232022E+001  +2.3790017223E-001 +1.0767816622E+000  +2.4263704345E-001 +7.2327252254E+000  +5.5314799878E-001 +2.7786952172E+000 
8143436.796 +5.9816335989E-001 +1.2512130711E+001  +2.4822702745E-001 -1.2450422461E+000  +2.4510756987E-001 +6.3336525909E+000  +5.4274984812E-001 +1.9226753967E+000 
8268581.977 +4.9633716702E-001 +2.1959491130E+001  +2.3247888154E-001 -1.4971122150E+000  +2.2920862772E-001 +8.5841693666E+000  +5.6672582864E-001 +9.5082850754E+000 
8393727.159 +3.9915920020E-001 +7.8030847841E+000  +2.3094924197E-001 -2.8988247114E+000  +2.3302361091E-001 +8.7158462968E+000  +5.1972847837E-001 +1.2673731797E+001 
8518872.340 +4.4941498276E-001 +2.1721243401E+001  +2.2707707217E-001 -3.0234714181E+000  +2.2585749662E-001 +9.1514721017E+000  +4.7539786734E-001 +1.5121846615E+000 
8644017.522 +4.5530939756E-001 +1.6283096546E+001  +2.3084148685E-001 -4.3684370081E+000  +2.3081884670E-001 +9.0469816485E+000  +5.0730078001E-001 +1.5853257844E+000 
8769162.703 +3.7514090021E-001 +1.7956907996E+001  +2.2680015486E-001 -4.4092518528E+000  +2.2394652938E-001 +7.8749920341E+000  +4.0148909607E-001 +6.4345365258E+000 
8894307.885 +3.8033715167E-001 +8.4338809209E+000  +2.2258441299E-001 -6.0189977915E+000  +2.2381740543E-001 +9.1810324923E+000  +3.5490229827E-001 +1.1665688691E+001 
9019453.066 +3.7379970624E-001 +1.8528817429E+001  +2.2018238119E-001 -5.4241417263E+000  +2.1504703512E-001 +8.8171213516E+000  +3.8110714615E-001 +8.8012685712E+000 
9144598.248 +3.5880617325E-001 +1.8394528980E+001  +2.1901906729E-001 -5.6293067180E+000  +2.1714947091E-001 +1.0805087899E+001  +3.7255188111E-001 +7.8990920669E+000 
9269743.429 +3.3658527934E-001 +1.7410403814E+001  +2.2203170377E-001 -5.0059653591E+000  +2.2036788111E-001 +9.9385355647E+000  +3.7187237523E-001 +2.1322137918E+000 
9394888.611 +3.4948311550E-001 +1.0966399612E+001  +2.1922071012E-001 -5.7396664772E+000  +2.1970223975E-001 +9.6471128686E+000  +3.4669848601E-001 +9.6215315749E+000 
9520033.792 +4.0281506021E-001 +1.1578707559E+001  +2.2168079272E-001 -4.5575136779E+000  +2.1955530092E-001 +1.0575967857E+001  +3.4685791066E-001 -7.5190369625E-001 
9645178.974 +3.0032988460E-001 +2.0352437640E+001  +2.2001809448E-001 -4.3572947169E+000  +2.1731665625E-001 +1.0631162301E+001  +3.9891810289E-001 -3.9249890231E+000 
9770324.155 +3.2963229445E-001 +6.1197372399E+000  +2.2373463615E-001 -5.2235778515E+000  +2.1903685597E-001 +1.1070879744E+001  +3.2757778778E-001 -1.0376757637E+000 
9895469.337 +3.0396152820E-001 +7.2353338626E+000  +2.2097104571E-001 -5.7800189950E+000  +2.2154149413E-001 +9.7238678347E+000  +2.8990157526E-001 +4.4611790515E+000 
10020614.518 +3.0744077578E-001 +5.9147249883E+000  +2.2642807916E-001 -5.0249158475E+000  +2.2156705836E-001 +1.2032682309E+001  +3.6052161686E-001 +1.4009631571E+000 
10145759.700 +2.7478930015E-001 +1.3776128357E+001  +2.2235926599E-001 -4.8130236208E+000  +2.2034167038E-001 +1.1175823517E+001  +3.5351252759E-001 +3.2079120476E+000 
10270904.881 +3.4881158678E-001 +1.1972642006E+001  +2.2284373579E-001 -3.7739181791E+000  +2.2287867865E-001 +1.1636676021E+001  +3.5224987574E-001 +2.0728942082E+000 
10396050.063 +3.2462502056E-001 +1.4018907272E+001  +2.2291420278E-001 -3.1897948134E+000  +2.2504929135E-001 +1.1904299506E+001  +3.5417011118E-001 +5.6454896746E+000 
10521195.244 +3.3401098243E-001 +1.8274084531E+001  +2.2860628165E-001 -3.5032322488E+000  +2.2489348377E-001 +1.2697963633E+001  +3.6219515989E-001 -2.6891970762E-001 
10646340.426 +3.4330874767E-001 +1.2970986104E+001  +2.2933765920E-001 -2.7509906766E+000  +2.2512609601E-001 +1.2380811882E+001  +3.8034445729E-001 +3.2023221311E+000 
10771485.607 +3.4005014296E-001 +1.5060213032E+001  +2.2685936792E-001 -3.8802681120E+000  +2.2582531209E-001 +1.1957478035E+001  +3.1228907507E-001 +8.6006296402E+000 
10896630.788 +3.4590181293E-001 +1.7376187465E+001  +2.3080848629E-001 -2.3935936694E+000  +2.2749734588E-001 +1.1985007706E+001  +3.8136987820E-001 +6.1822964407E+000 
11021775.970 +3.5182630469E-001 +1.0575830056E+001  +2.3172452172E-001 -2.0552236158E+000  +2.3078948426E-001 +1.1784265781E+001  +3.8941491004E-001 +1.0516607880E+001 
11146921.151 +3.6908500762E-001 +1.8206350117E+001  +2.3198868654E-001 -1.9126014768E+000  +2.3139281321E-001 +1.0877509335E+001  +3.5857437400E-001 +6.6955229161E+000 
11272066.333 +3.5544302357E-001 +1.6979123115E+001  +2.3508098385E-001 -2.4146580728E+000  +2.3038918856E-001 +1.1083466111E+001  +3.8437568068E-001 +7.4759904227E+000 
11397211.514 +3.9414063350E-001 +1.7291653024E+001  +2.3531036322E-001 -7.9527721564E-001  +2.3358092350E-001 +1.1279582072E+001  +3.8819188828E-001 +6.9539663661E+000 
11522356.696 +3.7817580982E-001 +5.9492565281E+000  +2.4173325986E-001 -8.9461822382E-001  +2.3962224479E-001 +1.1080331075E+001  +4.2121575502E-001 +9.4458808977E+000 
11647501.877 +3.9786331312E-001 +1.5352581119E+001  +2.4041288950E-001 -8.0589028339E-001  +2.3925182714E-001 +1.0791310015E+001  +4.1000272520E-001 +5.2721302216E+000 
11772647.059 +4.1460044236E-001 +1.1996804636E+001  +2.4615603260E-001 -3.1880189485E-001  +2.4224295174E-001 +1.0227961981E+001  +4.0061737480E-001 +8.6358472532E+000 
11897792.240 +3.9548039833E-001 +1.0989374417E+001  +2.4768843693E-001 -7.2525241794E-001  +2.4531700031E-001 +9.5690590620E+000  +3.9580925844E-001 +8.0266624062E+000 
12022937.422 +4.2650543311E-001 +1.0434683680E+001  +2.5001103247E-001 +3.4170472558E-001  +2.4989107411E-001 +1.0302497257E+001  +4.6539423262E-001 +5.6141203972E+000 
12148082.603 +4.2257312849E-001 +1.0232343719E+001  +2.5163810582E-001 -1.1399009710E-001  +2.4898058430E-001 +9.2712021057E+000  +4.3451772131E-001 +8.3552801750E+000 
12273227.785 +4.4793808421E-001 +9.0342446041E+000  +2.5600458769E-001 +6.4632044771E-001  +2.5127741579E-001 +8.9270128407E+000  +4.4361151181E-001 +3.6353147923E+000 
12398372.966 +4.2737138763E-001 +4.6977371836E+000  +2.5792605566E-001 +6.0488632805E-001  +2.5695142894E-001 +8.5607301272E+000  +4.5708961945E-001 +4.3067641782E+000 
12523518.148 +4.6293214635E-001 +6.4046198612E+000  +2.6223394458E-001 +6.6298091181E-001  +2.5819581212E-001 +7.6550888969E+000  +4.6320890366E-001 +5.1759085136E+000 
12648663.329 +4.8027206165E-001 +2.9604628599E+000  +2.6657448184E-001 +1.1237389903E+000  +2.6172646815E-001 +7.4590543202E+000  +4.6519649103E-001 +2.2333656249E+000 
12773808.511 +4.8580079760E-001 +3.7303665680E+000  +2.6623248562E-001 +1.2066028209E+000  +2.6372353826E-001 +7.4268402915E+000  +5.0899166752E-001 +3.1366444728E+000 
12898953.692 +4.9498614633E-001 +4.1552121147E+000  +2.6913613668E-001 +1.3868078738E+000  +2.6498902885E-001 +6.6779152656E+000  +5.0972818656E-001 +2.9817554743E+000 
13024098.874 +5.2004498176E-001 +3.3277750666E+000  +2.7226160037E-001 +1.5501510800E+000  +2.6857225481E-001 +6.6580610339E+000  +5.1846658625E-001 +1.5534438141E+000 
13149244.055 +5.3352326709E-001 +1.3014606483E+000  +2.7564293745E-001 +1.6502697051E+000  +2.7476870709E-001 +6.2247796744E+000  +5.3321071384E-001 -3.3215188444E-001 
13274389.237 +5.4473371870E-001 +8.7522872750E-001  +2.7779599860E-001 +1.5491571389E+000  +2.7455561872E-001 +5.6513882488E+000  +5.5435739672E-001 -1.7175070205E-001 
13399534.418 +5.5307466723E-001 -2.0105187271E+000  +2.8063306462E-001 +1.4237482515E+000  +2.7751769281E-001 +5.1571411042E+000  +5.4761962954E-001 -3.4214470266E-001 
13524679.599 +5.6292550820E-001 +5.5422732174E-001  +2.8465068259E-001 +1.5833854668E+000  +2.8142704940E-001 +4.6670974112E+000  +5.7658329212E-001 -3.2965058559E+000 
13649824.781 +5.7354377632E-001 +8.9913558391E-001  +2.8353784177E-001 +1.4877655656E+000  +2.8129861458E-001 +4.2446101834E+000  +5.9531194870E-001 -1.4404416890E+000 
13774969.962 +6.0556212198E-001 -1.6340603141E+000  +2.8660502676E-001 +1.5655766760E+000  +2.8463209386E-001 +3.8453333995E+000  +5.9709544476E-001 -2.5329201302E+000 
13900115.144 +6.1690926124E-001 -1.6344463857E+000  +2.8945219894E-001 +1.5702299677E+000  +2.8494900535E-001 +3.3300145175E+000  +6.0556049865E-001 -2.3724458246E+000 
14025260.325 +6.2901944917E-001 -5.3274993759E+000  +2.9273327928E-001 +1.4725608150E+000  +2.9004223548E-001 +2.5004814273E+000  +6.2139372587E-001 -4.3332268656E+000 
14150405.507 +6.1947257168E-001 -4.3781960423E+000  +2.9406124114E-001 +7.8153695469E-001  +2.9071006537E-001 +2.1620564543E+000  +6.5553870952E-001 -5.6801972050E+000 
14275550.688 +6.7035246729E-001 -4.3693796187E+000  +2.9602118982E-001 +1.2056201091E+000  +2.8890926933E-001 +2.3064338721E+000  +6.7755690211E-001 -2.9645141076E+000 
14400695.870 +6.7761982847E-001 -4.4733088485E+000  +2.9597442544E-001 +1.2026537952E+000  +2.9247329301E-001 +1.9884126905E+000  +6.9821036476E-001 -5.6483985326E+000 
