!  2-Port S-parameters saved by WinCal
! VAR MeasName=S-Parameters (CALIBRATED_DATA) read from VNA (P5004A)
! VAR MeasDate=28/08/2024 16:56:55
! VAR NAME=S2_r9c9_RESET3_9k-100M_1
! VAR FILENAME=S2_r9c9_RESET3_9k-100M_1.S2P
! VAR DATE=28/08/2024 16:56:55
! VAR PHYS_PORTS=1,2
! VAR ObjTypeName=DATASET
! VAR IndexType=Frequency
!
# Hz S MA R 50
9000.000 +9.3839575919E-002 -1.6921168955E+002  +5.2624910167E-003 +5.3950262469E+001  +6.7807653731E-003 +1.4170697721E+002  +2.8333265684E-001 -1.5746948298E+002 
134145.181 +1.1122124293E-001 +1.6975361874E+002  +3.1885112169E-004 -8.7118681567E+001  +6.1050442366E-004 -1.2653025606E+001  +2.3727899508E-001 -1.7025211700E+002 
259290.363 +1.1203788545E-001 +1.6965162944E+002  +9.6370352686E-004 +2.3757207528E+001  +1.2824843883E-003 +6.6963208328E+001  +2.5540654463E-001 -1.6989457064E+002 
384435.544 +1.1335206109E-001 +1.6999251090E+002  +9.4465842194E-004 -6.6528303056E+001  +9.2758454193E-004 +9.1601154139E+001  +2.4899161470E-001 -1.6736744910E+002 
509580.726 +1.1338081849E-001 +1.7172349908E+002  +1.1535634250E-003 +1.6812714159E+002  +5.9903899213E-004 -2.3447917719E+001  +2.4949544284E-001 -1.6656571809E+002 
634725.907 +1.1585716856E-001 +1.7188463927E+002  +4.8041943123E-004 -1.3885807439E+002  +1.4821537402E-003 +7.3272374661E+001  +2.3861425933E-001 -1.6465987189E+002 
759871.089 +1.1987175222E-001 +1.7010689034E+002  +4.4821495636E-004 -9.0586420952E+001  +3.2840795411E-004 +1.0695676805E+002  +2.4823558869E-001 -1.6589819247E+002 
885016.270 +1.1974933236E-001 +1.6924916619E+002  +3.5309727904E-004 -1.2872421925E+002  +8.6568354940E-004 +1.0223893078E+002  +2.4457817619E-001 -1.6647234874E+002 
1010161.452 +1.1894788412E-001 +1.6915345799E+002  +1.2722433796E-003 -1.7395781681E+001  +4.1854974395E-004 +3.6291768282E+001  +2.1294434394E-001 -1.6856821405E+002 
1135306.633 +1.1654271445E-001 +1.6930217031E+002  +2.1690521590E-003 -6.3967974583E+000  +1.8292701939E-003 -1.6976858539E+002  +2.0012572992E-001 -1.6995960944E+002 
1260451.815 +1.2191684813E-001 +1.7094390887E+002  +1.2674478315E-003 -4.1363593399E+001  +9.0416062890E-004 -1.7572066277E+002  +2.1509508028E-001 -1.6350567288E+002 
1385596.996 +1.2832311495E-001 +1.7210709058E+002  +1.0490568892E-003 -9.9965034392E+001  +1.0523489875E-003 +1.1651602861E+002  +2.5442237791E-001 -1.5724765368E+002 
1510742.178 +1.2808167996E-001 +1.7102115098E+002  +9.6803752070E-004 -7.0803668502E+001  +1.2229715791E-003 -1.6064969932E+002  +2.5219254972E-001 -1.6010910700E+002 
1635887.359 +1.2475264149E-001 +1.7062063501E+002  +2.0081293954E-003 -2.3194273063E+000  +1.0991216039E-004 -7.1257393075E+001  +2.5059923204E-001 -1.5435523334E+002 
1761032.541 +1.3020054900E-001 +1.7098728915E+002  +1.3348572858E-003 +3.9881580485E-001  +1.2613016583E-003 -1.6839146065E+002  +2.3465565332E-001 -1.5807649727E+002 
1886177.722 +1.2874096679E-001 +1.6638118418E+002  +3.5671958118E-003 +8.0500901897E+001  +2.4678556061E-003 -1.0088025865E+002  +2.1959264736E-001 -1.6131496538E+002 
2011322.904 +1.3111273953E-001 +1.6892121403E+002  +4.3819841556E-003 +3.6498479272E+001  +5.9642978705E-003 -8.6968885331E+001  +2.2090864567E-001 -1.5812275644E+002 
2136468.085 +1.2755411789E-001 +1.6469731071E+002  +9.7428613966E-003 +1.1001341670E+002  +8.3414298702E-003 -3.3762601727E+001  +1.9636108565E-001 -1.7972085655E+002 
2261613.267 +1.2809064954E-001 +1.6503399900E+002  +1.2046070923E-002 +5.6885475251E+001  +9.8309104111E-003 -5.3435322407E+001  +1.6488129060E-001 -1.5753440153E+002 
2386758.448 +1.3616732507E-001 +1.6616824180E+002  +1.2630158343E-002 +6.9494315049E+001  +9.5207683193E-003 -5.3444944555E+001  +1.9005802047E-001 -1.6810021731E+002 
2511903.630 +1.3877763939E-001 +1.6195270150E+002  +2.8310445732E-002 +1.1424808426E+002  +4.5052121805E-002 +6.9178865635E+000  +3.7902740576E-001 +1.2060604891E+002 
2637048.811 +1.2609276966E-001 +1.6188885560E+002  +4.6865304923E-002 +6.0337845529E+001  +3.8940139136E-002 -4.2817770923E+001  +5.7226827046E-002 +1.7239357015E+002 
2762193.992 +1.1115362189E-001 +1.6193633747E+002  +7.7323136856E-002 +1.0602488500E+002  +7.9366396932E-002 -3.6913929772E+000  +4.7769478781E-001 +1.3167854014E+002 
2887339.174 +1.2842015280E-001 +1.7330271664E+002  +7.4072756172E-002 +8.4820108223E+000  +6.2041339207E-002 -8.8532520568E+001  +2.1780925512E-001 +1.5376123407E+001 
3012484.355 +1.2887000643E-001 +1.6068642636E+002  +4.3114113476E-002 +4.3689050920E+001  +4.8170517586E-002 -5.9452736159E+001  +1.5265261768E-002 -1.6795317510E+002 
3137629.537 +1.2035100887E-001 +1.7015498007E+002  +6.1824115514E-002 +2.4468413851E+001  +5.6342469306E-002 -7.8129181414E+001  +8.3543296196E-002 +1.7486485360E+001 
3262774.718 +1.1968035832E-001 +1.6558815762E+002  +4.6460007262E-002 +1.1506724987E+001  +5.7681141026E-002 -7.8225810724E+001  +8.6967871034E-002 -6.7426539807E+001 
3387919.900 +1.5646614583E-001 +1.6297658123E+002  +4.0613821669E-002 +8.2801227986E+001  +4.3885797968E-002 -9.3490754715E+000  +3.8856698561E-001 +1.2127076021E+002 
3513065.081 +1.4919928011E-001 +1.4234024478E+002  +8.3793549877E-002 +7.6371473188E+001  +8.1556660282E-002 +1.6764649223E+001  +3.1819699175E-001 +1.0626389459E+002 
3638210.263 +1.5213507167E-001 +1.5391822219E+002  +3.7473134698E-002 +6.4564988014E+001  +3.4628499293E-002 -2.0472195366E+001  +1.7542579756E-001 +1.6372871033E+002 
3763355.444 +1.8771606016E-001 +1.5097766684E+002  +5.0013852519E-002 +9.6925072095E+001  +4.5087908502E-002 +2.7901357986E+001  +2.9657852215E-001 +1.3414744345E+002 
3888500.626 +1.7022090487E-001 +1.5793076646E+002  +3.4415986701E-002 +5.9697721946E+001  +3.6170714398E-002 -1.1186571383E+001  +2.1146252777E-001 +1.4292557256E+002 
4013645.807 +1.9494310977E-001 +1.5027000220E+002  +4.7379560920E-002 +1.1003762959E+002  +4.8992417799E-002 +2.7821258568E+001  +3.5608123431E-001 +1.4710216219E+002 
4138790.989 +1.7627587615E-001 +1.5311700619E+002  +6.1876731529E-002 +9.5818528860E+001  +5.8507016053E-002 +2.4273517688E+001  +5.2048297179E-001 +1.3371414556E+002 
4263936.170 +2.0938200117E-001 +1.5006211781E+002  +7.9388162100E-002 +9.0578835505E+001  +7.5497494043E-002 +3.0696764545E+001  +4.6552752285E-001 +1.0473923888E+002 
4389081.352 +1.8251135535E-001 +1.5031972499E+002  +8.9326339404E-002 +8.5264651036E+001  +8.1193136874E-002 +3.6970085778E+001  +6.5254487708E-001 +1.2436140653E+002 
4514226.533 +1.7687059092E-001 +1.4374737701E+002  +1.0310223974E-001 +8.6237686146E+001  +1.0323026806E-001 +3.1435521834E+001  +6.1454556935E-001 +1.2433420296E+002 
4639371.715 +2.8470067973E-001 +1.3969878184E+002  +3.3360866705E-001 +1.6305499354E+002  +3.3849439784E-001 +1.0013123686E+002  +2.6326337627E+000 +1.3644419858E+002 
4764516.896 +4.3395849530E-001 +1.4640571402E+002  +7.8138912639E-001 -1.7676718257E+002  +7.9339424478E-001 +1.2947212914E+002  +4.9557042883E+000 +1.4064507940E+002 
4889662.078 +5.4174919055E-001 +1.3706397909E+002  +8.9222125244E-001 -1.6981997172E+002  +9.3123263975E-001 +1.4318091258E+002  +3.8913239316E+000 +1.5423825190E+002 
5014807.259 +3.5306116227E-001 +1.5459627350E+002  +9.9743631910E-001 -1.3241311767E+002  +1.0579471047E+000 -1.7665392733E+002  +7.2985137331E+000 -1.5915634500E+002 
5139952.441 +4.1830588002E-001 +1.0494657535E+002  +4.0225690685E-001 +9.1741872967E+001  +3.7784294390E-001 +5.1053200538E+001  +1.3214869019E+000 +8.5683928672E+001 
5265097.622 +3.4000359794E-001 +1.3605458264E+002  +1.1406652479E-001 +9.9259597181E+001  +1.2528800872E-001 +5.8038250844E+001  +6.6576321564E-001 +1.1356563761E+002 
5390242.804 +3.8544597081E-001 +1.2828838970E+002  +2.5134272092E-001 +1.1961592402E+002  +2.7227962867E-001 +7.9672049989E+001  +1.7947430645E+000 +1.1372445330E+002 
5515387.985 +3.7153152192E-001 +1.3363368297E+002  +2.7646427009E-001 +9.5659875852E+001  +2.7272078031E-001 +6.0509581721E+001  +2.3446327840E+000 +8.6470341732E+001 
5640533.166 +3.8224940569E-001 +1.3244360334E+002  +1.5802319281E-001 +1.0217655897E+002  +1.6422052166E-001 +7.0386583348E+001  +1.2013318020E+000 +1.1641817291E+002 
5765678.348 +4.3461759438E-001 +1.2752482526E+002  +2.1872677980E-001 +9.7471088324E+001  +2.0968427395E-001 +6.8571557970E+001  +1.5072467537E+000 +1.0359376265E+002 
5890823.529 +5.2966579637E-001 +1.1544067850E+002  +3.0973305657E-001 +9.5664684657E+001  +2.9874664324E-001 +7.2566345135E+001  +1.7506212769E+000 +1.0026480903E+002 
6015968.711 +5.1261125987E-001 +1.0827038554E+002  +2.6294041948E-001 +6.7639126998E+001  +2.5245415553E-001 +4.7241226973E+001  +1.1394207228E+000 +7.8384094813E+001 
6141113.892 +5.9593623974E-001 +1.1337492827E+002  +2.4343629261E-001 +7.4464860900E+001  +2.2386456551E-001 +5.9023261675E+001  +1.0629628979E+000 +8.5884562420E+001 
6266259.074 +6.7135047523E-001 +1.0388636055E+002  +3.0605262864E-001 +5.5287778642E+001  +3.0473605506E-001 +3.9039231887E+001  +1.2376997763E+000 +5.0576598601E+001 
6391404.255 +7.2733776818E-001 +1.0525997577E+002  +3.4932785652E-001 +4.3302728174E+001  +3.1546627149E-001 +3.0824673625E+001  +1.7592368014E+000 +2.4729426844E+001 
6516549.437 +8.8924260550E-001 +8.4349272063E+001  +2.9898494766E-001 +4.1886695723E+001  +2.8023827026E-001 +2.8555520542E+001  +7.5155831914E-001 +4.1461876433E+001 
6641694.618 +1.0504813608E+000 +6.9981907667E+001  +3.5060200521E-001 +3.1279409620E+001  +3.5028902929E-001 +2.0865583131E+001  +9.9242855476E-001 +2.5377211730E+001 
6766839.800 +8.7182196828E-001 +3.8401272174E+001  +3.2891391447E-001 +5.0813196393E+000  +3.4106143106E-001 -1.1740710733E+000  +1.0533688439E+000 -9.9795446530E-001 
6891984.981 +1.1703811591E+000 +1.3875078082E+001  +3.9986246189E-001 -3.0749508195E+000  +3.9926665421E-001 -1.0984437007E+001  +1.3092731190E+000 -2.4617469910E+000 
7017130.163 +1.0699938277E+000 +1.5032157638E+001  +3.3007492794E-001 -1.4259268589E+000  +3.0242839638E-001 -6.0057379704E+000  +1.1718093052E+000 +6.9196546627E+000 
7142275.344 +9.1264976536E-001 +4.6656626323E+000  +2.6080841453E-001 -4.8614382717E+000  +2.5324397178E-001 -8.2917502822E+000  +1.0592526245E+000 -8.0520225427E+000 
7267420.526 +1.1739543653E+000 +9.0362156373E+000  +2.4291945052E-001 +4.4081100457E+000  +2.4206317918E-001 -8.5837532380E-001  +1.0375747641E+000 -6.9097061949E+000 
7392565.707 +1.2013412726E+000 +2.6080314651E-003  +2.1809422369E-001 +2.3484310887E+000  +2.1114741132E-001 +3.7365071316E+000  +9.9685819294E-001 -1.1244863243E+001 
7517710.889 +8.5305619375E-001 +4.7877916801E+000  +1.9177016800E-001 +2.4214233985E+000  +1.8974593523E-001 +1.8612546049E+000  +9.5433031607E-001 -8.0818861004E+000 
7642856.070 +8.5356854298E-001 +3.6916467088E+000  +1.8024949438E-001 +3.4188893887E+000  +1.7906091963E-001 +5.7166242181E+000  +8.3344834841E-001 -7.8075609182E+000 
7768001.252 +7.6314468309E-001 +9.2933911526E-001  +1.6866467283E-001 +9.6386553666E-001  +1.7388608478E-001 +4.3595140018E+000  +8.2894004111E-001 -3.5152313248E+000 
7893146.433 +6.1042134290E-001 +9.6752147122E+000  +1.6294279979E-001 -2.4032394687E-001  +1.6240445889E-001 +6.6414462027E+000  +7.2272801501E-001 -8.3955171235E-002 
8018291.615 +5.3740539715E-001 +8.9272561921E+000  +1.5837893747E-001 -2.1673736908E+000  +1.6262108508E-001 +4.4908347524E+000  +6.8515515976E-001 +1.1733001662E+000 
8143436.796 +6.0173946679E-001 +1.0233486860E+001  +1.5854252803E-001 -2.6472011632E+000  +1.6121457840E-001 +7.1875980154E+000  +6.1926250621E-001 +1.6243293771E+000 
8268581.977 +4.4629954172E-001 +1.1447789871E+001  +1.5563561258E-001 -3.5390510703E+000  +1.5254049986E-001 +3.6988913570E+000  +6.1205664136E-001 -1.0895147990E+000 
8393727.159 +5.0291722826E-001 +1.6747541400E+001  +1.5393639232E-001 -5.3227335683E+000  +1.4364371203E-001 +7.9843022650E+000  +5.2810905083E-001 +1.7561594664E+000 
8518872.340 +5.3055771136E-001 +8.9814558745E+000  +1.5214381994E-001 -3.4404666603E+000  +1.5533893801E-001 +9.0047172319E+000  +5.7951552414E-001 +7.5588443349E+000 
8644017.522 +4.9784928550E-001 +1.0612376224E+001  +1.4640013485E-001 -3.4797476522E+000  +1.5049928580E-001 +7.8703607948E+000  +5.2263092139E-001 +3.5768891274E+000 
8769162.703 +4.4539965534E-001 +1.4040513197E+001  +1.4461376141E-001 -4.5507609173E+000  +1.4107055109E-001 +1.0414445021E+001  +5.1105949598E-001 +6.8378617831E+000 
8894307.885 +4.7222018222E-001 +1.3604624981E+001  +1.4824579460E-001 -3.1547643621E+000  +1.4164320805E-001 +9.6832395679E+000  +4.9853031259E-001 +6.2989989657E+000 
9019453.066 +4.5998474486E-001 +4.5179598345E+000  +1.4712727330E-001 -5.2285167691E+000  +1.4188704863E-001 +9.9148095650E+000  +4.6051011392E-001 -7.9816242594E-001 
9144598.248 +4.9223413458E-001 +1.3871474154E+001  +1.4278307540E-001 -3.2961812477E+000  +1.4539366945E-001 +1.0575510303E+001  +4.6584403243E-001 +3.1711939972E+000 
9269743.429 +4.3935755562E-001 +8.9021307616E+000  +1.4619599699E-001 -4.6809691692E+000  +1.4242013547E-001 +1.0321344342E+001  +4.7993920442E-001 +8.2581887852E+000 
9394888.611 +4.2921653453E-001 +9.0807419358E+000  +1.4356999039E-001 -4.9563166502E+000  +1.4380938167E-001 +1.0105896339E+001  +4.8493586983E-001 -3.0420785927E+000 
9520033.792 +4.3638979411E-001 -1.7153346943E+000  +1.4449977721E-001 -5.3629759946E+000  +1.5022764779E-001 +1.1465186283E+001  +4.2659736736E-001 -4.2722951128E+000 
9645178.974 +3.8297171283E-001 +9.0098155553E+000  +1.4309429803E-001 -5.5037312054E+000  +1.4238016087E-001 +1.0493811494E+001  +3.9776500626E-001 -4.2074001046E-001 
9770324.155 +3.9816110377E-001 +1.3114659014E+000  +1.4534444367E-001 -4.7038631440E+000  +1.4198116645E-001 +1.1409874015E+001  +4.1896203965E-001 +3.5912886001E+000 
9895469.337 +3.5351931297E-001 +5.8189438961E-001  +1.4471228448E-001 -3.5414225748E+000  +1.4549603930E-001 +1.2031104257E+001  +4.0001932985E-001 -2.4935554655E+000 
10020614.518 +3.9170836024E-001 +4.5524966503E+000  +1.4537302604E-001 -4.8534377312E+000  +1.4547209969E-001 +1.0423718966E+001  +3.7356326365E-001 -2.3328093410E+000 
10145759.700 +3.6732970631E-001 +8.5126095479E+000  +1.4419902738E-001 -4.1949867662E+000  +1.4687546389E-001 +1.1942048807E+001  +4.1031324497E-001 -1.4034092483E+000 
10270904.881 +4.1348026831E-001 +4.8325189120E+000  +1.4850081280E-001 -2.6131269751E+000  +1.4676509783E-001 +9.9733964453E+000  +4.0604760952E-001 -1.3829929112E+000 
10396050.063 +3.8614567773E-001 +8.3028971579E+000  +1.4899147054E-001 -3.6805316965E+000  +1.4341088127E-001 +1.2936415980E+001  +4.2297821829E-001 +3.9430500424E+000 
10521195.244 +4.1873731021E-001 +1.2801597329E+001  +1.4901763121E-001 -3.8566132445E+000  +1.4288295214E-001 +1.2788367787E+001  +4.0120694632E-001 +4.7114023450E+000 
10646340.426 +4.0688227852E-001 +1.1239688640E+001  +1.4940857677E-001 -2.5089864757E+000  +1.4748340178E-001 +1.2538632924E+001  +4.7166031454E-001 +3.6659540582E+000 
10771485.607 +4.3895627980E-001 +6.9033035079E+000  +1.5037501009E-001 -2.3719253512E+000  +1.4905248290E-001 +1.1713745838E+001  +4.4035572814E-001 +1.7912542866E+000 
10896630.788 +4.0852872935E-001 +1.1823680028E+001  +1.4775327623E-001 -2.0992385261E+000  +1.4894799777E-001 +1.2521993599E+001  +4.5966844264E-001 +4.9109326412E+000 
11021775.970 +4.2872937889E-001 +8.4056426182E+000  +1.5410653880E-001 -2.1090608711E+000  +1.4974298569E-001 +1.1615349307E+001  +4.6963541644E-001 +7.1575895795E+000 
11146921.151 +4.3946872780E-001 +1.4557379885E+001  +1.4955368311E-001 -9.1928068098E-001  +1.5123385982E-001 +1.1990673088E+001  +4.6472746519E-001 +4.0128706935E+000 
11272066.333 +4.4276593307E-001 +9.4674158628E+000  +1.5327326214E-001 -3.9017823605E-001  +1.5329969162E-001 +1.1672290959E+001  +4.7927596706E-001 +6.1659822717E+000 
11397211.514 +4.5776148576E-001 +6.3318517507E+000  +1.5779850184E-001 -1.4474871759E+000  +1.5642899249E-001 +1.2502770260E+001  +4.6879258109E-001 +2.7691276293E+000 
11522356.696 +4.4489292015E-001 +1.1537856683E+001  +1.5725031561E-001 -8.6119647711E-001  +1.5842391343E-001 +1.1428971600E+001  +4.6218503961E-001 +3.4362563528E+000 
11647501.877 +4.7870710180E-001 +7.3108950437E+000  +1.5846757465E-001 -8.2092210520E-002  +1.5786752114E-001 +1.1166846120E+001  +4.6442759951E-001 +5.4084212826E+000 
11772647.059 +4.8221489580E-001 +9.1192055732E+000  +1.6182790730E-001 -4.7552232556E-001  +1.5953808529E-001 +1.1079552774E+001  +5.0765975711E-001 +1.0229417890E+000 
11897792.240 +4.8809505390E-001 +9.7447723635E+000  +1.6254513883E-001 -4.3997746765E-001  +1.6237726158E-001 +1.0450114131E+001  +4.8947915522E-001 +1.6205433687E+000 
12022937.422 +5.1344193053E-001 +1.0173792529E+001  +1.6393583186E-001 +1.3399595366E+000  +1.6072725031E-001 +1.0049320052E+001  +5.1420099276E-001 +4.2994384466E+000 
12148082.603 +5.4892355472E-001 +8.0489221650E+000  +1.6451898047E-001 +1.8363075232E+000  +1.6325011674E-001 +1.0656558271E+001  +5.2861523084E-001 +3.7719986901E+000 
12273227.785 +5.3700869172E-001 +6.4041528791E+000  +1.6818773790E-001 +8.5953075908E-001  +1.6536830370E-001 +9.8104453398E+000  +5.3292275726E-001 +3.0238959830E+000 
12398372.966 +5.4734456165E-001 +4.0472004766E+000  +1.7142292830E-001 +1.9513227358E+000  +1.6863741697E-001 +1.0267000415E+001  +5.6331725949E-001 +3.8240958817E+000 
12523518.148 +5.4704782283E-001 +4.7324682552E+000  +1.7294293722E-001 +1.6334293232E+000  +1.6977423939E-001 +8.5516323248E+000  +5.5073701434E-001 +2.5715599898E+000 
12648663.329 +5.7513913097E-001 +4.4210597548E+000  +1.7332641886E-001 +1.9478498093E+000  +1.7007844643E-001 +8.9446653752E+000  +5.8055603383E-001 +3.7333823300E+000 
12773808.511 +5.8119607392E-001 +4.5767441680E+000  +1.7595795926E-001 +1.9486552660E+000  +1.7273207590E-001 +8.1245570904E+000  +5.8636574923E-001 +2.4756645054E+000 
12898953.692 +5.9855021265E-001 +5.3835706549E+000  +1.7729384159E-001 +2.3405872579E+000  +1.7443818389E-001 +8.3550703334E+000  +5.9343282664E-001 +6.6555902109E-001 
13024098.874 +6.2533338633E-001 +9.7734143476E-001  +1.7782646869E-001 +2.5208301853E+000  +1.7648651564E-001 +7.7893976608E+000  +6.1403394540E-001 -9.2171867171E-003 
13149244.055 +6.2146381136E-001 +1.7493858129E-001  +1.8106869152E-001 +2.7968316154E+000  +1.7750170740E-001 +6.2514760146E+000  +6.2344780910E-001 -9.0700627174E-001 
13274389.237 +6.3142279030E-001 +1.5007037077E+000  +1.8271082394E-001 +1.8884997862E+000  +1.8129910170E-001 +6.0948035107E+000  +6.4679729608E-001 -1.2743517196E+000 
13399534.418 +6.3588441014E-001 +1.3134616282E+000  +1.8403956024E-001 +1.7856911082E+000  +1.8194071476E-001 +6.0457931865E+000  +6.5495052181E-001 -2.1516727009E+000 
13524679.599 +6.8222123906E-001 +2.6355122212E-001  +1.8425344521E-001 +2.3963629201E+000  +1.8228512791E-001 +5.6991465280E+000  +6.7672773702E-001 -5.0179329485E-001 
13649824.781 +6.7420673575E-001 -7.2158672985E-001  +1.8810254870E-001 +2.3260830205E+000  +1.8309259221E-001 +4.8830487836E+000  +6.8060239230E-001 -2.6293330399E+000 
13774969.962 +7.0923166403E-001 -2.2096765783E+000  +1.9077209367E-001 +2.7338112421E+000  +1.8598332607E-001 +4.3116184524E+000  +7.0306578951E-001 -2.3920953874E+000 
13900115.144 +7.1297069432E-001 -9.0567237526E-001  +1.8951083246E-001 +2.4519351109E+000  +1.8528878839E-001 +3.9893002104E+000  +7.2562494602E-001 -1.6000013269E+000 
14025260.325 +7.1560407785E-001 -3.0758743264E+000  +1.9189247798E-001 +1.9940590961E+000  +1.8791989497E-001 +3.4516990315E+000  +7.4552383211E-001 -2.5444163112E+000 
14150405.507 +7.7032498231E-001 -4.6899534315E+000  +1.9452082944E-001 +2.1790852860E+000  +1.9075048694E-001 +3.3826305756E+000  +7.6729638185E-001 -4.9011867041E+000 
14275550.688 +7.6519139559E-001 -4.8959247131E+000  +1.9290990880E-001 +2.1118323514E+000  +1.9158140531E-001 +2.6168705468E+000  +7.7835006923E-001 -4.1532637736E+000 
14400695.870 +7.6564971144E-001 -5.9971299687E+000  +1.9499553089E-001 +1.3589475183E+000  +1.9310762395E-001 +2.1640295308E+000  +7.9591252972E-001 -4.9538291638E+000 
