!  2-Port S-parameters saved by WinCal
! VAR MeasName=S-Parameters (CALIBRATED_DATA) read from VNA (P5004A)
! VAR MeasDate=29/08/2024 11:00:15
! VAR NAME=S2_r9c2_SET2_9k-100M_2
! VAR FILENAME=S2_r9c2_SET2_9k-100M_2.S2P
! VAR DATE=29/08/2024 11:00:15
! VAR PHYS_PORTS=1,2
! VAR ObjTypeName=DATASET
! VAR IndexType=Frequency
!
# Hz S MA R 50
9000.000 +8.2514337163E-002 -1.7198648690E+002  +1.0997548659E-002 -1.6391029993E+002  +4.4538928034E-003 +5.1600867934E+001  +2.1418472880E-001 -1.4788029106E+002 
134145.181 +1.1082908126E-001 +1.6996577987E+002  +7.0499211861E-004 -1.4895558688E+002  +2.2541371440E-004 -4.9410005348E+001  +2.4759909580E-001 -1.7168447431E+002 
259290.363 +1.1133754169E-001 +1.7029603943E+002  +1.0291604982E-003 -1.6206209434E-001  +1.4778997047E-003 +2.7667075575E+001  +2.4738669250E-001 -1.6627974600E+002 
384435.544 +1.1394277678E-001 +1.7012875198E+002  +3.7577587251E-004 -3.0730831341E+001  +8.9981981609E-004 +1.5267381870E+002  +2.4294691878E-001 -1.6897050977E+002 
509580.726 +1.1370755316E-001 +1.7129679646E+002  +3.4367608824E-003 -1.1193567545E+002  +4.9618560157E-003 +4.9481231419E+001  +2.3963633850E-001 -1.4555892867E+002 
634725.907 +1.1716640218E-001 +1.7042155081E+002  +1.6727535557E-003 -1.5211980937E+002  +1.5839494480E-003 +4.6503904604E+001  +2.4091186456E-001 -1.5942582618E+002 
759871.089 +1.1956844223E-001 +1.7081500025E+002  +6.1216294063E-004 +1.7942736932E+002  +3.7003926960E-004 +1.1476740181E+002  +2.4389323412E-001 -1.6752202817E+002 
885016.270 +1.2101028831E-001 +1.6918462331E+002  +4.8964798810E-004 -6.1153120948E+001  +5.0092134624E-004 +1.0641882817E+002  +2.4689895016E-001 -1.6771587382E+002 
1010161.452 +1.1456061598E-001 +1.7090482030E+002  +1.1866806462E-003 -9.4285263972E+001  +1.4595547382E-003 +9.7000647255E+001  +2.1968423157E-001 -1.6723437242E+002 
1135306.633 +1.1183177722E-001 +1.6848284297E+002  +2.6236339980E-003 -3.5163356753E+001  +5.9903516718E-003 -1.4915529680E+002  +1.8655471239E-001 -1.6204483771E+002 
1260451.815 +1.1516955048E-001 +1.7133112084E+002  +9.4107555634E-004 +3.1534253565E+001  +1.1125046457E-003 +4.4498514354E+001  +2.2670738857E-001 -1.6308079971E+002 
1385596.996 +1.2637323325E-001 +1.7292381119E+002  +7.2255561111E-004 -1.2348189341E+002  +1.6103774223E-003 -6.8377594971E+001  +2.4363102857E-001 -1.5746168881E+002 
1510742.178 +1.2733004852E-001 +1.7281750305E+002  +6.8594092963E-004 +4.1258041149E+001  +7.5118310636E-004 +9.8880431052E+001  +2.6894924812E-001 -1.5960545801E+002 
1635887.359 +1.2806921431E-001 +1.7033703228E+002  +7.6153879380E-004 -1.2462660044E+001  +6.6433238943E-004 -1.1849794684E+002  +2.5066571052E-001 -1.5595161734E+002 
1761032.541 +1.2747625933E-001 +1.7016356606E+002  +4.0099743930E-004 -1.4941936256E+002  +3.4569310406E-003 -1.3585385797E+002  +2.2863273924E-001 -1.5934440690E+002 
1886177.722 +1.3395146974E-001 +1.6682120260E+002  +1.6218824467E-003 +4.3374535229E+001  +1.1147053687E-003 -9.2085319379E+001  +2.3929006154E-001 -1.5881175375E+002 
2011322.904 +1.1909644867E-001 +1.6682955265E+002  +4.4204846546E-003 +4.4744859291E+001  +1.0494632626E-002 -7.5196189299E+001  +1.8743193801E-001 -1.5385020886E+002 
2136468.085 +1.2987210326E-001 +1.6622529155E+002  +4.3139188559E-003 +7.5521240961E+001  +5.0827159497E-003 -4.0908404991E+001  +1.8037689725E-001 -1.7320772266E+002 
2261613.267 +1.1992759764E-001 +1.6472645697E+002  +5.7262401576E-003 +6.4614706292E+001  +1.0876663068E-002 -5.0160596212E+001  +2.0117122734E-001 -1.6965990328E+002 
2386758.448 +1.3879287203E-001 +1.6266516680E+002  +7.9580658618E-003 +4.5334550186E+001  +5.5042626712E-003 -4.0581144203E+000  +1.9393767941E-001 -1.7490743056E+002 
2511903.630 +1.3251611045E-001 +1.6314872468E+002  +1.2935291558E-002 +8.5898836590E+001  +1.4776042906E-002 -2.6524990445E+001  +1.9447542771E-001 +1.7217078377E+002 
2637048.811 +1.3510047254E-001 +1.6349675468E+002  +2.0926479373E-002 +6.5204914667E+001  +1.7811063337E-002 -3.6819375928E+001  +1.9181543444E-001 +1.6170759169E+002 
2762193.992 +1.1185142759E-001 +1.7066912101E+002  +3.7148598473E-002 +9.7775642950E-001  +3.4955969655E-002 -1.0149055361E+002  +1.1070309149E-001 -1.2945689500E+002 
2887339.174 +1.2888682473E-001 +1.7082085628E+002  +5.1172063607E-002 -3.1162243484E+001  +3.9194515130E-002 -1.4895204567E+002  +3.6603839123E-001 -8.3421170592E+001 
3012484.355 +1.3484399688E-001 +1.7722291687E+002  +2.7640083189E-002 -2.2599910080E+001  +2.7672092040E-002 -1.1604507033E+002  +1.4245890214E-001 -7.5975232275E+001 
3137629.537 +1.2640516879E-001 +1.7632608382E+002  +2.6459363655E-002 -2.9623679383E+001  +2.4613428688E-002 -1.1587703950E+002  +1.6766739573E-001 -9.8182270525E+001 
3262774.718 +1.3606636302E-001 +1.6479249677E+002  +2.4848063957E-002 +5.7135510444E+001  +2.9584791166E-002 -3.4454344178E+001  +2.2228913332E-001 +1.2243430407E+002 
3387919.900 +1.3817743391E-001 +1.6403062673E+002  +3.7967335262E-002 +6.6472416524E+001  +3.6718898717E-002 -4.3366210982E+001  +1.1930607568E-001 +1.0933349511E+002 
3513065.081 +1.4732221543E-001 +1.4809772993E+002  +7.0169607837E-002 +1.0097983315E+002  +6.6613448577E-002 +8.3450655644E+000  +4.5585987284E-001 +1.1017209208E+002 
3638210.263 +2.0101599897E-001 +1.3738802376E+002  +1.8924387417E-001 +1.4419869672E+002  +1.9302574236E-001 +6.4724439431E+001  +1.5290541932E+000 +1.1315655160E+002 
3763355.444 +1.5501017000E-001 +1.5345401636E+002  +6.1073108788E-002 +9.4836991172E+001  +5.7756612659E-002 +1.2482004266E+001  +6.2331897551E-001 +1.1592423328E+002 
3888500.626 +1.4683422901E-001 +1.5021275331E+002  +6.0239131082E-002 +4.9727278912E+001  +4.6848444489E-002 -1.6757320709E+001  +2.0613091296E-001 +9.8203102150E+001 
4013645.807 +1.7888610735E-001 +1.4281231667E+002  +4.8387030466E-002 +9.9099807799E+001  +4.9165490062E-002 +2.3366932447E+001  +3.2448946320E-001 +1.3861588087E+002 
4138790.989 +1.8137609245E-001 +1.4977775367E+002  +4.5493483982E-002 +5.4849069749E+001  +4.0388254171E-002 -1.3461530607E+001  +1.3784199746E-001 +1.0049223853E+002 
4263936.170 +1.9081552124E-001 +1.4520496575E+002  +5.1303012161E-002 +1.2945896217E+002  +4.0997658342E-002 +4.6312539297E+001  +5.8808213120E-001 +1.4956702964E+002 
4389081.352 +2.1617903936E-001 +1.4146184192E+002  +5.3797488634E-002 +8.7221390345E+001  +5.3216606536E-002 +3.0029522023E+001  +3.7067298725E-001 +1.2218166812E+002 
4514226.533 +1.8076444785E-001 +1.3115897927E+002  +1.2863910209E-001 +3.0665394191E+001  +1.3397428256E-001 -1.5902681939E+001  +6.8732731349E-001 +2.6983613864E+001 
4639371.715 +2.8404667965E-001 +1.4139523870E+002  +2.3245540177E-001 +1.0725524163E+002  +1.9234770503E-001 +5.2911469245E+001  +2.2727082646E+000 +7.2006613193E+001 
4764516.896 +3.6144941256E-001 +1.1788742391E+002  +4.8597636020E-001 +9.5418494419E+001  +4.4773095465E-001 +5.1129091958E+001  +2.9447273091E+000 +6.5972751130E+001 
4889662.078 +4.5288328577E-001 +1.4614190096E+002  +1.3815028415E+000 -1.6692595601E+002  +1.3170347282E+000 +1.4737142031E+002  +1.2206823683E+001 +1.5471320238E+002 
5014807.259 +3.3063384902E-001 +1.2211295536E+002  +3.7322948718E-001 +8.0743501544E+001  +3.2772849421E-001 +2.2792531282E+001  +2.6019710707E+000 +4.6201758289E+001 
5139952.441 +3.7967079788E-001 +1.3260576305E+002  +1.4941460014E-001 +1.5501176389E+002  +1.5728990964E-001 +1.1720429211E+002  +1.5169060258E+000 +1.4316077662E+002 
5265097.622 +3.4523074134E-001 +1.3458937268E+002  +1.6709013324E-001 +9.7638032564E+001  +1.5743109257E-001 +4.7921202509E+001  +1.3501597929E+000 +8.0213363760E+001 
5390242.804 +4.3644461762E-001 +1.2050868304E+002  +2.5595340852E-001 +1.2754163498E+002  +2.4519302287E-001 +9.8441171650E+001  +2.2079527283E+000 +1.2901707067E+002 
5515387.985 +4.3539055163E-001 +1.2277650002E+002  +1.8206342272E-001 +1.0656302399E+002  +1.5251392497E-001 +7.5764072831E+001  +1.2736168508E+000 +1.0769579799E+002 
5640533.166 +4.3911913372E-001 +1.3298079849E+002  +1.8345380054E-001 +1.1211318872E+002  +1.7593191530E-001 +7.8733479035E+001  +2.1432793827E+000 +1.0638912949E+002 
5765678.348 +4.8260291494E-001 +1.1626355528E+002  +3.0393680094E-001 +8.1431296463E+001  +3.1300469799E-001 +5.6431207204E+001  +2.5604956798E+000 +7.3646191331E+001 
5890823.529 +6.1350165191E-001 +1.1237102089E+002  +1.9975725355E-001 +8.3180081531E+001  +2.1464237206E-001 +5.1494527977E+001  +1.1279117486E+000 +7.1040132372E+001 
6015968.711 +4.9548540513E-001 +1.0630965950E+002  +2.2517886172E-001 +6.4174774492E+001  +2.1458681628E-001 +4.8517026906E+001  +1.4493209161E+000 +7.3184408661E+001 
6141113.892 +6.0485759062E-001 +1.1178649571E+002  +2.1763382801E-001 +5.4617028532E+001  +2.0302533299E-001 +3.3072880690E+001  +1.3803275232E+000 +3.5960736541E+001 
6266259.074 +6.7286420243E-001 +1.0940389119E+002  +2.2557282782E-001 +4.6156864156E+001  +2.1274896528E-001 +3.3203735780E+001  +1.5983847199E+000 +2.5056913812E+001 
6391404.255 +6.9746774449E-001 +9.3557533921E+001  +2.2585542773E-001 +3.9239153504E+001  +2.3071018174E-001 +2.0864139835E+001  +1.4979668600E+000 +2.9283109054E+001 
6516549.437 +9.0860682103E-001 +8.1447197469E+001  +2.6425337725E-001 +3.5838077122E+001  +2.5706858040E-001 +1.7420465277E+001  +1.0975779849E+000 +1.1387689055E+001 
6641694.618 +1.3484753692E+000 +7.2290540805E+001  +3.0577909997E-001 +3.0703796596E+001  +2.7424016695E-001 +1.4480651928E+001  +1.1662016342E+000 +3.5604415261E+000 
6766839.800 +1.4902346502E+000 +6.3567284566E+001  +2.8757471818E-001 +2.6989835714E+001  +2.7784617812E-001 +1.8275830017E+001  +1.2073998816E+000 +2.3585721598E+000 
6891984.981 +1.0353481120E+000 +4.7802967812E+001  +2.1211789039E-001 +8.3426727865E+000  +2.2326509212E-001 -8.2060848130E-001  +1.1520725371E+000 -9.2196361414E+000 
7017130.163 +1.0089139678E+000 +1.4315012763E+001  +2.1378267958E-001 -4.1977279916E+000  +2.1188882357E-001 -5.6201016614E+000  +1.0549684807E+000 +1.0052475257E+000 
7142275.344 +1.1620794439E+000 +6.7160435747E+000  +1.9496374658E-001 -6.4176654088E+000  +2.0464017674E-001 -4.0800900506E+000  +1.1592099250E+000 -1.0588536324E+001 
7267420.526 +1.2633557679E+000 -1.8841424971E-001  +1.7842709760E-001 +2.0255534857E+000  +1.9888076855E-001 -2.9904955737E+000  +1.0468595482E+000 -9.3353527654E+000 
7392565.707 +1.1752877582E+000 -5.8644003579E+000  +1.5170434415E-001 +1.6732814869E+000  +1.5416356210E-001 +1.3677153857E+000  +1.1425836195E+000 -1.0598790053E+001 
7517710.889 +8.9078445811E-001 -4.3422533679E+000  +1.4476457389E-001 +1.9287692042E+000  +1.3966977837E-001 +6.1691145391E+000  +9.5176441412E-001 -2.2206017360E+000 
7642856.070 +8.8838364290E-001 +5.2701010654E+000  +1.3444892475E-001 +3.2577317012E+000  +1.3690167523E-001 +6.8752627507E+000  +9.6008255786E-001 -6.1116985564E+000 
7768001.252 +7.2640266545E-001 +3.4700833026E+000  +1.2754247773E-001 -2.1173485177E+000  +1.2683554564E-001 +4.6415172901E+000  +8.3153009785E-001 +1.6977524954E+000 
7893146.433 +7.2111464224E-001 +4.3889016570E+000  +1.2069137381E-001 +2.8339756196E-002  +1.2050082893E-001 +4.2239522603E+000  +8.2500243121E-001 -1.7825917804E-001 
8018291.615 +6.9630792307E-001 +8.3058268077E+000  +1.1636982355E-001 +1.5614016816E+000  +1.1587289004E-001 +6.9958974266E+000  +7.4309110192E-001 -2.9069092026E+000 
8143436.796 +6.1311019472E-001 +9.3864384185E+000  +1.0644558417E-001 -2.9272889917E-001  +1.1897974295E-001 +5.3143393805E+000  +6.4463403230E-001 +4.3604922241E+000 
8268581.977 +6.5235254756E-001 +5.8436977329E+000  +1.1142264060E-001 -2.4403458525E+000  +1.0792559751E-001 +6.7242215079E+000  +6.0623511617E-001 -1.5347900635E-001 
8393727.159 +5.7461627367E-001 +7.3671880052E+000  +1.0941229606E-001 -5.2937451504E-001  +1.0683853740E-001 +8.3318114274E+000  +6.3055587376E-001 +6.0976919491E-001 
8518872.340 +5.5540231260E-001 +1.1653837575E+001  +1.0585286999E-001 -5.6581277464E+000  +1.0769924190E-001 +5.9708352492E+000  +5.7216095692E-001 +4.1923080466E-001 
8644017.522 +5.5258962199E-001 +1.2509953757E+001  +1.0612143547E-001 -4.1859180238E+000  +1.0999420598E-001 +1.0567058510E+001  +5.4161538521E-001 +8.2251711265E-001 
8769162.703 +4.7374138351E-001 +1.0330246632E+001  +1.0363459881E-001 -6.1959420610E+000  +1.0319915165E-001 +8.9939414378E+000  +5.6032501380E-001 +6.4614963672E-001 
8894307.885 +4.6290813997E-001 +1.4498793594E+001  +1.0441854789E-001 -4.1820510069E+000  +1.0488130396E-001 +1.1734017738E+001  +5.3993291454E-001 +3.7935598444E+000 
9019453.066 +4.9308979007E-001 +9.0642820706E+000  +1.0539803825E-001 -5.5170264191E+000  +1.0618245302E-001 +1.1860277189E+001  +5.5191552294E-001 +1.4507102783E+000 
9144598.248 +4.5198950436E-001 +9.2918982489E+000  +1.0487915337E-001 -4.3305529317E+000  +1.0414486462E-001 +9.4030266405E+000  +4.8411226311E-001 -1.3687541066E+000 
9269743.429 +4.6550530761E-001 +8.1689849322E+000  +1.0247608244E-001 -4.8519108087E+000  +1.0233644838E-001 +1.1856502006E+001  +4.8117610654E-001 +5.1271777760E+000 
9394888.611 +4.9354808140E-001 +1.0451470871E+001  +1.0166081498E-001 -4.6011218484E+000  +1.0115585420E-001 +1.2866952977E+001  +4.7304672920E-001 +2.6757146270E+000 
9520033.792 +4.5779028172E-001 +3.7292994509E+000  +1.0740903657E-001 -5.3309862564E+000  +1.0390174777E-001 +9.3931094945E+000  +4.6272796661E-001 -2.7095911290E+000 
9645178.974 +4.8609852212E-001 -1.1935393968E+000  +1.0952752068E-001 -5.6457537063E+000  +1.0327863950E-001 +9.9791051848E+000  +4.6474393055E-001 -5.0369155048E+000 
9770324.155 +4.2889084524E-001 +1.9383578325E+000  +1.1004069706E-001 -5.0025931229E+000  +1.0087719929E-001 +1.1984271791E+001  +4.8439491354E-001 -3.8727673163E+000 
9895469.337 +4.0024307313E-001 +5.1771077956E+000  +1.0755555344E-001 -4.2789329127E+000  +1.0259879191E-001 +1.1843533170E+001  +4.9065479045E-001 -6.9049305458E+000 
10020614.518 +4.4169588380E-001 +7.5036430706E+000  +1.0758158879E-001 -5.1664335745E+000  +1.0444260471E-001 +1.3397760550E+001  +4.5219596378E-001 -6.0983414066E+000 
10145759.700 +4.3853975779E-001 +3.5936621378E+000  +1.0621707497E-001 -2.0600164359E+000  +1.0597096298E-001 +1.1524167194E+001  +4.5968707569E-001 -3.7617722945E+000 
10270904.881 +4.5951711323E-001 +8.5759917865E+000  +1.0687020900E-001 -3.1548261889E+000  +1.0491507068E-001 +1.3789605624E+001  +4.9517612957E-001 -5.0749367156E-001 
10396050.063 +4.2799467813E-001 +5.5098391907E+000  +1.0724346086E-001 -2.2474056604E+000  +1.0830225444E-001 +1.3898619826E+001  +4.8159490392E-001 -5.7383629467E-001 
10521195.244 +4.4812471865E-001 +7.5267357300E+000  +1.0807664541E-001 -2.6913112266E+000  +1.0633039251E-001 +1.3955213010E+001  +4.9918145465E-001 -1.5494248347E+000 
10646340.426 +4.3227500324E-001 +1.1266220014E+001  +1.0939539950E-001 -2.9553567325E+000  +1.0550836678E-001 +1.3741923105E+001  +5.0232710594E-001 +3.6707994709E+000 
10771485.607 +4.7038938714E-001 +8.4483177327E+000  +1.0714540374E-001 -1.6116289945E+000  +1.0874344329E-001 +1.2749674757E+001  +4.8385842246E-001 +1.3994283463E+000 
10896630.788 +4.9984488176E-001 +1.2042537546E+001  +1.1033886225E-001 -1.0913410198E+000  +1.1043686305E-001 +1.3244022531E+001  +4.9637198866E-001 +3.4114441988E+000 
11021775.970 +4.8531251604E-001 +9.3334960304E+000  +1.1177203815E-001 -1.2311234404E+000  +1.0621500772E-001 +1.3120023420E+001  +5.2987041814E-001 +2.5093481550E+000 
11146921.151 +4.9182411822E-001 +9.3617648267E+000  +1.1325366972E-001 -5.4680904377E-001  +1.1171312537E-001 +1.2514134025E+001  +5.0214514066E-001 +1.7752458610E+000 
11272066.333 +4.9716616753E-001 +4.8119616174E+000  +1.1404106052E-001 -3.2088252581E-001  +1.1267546595E-001 +1.2313210992E+001  +5.0348265152E-001 +4.3271367832E+000 
11397211.514 +5.0984889838E-001 +1.0668193121E+001  +1.1306707372E-001 -4.0258356565E-002  +1.1142796265E-001 +1.1622525703E+001  +5.0884851725E-001 +3.5491424342E+000 
11522356.696 +5.2234198378E-001 +6.4008090442E+000  +1.1760351606E-001 -2.8018440719E-001  +1.1532941389E-001 +1.1907556041E+001  +5.2468158870E-001 +3.2829794912E+000 
11647501.877 +5.1181177424E-001 +8.5578745414E+000  +1.1633961954E-001 +4.3373380136E-001  +1.1486150420E-001 +1.1986723839E+001  +5.2803611962E-001 +6.3043766318E+000 
11772647.059 +5.3907957838E-001 +6.9346681381E+000  +1.1724629223E-001 +5.9934439467E-001  +1.1506625696E-001 +1.1928551407E+001  +5.3858188210E-001 +4.9475043214E+000 
11897792.240 +5.6347211065E-001 +7.6744024120E+000  +1.2096023159E-001 +2.0649327867E+000  +1.1892062685E-001 +1.0600138182E+001  +5.5364665881E-001 +1.6998497605E+000 
12022937.422 +5.5270534578E-001 +5.7499235194E+000  +1.2005707405E-001 +7.3883428977E-001  +1.1874134767E-001 +1.1088350198E+001  +5.6041993149E-001 +1.5084296685E+000 
12148082.603 +5.9682531668E-001 +7.8217575687E+000  +1.2079850478E-001 +1.1075111986E+000  +1.2121844425E-001 +1.0104379282E+001  +5.7708409116E-001 +9.0414231268E-001 
12273227.785 +5.6603196080E-001 +3.4342237657E+000  +1.2381483954E-001 +1.6802615067E+000  +1.2072199919E-001 +9.5698817873E+000  +6.0353501069E-001 +8.6399872403E-001 
12398372.966 +5.9023242050E-001 +4.1240675347E+000  +1.2311314423E-001 +2.0200242245E+000  +1.1990069265E-001 +9.6912766741E+000  +6.0438356033E-001 +1.6728460676E+000 
12523518.148 +6.1078696477E-001 +4.8764420301E+000  +1.2461522005E-001 +1.6589881201E+000  +1.2356417402E-001 +9.6027742517E+000  +5.9925358585E-001 +1.6972636725E+000 
12648663.329 +6.1732098362E-001 +1.9254271933E+000  +1.2569100679E-001 +2.4337889294E+000  +1.2531317732E-001 +9.4942408427E+000  +6.4681745536E-001 -6.1054795528E-002 
12773808.511 +6.2514028435E-001 +3.2882459266E+000  +1.2871090857E-001 +1.5392586579E+000  +1.2470153938E-001 +9.0222303630E+000  +6.3337200526E-001 -9.6781979294E-001 
12898953.692 +6.5383744780E-001 +9.8746290411E-001  +1.2971452363E-001 +1.9910173034E+000  +1.2996822807E-001 +7.1376962038E+000  +6.5747364058E-001 -4.4672979249E-001 
13024098.874 +6.4669538285E-001 +2.8329952107E+000  +1.2880042648E-001 +2.4673365723E+000  +1.2789473150E-001 +7.4048089223E+000  +6.6587964854E-001 +8.9063913374E-001 
13149244.055 +6.6836236208E-001 +1.2989920493E+000  +1.3114657620E-001 +3.3560608023E+000  +1.3019622352E-001 +6.4774794087E+000  +6.7323007580E-001 -2.1872900218E+000 
13274389.237 +7.0434334825E-001 +1.2963460280E+000  +1.3113908147E-001 +2.4108842472E+000  +1.3004843825E-001 +6.0516146737E+000  +6.9359028856E-001 -1.4280279409E+000 
13399534.418 +7.0408330541E-001 -7.7896874420E-001  +1.3496059055E-001 +2.8454795494E+000  +1.3185917884E-001 +5.9134239258E+000  +7.0569190637E-001 -8.1933941819E-001 
13524679.599 +7.0125428754E-001 -7.0303095618E-001  +1.3546328038E-001 +2.2853917697E+000  +1.3429338382E-001 +5.7317800920E+000  +7.4406912453E-001 -3.9617517029E+000 
13649824.781 +7.4031173868E-001 -2.1041941543E+000  +1.3557307582E-001 +3.1219903288E+000  +1.3621641484E-001 +4.8016424563E+000  +7.5416051845E-001 -3.4263900708E+000 
13774969.962 +7.4686881726E-001 -1.3885413946E+000  +1.3888790076E-001 +2.4562234606E+000  +1.3492465735E-001 +5.3383718411E+000  +7.6201087114E-001 -2.4955825242E+000 
13900115.144 +7.8521635641E-001 -3.9883136659E+000  +1.3835373519E-001 +2.2170306827E+000  +1.3562622701E-001 +4.7512299593E+000  +7.9123706041E-001 -4.3400178824E+000 
14025260.325 +7.9045989322E-001 -2.7211224664E+000  +1.4000070616E-001 +1.8224477319E+000  +1.3769652881E-001 +3.5853851884E+000  +7.8786891465E-001 -4.4727093975E+000 
14150405.507 +8.2121760817E-001 -6.0120133914E+000  +1.4106611645E-001 +2.5112884618E+000  +1.3843111003E-001 +3.4570940292E+000  +8.1821412320E-001 -3.4295410512E+000 
14275550.688 +8.1391097708E-001 -4.8342115917E+000  +1.3842995262E-001 +2.1496911688E+000  +1.4025212815E-001 +2.5420308905E+000  +8.4701880820E-001 -4.2315674681E+000 
14400695.870 +8.4115896774E-001 -7.2191822190E+000  +1.4063354709E-001 +1.6753986799E+000  +1.4011638190E-001 +2.2769691465E+000  +8.5842088333E-001 -4.2321390572E+000 
