!  2-Port S-parameters saved by WinCal
! VAR MeasName=S-Parameters (CALIBRATED_DATA) read from VNA (P5004A)
! VAR MeasDate=28/08/2024 16:48:37
! VAR NAME=S2_r9c9_RESET1_9k-100M_3
! VAR FILENAME=S2_r9c9_RESET1_9k-100M_3.S2P
! VAR DATE=28/08/2024 16:48:37
! VAR PHYS_PORTS=1,2
! VAR ObjTypeName=DATASET
! VAR IndexType=Frequency
!
# Hz S MA R 50
9000.000 +9.1643168104E-002 -1.7798419276E+002  +4.7496171536E-004 -9.1887680904E+001  +1.4813924586E-002 +1.4944462300E+002  +2.7575683230E-001 -1.4055601692E+002 
134145.181 +1.1151773127E-001 +1.6955505711E+002  +9.2365942932E-005 +6.7751309200E+001  +2.7388927365E-004 +1.2667314941E+002  +2.3736599681E-001 -1.7088930909E+002 
259290.363 +1.1161739619E-001 +1.6981049737E+002  +9.5269130014E-004 -5.1140429863E+001  +1.4325964683E-003 +7.7929521968E+001  +2.3946546895E-001 -1.6946523863E+002 
384435.544 +1.1356512458E-001 +1.6962243127E+002  +8.5845448756E-004 +1.8046767463E+001  +3.9549205824E-004 -1.0113010775E+002  +2.4421763278E-001 -1.6907110045E+002 
509580.726 +1.1449088496E-001 +1.7260838117E+002  +1.2620292338E-003 -5.4609184219E+001  +3.4643405212E-004 +1.3763061077E+002  +2.2414660780E-001 -1.6489187558E+002 
634725.907 +1.1564660119E-001 +1.7174846414E+002  +1.3705761586E-003 -9.1953535592E+001  +2.1181431256E-003 +8.3052174954E+001  +2.4343552230E-001 -1.6501660265E+002 
759871.089 +1.1978132104E-001 +1.7067425392E+002  +6.1982071188E-004 -7.5204242155E+001  +2.6254439011E-004 +3.8851730902E+001  +2.4277964281E-001 -1.6800239888E+002 
885016.270 +1.1925965100E-001 +1.6912006731E+002  +1.0081639697E-003 -7.4749595553E+001  +4.5293811296E-004 -1.7860643509E+002  +2.4143207122E-001 -1.6780833442E+002 
1010161.452 +1.1810802621E-001 +1.6931687806E+002  +3.1124415113E-003 -3.0617921002E+001  +1.7066831681E-003 -1.3498692848E+002  +2.0126784489E-001 -1.6149238852E+002 
1135306.633 +1.2049896784E-001 +1.6946152650E+002  +2.1964041679E-003 +2.0923159970E+001  +3.4848376303E-003 -1.6046665883E+002  +1.9216258306E-001 -1.7053799552E+002 
1260451.815 +1.1943264771E-001 +1.7209101965E+002  +3.7729924545E-003 -6.0596416499E+001  +5.6847274970E-003 +1.2537165310E+002  +2.3604190539E-001 -1.5701992086E+002 
1385596.996 +1.2264707835E-001 +1.7200928703E+002  +5.3053442723E-004 -5.6192458301E+001  +1.7402989354E-003 +1.4506500227E+002  +2.5347214492E-001 -1.6020488175E+002 
1510742.178 +1.2777848121E-001 +1.7243091181E+002  +1.8619839655E-003 -9.6120218085E+001  +1.6181805177E-003 +1.3887357750E+002  +2.6685346913E-001 -1.5873637246E+002 
1635887.359 +1.2888462857E-001 +1.7105071252E+002  +2.0634426740E-003 -2.4494135605E+001  +7.7447890354E-004 +8.1681995974E+001  +2.5341700947E-001 -1.6119578956E+002 
1761032.541 +1.2500263610E-001 +1.7030890665E+002  +3.4232847872E-003 +2.3893160332E+001  +2.7169720831E-003 -6.3818614875E+001  +2.2944259415E-001 -1.6028736636E+002 
1886177.722 +1.3164376148E-001 +1.7032751776E+002  +3.5569066447E-003 +2.4230115667E+001  +3.8642902470E-003 -9.0725420118E+001  +2.2825211002E-001 -1.6104511730E+002 
2011322.904 +1.3107759003E-001 +1.6729207537E+002  +6.3978748103E-003 +5.3520133460E+001  +6.6804381681E-003 -7.2155924333E+001  +2.0904958826E-001 -1.5996476412E+002 
2136468.085 +1.3290128561E-001 +1.6633582186E+002  +9.1001850953E-003 +5.7989031525E+001  +1.1264465916E-002 -4.5764415509E+001  +1.9336077208E-001 -1.6206532446E+002 
2261613.267 +1.3043799037E-001 +1.6619876617E+002  +1.5613206212E-002 +7.9331839830E+001  +1.5465579369E-002 -4.1279057623E+001  +1.9646862013E-001 -1.7134275935E+002 
2386758.448 +1.3514375604E-001 +1.6581632883E+002  +1.4076613244E-002 +6.1348585191E+001  +1.4204888246E-002 -5.4657125504E+001  +1.9515890820E-001 -1.6518698792E+002 
2511903.630 +1.3426408533E-001 +1.6561213071E+002  +2.3225617457E-002 +6.8550858438E+001  +2.3666569273E-002 -6.1875881113E+001  +1.5457940279E-001 -1.6695812523E+002 
2637048.811 +1.2400263209E-001 +1.6196834437E+002  +4.6404559046E-002 +9.9245120786E+001  +5.2588826603E-002 -3.9119936285E+000  +2.5667518211E-001 +1.5049557968E+002 
2762193.992 +7.0173762057E-002 +1.6917515166E+002  +1.4572165471E-001 +2.5002030094E+001  +1.6411368543E-001 -7.9254554149E+001  +2.3053367461E-001 -3.7336227690E+001 
2887339.174 +1.3390190113E-001 +1.6738547011E+002  +5.7548025126E-002 +1.0194285137E+001  +4.9749240349E-002 -9.9206056923E+001  +2.0069953798E-001 -9.8561591535E+001 
3012484.355 +1.4062898810E-001 +1.7490086173E+002  +5.4868086381E-002 -1.3976281674E+001  +5.1333962187E-002 -1.1597341165E+002  +2.0610053368E-001 -8.9405039864E+001 
3137629.537 +1.4791559984E-001 +1.7081974430E+002  +2.9007992527E-002 +3.0531241054E+000  +2.7552260215E-002 -9.4885315660E+001  +2.0481600391E-001 -1.3418778512E+002 
3262774.718 +1.3514216665E-001 +1.7938450819E+002  +5.4901300202E-002 +2.5383786711E+001  +5.8393201736E-002 -6.5155231591E+001  +1.2739451447E-001 +1.5454195587E+002 
3387919.900 +1.1681194154E-001 +1.7043349788E+002  +7.2871725824E-002 +1.7159035737E+001  +6.5684185737E-002 -6.4339833841E+001  +8.2760963753E-002 -1.2795951890E+002 
3513065.081 +1.4769391343E-001 +1.5433491153E+002  +6.1383899915E-002 +9.1564206020E+001  +5.5104379669E-002 +9.9879705136E+000  +2.9453996094E-001 +1.4660774112E+002 
3638210.263 +1.5644381120E-001 +1.5432050526E+002  +6.5750526397E-002 +1.0232302161E+002  +5.6786155732E-002 +1.2840820562E+001  +3.4706519977E-001 +1.4618356670E+002 
3763355.444 +1.8104053429E-001 +1.5426746760E+002  +6.7371374618E-002 +1.1019234880E+002  +6.2512110138E-002 +3.3683168680E+001  +4.1088837797E-001 +1.4102930655E+002 
3888500.626 +1.6375545986E-001 +1.5927709451E+002  +5.9453793438E-002 +5.9901965648E+001  +5.2073777721E-002 -2.0972071069E+001  +1.6155238014E-001 +1.5540646008E+002 
4013645.807 +1.8296660663E-001 +1.4937405985E+002  +8.4425845717E-002 +9.1159983716E+001  +7.9838505128E-002 +2.2570028328E+001  +3.2183991460E-001 +1.3133088919E+002 
4138790.989 +2.1618155278E-001 +1.4290777154E+002  +8.3182359084E-002 +1.1587270948E+002  +7.4056006995E-002 +4.7033489912E+001  +3.8673034676E-001 +1.5073593012E+002 
4263936.170 +1.9566749051E-001 +1.5343873448E+002  +7.5453664005E-002 +8.6112869734E+001  +6.8235148567E-002 +2.6207028744E+001  +3.2391123589E-001 +1.3790413367E+002 
4389081.352 +2.1156605006E-001 +1.4546813383E+002  +7.8892139825E-002 +9.2549946099E+001  +7.8352205279E-002 +3.0123500185E+001  +3.0577010923E-001 +1.4661202391E+002 
4514226.533 +2.3249839084E-001 +1.4670158566E+002  +1.2556847617E-001 +1.0226058128E+002  +1.3680004774E-001 +4.6668279503E+001  +5.9481015819E-001 +1.1417451596E+002 
4639371.715 +2.8875668836E-001 +1.3880884181E+002  +1.9758471328E-001 +1.0947839474E+002  +2.0674284336E-001 +5.2375097952E+001  +7.1876293807E-001 +9.4639117456E+001 
4764516.896 +2.9262292018E-001 +1.4102916105E+002  +3.2289080933E-001 +1.4812624030E+002  +3.2252232905E-001 +9.3793918264E+001  +1.9868856779E+000 +1.3863875690E+002 
4889662.078 +5.8212214824E-001 +1.2150176319E+002  +1.3691219697E+000 +1.1309476321E+002  +1.2322599316E+000 +6.1462889307E+001  +5.3288795642E+000 +7.2488757780E+001 
5014807.259 +3.8562248340E-001 +1.3564372784E+002  +2.8790726605E-001 +1.1466406803E+002  +2.7592798727E-001 +6.7974758141E+001  +9.9090885523E-001 +9.3123775409E+001 
5139952.441 +3.7070990350E-001 +1.1826713137E+002  +5.4206662192E-001 +1.0830939682E+002  +5.3461687408E-001 +6.9212320054E+001  +2.1612501730E+000 +1.0585070303E+002 
5265097.622 +3.1393355809E-001 +1.3156947435E+002  +2.5992705479E-001 +9.5287095033E+001  +2.4169598405E-001 +5.8904525897E+001  +1.0157860747E+000 +1.0473167642E+002 
5390242.804 +3.7368950945E-001 +1.2568962323E+002  +2.7663313919E-001 +8.1596249553E+001  +2.7428510734E-001 +4.2653239795E+001  +7.9299697274E-001 +7.5568896348E+001 
5515387.985 +3.3842688847E-001 +1.3952441025E+002  +2.2434766833E-001 +7.3829037007E+001  +2.0893528235E-001 +3.8147234187E+001  +9.5471515080E-001 +7.4460475885E+001 
5640533.166 +4.0125707092E-001 +1.3241238110E+002  +2.1476981036E-001 +1.0684197675E+002  +2.1185867480E-001 +7.5686183813E+001  +1.0994055869E+000 +1.2467880686E+002 
5765678.348 +4.4633306993E-001 +1.3203122093E+002  +3.0992227451E-001 +1.0008579985E+002  +2.8467834162E-001 +7.4589038725E+001  +1.5443401501E+000 +1.0652155990E+002 
5890823.529 +4.0442426230E-001 +1.1701187631E+002  +3.3233096097E-001 +7.7456886426E+001  +3.2327888022E-001 +5.3355455801E+001  +1.2751426025E+000 +1.0028161949E+002 
6015968.711 +5.3801790535E-001 +1.1965789382E+002  +3.4368286821E-001 +9.4651269586E+001  +3.4714988239E-001 +7.4806254873E+001  +1.4834695167E+000 +1.0834170883E+002 
6141113.892 +5.4495086436E-001 +1.1433095538E+002  +3.9605846596E-001 +6.4599943629E+001  +3.8494245787E-001 +4.2767114828E+001  +1.3499845767E+000 +6.2183746556E+001 
6266259.074 +5.7502187248E-001 +1.0000979436E+002  +4.0955074198E-001 +5.1379936566E+001  +3.9434013810E-001 +3.5338900759E+001  +1.0090887081E+000 +5.9686620501E+001 
6391404.255 +5.9852703449E-001 +1.0097741639E+002  +4.1614236024E-001 +3.8798891588E+001  +4.0495661910E-001 +2.2570750751E+001  +1.2039643943E+000 +2.9258798201E+001 
6516549.437 +8.4340278683E-001 +8.0267333991E+001  +5.1392061102E-001 +4.1221504520E+001  +5.0978295895E-001 +3.1278216420E+001  +1.1146601676E+000 +4.5495627551E+001 
6641694.618 +7.9283298019E-001 +4.9420243709E+001  +5.3972934368E-001 +1.6504812903E+001  +5.5038438924E-001 +7.3975897985E+000  +1.0101914476E+000 +2.2317103477E+001 
6766839.800 +8.7607769882E-001 +6.2241474831E+001  +4.5825893312E-001 +2.1353147088E+001  +4.5360166605E-001 +1.0002492690E+001  +8.6516812875E-001 +1.1521430720E+001 
6891984.981 +7.4742100168E-001 +4.7601309323E+001  +4.5692777618E-001 +8.2158797604E+000  +4.4423983506E-001 +1.9090371685E+000  +1.0766851669E+000 +5.1324485921E+000 
7017130.163 +8.5172083781E-001 +3.1041220759E+001  +4.3539691748E-001 +4.2994496743E+000  +4.2888196316E-001 -8.5457182190E-001  +9.1450362652E-001 -1.2238254519E+000 
7142275.344 +8.4427096277E-001 -1.8841811445E+000  +4.1813351555E-001 -4.4144570718E+000  +4.0663044458E-001 -5.9400015812E+000  +8.9472044141E-001 -2.5313957695E+000 
7267420.526 +1.1125375574E+000 +4.3296018392E-001  +3.9671775832E-001 -2.6187839010E-001  +3.9522669695E-001 -1.8907656271E+000  +8.7440729249E-001 -2.5352128880E+001 
7392565.707 +9.0613472257E-001 -4.4376033504E-001  +3.3393541001E-001 +3.9719111894E+000  +3.2937608574E-001 +3.9121047554E+000  +9.8722614118E-001 -1.1446661275E+001 
7517710.889 +7.6258684646E-001 +2.9296423377E+000  +3.1029606996E-001 +2.7023319217E+000  +3.0434396128E-001 +4.5084510988E+000  +8.2641150169E-001 -9.0949075964E+000 
7642856.070 +7.0118197461E-001 +1.7300325140E+001  +2.8820032986E-001 +2.1076937410E+000  +2.8143384239E-001 +2.7362617952E+000  +7.1972042245E-001 -5.3317094876E+000 
7768001.252 +6.4760050641E-001 +7.2446027792E+000  +2.8645536186E-001 -7.3741121972E-002  +2.8272526839E-001 +5.1456313080E+000  +6.9765313190E-001 -1.2803214401E+001 
7893146.433 +5.6227993057E-001 +1.5278591768E+001  +2.6009310002E-001 -7.9032025799E-001  +2.6448330061E-001 +5.3437406472E+000  +5.4854388336E-001 +4.2251924442E+000 
8018291.615 +5.4796688144E-001 +1.8441429394E+001  +2.5190351656E-001 -3.2773905084E+000  +2.4537825162E-001 +4.8880708758E+000  +4.9352804220E-001 +1.3218371775E+001 
8143436.796 +5.0352980039E-001 +8.9667042455E+000  +2.5571963018E-001 -2.8943656675E+000  +2.5897447902E-001 +6.6602242809E+000  +5.2660091859E-001 -3.1326848574E+000 
8268581.977 +4.8389276076E-001 +1.1737402226E+001  +2.5097359788E-001 -1.4176241057E+000  +2.4487991731E-001 +5.8275908270E+000  +4.9679841186E-001 +7.5050588260E+000 
8393727.159 +4.2507010106E-001 +1.8073725379E+001  +2.4176201855E-001 -4.9009152822E+000  +2.3865396492E-001 +7.7095324117E+000  +5.0392759985E-001 +3.5931034204E+000 
8518872.340 +4.3716500870E-001 +1.1301502987E+001  +2.3963027254E-001 -4.0024046464E+000  +2.3780623882E-001 +7.8875291330E+000  +4.3138616094E-001 +1.1332182869E+001 
8644017.522 +4.2706565953E-001 +1.4404662383E+001  +2.3182379351E-001 -4.2136352962E+000  +2.2667698790E-001 +7.5228219151E+000  +4.0236774599E-001 +1.7293001991E+001 
8769162.703 +3.8641046113E-001 +9.0300411871E+000  +2.3359404136E-001 -4.2475836787E+000  +2.3525531826E-001 +7.8765777786E+000  +4.2793338788E-001 +7.8960089307E+000 
8894307.885 +4.1868830181E-001 +2.0440938457E+001  +2.2797311322E-001 -4.3103748601E+000  +2.2690670643E-001 +1.0124949196E+001  +4.1970167908E-001 +9.6883187808E+000 
9019453.066 +3.5929981760E-001 +1.1616377829E+001  +2.2847742110E-001 -5.3983480698E+000  +2.3233509333E-001 +8.5423420196E+000  +3.9266360235E-001 +2.5549161036E+000 
9144598.248 +3.1159808825E-001 +1.5386322330E+001  +2.2656776354E-001 -5.9564836575E+000  +2.3134510520E-001 +8.9101660813E+000  +3.6494649448E-001 -2.9114569406E+000 
9269743.429 +3.6133246375E-001 +1.4735802927E+001  +2.2995773249E-001 -5.3218156699E+000  +2.2763948775E-001 +1.0047193390E+001  +3.4413039946E-001 +8.4697055554E+000 
9394888.611 +2.9771080057E-001 +8.5366918557E+000  +2.3083526832E-001 -6.7491016230E+000  +2.2632285817E-001 +9.9139523812E+000  +3.4542839485E-001 +9.1296253180E+000 
9520033.792 +2.9019275717E-001 +1.6643968345E+001  +2.2487334500E-001 -5.8372826894E+000  +2.2546587015E-001 +9.3405537823E+000  +3.3242865754E-001 +7.0932368794E-001 
9645178.974 +3.2007246927E-001 +1.2224161059E+001  +2.2608471057E-001 -5.1815927492E+000  +2.2450180405E-001 +1.0393610842E+001  +3.4362239735E-001 +1.1314682436E+001 
9770324.155 +3.0431222340E-001 +7.8695151119E+000  +2.2969470561E-001 -5.6777862893E+000  +2.2670128842E-001 +1.0328149939E+001  +3.2900840445E-001 +1.2110878579E+000 
9895469.337 +3.1593349021E-001 +1.3986985695E+001  +2.2969436211E-001 -4.7779520929E+000  +2.2821575214E-001 +1.1677120256E+001  +3.3685121365E-001 +9.3100826543E-001 
10020614.518 +3.0308150206E-001 +1.2963162006E+001  +2.3035985463E-001 -5.1714724856E+000  +2.2553414579E-001 +1.0495421591E+001  +3.1687940758E-001 +3.6885348947E+000 
10145759.700 +3.0732521297E-001 +1.4617005905E+001  +2.2903237278E-001 -4.8070889067E+000  +2.2720205125E-001 +1.1331388876E+001  +3.4125897325E-001 +1.8656690850E+000 
10270904.881 +3.4017217132E-001 +1.3999771236E+001  +2.2902648476E-001 -4.6933911376E+000  +2.2699625512E-001 +1.1237425653E+001  +3.1957824337E-001 +9.7109321737E+000 
10396050.063 +3.3019974575E-001 +1.7128789661E+001  +2.3310666554E-001 -4.2698569728E+000  +2.2994305837E-001 +1.1553257435E+001  +2.9420983425E-001 +4.2273523064E+000 
10521195.244 +3.3543291044E-001 +1.9862908093E+001  +2.3075199023E-001 -3.1380487933E+000  +2.2917484126E-001 +1.2128188748E+001  +3.9435385446E-001 +1.0222564267E+001 
10646340.426 +3.1050757482E-001 +1.6055103422E+001  +2.3251805262E-001 -3.6655654932E+000  +2.2865828122E-001 +1.0988579319E+001  +3.5681408571E-001 +1.2364500097E+001 
10771485.607 +3.6770431917E-001 +1.9444067688E+001  +2.3275814458E-001 -2.9967614840E+000  +2.3034227050E-001 +1.1544220090E+001  +3.3357116662E-001 +1.2419882713E+001 
10896630.788 +3.3310267228E-001 +1.3416491866E+001  +2.3691529808E-001 -2.9931292657E+000  +2.3469873851E-001 +1.0982220113E+001  +3.5860411655E-001 +1.5761650995E+001 
11021775.970 +3.3052305773E-001 +1.2721366434E+001  +2.3925158444E-001 -2.3280459817E+000  +2.3608232531E-001 +1.0964884206E+001  +3.6513291503E-001 +1.4986382266E+001 
11146921.151 +3.3563104539E-001 +1.6895039505E+001  +2.4050586494E-001 -2.2475544105E+000  +2.3869310018E-001 +1.1102763850E+001  +3.7776934368E-001 +1.1666820206E+001 
11272066.333 +3.8125285908E-001 +1.5043764558E+001  +2.4488241146E-001 -1.5712933870E+000  +2.4209252456E-001 +1.1129244513E+001  +3.7711696930E-001 +7.5274741617E+000 
11397211.514 +3.7981895124E-001 +1.9655743471E+001  +2.4256332278E-001 -1.8139258996E+000  +2.3962905379E-001 +1.0454737432E+001  +3.4923271368E-001 +1.0731103276E+001 
11522356.696 +3.6347012267E-001 +1.2688583738E+001  +2.4975691910E-001 -7.0006848500E-001  +2.4519005451E-001 +1.0937776935E+001  +3.9389977462E-001 +5.4090356518E+000 
11647501.877 +3.7786988516E-001 +1.1954887161E+001  +2.4952743062E-001 -7.2251453053E-001  +2.4584408374E-001 +9.9564211573E+000  +3.9123965123E-001 +1.0404578864E+001 
11772647.059 +4.0797648230E-001 +1.3407812746E+001  +2.5198247878E-001 -7.3987703228E-001  +2.4929587362E-001 +1.0461406300E+001  +3.8964956535E-001 +8.8684314527E+000 
11897792.240 +3.9342276729E-001 +1.1224553817E+001  +2.5461934154E-001 -4.2258968316E-001  +2.5179703952E-001 +9.6168796686E+000  +3.8206755469E-001 +7.5253769698E+000 
12022937.422 +4.1716287244E-001 +9.2147350811E+000  +2.5753759348E-001 -9.4153385193E-002  +2.5369297306E-001 +9.6172001695E+000  +4.2879896988E-001 +7.9872232834E+000 
12148082.603 +4.0634390499E-001 +7.5313150321E+000  +2.6068946028E-001 +2.7089432923E-001  +2.5831639035E-001 +9.1633072030E+000  +4.4767615788E-001 +8.1875461154E+000 
12273227.785 +4.3308040605E-001 +9.0662934831E+000  +2.6366897365E-001 +6.9059267040E-001  +2.5911375045E-001 +9.2547436903E+000  +4.4484045224E-001 +5.0111465042E+000 
12398372.966 +4.2288246940E-001 +1.0060034496E+001  +2.6701535697E-001 +8.3157448537E-001  +2.6282362110E-001 +8.5277059999E+000  +4.4920726966E-001 +4.7208517657E+000 
12523518.148 +4.6385478175E-001 +1.1123448012E+001  +2.6772670311E-001 +1.1158066256E+000  +2.6657723163E-001 +8.1181064035E+000  +4.4268292517E-001 +3.2365022442E+000 
12648663.329 +4.5282989012E-001 +5.7133434430E+000  +2.7205149009E-001 +8.5030099981E-001  +2.7090945325E-001 +7.7578900522E+000  +4.7813729278E-001 +2.8877003894E+000 
12773808.511 +4.6339724777E-001 +5.9746079075E+000  +2.7511152437E-001 +1.0349457952E+000  +2.7163573430E-001 +7.0338105613E+000  +4.7423018291E-001 +1.9535431508E+000 
12898953.692 +4.9944759157E-001 +4.0141855978E+000  +2.7568591504E-001 +1.8097803423E+000  +2.7342421845E-001 +7.3669371527E+000  +5.0339159235E-001 +5.3092002599E+000 
13024098.874 +4.9750156340E-001 +1.8706450356E+000  +2.8244975579E-001 +1.7096977428E+000  +2.7856607053E-001 +6.3549821182E+000  +5.2044472523E-001 +1.7233826643E+000 
13149244.055 +5.1061132734E-001 +3.1551294977E+000  +2.8363199212E-001 +1.9887255160E+000  +2.7883846347E-001 +6.3539766119E+000  +5.4671688875E-001 +1.3695725902E+000 
13274389.237 +5.0814657306E-001 +2.9315728391E+000  +2.8535640731E-001 +1.5109465478E+000  +2.8276574523E-001 +5.5803692564E+000  +5.3163772421E-001 -1.2113066823E-001 
13399534.418 +5.4898209811E-001 +1.9550248814E+000  +2.9174763227E-001 +1.7402387116E+000  +2.8598562116E-001 +4.8995966258E+000  +5.4766775758E-001 -2.7113680616E+000 
13524679.599 +5.6559281438E-001 -8.9312025895E-001  +2.9297211593E-001 +1.9265839282E+000  +2.8678292362E-001 +5.1634333892E+000  +5.5669562878E-001 +1.9025766956E+000 
13649824.781 +5.7091136483E-001 +6.4943200019E-001  +2.9365700118E-001 +1.8890216935E+000  +2.9069450746E-001 +4.3676754689E+000  +5.8594978261E-001 -1.6491873263E+000 
13774969.962 +5.8402842552E-001 -5.4929766096E-003  +2.9595808333E-001 +1.6312173932E+000  +2.9212455854E-001 +3.9592590541E+000  +5.7177401846E-001 -8.7171073012E-001 
13900115.144 +6.0279959689E-001 -3.3715953365E+000  +2.9936093656E-001 +1.8008431782E+000  +2.9598467292E-001 +3.2732503923E+000  +6.1801933359E-001 -1.7198517183E+000 
14025260.325 +6.1000020613E-001 -1.7259915490E+000  +3.0135590725E-001 +1.8546799610E+000  +2.9566629737E-001 +2.9651927291E+000  +6.3122171989E-001 -2.5676354881E+000 
14150405.507 +6.2449944145E-001 -4.1406557000E+000  +3.0357188900E-001 +1.4934871218E+000  +2.9848978665E-001 +2.6210793781E+000  +6.3177732950E-001 -2.3548065592E+000 
14275550.688 +6.5341982211E-001 -2.3945598337E+000  +3.0344594484E-001 +1.6917928714E+000  +2.9727409605E-001 +2.5126861581E+000  +6.5169975676E-001 -1.8064052067E+000 
14400695.870 +6.6925987602E-001 -4.8811053095E+000  +3.0819020858E-001 +1.4801300527E+000  +3.0394297179E-001 +2.3439166437E+000  +6.7839546319E-001 -3.6212039629E+000 
