!  2-Port S-parameters saved by WinCal
! VAR MeasName=S-Parameters (CALIBRATED_DATA) read from VNA (P5004A)
! VAR MeasDate=29/08/2024 13:43:52
! VAR NAME=S2_r9c6_RESET2_9k-100M_1
! VAR FILENAME=S2_r9c6_RESET2_9k-100M_1.S2P
! VAR DATE=29/08/2024 13:43:52
! VAR PHYS_PORTS=1,2
! VAR ObjTypeName=DATASET
! VAR IndexType=Frequency
!
# Hz S MA R 50
9000.000 +8.1338889829E-002 -1.7046745413E+002  +5.0247544297E-003 -2.6500392814E+001  +8.3497095299E-003 -5.9543060174E+001  +2.2136983137E-001 -1.4709503574E+002 
134145.181 +1.1166010845E-001 +1.6948892306E+002  +2.7178347646E-004 -7.4808991961E+001  +6.0168736118E-004 +1.4709443789E+002  +2.3818274357E-001 -1.7085420893E+002 
259290.363 +1.1231358657E-001 +1.7052871237E+002  +3.0619436041E-004 +1.4695054223E+000  +3.6150138150E-004 +1.2486220754E+002  +2.4137635761E-001 -1.6957876700E+002 
384435.544 +1.1467899524E-001 +1.6906604499E+002  +1.3568638749E-003 -9.5825855107E+001  +6.4195740999E-004 +2.2524588186E+001  +2.5523364739E-001 -1.6676576612E+002 
509580.726 +1.1331645539E-001 +1.7008117872E+002  +1.5476024517E-003 -1.1062624552E+002  +8.1976230581E-004 +5.7359157525E+001  +2.4518812649E-001 -1.6615401087E+002 
634725.907 +1.1579203017E-001 +1.7198486400E+002  +1.1794493008E-003 -8.2918178255E+001  +4.5370857008E-004 -1.6751446023E+002  +2.6270382638E-001 -1.6567533321E+002 
759871.089 +1.2030764192E-001 +1.7093736701E+002  +5.5891197340E-004 -1.7425791917E+002  +6.1291053171E-004 +7.8036195156E+001  +2.5511680030E-001 -1.6784285989E+002 
885016.270 +1.2063499603E-001 +1.6938951592E+002  +5.4895229614E-004 -8.7918189134E+001  +6.1001922239E-004 +6.3110296094E+001  +2.4391408179E-001 -1.6531364234E+002 
1010161.452 +1.1767563387E-001 +1.6968183739E+002  +2.1576774281E-003 -2.3125695943E+001  +2.0580880075E-003 +1.1272334023E+002  +2.1206023511E-001 -1.6248061296E+002 
1135306.633 +1.1261010703E-001 +1.7032493704E+002  +1.1293189926E-003 +3.1000019705E+001  +2.2642048408E-003 -1.6668030136E+002  +2.0837655886E-001 -1.6687110189E+002 
1260451.815 +1.2224091381E-001 +1.7067762190E+002  +1.1388926041E-003 -1.0057112458E+002  +1.1638952076E-003 +1.3800663606E+002  +2.2258579793E-001 -1.6128794893E+002 
1385596.996 +1.2428485525E-001 +1.7332158664E+002  +2.7601831585E-003 -9.2192982032E+001  +1.1070820221E-003 +4.7462636720E+001  +2.7240339438E-001 -1.5340549136E+002 
1510742.178 +1.2781672350E-001 +1.7209675655E+002  +4.8632379614E-004 +1.3404977769E+002  +1.0563242020E-003 -6.4323498851E+001  +2.6662952814E-001 -1.5920269429E+002 
1635887.359 +1.3018695361E-001 +1.7049511397E+002  +7.3800095519E-004 -1.7212830556E+002  +6.9591856594E-004 +1.5753200998E+002  +2.3316695546E-001 -1.5558117250E+002 
1761032.541 +1.2871044081E-001 +1.6927649723E+002  +1.0483593432E-003 +7.0480107291E+000  +8.9969886297E-004 -1.3818162051E+002  +2.3659037759E-001 -1.6130318995E+002 
1886177.722 +1.2915915768E-001 +1.6829428397E+002  +6.6460336456E-004 +5.2416939141E+001  +1.8781755705E-003 -1.1221772383E+002  +2.2095313005E-001 -1.6222567336E+002 
2011322.904 +1.2606474841E-001 +1.6718540994E+002  +2.1581911671E-003 +1.0585186840E+002  +2.7058195139E-003 -8.8018753048E+001  +2.0583548142E-001 -1.6591197669E+002 
2136468.085 +1.3720603787E-001 +1.6809826107E+002  +5.7132796869E-003 +3.8714599537E+001  +3.0267833642E-003 -2.1877342782E+001  +1.3243835989E-001 +1.6517336863E+002 
2261613.267 +1.3192173287E-001 +1.6400343149E+002  +4.4287604387E-003 +5.1473423219E+001  +9.4217776810E-003 -4.5032232195E+001  +2.0202362581E-001 -1.7361593863E+002 
2386758.448 +1.3589564787E-001 +1.6334913012E+002  +5.9647322484E-003 +1.1573624462E+002  +1.0193685921E-002 +3.6338297073E+000  +2.4359100342E-001 +1.7065416704E+002 
2511903.630 +1.2796859909E-001 +1.6470576471E+002  +1.4133984161E-002 +9.9544929653E+001  +7.4418758158E-003 -2.5940211185E+001  +2.3890198295E-001 +1.7212546447E+002 
2637048.811 +9.8793121039E-002 +1.6322313077E+002  +3.8603905236E-002 +1.0305133629E+002  +2.1680282079E-002 +1.7110479460E+000  +3.3972274328E-001 +1.5108004322E+002 
2762193.992 +9.3115574501E-002 +1.7260031929E+002  +6.4929157614E-002 +2.6367423129E+001  +6.1922343620E-002 -8.3518021889E+001  +1.4056359025E-001 +6.7307811326E+001 
2887339.174 +1.2428222044E-001 +1.7299167562E+002  +6.2922708133E-002 -8.4368062591E+001  +7.1172804838E-002 +1.4996594417E+002  +9.1820514149E-001 -1.0464836497E+002 
3012484.355 +1.2392298004E-001 +1.7012438754E+002  +2.8294674386E-002 -1.4522587970E+001  +1.9100250658E-002 -1.0820060727E+002  +2.1764567037E-001 -8.6254607640E+001 
3137629.537 +1.0855943997E-001 +1.7365049558E+002  +6.7916607246E-002 +1.3840033813E+002  +1.4041228464E-001 +4.2457417773E+001  +1.3316478411E+000 +1.6208667605E+002 
3262774.718 +1.1853947308E-001 +1.6959602621E+002  +7.2616690941E-002 +1.9496716895E+001  +6.0629120751E-002 -7.5403726087E+001  +3.8391994992E-001 +2.0136127209E+001 
3387919.900 +1.1909235941E-001 +1.6895299971E+002  +5.4854640971E-002 +1.7214896404E+001  +4.6512260091E-002 -5.9092141870E+001  +3.6191573818E-001 +2.6584359690E+001 
3513065.081 +1.4570463822E-001 +1.5666640194E+002  +3.5709078722E-002 +1.0603421868E+002  +2.6492471788E-002 -5.3708627541E+000  +4.5837437660E-001 +1.4226418872E+002 
3638210.263 +1.4824123921E-001 +1.4893530970E+002  +4.4013724425E-002 +1.1200076085E+002  +5.0816729713E-002 +2.8137485706E+001  +5.1434627499E-001 +1.3693273567E+002 
3763355.444 +1.3893244568E-001 +1.5042516951E+002  +3.7787653787E-002 +1.0143671557E+002  +2.7407455450E-002 +1.6060730901E+001  +3.8785683394E-001 +1.5223364152E+002 
3888500.626 +1.4339676060E-001 +1.4754431013E+002  +3.2019364283E-002 +7.6075825565E+001  +3.6658303189E-002 +2.0908382727E+000  +3.4677903704E-001 +1.5186169974E+002 
4013645.807 +1.7099677168E-001 +1.4717564529E+002  +3.5214359649E-002 +8.8107748693E+001  +3.8680402169E-002 +1.6190090473E+001  +4.6280717991E-001 +1.4115558875E+002 
4138790.989 +1.6779729379E-001 +1.5381736635E+002  +4.7656366583E-002 +8.1807970213E+001  +5.2417393909E-002 +3.4268233141E+000  +4.7910328142E-001 +1.1228991997E+002 
4263936.170 +1.9758884740E-001 +1.4386831571E+002  +6.3433072920E-002 +1.3182715337E+002  +6.9061052570E-002 +5.8989809683E+001  +1.0341612836E+000 +1.4113193223E+002 
4389081.352 +1.7267281288E-001 +1.3803830360E+002  +1.2411700823E-001 +8.2235588898E+001  +1.0010661878E-001 +2.2573942791E+001  +1.2034016190E+000 +9.9029554832E+001 
4514226.533 +2.0673334234E-001 +1.3989634583E+002  +1.2458827565E-001 +1.0521949464E+002  +1.2314939687E-001 +4.7794215899E+001  +1.3919452737E+000 +1.0813413254E+002 
4639371.715 +2.9663766026E-001 +1.3217077926E+002  +9.0927922177E-002 +1.3248149247E+002  +1.0439759794E-001 +6.7328398518E+001  +8.7488157928E-001 +1.2396787258E+002 
4764516.896 +2.4986158933E-001 +1.2781530586E+002  +1.4721524149E-001 +1.4506058384E+002  +1.3942113531E-001 +8.5654018015E+001  +1.9280592848E+000 +1.4112724804E+002 
4889662.078 +4.1885901762E-001 +1.2302958117E+002  +5.0550939340E-001 +3.0846871364E+000  +5.0556379328E-001 -4.6620589041E+001  +4.3356320639E+000 -5.8430358858E+001 
5014807.259 +4.0343877426E-001 +1.3707437930E+002  +2.3044059983E-001 +1.3881354750E+002  +2.4387617024E-001 +1.0675018110E+002  +2.5222562395E+000 +9.9981612580E+001 
5139952.441 +3.9541801352E-001 +1.1704524642E+002  +4.4556989576E-001 +5.8147475331E+001  +4.2095484912E-001 -1.0872080643E+000  +3.4739705755E+000 +1.4120584026E+001 
5265097.622 +3.9505824622E-001 +1.2419780777E+002  +2.2267811177E-001 +1.0489263473E+002  +2.3284817675E-001 +6.9643921195E+001  +2.4061123374E+000 +8.5105888971E+001 
5390242.804 +3.6975204576E-001 +1.2818794494E+002  +1.5961711192E-001 +9.4424401146E+001  +1.3344597127E-001 +5.9392256965E+001  +1.4480314796E+000 +8.4248484025E+001 
5515387.985 +3.9006092886E-001 +1.2683891707E+002  +1.8093645789E-001 +9.2624779170E+001  +1.8629834054E-001 +5.9895251756E+001  +1.9864451577E+000 +8.3238574186E+001 
5640533.166 +4.7527245300E-001 +1.2335505688E+002  +1.9273784547E-001 +1.1136151835E+002  +1.5929879187E-001 +6.4111973711E+001  +1.7202580451E+000 +9.5255902836E+001 
5765678.348 +4.0678626242E-001 +1.2237857408E+002  +1.3472607833E-001 +9.4019564202E+001  +1.3937744485E-001 +6.0333969733E+001  +1.6015863623E+000 +1.0100051199E+002 
5890823.529 +5.4393723421E-001 +1.2370709865E+002  +1.5458687206E-001 +7.4561141017E+001  +1.9425182162E-001 +4.8301251457E+001  +1.8044046549E+000 +5.7110590690E+001 
6015968.711 +5.5168739633E-001 +1.1776108782E+002  +1.6111538978E-001 +7.0539423068E+001  +1.5524166065E-001 +4.5562406452E+001  +1.4492349305E+000 +5.3917757374E+001 
6141113.892 +5.6634771395E-001 +9.8902717325E+001  +2.0763488255E-001 +3.5877641907E+001  +2.4156385881E-001 +1.8236190541E+001  +1.6995077206E+000 +2.6697520719E+001 
6266259.074 +7.3267455854E-001 +1.0450678404E+002  +2.0690938995E-001 +6.3821411258E+001  +2.0554417235E-001 +3.8047775538E+001  +1.9110332325E+000 +4.5836033813E+001 
6391404.255 +9.1143461188E-001 +1.0059733241E+002  +2.3116732446E-001 +5.4889553345E+001  +2.0716650967E-001 +3.9213703022E+001  +1.7619750723E+000 +3.5654891788E+001 
6516549.437 +9.6388384363E-001 +8.6381028416E+001  +1.9354288790E-001 +3.3038567155E+001  +1.7495501586E-001 +2.1528300303E+001  +1.1415093954E+000 +2.2763699474E+001 
6641694.618 +1.3134875227E+000 +7.0756780027E+001  +2.1450079278E-001 +3.5748964399E+001  +2.2822582856E-001 +1.9135716624E+001  +1.1430358591E+000 +1.7980965485E+001 
6766839.800 +1.5058877163E+000 +3.5601528384E+001  +2.7473747823E-001 +1.1324465879E+001  +2.8325698107E-001 +3.8454905121E+000  +1.3568536730E+000 +1.5359921719E+001 
6891984.981 +1.8647418797E+000 +3.0203525633E+001  +2.7483286176E-001 +1.0302558467E+001  +2.4513568992E-001 +3.4688637302E+000  +1.2711336036E+000 -9.6385769667E+000 
7017130.163 +1.6019595493E+000 +2.0429627356E+001  +2.0120714306E-001 +5.5514128761E-001  +1.8206886168E-001 -3.1074378867E+000  +1.0276547354E+000 -7.9780843750E+000 
7142275.344 +1.3790946709E+000 +4.6236807600E+000  +1.7361869261E-001 -5.1907628139E+000  +1.7597522412E-001 -5.0138241375E+000  +1.1640924886E+000 -1.1318504256E+001 
7267420.526 +1.0887566684E+000 -3.6337817708E+000  +1.3930639158E-001 +9.4542666068E-001  +1.3252965738E-001 -4.8127278322E+000  +1.3009010433E+000 -4.9193262695E+000 
7392565.707 +1.2086564899E+000 +4.1785823271E+000  +1.1719777681E-001 +5.5367952036E+000  +1.1474227657E-001 +6.1944476910E+000  +1.2950686230E+000 -4.5662954793E-001 
7517710.889 +9.9219188954E-001 -4.9533304894E+000  +1.1342340494E-001 +3.5865933759E+000  +1.0662065918E-001 +6.8406716867E+000  +1.0972051304E+000 -9.8416672031E+000 
7642856.070 +9.4777184688E-001 -2.8309871859E+000  +1.0454088755E-001 -7.1985789112E-001  +1.1651607044E-001 +5.6016456518E+000  +9.9128532166E-001 -6.3682477176E+000 
7768001.252 +8.7029136902E-001 +9.9472606854E+000  +9.2006585256E-002 +6.2718052308E-001  +8.9009143185E-002 +9.0475926911E+000  +8.9182039544E-001 -8.0804834389E+000 
7893146.433 +7.8552830802E-001 +8.5688262802E+000  +9.4281875967E-002 +9.6511303985E-001  +9.2281086355E-002 +8.7383832350E+000  +7.6276141751E-001 -2.5296057122E+000 
8018291.615 +7.5034401058E-001 +2.2068219503E+000  +8.6900957390E-002 +2.8515423899E+000  +9.9903089273E-002 +5.8688650086E+000  +7.5861036109E-001 +5.1344754012E+000 
8143436.796 +6.9010296818E-001 +7.8474776674E+000  +8.9083148071E-002 -4.4998131128E-001  +9.5585195918E-002 +7.0519085335E+000  +7.5513518232E-001 +1.9897898016E+000 
8268581.977 +6.6983997232E-001 +7.2002652542E+000  +8.7959665951E-002 -2.5582971759E+000  +8.6472347197E-002 +6.6607333064E+000  +6.7643292520E-001 +3.3594671126E+000 
8393727.159 +6.3390543058E-001 +6.3359861328E+000  +8.6757321198E-002 +5.0586746770E-002  +8.5685116026E-002 +1.1493386807E+001  +6.3883603027E-001 +5.9203743413E+000 
8518872.340 +6.5988925035E-001 +8.3888816660E+000  +8.8978891513E-002 -2.4681205377E+000  +8.4261224739E-002 +6.5965799094E+000  +5.7680138212E-001 -1.0514325561E+000 
8644017.522 +5.5251559652E-001 +1.3493264903E+001  +8.1405542975E-002 -6.4326078176E+000  +7.3850602322E-002 +9.4411251941E+000  +5.7583590204E-001 +4.6495242717E+000 
8769162.703 +5.0702935252E-001 +6.5175104805E+000  +8.1614446388E-002 -4.2261339979E+000  +7.9760836407E-002 +1.0128704500E+001  +5.8680128265E-001 +2.1669071307E+000 
8894307.885 +5.5556944783E-001 +1.0813497807E+001  +8.1922236793E-002 +1.5740911330E-001  +8.5063257974E-002 +8.4107278700E+000  +5.8308315885E-001 -3.1951550584E+000 
9019453.066 +4.8771641247E-001 +1.6519603864E+001  +8.2130422738E-002 -5.0314805934E+000  +8.3104167280E-002 +8.8817609422E+000  +5.6202346122E-001 +1.6654102279E+000 
9144598.248 +5.4381628199E-001 +2.6059447008E+000  +8.3788893814E-002 -3.0808557668E+000  +8.2284679437E-002 +1.4236504263E+001  +5.4678277221E-001 -4.1473985158E+000 
9269743.429 +4.3522315642E-001 +2.5675680476E+000  +7.9118017652E-002 -5.3766662769E+000  +8.2092376063E-002 +1.2360744406E+001  +4.9535599276E-001 +6.0665202582E+000 
9394888.611 +4.6927720784E-001 +6.7036776451E+000  +7.8212051980E-002 -4.3936174057E+000  +8.2282670672E-002 +1.0358124428E+001  +4.6329725140E-001 +2.7014449912E+000 
9520033.792 +4.8848380300E-001 +3.9054972094E+000  +8.2286100013E-002 -4.3074171717E+000  +8.0543604191E-002 +1.1164294999E+001  +4.7236868606E-001 -1.8537221937E-001 
9645178.974 +4.5848402715E-001 +3.9899523688E+000  +8.1541545791E-002 -4.5325329609E+000  +8.0862669558E-002 +1.2761236916E+001  +4.8139178209E-001 -1.1379802336E+001 
9770324.155 +5.0477194502E-001 +6.3137518523E+000  +8.6359241336E-002 -4.4591249693E+000  +8.3262666410E-002 +1.0092626938E+001  +4.9820520349E-001 -6.1579140652E+000 
9895469.337 +4.9319836761E-001 +1.1629336780E-001  +8.4708802625E-002 -4.4177342622E+000  +8.3773167757E-002 +1.2904953116E+001  +4.9505195290E-001 -3.6238554529E+000 
10020614.518 +4.4339631924E-001 +7.1104006795E-001  +8.0987354248E-002 -4.4065415147E+000  +8.0081641886E-002 +1.3116545778E+001  +5.0434467900E-001 -1.1134155218E+000 
10145759.700 +4.7338176221E-001 +8.0184742810E+000  +8.1917757249E-002 -2.3638810854E+000  +8.1259577642E-002 +9.9604428537E+000  +4.7889365148E-001 -3.7265108686E+000 
10270904.881 +4.6194818596E-001 +5.8247064900E+000  +8.3242821532E-002 -3.9424153535E+000  +8.2511871262E-002 +1.2776931634E+001  +4.8478489877E-001 -1.6501512938E+000 
10396050.063 +4.8811685211E-001 +8.5357155075E+000  +8.0026302018E-002 -1.6744396145E+000  +8.2321547625E-002 +1.3506552083E+001  +5.1329458474E-001 +8.1121044211E-001 
10521195.244 +4.9760927561E-001 +7.4398850060E+000  +8.0421301243E-002 -1.0122018105E+000  +8.5681872523E-002 +1.4660436066E+001  +4.8802345507E-001 +8.2992185017E-001 
10646340.426 +4.8883826200E-001 +9.5028607722E+000  +8.2874902351E-002 -2.0312089360E+000  +8.3205681583E-002 +1.1867981248E+001  +5.0436589159E-001 -6.1186882461E-001 
10771485.607 +5.0603191138E-001 +8.4473068720E+000  +8.3663483300E-002 -9.8776145516E-001  +8.1941367324E-002 +1.1727327442E+001  +4.9016223263E-001 +5.6956382705E+000 
10896630.788 +5.0695899503E-001 +1.1563953868E+001  +8.6937060588E-002 -4.3529714233E-001  +8.4957351779E-002 +1.2238674694E+001  +5.2424801073E-001 +3.5491540839E+000 
11021775.970 +4.9776720199E-001 +7.0352757025E+000  +8.4914962278E-002 -2.2113249702E+000  +8.4733262346E-002 +1.2744095870E+001  +5.2933200994E-001 +2.8682570329E+000 
11146921.151 +5.4930967976E-001 +8.6755559764E+000  +8.5837086837E-002 -4.5967479687E-001  +8.8124638708E-002 +1.2378643519E+001  +5.1288657000E-001 +4.2870486376E+000 
11272066.333 +5.1949408273E-001 +9.7165941717E+000  +8.5732398100E-002 -1.2106913623E-001  +8.5510449701E-002 +1.3990045741E+001  +5.5287817557E-001 +3.0804159215E+000 
11397211.514 +5.2657885074E-001 +9.1129509994E+000  +8.6632296042E-002 -6.0487308702E-001  +8.6322413263E-002 +1.2049902398E+001  +5.5194500428E-001 +6.9075572539E+000 
11522356.696 +5.3273177716E-001 +7.5437483917E+000  +8.9926422974E-002 -6.4643142492E-001  +8.7967610476E-002 +1.3300565046E+001  +5.7562398905E-001 +1.4604180613E+000 
11647501.877 +5.5493248513E-001 +7.1591443306E+000  +9.0180669203E-002 +5.2262493500E-001  +8.9746194491E-002 +1.0894350059E+001  +5.6014871684E-001 +2.9940230880E+000 
11772647.059 +5.4149412942E-001 +8.4329048049E+000  +9.0048412813E-002 +1.4776994293E+000  +9.0676655734E-002 +1.0707382172E+001  +5.6146328539E-001 +3.5155091625E+000 
11897792.240 +5.8947030286E-001 +5.2351449295E+000  +9.1956964971E-002 +1.0229128249E+000  +9.1712491884E-002 +1.2598699647E+001  +5.7270506313E-001 +2.1712859364E+000 
12022937.422 +5.8411544059E-001 +7.0657754471E+000  +9.2471442817E-002 +1.0421376290E+000  +9.1848376507E-002 +1.0347985944E+001  +5.7350755261E-001 +1.8957102999E+000 
12148082.603 +5.8763578300E-001 +7.8766372095E+000  +9.3027626606E-002 +1.4736593814E+000  +9.0833386175E-002 +1.1383766044E+001  +6.0267852505E-001 +1.1475032475E+000 
12273227.785 +6.1558496393E-001 +6.5645319419E+000  +9.5641690007E-002 +1.7954676143E+000  +9.2532277589E-002 +1.0502223908E+001  +6.0584198424E-001 +1.2717726040E+000 
12398372.966 +6.3358343375E-001 +6.4016709566E+000  +9.5603345085E-002 +1.9012281502E+000  +9.4481668068E-002 +9.9187585486E+000  +6.1547268873E-001 +3.0515013262E+000 
12523518.148 +6.4152112066E-001 +4.3685493574E+000  +9.6321117988E-002 +1.4455996606E+000  +9.4027333445E-002 +9.7232778657E+000  +6.6129283606E-001 +1.0161388316E+000 
12648663.329 +6.6081663659E-001 +4.8999381217E+000  +9.8243927448E-002 +2.3189738531E+000  +9.6696195829E-002 +8.5994437421E+000  +6.7730422539E-001 -3.6351649878E-002 
12773808.511 +6.5197523068E-001 +3.3820168894E+000  +9.8519488314E-002 +2.3215280156E+000  +9.7670184390E-002 +8.1331752878E+000  +6.6142250298E-001 -1.4720452517E+000 
12898953.692 +6.7272584212E-001 +2.7746608473E+000  +9.8941798766E-002 +1.9732128690E+000  +9.7354385287E-002 +7.5947147222E+000  +6.7329351788E-001 +1.5367392575E+000 
13024098.874 +7.2112129211E-001 +1.4356350976E+000  +1.0084633900E-001 +3.3298952906E+000  +9.8805867765E-002 +7.9610728261E+000  +6.9792415564E-001 -1.7738752583E+000 
13149244.055 +7.2410780371E-001 +9.1704300725E-001  +1.0081652749E-001 +3.3621442878E+000  +1.0177696712E-001 +7.4299683330E+000  +6.9641624604E-001 -1.3511819321E+000 
13274389.237 +7.2130666386E-001 +4.1582533318E-001  +1.0197148086E-001 +2.4741531559E+000  +1.0226709332E-001 +6.0789959460E+000  +7.5204795291E-001 -2.3563854299E+000 
13399534.418 +7.2727733226E-001 -3.7034739141E-001  +1.0181526252E-001 +2.1388224852E+000  +1.0292374176E-001 +6.0388079016E+000  +7.2541186501E-001 -2.0505773012E+000 
13524679.599 +7.4546243593E-001 -3.4085009102E-001  +1.0563474452E-001 +1.7796075246E+000  +1.0241554975E-001 +5.3525439599E+000  +7.7300696848E-001 -2.2753259379E+000 
13649824.781 +7.6980566324E-001 -2.4299080503E+000  +1.0539932736E-001 +2.7694316646E+000  +1.0348768048E-001 +5.1335887021E+000  +7.8501401944E-001 -1.2017212403E+000 
13774969.962 +8.1678391463E-001 -3.6737394176E+000  +1.0658057753E-001 +2.1614732951E+000  +1.0490735143E-001 +5.2733821541E+000  +7.9694515023E-001 -3.0015627788E+000 
13900115.144 +8.0371542774E-001 -2.2686012042E+000  +1.0687028380E-001 +2.3317487293E+000  +1.0499073387E-001 +5.1106903042E+000  +8.2104523982E-001 -4.7060283536E+000 
14025260.325 +8.2284914564E-001 -3.7793949702E+000  +1.0774560530E-001 +3.2465526452E+000  +1.0633923248E-001 +3.5807330872E+000  +8.3549008545E-001 -2.9102913741E+000 
14150405.507 +8.5060653111E-001 -3.9905225024E+000  +1.0865388504E-001 +1.8922741388E+000  +1.0608439215E-001 +3.2007249263E+000  +8.5409009251E-001 -4.5872036055E+000 
14275550.688 +8.5905023022E-001 -5.7173377071E+000  +1.0995360121E-001 +1.3931836123E+000  +1.0621028414E-001 +3.5773615527E+000  +8.5952898992E-001 -4.8525976499E+000 
14400695.870 +8.6961396738E-001 -5.7503743748E+000  +1.0987513797E-001 +1.9406508039E+000  +1.0779595870E-001 +2.4555002729E+000  +8.6841958595E-001 -4.1882679034E+000 
