!  2-Port S-parameters saved by WinCal
! VAR MeasName=S-Parameters (CALIBRATED_DATA) read from VNA (P5004A)
! VAR MeasDate=29/08/2024 11:50:58
! VAR NAME=S2_r9c4_RESET2_9k-100M_1
! VAR FILENAME=S2_r9c4_RESET2_9k-100M_1.S2P
! VAR DATE=29/08/2024 11:50:58
! VAR PHYS_PORTS=1,2
! VAR ObjTypeName=DATASET
! VAR IndexType=Frequency
!
# Hz S MA R 50
9000.000 +8.4575676242E-002 -1.6640814070E+002  +7.8677442709E-003 +5.8493184860E+001  +6.5114375736E-003 -1.5938629670E+002  +2.6862292835E-001 -1.4952322049E+002 
134145.181 +1.1139999699E-001 +1.7003399228E+002  +3.0303221762E-004 -1.7961692776E+002  +4.2072692431E-004 -1.4349392576E+002  +2.3945300100E-001 -1.7086750248E+002 
259290.363 +1.1144145711E-001 +1.7032536017E+002  +8.3024780419E-005 -7.0938595479E+000  +8.0263955649E-004 -1.4934588745E+002  +2.4698670093E-001 -1.6937476637E+002 
384435.544 +1.1405233849E-001 +1.7002883427E+002  +4.0365682475E-004 +1.4798780628E+002  +3.4339675007E-004 +1.5938961662E+002  +2.5092926852E-001 -1.6805823503E+002 
509580.726 +1.1347664302E-001 +1.7085112648E+002  +4.8120676815E-004 -1.1102824842E+002  +1.8349717320E-003 +1.7740842891E+002  +2.3513012434E-001 -1.6593595751E+002 
634725.907 +1.1896803349E-001 +1.7406988976E+002  +1.0245833234E-003 -1.5604095383E+002  +2.1576953377E-004 -1.1169612909E+000  +2.5550019377E-001 -1.6517924492E+002 
759871.089 +1.1966756639E-001 +1.7118201884E+002  +5.3526424288E-004 -9.6478329974E+001  +1.3530985506E-004 -1.6626011690E+002  +2.5400951910E-001 -1.6726165134E+002 
885016.270 +1.2063376662E-001 +1.6850935509E+002  +2.8219033562E-004 -4.8524148845E+001  +3.6200565048E-005 +1.6219625592E+002  +2.4940033376E-001 -1.6831777543E+002 
1010161.452 +1.1648988223E-001 +1.6942368516E+002  +9.2992086139E-004 +6.1207696100E+001  +8.6650815438E-004 +1.5788102623E+002  +2.0461520444E-001 -1.6800714990E+002 
1135306.633 +1.1708798292E-001 +1.6810085469E+002  +4.0515722697E-003 +5.5227254491E+001  +1.9799267874E-003 -1.6593881874E+002  +1.7329903048E-001 -1.6955476928E+002 
1260451.815 +1.1895136622E-001 +1.7103123576E+002  +3.8022565659E-003 -1.3745650706E+002  +1.7600477065E-003 +3.6426517481E+001  +2.0779571171E-001 -1.3934224960E+002 
1385596.996 +1.2623775645E-001 +1.7220343108E+002  +6.0524731165E-004 -1.5689057684E+001  +1.7920929314E-003 -2.7349955293E+001  +2.7122927884E-001 -1.5445958879E+002 
1510742.178 +1.2726325751E-001 +1.7142909385E+002  +8.2053145147E-004 +1.3926950583E+002  +9.9696084262E-004 -1.4645318913E+002  +2.5188620073E-001 -1.5645345167E+002 
1635887.359 +1.2937033666E-001 +1.7037082462E+002  +1.5519277229E-003 +1.2247862283E+001  +8.9584223417E-004 -1.4765798568E+002  +2.3509531819E-001 -1.5543852992E+002 
1761032.541 +1.2802414612E-001 +1.6826077781E+002  +3.5588264498E-004 +1.1501096236E+002  +1.2269267756E-003 -1.0960506313E+002  +2.1308206730E-001 -1.5945805120E+002 
1886177.722 +1.2406131664E-001 +1.6774471409E+002  +1.0675559265E-003 +5.2736862879E+001  +1.1166838439E-003 +1.1469403372E+001  +2.2688356748E-001 -1.5974507515E+002 
2011322.904 +1.2270115853E-001 +1.6951870078E+002  +1.0132265084E-003 -7.5643199714E+001  +1.0025186050E-003 -1.1764215530E+002  +2.1849368661E-001 -1.5710672408E+002 
2136468.085 +1.2662690546E-001 +1.6809649550E+002  +2.2151420171E-003 +6.9994834916E+001  +8.3855216056E-004 -1.5462426930E+002  +2.1890682213E-001 -1.7062239424E+002 
2261613.267 +1.3329846017E-001 +1.6443799407E+002  +2.9177498806E-003 +1.0472143576E+002  +5.8617975781E-003 -1.5421603402E+001  +1.7258823016E-001 -1.5894546927E+002 
2386758.448 +1.3772227611E-001 +1.6479731773E+002  +3.3647837978E-003 +2.2701202046E+001  +4.0493926787E-003 +9.2881721377E+001  +2.0296550602E-001 +1.5049315475E+002 
2511903.630 +1.3336208180E-001 +1.6116238066E+002  +1.1905944401E-003 +1.1986222017E+002  +2.7579828559E-003 -3.1368551137E+001  +2.4194995749E-001 +1.7119448494E+002 
2637048.811 +1.1748666289E-001 +1.5630406044E+002  +4.0457650359E-003 -1.3709545110E+001  +1.3854725183E-002 -4.6307727492E+001  +1.8211479490E-001 +1.4195646614E+002 
2762193.992 +1.2803342539E-001 +1.6720311358E+002  +2.0918152100E-003 -3.4562672516E+001  +1.2588256856E-002 +1.7838098674E+002  +3.6123977458E-001 -9.5107461954E+001 
2887339.174 +1.0276702945E-001 +1.6057232620E+002  +6.1765173206E-003 +8.8700204635E+001  +8.6258905221E-003 -1.2164696610E+002  +1.3717627566E-001 -8.4338867488E+001 
3012484.355 +1.2216997240E-001 +1.6691156331E+002  +1.3672675772E-002 -9.9891892326E+001  +3.1100144396E-003 -1.0526250537E+002  +2.6972072711E-001 -8.6938142007E+001 
3137629.537 +9.4890466685E-002 +1.6651263551E+002  +9.7806472127E-003 +6.1359354181E+001  +3.2735902248E-003 -2.7329185028E+001  +3.1580637413E-001 -9.9398466568E+001 
3262774.718 +1.2121274687E-001 +1.6442019394E+002  +2.3008319777E-003 -9.7566773838E+000  +5.3644791936E-003 -9.2792853151E+001  +2.6704133232E-001 -9.6440723613E+001 
3387919.900 +1.3269558572E-001 +1.5355182485E+002  +1.1926161856E-002 +6.9908737952E+001  +1.1505834499E-002 -7.3707182649E+001  +1.7243039888E-001 -6.9604617868E+001 
3513065.081 +1.5300729403E-001 +1.5601108929E+002  +2.4937865572E-003 +3.5220251379E+001  +6.0449221747E-003 -3.7121128063E+000  +6.1982676162E-001 +1.3821855571E+002 
3638210.263 +1.8706809891E-001 +1.4235177324E+002  +2.0605027950E-002 +1.2297685765E+002  +2.5710382205E-002 +6.8840810992E+000  +2.8974670853E-001 +8.1529382840E+001 
3763355.444 +2.0193845967E-001 +1.5127238906E+002  +3.3838899090E-003 -1.0987748691E+002  +4.5903557357E-003 +3.2537313058E+001  +5.4259327154E-001 +1.5829088078E+002 
3888500.626 +1.5792719602E-001 +1.4984885710E+002  +2.1411831233E-002 +9.6458451311E+001  +1.7836439842E-002 -4.1961092746E+001  +4.5698303934E-001 +1.0121012128E+002 
4013645.807 +1.7307438853E-001 +1.4263382191E+002  +2.1267022559E-002 +4.9443395205E+001  +6.2977819985E-003 +3.9087184880E+001  +1.4590693409E-001 +4.6421366365E+001 
4138790.989 +1.9882720080E-001 +1.4451546218E+002  +2.9174564821E-003 +1.2829966267E+002  +3.9494762655E-003 +1.1327838461E+002  +4.3905626027E-001 +1.5357556739E+002 
4263936.170 +2.1044461978E-001 +1.4170456433E+002  +7.5307010576E-003 +1.6264729419E+002  +8.5190751417E-003 +3.2620875276E+001  +5.1204410530E-001 +1.3532708726E+002 
4389081.352 +2.0717317081E-001 +1.3871747034E+002  +2.6918952551E-002 +6.6301832823E+001  +2.6355439470E-002 +4.2276656662E+001  +5.3030333873E-001 +6.2290675226E+001 
4514226.533 +2.0232858163E-001 +1.4108681384E+002  +1.1993704581E-002 +3.7971761289E+001  +1.1831277180E-002 +9.3480078194E+001  +7.0565471252E-001 +1.0165991035E+002 
4639371.715 +2.8700861281E-001 +1.2795981468E+002  +4.0617836954E-002 +1.2719021075E+002  +6.4888459240E-002 +1.3008811375E+002  +1.8761603952E+000 +1.2508197288E+002 
4764516.896 +3.6120628265E-001 +1.3441294462E+002  +2.6440812487E-002 -7.3611559837E+001  +3.2591067228E-002 -1.3507260390E+002  +2.5355918059E+000 -1.2750882926E+002 
4889662.078 +4.7755306022E-001 +1.3850272131E+002  +1.7708004955E-001 -1.5662017937E+002  +3.2595399615E-001 -1.1740953196E+002  +1.0512788909E+001 -1.7375747928E+002 
5014807.259 +3.9130579347E-001 +1.2982684646E+002  +1.9518440510E-001 +1.7057539883E+002  +1.6605823961E-001 +6.0508799746E+001  +1.3981037386E+001 +1.2130457714E+002 
5139952.441 +3.4815189896E-001 +1.3268501360E+002  +8.7723029667E-002 +1.1370806562E+002  +1.3875441647E-001 +9.4969522847E+001  +6.7838525899E+000 +1.0640271421E+002 
5265097.622 +3.9725902438E-001 +1.2310698651E+002  +7.6351824600E-002 +1.1688119251E+002  +5.4097833636E-002 +4.0123336571E+001  +1.5404959130E+000 +8.5309230633E+001 
5390242.804 +4.0294835687E-001 +1.2946376415E+002  +1.2035079610E-001 +1.5320652605E+002  +1.3350678018E-001 +1.2363187142E+002  +8.5674012488E+000 +1.2237210277E+002 
5515387.985 +4.1264047477E-001 +1.3659231919E+002  +4.9514993115E-002 +1.1544114355E+002  +6.0409660370E-003 +1.1524366539E+002  +2.0351969408E+000 +1.2700539360E+002 
5640533.166 +4.5748804966E-001 +1.2724550486E+002  +5.3407875672E-002 +8.7147914577E+001  +2.5895553501E-002 +4.2589513492E+001  +2.4665447321E+000 +7.9639278932E+001 
5765678.348 +5.6590066090E-001 +1.1378174153E+002  +8.9582809290E-002 +9.4795366156E+001  +7.6316724211E-002 +5.9612858492E+001  +2.9425691561E+000 +8.7404781135E+001 
5890823.529 +6.6979845448E-001 +1.1202836916E+002  +7.6045400926E-002 +6.4798367382E+001  +5.8627257536E-002 +7.3713080668E+001  +3.3127656880E+000 +5.7099058122E+001 
6015968.711 +6.3584234871E-001 +1.1640222835E+002  +4.0910823130E-002 +2.8041754672E+001  +4.3665712722E-002 -1.9100362038E+000  +2.0611119132E+000 +1.1549077691E+001 
6141113.892 +6.9648350546E-001 +1.0215671397E+002  +4.2693359361E-002 +8.6596200917E+001  +3.5392291943E-002 +4.0039703235E+001  +1.8154955491E+000 +3.0606931046E+001 
6266259.074 +8.0332573248E-001 +1.0862253113E+002  +4.1663766087E-002 +4.5860515414E+001  +2.5365101908E-002 +4.7592286144E+001  +1.2634008662E+000 +3.0218837845E+001 
6391404.255 +9.3156166284E-001 +9.2250638002E+001  +4.8487024539E-002 +2.7773866833E+001  +2.5710285765E-002 +2.6205829429E+001  +1.2381632212E+000 +2.0760242322E+001 
6516549.437 +9.7034761885E-001 +7.5182247266E+001  +5.2026873655E-002 +2.8605785909E+001  +4.4117010972E-002 -1.7258274085E+000  +1.5345066202E+000 +7.8626626555E+000 
6641694.618 +1.5591292942E+000 +7.7967981642E+001  +7.3953669042E-002 +2.8481449359E+001  +6.7428193517E-002 +2.2636452370E+001  +1.4231835229E+000 +2.5332113450E-001 
6766839.800 +1.1914643781E+000 +6.2431353760E+001  +2.8529169707E-002 +1.2390096839E+001  +4.4535011108E-002 -7.3803495657E+000  +1.2637208434E+000 +5.8246633213E-001 
6891984.981 +1.7314741627E+000 +3.9041710124E+000  +5.4681565698E-002 +8.1965160627E+000  +6.5026573625E-002 -2.4936495435E+001  +1.4094281654E+000 -5.0293701782E+000 
7017130.163 +1.7922776974E+000 +2.8628542023E+001  +4.1027607492E-002 -1.2899834106E+001  +3.8463988485E-002 +1.6380926217E+001  +1.3556260165E+000 -1.3614796609E+001 
7142275.344 +1.2904807342E+000 +1.6763670915E+001  +2.7595982862E-002 -7.4494025565E+000  +4.4024649783E-002 +3.2624670080E+000  +1.1212135730E+000 -1.0522683688E+000 
7267420.526 +1.5546925256E+000 -2.3620754011E+000  +3.5388188036E-002 +2.7905212665E+000  +4.1105775726E-002 +4.6609117245E+000  +1.3497003499E+000 -8.7505963457E+000 
7392565.707 +1.3354097621E+000 +2.8261675515E+000  +1.4829150470E-002 +2.7787336190E+001  +2.5026515446E-002 +1.3076462063E+001  +1.2037590636E+000 -1.1444093350E+001 
7517710.889 +1.1759440221E+000 -1.3138513610E+000  +2.8922917690E-002 +8.2925579416E+000  +3.6331151062E-002 +7.8833117283E+000  +1.2906409042E+000 -1.8079516357E+000 
7642856.070 +1.0618130870E+000 +3.5245863969E+000  +2.2136425721E-002 +2.1271115677E+001  +1.9728176986E-002 +1.4050179773E+001  +1.0892453094E+000 -4.2376821337E-001 
7768001.252 +8.0853591930E-001 -7.4436965606E-001  +2.0438937553E-002 -1.1662178596E+001  +1.3675529297E-002 -6.8749351102E+000  +8.7040531462E-001 -5.9632653086E+000 
7893146.433 +8.7831014324E-001 +7.9656507173E+000  +1.3776163431E-002 -4.9664966666E+000  +1.8781171941E-002 +1.9034409162E+001  +8.0956150712E-001 +4.0616537276E-001 
8018291.615 +7.1856549595E-001 +2.8920358289E-002  +1.3153224770E-002 -1.1640933305E+001  +1.7922109899E-002 +9.6657387304E+000  +8.2659712522E-001 +7.3245292185E+000 
8143436.796 +7.6081006855E-001 +8.4776595517E+000  +1.3809629446E-002 +3.9798185358E-001  +1.6720260207E-002 +1.9151754008E+000  +8.0383358719E-001 -4.7136797963E+000 
8268581.977 +6.9981357837E-001 +1.1106364597E+001  +1.7658078408E-002 -9.8956560249E+000  +2.0499192222E-002 +7.7403186959E+000  +7.2223664901E-001 -1.0916492771E+000 
8393727.159 +6.4475462023E-001 +7.1103486320E+000  +2.4080475162E-002 -4.4609469099E+000  +1.6518206853E-002 +7.1745314159E+000  +7.2413834905E-001 +6.0375197991E-001 
8518872.340 +6.6058581004E-001 +1.6722947108E+001  +1.5405946516E-002 -7.6554373701E+000  +1.5118978724E-002 +3.0143162414E+001  +7.3144656295E-001 -1.5684339460E-001 
8644017.522 +6.6194695070E-001 +3.4233345434E+000  +2.1931326368E-002 +1.6512152009E+000  +1.8672041068E-002 -6.6476788005E-001  +6.0075973896E-001 -2.3179409891E+000 
8769162.703 +6.4721818504E-001 +5.8798293790E+000  +1.8296042092E-002 +3.0349786320E-001  +1.3433088011E-002 +2.1329563798E+000  +6.3752164473E-001 -1.2131178327E+000 
8894307.885 +5.7644946466E-001 +5.4637718292E+000  +1.2831325056E-002 +9.6063404378E+000  +1.4525248652E-002 -1.4240478687E+000  +6.1443141753E-001 -5.3289171062E+000 
9019453.066 +5.6216641234E-001 +5.0759766911E+000  +1.6247065824E-002 +3.2120378542E+000  +1.7494461570E-002 +9.6880336877E+000  +6.6737004346E-001 -2.6094856615E+000 
9144598.248 +5.4891618455E-001 +4.3509360781E+000  +1.4898613573E-002 +2.4771666360E-001  +1.5974809487E-002 +5.3056956956E+000  +5.8368654168E-001 +5.5558081036E+000 
9269743.429 +5.3921474636E-001 +5.5442857088E+000  +1.7171735965E-002 +9.9980369056E-001  +1.8556361583E-002 +8.6462854733E+000  +5.7211696262E-001 -9.7012442521E-001 
9394888.611 +5.4476582781E-001 +3.3714030934E+000  +1.3470667008E-002 +1.5062426473E+001  +1.8114276208E-002 +1.8602185280E+001  +5.9287989323E-001 -1.9828709920E+000 
9520033.792 +5.0154045389E-001 +4.8788449714E+000  +2.0005148770E-002 -1.0678277138E+001  +1.5020590095E-002 +2.1563322460E+001  +5.7210203118E-001 -2.5515968319E+000 
9645178.974 +5.2067118070E-001 +6.3453427689E+000  +1.6775410803E-002 -4.8576617726E+000  +1.5049564511E-002 +1.0620724501E+001  +5.8834688900E-001 -3.2394683754E+000 
9770324.155 +5.5660686531E-001 +4.0178734434E-001  +1.4417969567E-002 -9.4610359658E+000  +1.7959932168E-002 +2.0413135100E+001  +5.8489757744E-001 -4.8520227178E+000 
9895469.337 +5.1315388361E-001 +1.7324988025E+000  +1.5698540915E-002 -5.9526307757E+000  +1.6714101375E-002 +1.8114851980E+001  +6.0440683996E-001 -5.9870494407E+000 
10020614.518 +5.0975355580E-001 +1.9648915940E+000  +1.7112510032E-002 -2.2341963569E+000  +1.5512184569E-002 +1.0994648433E+001  +5.5943858527E-001 -5.3367339388E+000 
10145759.700 +5.2970713872E-001 +3.6720367601E+000  +2.0531908034E-002 -6.0088986421E-001  +1.7935821299E-002 +1.6021056710E+001  +5.7320158917E-001 -1.2851079979E+000 
10270904.881 +5.3449112896E-001 +1.6842619524E+000  +1.5442093137E-002 +9.1487206431E+000  +1.6911164587E-002 +2.2535446352E+001  +5.6341950250E-001 -7.1436825494E+000 
10396050.063 +5.2012439605E-001 +6.1822375199E+000  +1.5185394897E-002 +2.7704686680E-001  +1.6660796990E-002 +1.8819132953E+001  +5.7476649797E-001 -3.4289503322E-001 
10521195.244 +5.5653394259E-001 +8.4252906355E+000  +1.5877550483E-002 +7.5996218743E+000  +1.4769926349E-002 +1.0308342833E+001  +5.4945768557E-001 +6.4729550869E-001 
10646340.426 +5.3826476514E-001 +9.4845418219E+000  +1.7267747236E-002 +2.9896927440E-001  +1.6919109894E-002 +2.6198969878E+001  +5.8199420874E-001 -2.0866382839E+000 
10771485.607 +5.5537746641E-001 +5.3140801662E+000  +1.7796852894E-002 +2.5908410185E+000  +1.4751242319E-002 +1.3764589679E+001  +5.6837560321E-001 +1.6301473761E+000 
10896630.788 +5.6712905123E-001 +9.3164462060E+000  +1.6867561912E-002 +3.3092560202E+000  +1.7481739593E-002 +2.4029982229E+001  +6.2603271533E-001 +1.2551502504E+000 
11021775.970 +5.3267971205E-001 +8.7181983204E+000  +1.8661708561E-002 -2.1036985340E+000  +1.8236811337E-002 +1.2537962374E+001  +5.8751801619E-001 +2.0322346117E+000 
11146921.151 +5.9105996954E-001 +7.8692687783E+000  +1.7364684308E-002 +6.0346932569E+000  +1.7418169380E-002 +1.6080529159E+001  +6.2423238809E-001 +5.2991636133E+000 
11272066.333 +5.7290860199E-001 +6.6166600924E+000  +1.9562951969E-002 +4.1564537625E+000  +1.8750366167E-002 +1.7276817826E+001  +6.3590846372E-001 +2.2525175118E+000 
11397211.514 +6.1534412312E-001 +1.1559883520E+001  +1.8439013424E-002 +6.3382407165E+000  +1.8138577630E-002 +1.3020711701E+001  +6.0712471391E-001 +2.8025256382E+000 
11522356.696 +6.1989535833E-001 +6.7164251931E+000  +1.9003064081E-002 +2.6241406911E+000  +1.8247209516E-002 +1.6829011578E+001  +6.3777634931E-001 +1.9495529090E+000 
11647501.877 +6.5323928853E-001 +4.0841615195E+000  +1.8723915818E-002 +3.6789968528E+000  +1.8539720946E-002 +1.7910238871E+001  +6.4109443084E-001 +2.9414891106E-001 
11772647.059 +6.4928468010E-001 +5.2905193022E+000  +1.8551365444E-002 +5.6397311146E-001  +1.8686991821E-002 +1.1535577800E+001  +6.5487146949E-001 +1.5970951377E+000 
11897792.240 +6.5888466512E-001 +3.5101684519E+000  +1.9830400851E-002 +7.2408325640E+000  +1.9266766115E-002 +1.1825637469E+001  +6.6097806876E-001 +3.0404244297E+000 
12022937.422 +6.5001930267E-001 +4.8413288476E+000  +2.0556092215E-002 +1.0538040934E+001  +1.8811958566E-002 +1.2265412206E+001  +6.8120977441E-001 +3.6495123789E+000 
12148082.603 +6.8098436700E-001 +5.5990110553E+000  +2.0888681624E-002 +1.4517208822E+000  +1.8613070625E-002 +1.6073751894E+001  +6.8296155388E-001 +9.1450813081E-001 
12273227.785 +7.1509494981E-001 +4.1246227209E+000  +1.9840727302E-002 +4.7548306302E+000  +2.0910889348E-002 +1.7288612474E+001  +6.8200752728E-001 +3.9839062787E-001 
12398372.966 +7.0534361876E-001 +3.1371691063E+000  +2.1651819135E-002 +6.5769472042E+000  +2.0371001865E-002 +1.3618125514E+001  +7.1889953101E-001 -1.4328315125E-001 
12523518.148 +7.0662085518E-001 +3.2205205285E+000  +2.2513407431E-002 +5.5159213657E+000  +1.9475350036E-002 +1.4295477902E+001  +7.2503299248E-001 -7.1876227910E-001 
12648663.329 +7.3697097697E-001 +1.5109923118E+000  +1.8926394428E-002 +1.0485330669E+001  +1.9809801552E-002 +1.6285371028E+001  +7.3653396072E-001 -1.2745675342E+000 
12773808.511 +7.4811975843E-001 +1.1989224775E+000  +2.0250819340E-002 +5.2146740669E+000  +2.2858171197E-002 +1.4223410310E+001  +7.4192193716E-001 -1.8472359071E+000 
12898953.692 +7.4106766585E-001 +3.0321638751E+000  +2.0140917890E-002 +1.0519116512E+001  +2.1105353693E-002 +8.0867841566E+000  +7.6637698315E-001 -1.6715235783E+000 
13024098.874 +7.9061176796E-001 -7.4404344063E-001  +2.0020502882E-002 +1.5499603753E+000  +2.1571092237E-002 +1.0198547254E+001  +7.9296940568E-001 -8.6068448181E-001 
13149244.055 +7.9890826755E-001 +6.3708261916E-001  +1.9263961346E-002 +9.0496952248E+000  +2.1356467083E-002 +8.0650464076E+000  +7.9707960486E-001 -2.4167725298E+000 
13274389.237 +7.8211212796E-001 +9.1716080191E-001  +2.0766060036E-002 +7.8881944114E+000  +2.1817960381E-002 +6.7589480504E+000  +8.0773472187E-001 -9.7991729464E-001 
13399534.418 +8.4125886652E-001 +6.9546102964E-001  +2.1951431712E-002 +9.9638531900E+000  +2.0645468896E-002 +1.3041155411E+001  +8.2345415890E-001 -1.5958244295E+000 
13524679.599 +8.2493907190E-001 -2.5074117912E+000  +2.2653647982E-002 +8.8577729181E+000  +2.3489215980E-002 +8.2324333498E+000  +8.5662337071E-001 -3.7528205672E+000 
13649824.781 +8.4847745066E-001 -3.0892512824E+000  +2.2480848518E-002 +3.1170936639E+000  +2.2215688218E-002 +7.3569113332E+000  +8.5596494534E-001 -5.1794819748E+000 
13774969.962 +8.8103921054E-001 -3.2236246742E+000  +2.2894664345E-002 +7.0488471153E+000  +2.0647127773E-002 +5.4630375986E+000  +8.7717889386E-001 -3.5291703681E+000 
13900115.144 +8.9090281039E-001 -3.2270921484E+000  +2.2210112593E-002 +7.6537933145E+000  +2.2425593570E-002 +2.6139044470E+000  +8.8527892671E-001 -3.2822994279E+000 
14025260.325 +9.0623149052E-001 -3.3751105996E+000  +2.1949303305E-002 +7.8989225239E+000  +2.1988972648E-002 +8.1884479397E+000  +9.0395961256E-001 -3.8853987434E+000 
14150405.507 +9.1864922882E-001 -4.1377786738E+000  +2.1604605381E-002 +8.0285095477E+000  +2.1883571860E-002 +2.9533313311E+000  +9.3427272484E-001 -3.7604931276E+000 
14275550.688 +9.3753734610E-001 -5.1491584726E+000  +2.2797373729E-002 +3.5209606283E+000  +2.2366565347E-002 +7.4225275347E+000  +9.5609638762E-001 -3.9109591028E+000 
14400695.870 +9.4765628365E-001 -6.2473076510E+000  +2.2086581078E-002 +2.9578283747E+000  +2.3469341782E-002 +4.9981263854E+000  +9.5973038733E-001 -5.5142536127E+000 
