!  2-Port S-parameters saved by WinCal
! VAR MeasName=S-Parameters (CALIBRATED_DATA) read from VNA (P5004A)
! VAR MeasDate=29/08/2024 10:38:25
! VAR NAME=S2_r9c2_RESET2_9k-100M_3
! VAR FILENAME=S2_r9c2_RESET2_9k-100M_3.S2P
! VAR DATE=29/08/2024 10:38:25
! VAR PHYS_PORTS=1,2
! VAR ObjTypeName=DATASET
! VAR IndexType=Frequency
!
# Hz S MA R 50
9000.000 +7.9781530315E-002 -1.7269812000E+002  +6.1678272646E-003 +2.1189591657E+001  +6.4420394622E-003 -6.7587579918E+001  +2.8023888060E-001 -1.4979719449E+002 
134145.181 +1.1223394478E-001 +1.6987847878E+002  +6.5369493606E-004 +4.4019760323E+001  +3.3822134188E-004 +5.8885797000E+001  +2.4219957842E-001 -1.7133256552E+002 
259290.363 +1.1142658138E-001 +1.7023466598E+002  +8.7644462090E-004 -8.5885587293E+001  +3.2992540172E-004 +8.2463991293E+001  +2.4905768063E-001 -1.6889195437E+002 
384435.544 +1.1371479244E-001 +1.7041741561E+002  +3.9878538694E-004 -1.3959075599E+002  +3.7068506460E-004 -1.4181433537E+001  +2.5494326362E-001 -1.6959933448E+002 
509580.726 +1.1489005097E-001 +1.7057526784E+002  +5.7508098617E-005 -7.8253137950E+000  +4.4082054986E-004 +1.0501584985E+002  +2.5070411593E-001 -1.6800323673E+002 
634725.907 +1.1520871327E-001 +1.7191436988E+002  +9.7872325057E-004 -7.8361344848E+001  +1.8820344947E-003 +1.1939372875E+002  +2.5427818138E-001 -1.6565548828E+002 
759871.089 +1.2036660566E-001 +1.7070302753E+002  +8.8319923732E-004 -1.2180421373E+002  +3.9981037013E-004 +1.3824608260E+002  +2.4386432930E-001 -1.6698691016E+002 
885016.270 +1.2099081990E-001 +1.6919656195E+002  +1.1962529542E-003 -4.3530201805E+001  +4.3763358665E-004 +1.2486625229E+002  +2.4057098432E-001 -1.6717478556E+002 
1010161.452 +1.1750128165E-001 +1.6976808851E+002  +1.3006373044E-003 -5.1559946438E+001  +2.7876752030E-003 +1.6477885627E+002  +2.1643842833E-001 -1.6362061884E+002 
1135306.633 +1.1828437718E-001 +1.6815923187E+002  +1.8500592661E-003 -2.6760995216E+000  +2.1883696082E-003 -1.5211166372E+002  +2.1283222348E-001 -1.7337813797E+002 
1260451.815 +1.1819884658E-001 +1.7001273555E+002  +1.9162092721E-003 -2.3705352434E+001  +2.3179983281E-003 +1.5920607446E+002  +2.2365055161E-001 -1.6236311848E+002 
1385596.996 +1.2622895446E-001 +1.7236205256E+002  +1.2938402178E-003 -1.3845707948E+002  +2.2817013402E-003 +1.1603084810E+002  +2.5592357021E-001 -1.5709507180E+002 
1510742.178 +1.2689395350E-001 +1.7074703242E+002  +2.2000540433E-003 -9.1284415665E+001  +1.4846300570E-003 +1.7216401704E+002  +2.7409914713E-001 -1.5798132316E+002 
1635887.359 +1.2981454471E-001 +1.7028332923E+002  +4.1479198407E-004 -3.4681192041E+001  +6.5079961359E-004 -8.7927133573E+001  +2.4608930928E-001 -1.5929704835E+002 
1761032.541 +1.2969447757E-001 +1.6903142199E+002  +1.7295792660E-003 +1.1607991243E+001  +9.0011109396E-004 -1.3755249738E+002  +2.2631445753E-001 -1.6094593410E+002 
1886177.722 +1.2833735796E-001 +1.6977996608E+002  +5.0318361796E-003 +3.6055292172E+001  +5.6892019681E-003 -1.3007249949E+002  +2.2995804134E-001 -1.5379477682E+002 
2011322.904 +1.3222746011E-001 +1.6755806479E+002  +5.3157677522E-003 +6.0021899983E+001  +6.8272050465E-003 -3.3770658882E+001  +2.0368288749E-001 -1.6548008104E+002 
2136468.085 +1.2741204779E-001 +1.6973520645E+002  +7.0949781516E-003 +4.7259859411E+001  +1.1997324157E-002 -7.3726178479E+001  +2.1245430945E-001 -1.5898287423E+002 
2261613.267 +1.3814182382E-001 +1.6613846782E+002  +1.0790426887E-002 +8.2169309969E+001  +1.1500455429E-002 -4.2189944273E+001  +1.7966822376E-001 -1.7466560921E+002 
2386758.448 +1.3556710402E-001 +1.6147061493E+002  +1.5883576847E-002 +9.4647965179E+001  +1.4273794664E-002 -2.0835664173E+001  +2.1189122135E-001 -1.7676238544E+002 
2511903.630 +1.2298716729E-001 +1.6297835641E+002  +3.0091652452E-002 +7.7443936513E+001  +3.0441138597E-002 -3.4906419974E+001  +1.5539064430E-001 -1.7944026317E+002 
2637048.811 +1.3251116821E-001 +1.6452665284E+002  +2.7057924553E-002 +8.8717570350E+001  +2.5238510075E-002 -1.6622545490E+001  +2.2950228603E-001 +1.7180128039E+002 
2762193.992 +1.0843919841E-001 +1.7966630825E+002  +7.2318983284E-002 +4.6333163781E+001  +7.2755146828E-002 -5.0440672676E+001  +1.7489427528E-001 +1.3574537250E+002 
2887339.174 +1.3069088595E-001 +1.6889399943E+002  +3.4128316833E-002 -1.5303316205E+001  +3.5757639633E-002 -1.2825407795E+002  +2.5361891864E-001 -1.2438734030E+002 
3012484.355 +1.3535430114E-001 +1.7731172914E+002  +3.2261686167E-002 -1.1566734861E+001  +2.8185649691E-002 -1.0200662241E+002  +1.9582042131E-001 -1.4458119170E+002 
3137629.537 +1.3682034810E-001 +1.7643226059E+002  +5.6650041334E-002 +4.0125374958E+000  +5.4010845129E-002 -9.0271556184E+001  +4.1468114963E-002 -8.5815037267E+001 
3262774.718 +1.2668843810E-001 +1.6484335015E+002  +4.7462673976E-002 +3.0472876498E+001  +4.8121124576E-002 -5.9476286999E+001  +1.2984725449E-001 -1.5526710267E+002 
3387919.900 +1.4712693812E-001 +1.6716204196E+002  +5.6606432637E-002 +3.8546548173E+001  +5.7784110742E-002 -5.2645801418E+001  +2.9065482110E-002 +7.9887358861E+001 
3513065.081 +1.4437939714E-001 +1.5187410633E+002  +7.9155846438E-002 +7.7623041056E+001  +8.4353000570E-002 -1.0338473541E+001  +2.2732692902E-001 +1.0616105336E+002 
3638210.263 +1.5771270570E-001 +1.5322311750E+002  +6.9998685656E-002 +1.0893139801E+002  +7.9510186782E-002 +3.1989421425E+001  +5.0492925519E-001 +1.3684718746E+002 
3763355.444 +1.8196288479E-001 +1.4799970969E+002  +5.6635829909E-002 +1.0301276432E+002  +5.3534461273E-002 +2.7640709145E+001  +2.8845731277E-001 +1.5608751793E+002 
3888500.626 +1.7592015990E-001 +1.4615642876E+002  +8.6578946710E-002 +9.0425554496E+001  +8.6452735087E-002 +2.1977848629E+001  +3.2989608818E-001 +1.2364791995E+002 
4013645.807 +1.9527923868E-001 +1.5253173190E+002  +8.4637916219E-002 +9.2560178356E+001  +7.2787489479E-002 +2.9175743702E+001  +3.7916222207E-001 +1.1198254092E+002 
4138790.989 +1.9138494366E-001 +1.4965713780E+002  +6.9749215900E-002 +7.4174216609E+001  +6.5033449062E-002 +6.4611974111E+000  +1.5059488397E-001 +1.4195148414E+002 
4263936.170 +1.7813873419E-001 +1.3766143061E+002  +1.0091561203E-001 +9.0160536009E+001  +9.5732179615E-002 +2.2024974883E+001  +3.3477351407E-001 +1.3309645409E+002 
4389081.352 +1.7159918689E-001 +1.4225534825E+002  +1.1370995965E-001 +7.7442774710E+001  +1.1231398282E-001 +1.7327344059E+001  +3.8964614464E-001 +1.1287078089E+002 
4514226.533 +2.1343085170E-001 +1.3658714579E+002  +4.5402517783E-001 +9.2396824066E+001  +4.5666812339E-001 +3.9021519418E+001  +2.9578856931E+000 +8.5943935835E+001 
4639371.715 +2.5171048099E-001 +1.2171574677E+002  +1.6184011324E-001 +9.8814495326E+001  +1.5650255209E-001 +4.1050337993E+001  +4.4646772396E-001 +1.3043885581E+002 
4764516.896 +4.0033026433E-001 +1.1162064244E+002  +3.7095763229E-001 +1.4149453514E+002  +3.6694355672E-001 +8.5734750070E+001  +1.1449270247E+000 +1.4158554270E+002 
4889662.078 +3.3747552778E-001 +1.4629566134E+002  +5.2895034449E-001 -1.4551936310E+002  +5.0825727007E-001 +1.6269970815E+002  +2.8597276541E+000 -1.7038106621E+002 
5014807.259 +1.7149834197E-001 +1.1528451771E+002  +4.0693939992E-001 +5.6202168602E+001  +3.8973091478E-001 +1.0576385505E+001  +1.5771602189E+000 +5.8891603002E+001 
5139952.441 +3.9673040286E-001 +1.3050244782E+002  +2.5054145352E-001 +1.1109194376E+002  +2.3436169753E-001 +6.9515656211E+001  +8.5545328131E-001 +1.0225316964E+002 
5265097.622 +3.5521679652E-001 +1.3584700559E+002  +2.0241168852E-001 +1.0003939022E+002  +2.0496889588E-001 +6.2097148963E+001  +8.6421210751E-001 +9.9493033261E+001 
5390242.804 +4.1828913361E-001 +1.3099998641E+002  +2.0364280618E-001 +1.1607740569E+002  +2.0580759160E-001 +7.4613301770E+001  +8.3469533310E-001 +1.2017452110E+002 
5515387.985 +3.4299686535E-001 +1.3835526362E+002  +1.7864432717E-001 +9.9466937759E+001  +1.6977480475E-001 +6.6466903847E+001  +1.0803348670E+000 +1.2323369830E+002 
5640533.166 +4.1720176359E-001 +1.3043806791E+002  +2.1776753596E-001 +1.0758040013E+002  +2.1155558941E-001 +7.4860524449E+001  +1.1029068440E+000 +1.1943857049E+002 
5765678.348 +4.1801646068E-001 +1.2649791519E+002  +2.4711075883E-001 +1.0362725203E+002  +2.5613346986E-001 +7.3031812012E+001  +1.3937861528E+000 +1.1964461534E+002 
5890823.529 +4.7211503874E-001 +1.2631820652E+002  +3.3358090286E-001 +7.7933993589E+001  +3.1697536838E-001 +5.6632668675E+001  +1.5738879644E+000 +7.6033571913E+001 
6015968.711 +5.6762189437E-001 +1.1447591882E+002  +3.1764199468E-001 +7.0869419214E+001  +3.1077019303E-001 +5.2310447810E+001  +9.6494867140E-001 +7.2050314496E+001 
6141113.892 +5.4354906153E-001 +1.0226819813E+002  +5.0553897227E-001 +4.9750819940E+001  +4.7762203965E-001 +2.9027431517E+001  +1.8439257200E+000 +4.1425717393E+001 
6266259.074 +5.0709463092E-001 +1.0569794933E+002  +3.6099995545E-001 +4.6578822452E+001  +3.4396370362E-001 +3.1408386247E+001  +1.1917486056E+000 +5.7384537537E+001 
6391404.255 +6.3861453871E-001 +8.2987582831E+001  +5.1563283899E-001 +4.1858866172E+001  +4.7990596567E-001 +2.4261958695E+001  +1.5523037654E+000 +4.4241845804E+001 
6516549.437 +1.0228052335E+000 +7.5930769563E+001  +6.4192945275E-001 +3.8310505240E+001  +6.2100681544E-001 +2.5797512455E+001  +1.7380789933E+000 +2.6230200719E+001 
6641694.618 +7.1489689333E-001 +5.8871084007E+001  +4.7288191277E-001 +1.4053928116E+001  +4.3882428513E-001 +3.8062980496E+000  +1.0996841820E+000 +7.1030665259E+000 
6766839.800 +1.1700857762E+000 +5.0009312329E+001  +5.1787334557E-001 +2.2725503677E+001  +5.0700848158E-001 +1.4317039779E+001  +8.4193162602E-001 +2.5477846653E+001 
6891984.981 +1.2404305317E+000 +3.0465110095E+001  +4.9967595051E-001 +1.0921327653E+001  +4.8864335431E-001 +3.4947344337E+000  +8.4549240157E-001 +5.3170900290E+000 
7017130.163 +1.0174498773E+000 +2.2562120854E+001  +4.2270984785E-001 +3.0663749334E+000  +4.2094936295E-001 -5.9075092551E-001  +9.3593853575E-001 +6.3816150948E-001 
7142275.344 +1.0233374282E+000 +5.1520342437E+000  +3.9271426603E-001 -1.8296463907E+000  +3.8907643183E-001 -4.4241118796E+000  +8.6328003284E-001 -4.4487834069E+000 
7267420.526 +9.9737377991E-001 +6.3668609604E+000  +3.1927481876E-001 +1.7574297640E+000  +3.3681741995E-001 +5.8407084468E-001  +9.2623962959E-001 -7.0820129253E+000 
7392565.707 +7.7319656372E-001 +1.0494500804E-001  +2.8237422650E-001 +2.1125662211E+000  +2.9159638308E-001 +3.4693844367E+000  +1.0208504866E+000 -5.6180259900E+000 
7517710.889 +9.0867995070E-001 -2.4184375790E-001  +2.7950692316E-001 +2.5702469002E+000  +2.7349582732E-001 +5.2639673231E+000  +8.7293104887E-001 -9.4632496510E+000 
7642856.070 +6.8273249529E-001 -4.2190511073E-001  +2.5860189305E-001 -1.2188933660E-001  +2.6022177477E-001 +4.4505734591E+000  +7.8365826915E-001 -1.0311296656E+000 
7768001.252 +6.0971635537E-001 +2.1082230744E+000  +2.4674842847E-001 +6.0780911755E-001  +2.4620363952E-001 +3.9700963989E+000  +6.9326613922E-001 +2.0145458172E+000 
7893146.433 +6.2298142726E-001 +1.7076778510E+001  +2.3784632947E-001 -7.5825315287E-002  +2.3922951373E-001 +6.8646249595E+000  +6.4360969646E-001 -1.4648654000E+000 
8018291.615 +5.0237175689E-001 +1.6108259491E+001  +2.2266551984E-001 -3.3827025066E+000  +2.2111134684E-001 +6.4958060333E+000  +5.6165797380E-001 +8.6270207104E-001 
8143436.796 +5.6465758048E-001 +1.4063490672E+001  +2.2019085294E-001 -2.7508799499E+000  +2.1850882564E-001 +6.6300546826E+000  +4.9003957706E-001 +5.8027978924E+000 
8268581.977 +4.8348389033E-001 +1.1505246923E+001  +2.1412236555E-001 -4.8339893202E+000  +2.2328124084E-001 +5.9674162372E+000  +4.6148780389E-001 +8.3565924718E+000 
8393727.159 +4.5957306902E-001 +1.3675213459E+001  +2.2096331625E-001 -2.3825845730E+000  +2.1356692585E-001 +8.7326183075E+000  +5.2664615402E-001 +4.3298285834E+000 
8518872.340 +4.5540483130E-001 +1.5328530333E+001  +2.0993626697E-001 -3.4530770586E+000  +2.1160806272E-001 +7.5002500327E+000  +4.8408213873E-001 +1.2152860985E+001 
8644017.522 +4.2178085487E-001 +1.5103673105E+001  +2.0620080364E-001 -3.9147022738E+000  +2.0882149204E-001 +8.3058577209E+000  +4.6587428213E-001 +1.0874109998E+001 
8769162.703 +4.1801398638E-001 +1.0243642981E+001  +2.1093489384E-001 -4.9491574939E+000  +2.0971995474E-001 +9.4828554485E+000  +4.6628965299E-001 +5.9460367873E+000 
8894307.885 +3.9783546111E-001 +2.2815058216E+001  +2.0760700457E-001 -4.5638972324E+000  +2.0267908282E-001 +9.8754827835E+000  +4.1723759440E-001 +6.3257493849E+000 
9019453.066 +3.9241421108E-001 +1.6591444981E+001  +2.0285090382E-001 -4.5587382361E+000  +2.0355627657E-001 +9.6485522626E+000  +3.8085091899E-001 +6.9215979491E+000 
9144598.248 +3.5157746317E-001 +1.1577023285E+001  +2.0370475401E-001 -4.9072267857E+000  +2.0653830998E-001 +8.4632896425E+000  +4.0784187559E-001 +8.3112145633E+000 
9269743.429 +3.5249278387E-001 +6.5479655853E+000  +2.0824705276E-001 -4.9190106269E+000  +2.0491907599E-001 +8.9626592004E+000  +4.0493489653E-001 +2.1479118988E+000 
9394888.611 +3.2863446464E-001 +1.6360446083E+001  +2.0238365209E-001 -5.2831189862E+000  +1.9920529596E-001 +1.1201704015E+001  +3.9725409931E-001 +6.3197659553E+000 
9520033.792 +3.1524245888E-001 +1.6394277339E+001  +1.9832985078E-001 -4.9966693825E+000  +1.9865512603E-001 +1.0779842897E+001  +3.6070877050E-001 +1.5631214576E+000 
9645178.974 +3.0621776803E-001 +1.8724730533E+001  +2.0247354337E-001 -4.7162890407E+000  +2.0398876005E-001 +1.1236646656E+001  +3.6228143047E-001 -4.4392332776E+000 
9770324.155 +2.8970555720E-001 +1.0928600914E+001  +2.0577485368E-001 -6.1625253632E+000  +2.0279720613E-001 +1.1361145677E+001  +3.8077565536E-001 -1.5926575281E+000 
9895469.337 +3.2823301406E-001 +7.0303323493E+000  +2.1064741141E-001 -4.3204208528E+000  +2.0329639657E-001 +1.1387288447E+001  +3.4689398555E-001 -6.1396751464E+000 
10020614.518 +3.5772592358E-001 +1.1380818045E+001  +2.0825638982E-001 -3.8535269417E+000  +2.0758517221E-001 +1.2002147633E+001  +3.7796371122E-001 -3.1613122879E+000 
10145759.700 +3.1359400352E-001 +1.0098877911E+001  +2.0997774263E-001 -4.5899386709E+000  +2.0540903275E-001 +1.1006508062E+001  +4.1125358622E-001 +7.1733597493E-001 
10270904.881 +3.0170870551E-001 +1.0947674181E+001  +2.0877224677E-001 -4.6627969056E+000  +2.0879162468E-001 +1.2415778401E+001  +3.7445693000E-001 +2.3744068207E+000 
10396050.063 +3.5157211843E-001 +7.5643762758E+000  +2.1127615092E-001 -3.3069370518E+000  +2.0646094253E-001 +1.1833508996E+001  +3.4018852793E-001 +4.9154302939E+000 
10521195.244 +3.3545999487E-001 +1.6466408213E+001  +2.0819411749E-001 -4.4898863277E+000  +2.0872154572E-001 +1.1062179363E+001  +3.1781961720E-001 -4.3172147367E-001 
10646340.426 +3.4418561808E-001 +1.1479957815E+001  +2.0971511169E-001 -2.9622166120E+000  +2.0707456936E-001 +1.1387304620E+001  +3.7962102457E-001 +1.1009625799E+001 
10771485.607 +3.6310477915E-001 +1.7570009605E+001  +2.1199848694E-001 -2.8476235003E+000  +2.1064699416E-001 +1.2427588754E+001  +4.0320393510E-001 +6.3722613963E+000 
10896630.788 +3.7237384771E-001 +1.4641886260E+001  +2.1307836638E-001 -2.9299115095E+000  +2.1280913753E-001 +1.2009992578E+001  +3.9645359120E-001 +9.2856401153E+000 
11021775.970 +3.8146681325E-001 +1.1922476223E+001  +2.1808576682E-001 -2.2288237939E+000  +2.1115595000E-001 +1.1919139910E+001  +4.0101404311E-001 +4.3274651575E+000 
11146921.151 +3.8542775652E-001 +1.6866405702E+001  +2.1618129346E-001 -1.9769327556E+000  +2.1372933671E-001 +1.1707030352E+001  +3.8789980365E-001 +7.9392669415E+000 
11272066.333 +3.9353445832E-001 +1.4655813132E+001  +2.1735604887E-001 -1.6753816478E+000  +2.1807494661E-001 +1.1755524263E+001  +4.0594975808E-001 +6.2117671561E+000 
11397211.514 +3.7392803633E-001 +1.2288483615E+001  +2.2098524745E-001 -1.4138455577E+000  +2.1992932456E-001 +1.1183866025E+001  +4.0266044437E-001 +7.3108708650E+000 
11522356.696 +3.9649461583E-001 +1.2010828255E+001  +2.2018189854E-001 -1.4814677973E+000  +2.2140128012E-001 +1.0798365325E+001  +4.2050679099E-001 +6.5981672388E+000 
11647501.877 +4.3596822771E-001 +1.2230264258E+001  +2.2653094408E-001 -1.0035280481E-001  +2.2355142518E-001 +1.0909240370E+001  +4.3178936030E-001 +7.5615569789E+000 
11772647.059 +4.1337368073E-001 +1.2174421635E+001  +2.2742517643E-001 -5.0004120330E-001  +2.2495646203E-001 +1.1002467284E+001  +4.4974851245E-001 +5.6766803184E+000 
11897792.240 +4.4164767068E-001 +5.7402675400E+000  +2.3024203703E-001 -2.8305405383E-001  +2.2828938037E-001 +1.0291983431E+001  +4.2472546190E-001 +5.5590756928E+000 
12022937.422 +4.2524698729E-001 +1.0549126661E+001  +2.3462115650E-001 +2.6725241847E-001  +2.3050576842E-001 +1.0199548946E+001  +4.3835236494E-001 +3.4532356688E+000 
12148082.603 +4.6915693303E-001 +8.0119288704E+000  +2.3433137841E-001 +2.4055920718E-001  +2.3287814307E-001 +9.6765758019E+000  +4.4763864601E-001 +5.3299940131E+000 
12273227.785 +4.4831535722E-001 +8.2971224347E+000  +2.3557951659E-001 +6.1635342746E-001  +2.3366749859E-001 +9.1712539848E+000  +4.6060604803E-001 +5.6460450571E+000 
12398372.966 +4.4159375814E-001 +7.3914921158E+000  +2.3880166613E-001 +2.3477247060E-001  +2.3875282930E-001 +8.3566551666E+000  +4.5894017797E-001 +4.3836709089E+000 
12523518.148 +4.9213163225E-001 +6.8568601471E+000  +2.4311487601E-001 +1.2903328537E+000  +2.3932362886E-001 +8.5792209421E+000  +5.0520742055E-001 +1.5132444074E+000 
12648663.329 +5.0918495061E-001 +1.4362646128E+000  +2.4694660738E-001 +1.2305983063E+000  +2.4463296274E-001 +7.8387645638E+000  +4.7828288713E-001 +6.3468064268E-001 
12773808.511 +5.1055707303E-001 +5.1727085220E+000  +2.4785809978E-001 +1.7959261529E+000  +2.4439296722E-001 +7.8128943290E+000  +5.3535453542E-001 +2.3367318901E+000 
12898953.692 +5.3923967851E-001 +3.2413982425E+000  +2.5245640902E-001 +2.2303692809E+000  +2.4855868054E-001 +7.5875908488E+000  +5.5317129132E-001 +2.0228142683E+000 
13024098.874 +5.3337853946E-001 +2.2878305224E+000  +2.5271524940E-001 +1.6801578258E+000  +2.4891170382E-001 +6.4574047178E+000  +5.3867728843E-001 +3.0502907775E+000 
13149244.055 +5.4977753947E-001 +2.4485714336E+000  +2.5663263394E-001 +1.6993603574E+000  +2.5361021963E-001 +6.0793862035E+000  +5.4701260176E-001 -2.6755790682E+000 
13274389.237 +5.6848916846E-001 +1.4815859744E+000  +2.5720565324E-001 +2.1157713947E+000  +2.5481826569E-001 +5.8818990892E+000  +5.8054475600E-001 +1.6506713038E+000 
13399534.418 +5.5545561850E-001 +1.5351715486E+000  +2.6017903218E-001 +1.5351976603E+000  +2.5751459174E-001 +4.7699930524E+000  +5.7488433415E-001 -1.7504185714E+000 
13524679.599 +5.9726963245E-001 -3.6483416475E+000  +2.6467010987E-001 +1.7601306194E+000  +2.6063748285E-001 +4.7413012376E+000  +5.9650918304E-001 -3.7314860163E+000 
13649824.781 +6.0053531717E-001 -2.0131756157E+000  +2.6747998578E-001 +1.9929602092E+000  +2.6277294941E-001 +4.3145208541E+000  +6.2102028909E-001 -3.8103618583E+000 
13774969.962 +5.9104296722E-001 -3.6423076387E+000  +2.6798115259E-001 +1.2603322901E+000  +2.6458258278E-001 +3.6539412646E+000  +6.2392158728E-001 -3.6408861524E+000 
13900115.144 +6.2499952240E-001 -2.5236734059E+000  +2.6750317935E-001 +1.3316677939E+000  +2.6461378674E-001 +3.4892285655E+000  +6.4986296486E-001 -2.6452002496E+000 
14025260.325 +6.6838703548E-001 -2.6859808212E+000  +2.6845300188E-001 +1.8960935490E+000  +2.6503157504E-001 +2.9959886494E+000  +6.4391620656E-001 -1.5491033397E+000 
14150405.507 +6.6595777946E-001 -4.0310385959E+000  +2.7235436652E-001 +1.6788973710E+000  +2.7206951000E-001 +2.6246571077E+000  +6.8334591413E-001 -4.5077223131E+000 
14275550.688 +6.8479481245E-001 -5.3315309505E+000  +2.7327808626E-001 +1.7487994934E+000  +2.6982094540E-001 +2.3317714061E+000  +7.0008288260E-001 -3.6988474361E+000 
14400695.870 +7.0875176314E-001 -6.7385224751E+000  +2.7989938546E-001 +1.4294852674E+000  +2.7438325243E-001 +1.8817899478E+000  +7.1549038513E-001 -7.5030123999E+000 
