!  2-Port S-parameters saved by WinCal
! VAR MeasName=S-Parameters (CALIBRATED_DATA) read from VNA (P5004A)
! VAR MeasDate=29/08/2024 11:27:03
! VAR NAME=S2_r9c3_SET2_9k-100M_3
! VAR FILENAME=S2_r9c3_SET2_9k-100M_3.S2P
! VAR DATE=29/08/2024 11:27:03
! VAR PHYS_PORTS=1,2
! VAR ObjTypeName=DATASET
! VAR IndexType=Frequency
!
# Hz S MA R 50
9000.000 +8.0804305877E-002 -1.6514084871E+002  +4.5251795687E-003 +1.5678909709E+002  +5.5669792090E-003 -6.5306855222E+001  +2.6238104694E-001 -1.4822359367E+002 
134145.181 +1.1078155822E-001 +1.6970786681E+002  +2.9510853865E-004 +5.0618304808E+001  +5.0364107037E-004 +1.6242273469E+002  +2.4147258655E-001 -1.6988972749E+002 
259290.363 +1.1304710493E-001 +1.6977187517E+002  +4.7223255194E-004 -7.8527459562E+001  +1.5089907426E-004 +1.7330009138E+002  +2.4564730618E-001 -1.6837183566E+002 
384435.544 +1.1441951921E-001 +1.6989759071E+002  +1.1258435303E-003 -1.3729523517E+002  +5.7661418828E-004 -1.2847592726E+002  +2.3190887130E-001 -1.6517208609E+002 
509580.726 +1.1567230293E-001 +1.7086912028E+002  +4.7968289384E-004 +6.4749237381E+001  +1.6937818862E-003 +1.6336448834E+002  +2.4408636386E-001 -1.6513294562E+002 
634725.907 +1.1669811787E-001 +1.7073224582E+002  +5.6121934389E-004 -1.2886197502E+002  +1.3220648520E-003 +1.0412515357E+002  +2.4900675601E-001 -1.6196216400E+002 
759871.089 +1.2079193667E-001 +1.7048695326E+002  +4.3036188570E-004 +6.5345576397E+001  +5.6999170050E-004 +1.7183013343E+002  +2.4611294829E-001 -1.6680559149E+002 
885016.270 +1.2012341158E-001 +1.6901677230E+002  +4.4178946551E-004 -8.2993011899E+001  +3.6453843684E-004 -1.4432865501E+002  +2.4221621643E-001 -1.6702688080E+002 
1010161.452 +1.1729505816E-001 +1.6936716582E+002  +8.1998624551E-004 -5.4410831575E+001  +6.8841045362E-004 -1.7736429001E+002  +2.2210244471E-001 -1.7027160589E+002 
1135306.633 +1.1633430580E-001 +1.6859569666E+002  +6.9154110438E-004 -1.6133616612E+002  +2.4009089000E-003 +9.0267287645E+001  +1.9013646081E-001 -1.6784885573E+002 
1260451.815 +1.2151240188E-001 +1.6960177743E+002  +1.2674512630E-003 -7.3232841292E+001  +3.9634213711E-004 +2.0504007094E+001  +2.2626731670E-001 -1.6190431694E+002 
1385596.996 +1.2123664652E-001 +1.7326951729E+002  +2.2073320797E-003 -1.1927376754E+002  +2.2188971641E-003 -3.8841282320E+001  +2.5428310238E-001 -1.4987878185E+002 
1510742.178 +1.2743631820E-001 +1.7250487311E+002  +2.2119613959E-004 -1.7913531558E+002  +1.9084688422E-003 +1.5558817365E+002  +2.6369584319E-001 -1.5848436101E+002 
1635887.359 +1.3034861625E-001 +1.7335515970E+002  +1.5851333016E-003 -2.0782435392E+001  +9.1384035937E-004 -5.1042424290E+001  +2.3517926955E-001 -1.5443596397E+002 
1761032.541 +1.2922662278E-001 +1.7021730852E+002  +7.2473406403E-004 +5.2129841199E+001  +1.1263067920E-003 -1.3620963734E+002  +2.2708132834E-001 -1.6103228909E+002 
1886177.722 +1.3006844664E-001 +1.6805424469E+002  +2.7514924980E-003 +5.5553259789E+001  +4.2010564189E-003 -8.5593979396E+001  +1.6991563018E-001 -1.5960517319E+002 
2011322.904 +1.2999523333E-001 +1.6710125560E+002  +5.0659274621E-003 +7.1553177291E+001  +3.7657328553E-003 -3.6740480494E+001  +1.8465191329E-001 -1.7927204709E+002 
2136468.085 +1.2932098915E-001 +1.6902918419E+002  +1.5441383338E-002 +4.5319456964E+001  +1.6753576233E-002 -9.4340623667E+001  +6.8845712390E-002 -1.5123017951E+002 
2261613.267 +1.3706884997E-001 +1.6762209499E+002  +5.8808240066E-003 +9.0181537888E+001  +6.5194135072E-003 -7.0852502264E+001  +2.0051485678E-001 +1.6871677016E+002 
2386758.448 +1.3682796130E-001 +1.6488381650E+002  +5.6999348269E-003 +8.9228091385E+001  +5.7296261815E-003 -3.6466650869E+001  +2.1120104771E-001 -1.7805707384E+002 
2511903.630 +1.3872725000E-001 +1.6545280397E+002  +6.5434611368E-003 +1.1016044298E+002  +1.0573007711E-002 +3.1297095872E+000  +2.6983903489E-001 +1.6990870879E+002 
2637048.811 +1.2281292873E-001 +1.5652731925E+002  +4.0372234215E-002 +1.2171383654E+002  +4.0973936669E-002 +2.3276622492E+001  +3.9770261084E-001 +1.2712125189E+002 
2762193.992 +1.3513802474E-001 +1.6360641399E+002  +7.9527924671E-002 -3.6753670530E+001  +8.8954305332E-002 -1.1891842715E+002  +7.8447092351E-001 -5.6390507696E+001 
2887339.174 +1.1346551533E-001 +1.6417398387E+002  +4.7001520995E-002 -4.1715182686E+001  +3.7493289691E-002 -1.2760884004E+002  +3.2583407969E-001 -8.9315825697E+001 
3012484.355 +1.2443384360E-001 +1.7278273224E+002  +4.5241308692E-002 -9.3303789594E+000  +5.5055674103E-002 -1.1569828948E+002  +4.6945740219E-001 -2.3583611236E+001 
3137629.537 +1.2065654651E-001 +1.7670310482E+002  +5.7437605779E-002 +1.4351010596E+001  +4.5933681086E-002 -1.0410029924E+002  +2.1046627563E-001 -6.1952651178E+000 
3262774.718 +1.3351446339E-001 +1.6907153046E+002  +3.6517889089E-002 -2.2910432361E+001  +2.3442692164E-002 -9.9334095216E+001  +2.1274514476E-001 -8.2631241176E+001 
3387919.900 +1.2336510344E-001 +1.5359931702E+002  +7.6488925752E-002 +7.4575909370E+001  +8.5256023615E-002 -1.8448410006E+001  +9.2793903026E-001 +8.8181168755E+001 
3513065.081 +1.4977030421E-001 +1.5322448552E+002  +1.8584420631E-002 +6.6835273251E+001  +2.0490555078E-002 -2.1836198612E+001  +1.5663526116E-001 +1.5555705411E+002 
3638210.263 +1.5940791811E-001 +1.4529912130E+002  +3.5158672383E-002 +1.1946307720E+002  +5.1089409582E-002 +5.7216870419E+001  +6.0910839708E-001 +1.5413482343E+002 
3763355.444 +1.6202598341E-001 +1.5058597848E+002  +4.7717697125E-002 +9.6071513088E+001  +5.8488873073E-002 +2.8260521291E+001  +6.6190165996E-001 +1.2360531119E+002 
3888500.626 +2.0410020999E-001 +1.4333435736E+002  +4.5594234348E-002 +1.0401808617E+002  +4.2762196860E-002 +9.2707365140E+000  +2.4744913042E-001 +1.1058313394E+002 
4013645.807 +1.9745850642E-001 +1.4760151902E+002  +5.6087478574E-002 +8.1585331938E+001  +4.2773485839E-002 -1.6070523723E+000  +3.1422611712E-001 +6.1843008711E+001 
4138790.989 +1.9741867123E-001 +1.5202148089E+002  +3.9356105562E-002 +9.8465123796E+001  +2.8584273431E-002 +3.2894411117E+001  +4.5517592581E-001 +1.1432004639E+002 
4263936.170 +2.0634830621E-001 +1.4069409646E+002  +4.6485946061E-002 +1.0814277948E+002  +4.1696124825E-002 +4.3128653840E+001  +4.3778901956E-001 +1.4996060636E+002 
4389081.352 +1.8599495736E-001 +1.2991062290E+002  +7.6166295538E-002 +6.3871279246E+001  +7.2027124567E-002 -1.9724596325E+000  +2.3381217988E-001 +9.3117430287E+001 
4514226.533 +2.2907986253E-001 +1.3995629108E+002  +5.5850257160E-002 +9.8620977159E+001  +7.5993187871E-002 +3.5027752983E+001  +6.4470560622E-001 +1.0035395367E+002 
4639371.715 +2.6449997989E-001 +1.3895622385E+002  +2.1633744090E-001 +1.4239149700E+002  +2.2795558716E-001 +9.4142629333E+001  +2.8031898503E+000 +1.2377372028E+002 
4764516.896 +4.7491935164E-001 +1.1351879784E+002  +5.7866964122E-001 +1.4274820087E+002  +5.8551090370E-001 +9.5978486951E+001  +3.3744394433E+000 +1.1487511762E+002 
4889662.078 +5.1536109792E-001 +1.3782012481E+002  +2.8519448711E-001 -9.6096153903E+001  +3.1058628043E-001 -1.4150638939E+002  +2.9203541752E+000 -1.6802122605E+002 
5014807.259 +6.2963212870E-001 -1.7567292476E+002  +4.5940729250E+000 -1.4421767411E+002  +4.5407926900E+000 +1.7097538586E+002  +3.8673843999E+001 +1.6349033500E+002 
5139952.441 +4.7506549729E-001 +1.3344675783E+002  +1.9812652447E-001 +1.2051419255E+002  +1.9491089358E-001 +7.2665687691E+001  +1.6401008456E+000 +7.6367169048E+001 
5265097.622 +3.8640034146E-001 +1.2754690051E+002  +1.4887298428E-001 +1.3305376629E+002  +1.6263437279E-001 +9.1265953896E+001  +1.7274025246E+000 +1.1624360569E+002 
5390242.804 +3.2925770186E-001 +1.1597570434E+002  +2.6218553878E-001 +8.3516802547E+001  +2.5830383413E-001 +5.2935411425E+001  +2.5937533871E+000 +9.0486521396E+001 
5515387.985 +4.4193269563E-001 +1.3434797639E+002  +1.1591187788E-001 +1.0912826959E+002  +1.0119896045E-001 +8.0025273690E+001  +1.2248557675E+000 +1.0655513005E+002 
5640533.166 +3.8342623630E-001 +1.3019276213E+002  +1.5773291362E-001 +9.6309399085E+001  +1.5102368786E-001 +7.2015857923E+001  +1.9685610416E+000 +9.8451377128E+001 
5765678.348 +4.4294005095E-001 +1.2386471353E+002  +1.5640237597E-001 +6.1175246028E+001  +1.6320907739E-001 +3.5994354838E+001  +1.3440420988E+000 +5.3129028056E+001 
5890823.529 +5.3852300765E-001 +1.1703521212E+002  +1.3785669480E-001 +7.7696265737E+001  +1.8163032853E-001 +5.1721839686E+001  +1.3018160220E+000 +7.3439362471E+001 
6015968.711 +6.1831606904E-001 +1.2451789709E+002  +1.6501692566E-001 +7.4030838304E+001  +1.7716623463E-001 +5.4146080603E+001  +1.7025349558E+000 +5.0725632637E+001 
6141113.892 +6.1217822813E-001 +1.1850917376E+002  +1.5503352656E-001 +6.4466198232E+001  +1.6878781045E-001 +4.3823624256E+001  +1.7870147888E+000 +4.8904231856E+001 
6266259.074 +7.3804858451E-001 +1.0407427348E+002  +1.8535812455E-001 +5.8217386568E+001  +1.5919545391E-001 +3.8905586263E+001  +1.1713066380E+000 +5.4908902590E+001 
6391404.255 +7.0968009572E-001 +7.5003856660E+001  +2.0200068529E-001 +3.2338675998E+001  +2.2561335772E-001 +1.1164382003E+001  +1.3018801082E+000 +2.6666351146E+001 
6516549.437 +8.7659591925E-001 +7.7151720495E+001  +1.8158156390E-001 +3.6925688212E+001  +2.0492257015E-001 +1.8286393807E+001  +1.0755162638E+000 +2.4347167885E+001 
6641694.618 +1.1468113867E+000 +7.4050404622E+001  +2.0836652653E-001 +2.8577398000E+001  +2.0264799177E-001 +2.0697140819E+001  +1.1265513500E+000 +2.9785497234E+000 
6766839.800 +1.7140022581E+000 +5.6271355790E+001  +2.9074559781E-001 +2.3365456316E+001  +2.5022722118E-001 +1.0898048890E+001  +1.2484871110E+000 -3.7247644573E+000 
6891984.981 +9.8535922504E-001 +4.2247074968E+001  +1.6697045551E-001 +2.3047894114E+000  +1.6784967937E-001 -2.5665492741E+000  +9.5721801456E-001 -9.6553446643E+000 
7017130.163 +1.3026234120E+000 +2.8935864716E+001  +1.8914823270E-001 +2.1563956652E+000  +1.8110506332E-001 -2.8883706733E+000  +1.1494266142E+000 -8.4308652506E+000 
7142275.344 +1.5480186352E+000 +2.6071563043E+001  +1.6855175470E-001 +3.4134612562E+000  +1.7286765104E-001 +4.1754534609E+000  +1.1884668105E+000 -1.0766009889E+001 
7267420.526 +1.4609485563E+000 +1.7942581513E+000  +1.4584634729E-001 -2.9153814733E+000  +1.5768373513E-001 -1.3179268294E+000  +1.1311625144E+000 -1.0497937627E+001 
7392565.707 +1.0763490125E+000 -4.1772518257E+000  +1.2472046158E-001 -4.0774125114E+000  +1.1869831181E-001 +3.9097175324E+000  +1.2497480256E+000 -1.0548373526E+001 
7517710.889 +1.0488291212E+000 -1.9647433317E+000  +1.0884121046E-001 +1.9025421090E+000  +1.2077778858E-001 +3.1452919979E+000  +1.0517102261E+000 -9.0523495725E+000 
7642856.070 +9.2065334166E-001 -3.4409938034E+000  +1.0454686711E-001 -6.7438311073E-001  +1.0553023846E-001 -1.3457583553E+000  +9.0998316522E-001 -6.8579367248E+000 
7768001.252 +8.5309526987E-001 -2.0618773154E+000  +1.0999290903E-001 +4.9021631860E-001  +1.0397712014E-001 +4.8317219630E+000  +8.8544406972E-001 -4.4817016527E+000 
7893146.433 +7.9424448236E-001 +4.6010245786E+000  +1.0090440283E-001 -2.5753513931E+000  +9.7145435490E-002 +4.1368299733E+000  +8.4811739795E-001 -6.9399538735E-001 
8018291.615 +7.4838748166E-001 +1.2330335944E+001  +9.2506647912E-002 -4.0885061191E-001  +9.3178500346E-002 +5.6145115447E+000  +7.0734416918E-001 -3.2399729066E+000 
8143436.796 +7.7591523644E-001 +9.4684440713E+000  +9.1208182469E-002 -1.5546261198E+000  +9.8352933585E-002 +7.2849957444E+000  +7.0576699190E-001 +2.6781857815E+000 
8268581.977 +6.6736633199E-001 +9.5611686130E+000  +8.5582960150E-002 +1.0548417041E-001  +8.7101007394E-002 +8.1173002816E+000  +7.3269191419E-001 +2.7131535995E+000 
8393727.159 +6.0540870822E-001 +1.4618973194E+001  +8.7848810808E-002 -1.7925142447E+000  +9.3052778058E-002 +1.1532134133E+001  +6.0051371601E-001 -2.8593519465E+000 
8518872.340 +5.8490258374E-001 +7.6237917461E+000  +9.0995790269E-002 -9.4530551660E-001  +8.2468836322E-002 +6.1876771350E+000  +5.8801204738E-001 +8.5404691499E+000 
8644017.522 +6.3266985676E-001 +1.4064330731E+001  +8.5056483983E-002 -4.8340792472E+000  +8.7843355277E-002 +1.2528937113E+001  +5.8554418788E-001 -1.1977129465E+000 
8769162.703 +4.8821462841E-001 +8.5743561462E+000  +8.3806351777E-002 -1.9522831464E+000  +8.2216522997E-002 +7.5994171716E+000  +5.9039616593E-001 +1.6078516923E-001 
8894307.885 +5.0387338502E-001 +1.3695734443E+001  +8.0993753366E-002 -4.5741920160E+000  +8.0121054423E-002 +9.2589505251E+000  +5.5140707919E-001 +7.2991019503E-001 
9019453.066 +4.9700867069E-001 +5.8616851928E+000  +8.3969873492E-002 -5.2177959465E+000  +8.2439002074E-002 +9.4913938719E+000  +5.1407307481E-001 +5.7984607714E+000 
9144598.248 +5.0849761880E-001 +1.3306542888E+001  +8.1980069898E-002 -2.5228325238E+000  +8.4769903648E-002 +1.3824206141E+001  +5.8206559280E-001 +7.7406402448E-001 
9269743.429 +4.6624547552E-001 +3.3130475590E+000  +8.0404322972E-002 -4.9568022562E+000  +8.7313250359E-002 +1.2291562717E+001  +5.4023868288E-001 -1.8360031277E+000 
9394888.611 +4.3626143400E-001 +1.3197947593E+001  +8.2283525089E-002 -6.3644488344E+000  +7.9501020054E-002 +8.0378078574E+000  +5.1483521977E-001 -5.2118558846E+000 
9520033.792 +4.6944655814E-001 +1.3914622902E+001  +8.1088921049E-002 -5.1674466735E+000  +7.9874492597E-002 +1.0728693710E+001  +4.9248622769E-001 +1.4323530179E-001 
9645178.974 +4.8196673925E-001 +2.8793715797E+000  +8.5350051758E-002 -4.5907298528E+000  +8.5246066684E-002 +1.1498222244E+001  +4.5762492426E-001 -3.8858042081E+000 
9770324.155 +4.2949545372E-001 +3.9302223623E+000  +8.6258543641E-002 -3.7228574857E+000  +8.1138528280E-002 +1.1031162094E+001  +5.1203387538E-001 -5.1877579508E+000 
9895469.337 +4.7957234554E-001 +9.8578145075E-001  +8.7147016378E-002 -4.1953727128E+000  +8.8127093852E-002 +1.3410602722E+001  +5.0590947506E-001 -4.9278434289E+000 
10020614.518 +4.4153217979E-001 +6.6945353219E+000  +8.4693684169E-002 -5.7958520719E+000  +8.4339567406E-002 +1.2224527994E+001  +4.7121796355E-001 -3.3585805052E+000 
10145759.700 +4.4857758424E-001 +6.6689742825E+000  +8.3448203701E-002 -4.7328663969E+000  +8.1431103149E-002 +1.3577006188E+001  +4.7676721512E-001 +4.8709323025E-001 
10270904.881 +4.9487771233E-001 +1.0182355827E+001  +8.3410307207E-002 -1.2504185708E+000  +8.4419213091E-002 +1.3158709584E+001  +4.9406116028E-001 -3.9272287407E+000 
10396050.063 +4.3888492975E-001 +1.2388290696E+001  +8.2164949421E-002 -3.9947976121E+000  +8.5555124732E-002 +1.1361871358E+001  +4.9463868409E-001 -1.1948452805E-001 
10521195.244 +4.7052005795E-001 +8.1306042903E+000  +8.8960254822E-002 -2.6522445051E+000  +8.4062967648E-002 +1.2241381123E+001  +4.5985500429E-001 +2.4652274475E+000 
10646340.426 +4.8232990708E-001 +9.2918901412E+000  +8.6250750020E-002 -2.2866068284E+000  +8.7806688518E-002 +1.3997487909E+001  +5.3288880084E-001 +3.0601420309E-001 
10771485.607 +4.9734021891E-001 +9.8480932265E+000  +8.6934989583E-002 +5.0475784419E-001  +8.5577628312E-002 +1.3774844469E+001  +4.9516112158E-001 +1.6982932891E+000 
10896630.788 +4.9074339138E-001 +9.2011223709E+000  +8.8602986978E-002 -2.1236393460E+000  +8.7566311249E-002 +1.3200095559E+001  +5.3433853593E-001 +3.1002013658E+000 
11021775.970 +5.0789142421E-001 +1.2509667611E+001  +8.8352801077E-002 -1.1901440544E+000  +8.8697877370E-002 +1.1839837010E+001  +5.0540270116E-001 +2.3549675791E+000 
11146921.151 +5.3428391821E-001 +5.9551990755E+000  +8.7993346871E-002 -1.1820069427E+000  +8.9207938472E-002 +1.2954318032E+001  +5.1445394215E-001 +4.6315173989E+000 
11272066.333 +5.3361996179E-001 +1.1721387632E+001  +9.0066683105E-002 -9.0728521245E-001  +8.9787009974E-002 +1.1878539807E+001  +5.4003886595E-001 +4.8827055713E+000 
11397211.514 +5.1151111112E-001 +1.1174660459E+001  +8.9814705590E-002 +3.0654297412E-002  +9.1542738516E-002 +1.1156434255E+001  +5.2882421055E-001 +1.3694185743E+000 
11522356.696 +5.5810664568E-001 +1.0392628568E+001  +9.1790598857E-002 +4.2669032905E-001  +9.1741148895E-002 +1.2870555003E+001  +5.6823430269E-001 +5.8677860794E+000 
11647501.877 +5.4786640485E-001 +6.9969138614E+000  +9.3062181497E-002 -1.6302854033E-001  +9.1964880542E-002 +1.2037499676E+001  +5.5730981211E-001 +3.1140205987E-001 
11772647.059 +5.5076171645E-001 +8.5423129171E+000  +9.3664983340E-002 +1.3941182356E+000  +9.2374165686E-002 +1.1955712404E+001  +5.7977767711E-001 +2.3219348613E+000 
11897792.240 +5.5430787905E-001 +5.6552292079E+000  +9.4682139548E-002 +1.3795850047E+000  +9.4214817607E-002 +1.0067000120E+001  +5.7303651564E-001 +3.2332412150E+000 
12022937.422 +5.8164585769E-001 +5.1997093036E+000  +9.6238215895E-002 +9.6885858250E-001  +9.6221194212E-002 +1.0840015088E+001  +5.6250590831E-001 +2.8476069109E+000 
12148082.603 +5.8871067167E-001 +3.9080850165E+000  +9.8482517663E-002 +1.9387823537E+000  +9.7065692409E-002 +1.0127676899E+001  +6.1053627265E-001 +1.7184767563E+000 
12273227.785 +5.8665304171E-001 +5.8575883500E+000  +9.9102223496E-002 +2.0133472907E+000  +9.7821818084E-002 +1.1504839565E+001  +6.4081188355E-001 +3.7257686768E+000 
12398372.966 +6.1555529944E-001 +7.2576850204E+000  +9.8954689096E-002 +1.7471645991E+000  +9.8413903051E-002 +1.0101945772E+001  +6.3943920165E-001 +2.8487758530E-001 
12523518.148 +6.2710852780E-001 +3.3632757431E+000  +1.0068810747E-001 +2.1087574528E+000  +1.0036078294E-001 +9.5859142210E+000  +6.4537399109E-001 +6.6798830461E-001 
12648663.329 +6.5061504105E-001 +2.7256734599E+000  +1.0248684739E-001 +2.2016069163E+000  +1.0057920677E-001 +9.6491453563E+000  +6.7579455844E-001 +2.7781202226E-001 
12773808.511 +6.5652504089E-001 +2.8807684754E+000  +1.0343932463E-001 +2.1631302418E+000  +1.0148797656E-001 +8.1123803506E+000  +6.7538035741E-001 -9.2108394531E-001 
12898953.692 +6.8653998024E-001 +3.2654440173E+000  +1.0535943041E-001 +2.9486576760E+000  +1.0361873742E-001 +9.1162240745E+000  +6.8378141940E-001 -1.3669175715E+000 
13024098.874 +6.9227344056E-001 +1.1220446136E+000  +1.0553071744E-001 +2.7366096708E+000  +1.0587560501E-001 +7.1144381530E+000  +7.0828666280E-001 -1.1111016377E+000 
13149244.055 +6.9712991063E-001 -8.5723997102E-002  +1.0550632140E-001 +2.0183908303E+000  +1.0453693751E-001 +6.2028017497E+000  +7.2320120047E-001 -1.6508031459E+000 
13274389.237 +7.0330386348E-001 +5.7240497613E-001  +1.0712905505E-001 +2.2758329875E+000  +1.0484125813E-001 +6.5064164103E+000  +7.2930328826E-001 -8.0003744670E-001 
13399534.418 +7.3783826532E-001 -1.0038614443E+000  +1.0806277375E-001 +3.0244190407E+000  +1.0580767573E-001 +5.6538983062E+000  +7.6309812094E-001 -3.2652867249E+000 
13524679.599 +7.5431753526E-001 +2.5174589166E-002  +1.0945291709E-001 +2.4794156119E+000  +1.0706572613E-001 +6.4606206328E+000  +7.6985256292E-001 -1.4808558491E+000 
13649824.781 +7.6328964034E-001 -3.0233470374E+000  +1.0820917594E-001 +3.0612365066E+000  +1.0742906629E-001 +4.7394588544E+000  +7.7782923434E-001 -2.4905758594E+000 
13774969.962 +7.8547486596E-001 -2.8614220018E+000  +1.0912615131E-001 +2.2503035647E+000  +1.1035198891E-001 +4.7455705088E+000  +7.8465680062E-001 -4.3956300735E+000 
13900115.144 +8.0998263681E-001 -4.4343112141E+000  +1.1152948631E-001 +2.2528762309E+000  +1.0865604993E-001 +4.0595575242E+000  +8.1506602804E-001 -4.0160843434E+000 
14025260.325 +8.1012774363E-001 -3.4017362209E+000  +1.1004442042E-001 +2.1823895024E+000  +1.0897782598E-001 +4.1841232464E+000  +8.3881244745E-001 -3.7961779126E+000 
14150405.507 +8.3801506396E-001 -5.8544581933E+000  +1.1290902337E-001 +2.1185726991E+000  +1.0991214664E-001 +3.5016443033E+000  +8.5235425101E-001 -2.8188003105E+000 
14275550.688 +8.3851175691E-001 -4.3950759687E+000  +1.1225462709E-001 +2.2583374019E+000  +1.0981024383E-001 +2.6250912080E+000  +8.4121523248E-001 -4.0386027505E+000 
14400695.870 +8.8121209197E-001 -6.0896760361E+000  +1.1365899274E-001 +1.8176490893E+000  +1.1135808916E-001 +2.4256181890E+000  +8.6725510507E-001 -6.3508373235E+000 
