!  2-Port S-parameters saved by WinCal
! VAR MeasName=S-Parameters (CALIBRATED_DATA) read from VNA (P5004A)
! VAR MeasDate=28/08/2024 16:51:09
! VAR NAME=S2_r9c9_RESET2_9k-100M_2
! VAR FILENAME=S2_r9c9_RESET2_9k-100M_2.S2P
! VAR DATE=28/08/2024 16:51:09
! VAR PHYS_PORTS=1,2
! VAR ObjTypeName=DATASET
! VAR IndexType=Frequency
!
# Hz S MA R 50
9000.000 +9.2220164077E-002 -1.6706360866E+002  +1.3715608221E-002 -2.7374253872E+001  +1.3079674514E-002 +2.7012779008E+000  +2.5846619618E-001 -1.3509605257E+002 
134145.181 +1.1135677075E-001 +1.6958953365E+002  +3.3491741873E-004 -3.7255479982E+001  +4.3285383919E-004 +4.3447668505E+001  +2.4364271856E-001 -1.7164523176E+002 
259290.363 +1.1154376701E-001 +1.6957740366E+002  +3.3218830106E-004 +1.2649639905E+002  +1.0878005852E-003 -9.4606133763E+001  +2.4207931504E-001 -1.6988017675E+002 
384435.544 +1.1353403205E-001 +1.7006980940E+002  +6.5330181275E-004 -2.3529266174E+000  +1.0806364855E-003 +1.2902024482E+002  +2.4507947333E-001 -1.6902121260E+002 
509580.726 +1.1276167857E-001 +1.6951043874E+002  +2.4088968906E-003 -6.7683978939E+001  +6.1405771717E-004 +1.5966257389E+002  +2.5306887688E-001 -1.6294916008E+002 
634725.907 +1.1913246179E-001 +1.7132350335E+002  +6.5606633601E-004 -9.4845792487E+001  +1.3917568764E-003 +9.0389706881E+001  +2.4486193212E-001 -1.6704406882E+002 
759871.089 +1.2037612053E-001 +1.7087614682E+002  +3.9514907438E-004 -9.0818926124E+001  +5.4807947171E-004 +1.0827566869E+002  +2.4416306575E-001 -1.6658273510E+002 
885016.270 +1.2068779139E-001 +1.6888156034E+002  +7.0594359593E-004 -4.6108596778E+001  +1.1283424152E-003 +1.1137887661E+002  +2.4155763492E-001 -1.6572944912E+002 
1010161.452 +1.1753758857E-001 +1.6986815515E+002  +1.4103005245E-003 -1.4342385443E+001  +1.9320525325E-003 -1.5191011509E+002  +2.1808575496E-001 -1.7069858841E+002 
1135306.633 +1.1992830116E-001 +1.7173370313E+002  +2.4493075663E-003 +1.0641282355E+001  +1.4051709821E-003 -1.5965325899E+002  +2.0113340687E-001 -1.7220136600E+002 
1260451.815 +1.2002999218E-001 +1.7062661839E+002  +1.9617724265E-003 -7.2770827327E+001  +1.3628271719E-003 -1.6910330830E+002  +2.2258394504E-001 -1.4997061214E+002 
1385596.996 +1.2681139202E-001 +1.7236144801E+002  +1.8883971647E-003 -1.1784654162E+002  +7.6920666757E-004 +9.5836190895E+001  +2.6695069404E-001 -1.5961252011E+002 
1510742.178 +1.2796902569E-001 +1.7197307887E+002  +8.9702312751E-004 -1.0719356719E+002  +7.8853354917E-004 +1.1290725447E+002  +2.6794315396E-001 -1.6071335377E+002 
1635887.359 +1.2967142126E-001 +1.7092745699E+002  +2.4774613360E-003 -1.0339655265E+001  +1.7883295151E-003 -1.6486360783E+002  +2.4066205296E-001 -1.6070397130E+002 
1761032.541 +1.3123580530E-001 +1.7095106055E+002  +2.4317071482E-003 +5.8461994122E-001  +2.9243649284E-003 -1.2467526104E+002  +2.1980265921E-001 -1.5943978319E+002 
1886177.722 +1.2378156874E-001 +1.6864519979E+002  +4.3447817519E-003 +6.9539572698E+001  +1.4180937752E-003 -8.4715660813E+001  +2.2918352423E-001 -1.6199418857E+002 
2011322.904 +1.2909083305E-001 +1.6884117281E+002  +5.0341545511E-003 +3.9133849674E+001  +5.9970742676E-003 -8.8850910400E+001  +2.1161586732E-001 -1.6075635416E+002 
2136468.085 +1.2663872972E-001 +1.6774566363E+002  +7.5005017013E-003 +6.1869194799E+001  +1.0390061709E-002 -5.4509851561E+001  +2.1333381014E-001 -1.6649098312E+002 
2261613.267 +1.3542009407E-001 +1.6923429930E+002  +8.0122524075E-003 +5.6484199822E+001  +9.6875900278E-003 -7.2680436860E+001  +2.0694850774E-001 -1.6806830357E+002 
2386758.448 +1.3988216181E-001 +1.6650870354E+002  +6.8866816930E-003 +6.4143977119E+001  +7.6231902462E-003 -3.3436249438E+001  +2.3409243684E-001 -1.6849723632E+002 
2511903.630 +1.3935974947E-001 +1.6727945586E+002  +1.2827697036E-002 +6.0265986918E+001  +1.3072086957E-002 -5.5413399529E+001  +1.8208129140E-001 -1.6689017732E+002 
2637048.811 +1.2207351519E-001 +1.7073867819E+002  +7.5880997608E-002 +3.4238746741E+001  +8.2765278292E-002 -7.9301620120E+001  +2.1904150347E-001 -2.2600368596E+001 
2762193.992 +1.3862071589E-001 +1.6998365591E+002  +4.5921692990E-002 -8.4815605457E-001  +5.4632129895E-002 -1.1413135839E+002  +2.0276731787E-001 -8.9640832804E+001 
2887339.174 +1.3595101672E-001 +1.6922856833E+002  +4.0716165828E-002 -5.3839715649E-001  +4.7154578281E-002 -1.0194538258E+002  +1.3655509062E-001 -1.1580494904E+002 
3012484.355 +1.2665410427E-001 +1.7228664160E+002  +3.5899834541E-002 -1.3598016246E+001  +3.6870179980E-002 -9.6232778798E+001  +2.0213509118E-001 -1.2705572306E+002 
3137629.537 +1.3442538819E-001 +1.7419232010E+002  +7.7550483178E-002 +8.7348143285E+000  +7.9338362721E-002 -9.1952243537E+001  +2.1332475001E-001 -9.3331846067E+000 
3262774.718 +1.3749781215E-001 +1.6974908039E+002  +5.9232172843E-002 +3.2214450386E+001  +5.0387843344E-002 -6.8751939609E+001  +5.8382758730E-002 +6.0834648105E+001 
3387919.900 +1.3190535931E-001 +1.5410054253E+002  +5.2822495401E-002 +5.4816880643E+001  +4.7991870247E-002 -3.8021562263E+001  +1.2720639707E-001 +1.7447856917E+002 
3513065.081 +1.3435367526E-001 +1.5605840548E+002  +8.9556650201E-002 +6.7850543740E+001  +9.1437222406E-002 -2.7924258638E+001  +2.4569999594E-001 +9.0078846387E+001 
3638210.263 +1.6874686866E-001 +1.5539860129E+002  +5.5918753885E-002 +9.9589365948E+001  +4.6335840570E-002 +2.0089819610E+001  +3.6434188790E-001 +1.3361417783E+002 
3763355.444 +1.9002139088E-001 +1.5226440788E+002  +3.1858558420E-002 +1.1014240273E+002  +3.1703073545E-002 +3.4879411221E+001  +3.3409571768E-001 +1.6786685051E+002 
3888500.626 +1.7910671225E-001 +1.4706036974E+002  +7.0380127216E-002 +9.4574002021E+001  +6.7543472704E-002 +1.9902071815E+001  +3.0431722378E-001 +1.4322114716E+002 
4013645.807 +1.4455281494E-001 +1.5881111543E+002  +4.4718070113E-002 +6.3747413955E+001  +4.6562325867E-002 -6.1837732038E+000  +2.7149543260E-001 +1.6469059889E+002 
4138790.989 +2.0246459232E-001 +1.5247855637E+002  +5.7285172527E-002 +9.9805454603E+001  +5.7016773713E-002 +3.1691003922E+001  +3.8277378191E-001 +1.3916239397E+002 
4263936.170 +2.1049966858E-001 +1.5221862451E+002  +5.2084651769E-002 +1.1234646677E+002  +4.5836096251E-002 +5.5119790096E+001  +4.6459870959E-001 +1.5753689372E+002 
4389081.352 +2.0718755189E-001 +1.4292470509E+002  +8.8867552614E-002 +8.3062178944E+001  +8.4407826494E-002 +2.0724686825E+001  +2.5866320150E-001 +1.1781274099E+002 
4514226.533 +2.2983362491E-001 +1.5079846441E+002  +8.1232364275E-002 +1.2585251783E+002  +8.4727480071E-002 +6.9998871816E+001  +7.6746403189E-001 +1.4464742347E+002 
4639371.715 +2.1594394694E-001 +1.2845693843E+002  +1.8545287902E-001 +9.3212307389E+001  +1.7634434458E-001 +4.4180779105E+001  +7.1546524373E-001 +1.1094622495E+002 
4764516.896 +2.6960770377E-001 +1.2391096019E+002  +2.5209661673E-001 +8.4547310148E+001  +2.5582321659E-001 +3.5384167663E+001  +8.4761400013E-001 +7.6493481602E+001 
4889662.078 +2.1190965503E-001 +1.6872365035E+002  +1.1288554673E+000 -7.4150425480E+001  +1.0248880065E+000 -1.2209440277E+002  +7.4246522694E+000 -1.2157239848E+002 
5014807.259 +4.0295547019E-001 +1.2827703981E+002  +5.0429660884E-001 +1.2547625073E+002  +5.1674669815E-001 +8.0167991278E+001  +2.5004893498E+000 +1.0514433048E+002 
5139952.441 +4.3222998771E-001 +1.2992000556E+002  +3.2770843035E-001 +1.2785373054E+002  +3.1900927587E-001 +8.8197583493E+001  +1.3469598595E+000 +1.1340061341E+002 
5265097.622 +3.5609510158E-001 +1.3236392232E+002  +2.3498562040E-001 +1.0478758575E+002  +2.2120176581E-001 +6.1631465646E+001  +1.0495889354E+000 +9.9573663483E+001 
5390242.804 +3.2406798624E-001 +1.2907802515E+002  +3.0802541590E-001 +1.0711583626E+002  +2.7653866455E-001 +7.3192924637E+001  +1.8654667799E+000 +1.1925777486E+002 
5515387.985 +4.3030215113E-001 +1.3356833938E+002  +1.7884833688E-001 +1.0805803948E+002  +1.7069040833E-001 +7.8075349185E+001  +8.4274603309E-001 +1.2393350480E+002 
5640533.166 +3.8564913242E-001 +1.3737814840E+002  +1.8305016796E-001 +1.0427448760E+002  +1.7511985453E-001 +7.3573799717E+001  +1.2432536511E+000 +1.2105169911E+002 
5765678.348 +3.8225734012E-001 +1.2841633370E+002  +2.1533353644E-001 +9.1987347264E+001  +2.1571940868E-001 +5.7105218576E+001  +1.1669114462E+000 +1.0975577877E+002 
5890823.529 +4.0529233631E-001 +1.1565451939E+002  +2.8994539336E-001 +7.0311382225E+001  +3.0671384019E-001 +4.1409790620E+001  +1.2715675023E+000 +8.1356814737E+001 
6015968.711 +4.9813908046E-001 +1.2224102686E+002  +3.2997982335E-001 +7.0304840647E+001  +3.0727528644E-001 +4.7323022868E+001  +1.5774745488E+000 +7.0008139275E+001 
6141113.892 +4.9149557648E-001 +1.0882771034E+002  +3.2729307452E-001 +6.3161142753E+001  +3.3062620648E-001 +4.0823428723E+001  +1.4030231272E+000 +7.4849565479E+001 
6266259.074 +5.3212448669E-001 +1.1083996396E+002  +2.9946977268E-001 +4.7127747381E+001  +2.8640346408E-001 +3.0342389113E+001  +1.0454418967E+000 +4.9024675270E+001 
6391404.255 +7.5849967302E-001 +9.7616530361E+001  +3.6645919992E-001 +4.6956648612E+001  +3.6107172976E-001 +3.1776274540E+001  +1.0735225448E+000 +2.9112520731E+001 
6516549.437 +7.2701002607E-001 +8.0516780535E+001  +3.9566895100E-001 +2.9820400226E+001  +3.8667115853E-001 +1.5804366731E+001  +1.0941431845E+000 +2.0458644968E+001 
6641694.618 +1.0108966909E+000 +6.5392335079E+001  +5.0100133048E-001 +2.8464214972E+001  +4.9246688158E-001 +1.7446588527E+001  +1.1945462327E+000 +2.2666740445E+001 
6766839.800 +1.1450257798E+000 +5.7633543245E+001  +4.7621182795E-001 +2.2693849859E+001  +4.2877363739E-001 +1.0628827442E+001  +1.0473693572E+000 +2.0141127861E+000 
6891984.981 +9.2582669562E-001 +5.4963421900E+001  +3.6847903179E-001 +1.6858540281E+001  +3.6742242208E-001 +6.7119791634E+000  +9.8404339536E-001 +3.4205956860E+000 
7017130.163 +1.0118113956E+000 +2.9264239156E+001  +3.7403437666E-001 +5.9880232634E+000  +3.5956250250E-001 -1.1076720781E+000  +8.9231214932E-001 -2.4423075657E+000 
7142275.344 +1.0126269057E+000 +5.6027066468E+000  +3.5732637988E-001 -3.9830592197E-001  +3.4311390067E-001 -5.5798776507E+000  +1.0019094879E+000 -8.0744876368E+000 
7267420.526 +1.0318547194E+000 +1.5749060014E+000  +3.1539094658E-001 -5.0252687116E-002  +3.0970021076E-001 -3.3047021851E+000  +1.0423354851E+000 -1.1643198003E+001 
7392565.707 +9.5034952623E-001 +1.8663631700E+000  +2.6580860256E-001 +4.7272312803E+000  +2.5921766813E-001 +3.3795919884E+000  +1.0564560405E+000 -2.0895091093E+000 
7517710.889 +8.2432227846E-001 -5.6726660588E+000  +2.4563341698E-001 +2.6825354414E+000  +2.4693525129E-001 +1.1895172814E+000  +8.0749767683E-001 -1.4651000313E+001 
7642856.070 +7.3047904770E-001 +1.5638553248E+000  +2.3290585157E-001 +1.5672632773E+000  +2.3445729600E-001 +4.1620075003E+000  +8.2297960218E-001 +2.0608465008E+000 
7768001.252 +6.7817565258E-001 +9.0770456946E+000  +2.2760317646E-001 +1.1323069749E+000  +2.2971599030E-001 +6.5109897816E+000  +8.0433613246E-001 -2.1547897202E+000 
7893146.433 +6.4138623982E-001 +1.5412602398E+001  +2.1580450330E-001 -1.1349191624E+000  +2.2101656295E-001 +6.6779250994E+000  +6.7344843089E-001 -3.9491527228E+000 
8018291.615 +5.8587098928E-001 +9.3772774393E+000  +2.0822661337E-001 -1.9368514376E+000  +2.0714218385E-001 +6.5964830112E+000  +5.6021662240E-001 +4.9891274908E+000 
8143436.796 +5.1756023827E-001 +9.0465767517E+000  +2.0362041341E-001 -4.1955134243E+000  +2.0270957031E-001 +3.7996199355E+000  +5.8056851703E-001 +1.6998628118E+000 
8268581.977 +5.0363741530E-001 +9.0815018091E+000  +2.0070993727E-001 -3.4957266551E+000  +2.0135680284E-001 +6.4303314685E+000  +4.8755719824E-001 +3.6257169400E+000 
8393727.159 +5.1675658449E-001 +1.1692765340E+001  +1.9390685342E-001 -2.9293384531E+000  +1.9644547834E-001 +7.9923321341E+000  +5.1866013872E-001 +3.0277811298E+000 
8518872.340 +5.3785336713E-001 +1.4843855987E+001  +1.9008323762E-001 -5.0054434231E+000  +1.9163745386E-001 +8.3592456639E+000  +4.5109126141E-001 +1.2576230643E+001 
8644017.522 +4.6682174230E-001 +1.7683904687E+001  +1.8538762784E-001 -2.6864617299E+000  +1.8553181361E-001 +9.8893151281E+000  +5.5425138226E-001 +1.3547367756E+001 
8769162.703 +4.3739473934E-001 +1.0303302501E+001  +1.9406967694E-001 -6.1794319516E+000  +1.8886109434E-001 +9.2964330460E+000  +4.2752954702E-001 +7.8895177313E+000 
8894307.885 +3.6854771207E-001 +1.0472289159E+001  +1.8486545473E-001 -6.6490592005E+000  +1.8633233033E-001 +8.0645855873E+000  +4.8402422433E-001 +7.2603091871E+000 
9019453.066 +4.2463031341E-001 +1.8681214003E+001  +1.8712127125E-001 -4.6510747816E+000  +1.8699650612E-001 +1.0004435173E+001  +4.1066820922E-001 +3.2689508372E+000 
9144598.248 +3.7722894715E-001 +1.4486459092E+001  +1.8536928399E-001 -5.2005238339E+000  +1.8278460955E-001 +1.0165532323E+001  +4.8967497480E-001 +8.0185840984E+000 
9269743.429 +3.9475951871E-001 +1.2029175764E+001  +1.8606997717E-001 -5.6079690846E+000  +1.8308771786E-001 +9.2400906358E+000  +3.8480504850E-001 +4.3631884712E+000 
9394888.611 +3.5634571380E-001 +1.0308780534E+001  +1.8597347153E-001 -5.1138759607E+000  +1.8018270904E-001 +1.0759868277E+001  +4.2203821885E-001 +6.1427195459E+000 
9520033.792 +3.4370975863E-001 +1.0070498421E+001  +1.8616102080E-001 -5.7261494828E+000  +1.8158415390E-001 +1.0014556476E+001  +3.8613412642E-001 +2.9949123840E+000 
9645178.974 +3.7026002161E-001 +6.4888003733E+000  +1.8534924754E-001 -6.4523596576E+000  +1.8532289070E-001 +1.0007892334E+001  +3.4173706159E-001 +1.1747144507E+000 
9770324.155 +3.2780628072E-001 +6.7425089291E+000  +1.8915254238E-001 -5.9346231140E+000  +1.8758009845E-001 +1.1103734635E+001  +3.6576287015E-001 -2.2681610571E+000 
9895469.337 +3.0621002597E-001 -1.3011547216E-001  +1.8719467963E-001 -5.5490048491E+000  +1.8851256219E-001 +9.4780473837E+000  +3.8297246895E-001 +3.3894365945E+000 
10020614.518 +3.4879481075E-001 +6.7356013611E+000  +1.8765249932E-001 -4.4697203068E+000  +1.8723267133E-001 +1.1277465121E+001  +3.7310115426E-001 +1.5286259450E+000 
10145759.700 +3.7451715709E-001 +1.1227721755E+001  +1.9114962566E-001 -4.9882736547E+000  +1.8923405185E-001 +1.1874653625E+001  +3.9404788579E-001 +2.2170772461E-001 
10270904.881 +3.6166037115E-001 +1.1854193709E+001  +1.8545738920E-001 -4.2774904960E+000  +1.8468619279E-001 +1.1682146842E+001  +3.5451234547E-001 +7.2612728019E+000 
10396050.063 +3.6259362166E-001 +1.3734354662E+001  +1.8849099806E-001 -4.3108804286E+000  +1.8894272477E-001 +1.1922447644E+001  +3.7409475372E-001 +3.7869485593E+000 
10521195.244 +3.9475371270E-001 +1.4576141530E+001  +1.9207327111E-001 -3.1885736158E+000  +1.8954749386E-001 +1.2570450601E+001  +3.8510561497E-001 +3.5588473805E+000 
10646340.426 +3.9973840644E-001 +1.3621895130E+001  +1.8951306966E-001 -2.8047238071E+000  +1.8806206003E-001 +1.2443153034E+001  +4.0717708351E-001 +8.5593451858E+000 
10771485.607 +3.9637649121E-001 +1.2980932867E+001  +1.9245278496E-001 -2.0307955231E+000  +1.9150872545E-001 +1.2907697285E+001  +3.9838849774E-001 +5.9420731398E+000 
10896630.788 +3.7986273229E-001 +1.4205317930E+001  +1.9270130586E-001 -2.1650737161E+000  +1.9313719023E-001 +1.1499205381E+001  +4.1469317268E-001 +7.0375756944E+000 
11021775.970 +4.0978211472E-001 +1.5251641011E+001  +1.9508317786E-001 -1.8208392691E+000  +1.8985219908E-001 +1.1794561875E+001  +3.9473212696E-001 +1.2966487597E+001 
11146921.151 +4.1192371511E-001 +1.3969085887E+001  +1.9655073640E-001 -1.2808231585E+000  +1.9656961357E-001 +1.2275687591E+001  +4.2124718791E-001 +6.8183123063E+000 
11272066.333 +3.9115471681E-001 +1.2905232898E+001  +1.9992695434E-001 -8.2498549981E-001  +1.9703103417E-001 +1.1284280132E+001  +4.3295818484E-001 +6.8377090108E+000 
11397211.514 +3.9865628426E-001 +1.5947658697E+001  +1.9897745149E-001 -4.4110994320E-001  +1.9966384640E-001 +1.1219707512E+001  +4.5920426440E-001 +5.7660667004E+000 
11522356.696 +4.2870417575E-001 +1.4721522772E+001  +2.0147127944E-001 -8.4365790829E-001  +1.9901432504E-001 +1.1670619580E+001  +4.3866629079E-001 +7.1720233358E+000 
11647501.877 +4.3229903801E-001 +1.1371532900E+001  +2.0577899666E-001 -3.5832697682E-002  +2.0440231604E-001 +1.0957483788E+001  +4.5961730036E-001 +3.4932960483E+000 
11772647.059 +4.4226573285E-001 +1.0137162390E+001  +2.0733584625E-001 +1.2115692622E-001  +2.0489633694E-001 +1.0810040503E+001  +4.4567418849E-001 +6.6212436556E+000 
11897792.240 +4.5290285696E-001 +8.7014178068E+000  +2.0853920959E-001 +1.7789366934E-001  +2.0528930792E-001 +1.0561725889E+001  +4.4667821730E-001 +6.9808187064E+000 
12022937.422 +4.3877828663E-001 +8.8001820749E+000  +2.1089508810E-001 +3.6728352219E-001  +2.0701429170E-001 +9.9991864808E+000  +4.9529249352E-001 +5.7790658410E+000 
12148082.603 +4.6813483956E-001 +9.5696250017E+000  +2.1312986386E-001 +6.9921847982E-001  +2.1177129543E-001 +1.0260456402E+001  +5.0552209383E-001 +4.3397101086E+000 
12273227.785 +5.0229663205E-001 +9.0348126267E+000  +2.1399570274E-001 +1.4703452346E+000  +2.1308254831E-001 +9.7316781240E+000  +4.9200170098E-001 +7.8435628984E+000 
12398372.966 +4.7116215642E-001 +7.7227070576E+000  +2.1722384564E-001 +6.6182693401E-001  +2.1281681262E-001 +8.8072744904E+000  +5.2251214510E-001 +5.5364183535E+000 
12523518.148 +5.0269809373E-001 +8.4661132217E+000  +2.1982743848E-001 +1.1911086638E+000  +2.1600479701E-001 +8.8715639752E+000  +5.2852762896E-001 +3.9806013392E+000 
12648663.329 +4.9699341343E-001 +5.2580396238E+000  +2.2468064223E-001 +1.3569896256E+000  +2.2093097359E-001 +8.2277709765E+000  +5.1135537141E-001 +4.2992509780E-001 
12773808.511 +5.2343247909E-001 +6.4523044381E+000  +2.2425987881E-001 +2.2237458965E+000  +2.2213686726E-001 +8.1982881668E+000  +5.3835114359E-001 +2.8153350554E+000 
12898953.692 +5.2691391689E-001 +5.2980555983E+000  +2.2730481343E-001 +1.1380149313E+000  +2.2491317823E-001 +6.9744112264E+000  +5.4902656479E-001 +5.4405960395E-001 
13024098.874 +5.6813269630E-001 +5.9925422283E+000  +2.2981809982E-001 +2.1266500186E+000  +2.2622657908E-001 +7.2995754438E+000  +5.7346516972E-001 +1.3409917289E+000 
13149244.055 +5.5542599876E-001 +2.6107136823E+000  +2.3178069099E-001 +1.6016334966E+000  +2.2861036780E-001 +6.2986853640E+000  +5.7308218497E-001 +1.5178501952E+000 
13274389.237 +5.7116354506E-001 +3.7675438138E-001  +2.3536668471E-001 +1.6678735379E+000  +2.3122309531E-001 +5.5196709882E+000  +5.7787075433E-001 +1.6757380099E-001 
13399534.418 +6.0736320852E-001 +1.0363185113E+000  +2.3476328482E-001 +2.0516467207E+000  +2.3254041928E-001 +5.4301713068E+000  +5.9479182907E-001 +9.2981423350E-001 
13524679.599 +6.1853136460E-001 +1.5650892662E+000  +2.3771495140E-001 +2.1731538701E+000  +2.3442916987E-001 +5.2796185318E+000  +6.1506227154E-001 +1.9470629898E-001 
13649824.781 +6.2860421221E-001 -2.3091116536E-001  +2.4190574502E-001 +2.2449513334E+000  +2.3874961411E-001 +4.7061439668E+000  +6.3200659610E-001 -3.9415569747E+000 
13774969.962 +6.3391521918E-001 -2.1230731799E+000  +2.4318015797E-001 +2.0592532374E+000  +2.4033333255E-001 +3.8985805039E+000  +6.3969979519E-001 -2.2541248396E+000 
13900115.144 +6.6576964851E-001 -2.7948539968E+000  +2.4398875418E-001 +2.2657662184E+000  +2.4186328436E-001 +4.1493311089E+000  +6.8252833251E-001 -2.3290340516E+000 
14025260.325 +6.9008605567E-001 -3.0810717502E+000  +2.4630174910E-001 +2.2205200898E+000  +2.4477890952E-001 +3.7344721353E+000  +6.8709064573E-001 -2.5056431510E+000 
14150405.507 +6.7910843850E-001 -2.7894414690E+000  +2.4789788961E-001 +1.5247889376E+000  +2.4273315800E-001 +2.5529384025E+000  +6.9203999994E-001 -3.2802419113E+000 
14275550.688 +7.1059831694E-001 -3.1592294080E+000  +2.4831161437E-001 +1.7065827453E+000  +2.4627036052E-001 +2.4825461005E+000  +7.0785045913E-001 -3.9039773484E+000 
14400695.870 +7.2081156928E-001 -5.8000807700E+000  +2.5056924741E-001 +1.4696672799E+000  +2.4722970834E-001 +2.1523170933E+000  +7.2916715786E-001 -3.4757621170E+000 
