!  2-Port S-parameters saved by WinCal
! VAR MeasName=S-Parameters (CALIBRATED_DATA) read from VNA (P5004A)
! VAR MeasDate=29/08/2024 10:21:00
! VAR NAME=S2_r9c1_RESET5_9k-100M_3
! VAR FILENAME=S2_r9c1_RESET5_9k-100M_3.S2P
! VAR DATE=29/08/2024 10:21:00
! VAR PHYS_PORTS=1,2
! VAR ObjTypeName=DATASET
! VAR IndexType=Frequency
!
# Hz S MA R 50
9000.000 +9.1665933333E-002 -1.6152925467E+002  +1.4021568513E-003 +1.4755081971E+002  +1.1377711646E-002 +4.4079221573E+001  +2.9274021187E-001 -1.5329297371E+002 
134145.181 +1.1146866641E-001 +1.6961454732E+002  +4.5157686420E-004 -2.0098468665E+001  +3.9248260039E-004 +7.1579822788E+001  +2.3593533374E-001 -1.7054429613E+002 
259290.363 +1.1127439528E-001 +1.6946396567E+002  +6.5076192784E-004 +1.0329029393E+002  +7.0187362562E-004 -7.0228079075E+001  +2.3961763573E-001 -1.6815419266E+002 
384435.544 +1.1354396439E-001 +1.7013340763E+002  +8.1137851988E-004 +1.5714930478E+000  +1.1105159069E-003 -4.7139190875E+000  +2.4366956997E-001 -1.6808755780E+002 
509580.726 +1.1402262499E-001 +1.7158113346E+002  +7.6895688010E-004 -5.7013448715E+001  +1.3461421241E-003 -1.2918289056E+001  +2.2604533238E-001 -1.6165451423E+002 
634725.907 +1.1759470411E-001 +1.7176829059E+002  +4.0017683764E-004 +1.2786507618E+002  +5.6526787838E-004 -1.6076011486E+002  +2.6097447886E-001 -1.6763799124E+002 
759871.089 +1.1915851064E-001 +1.7152730463E+002  +7.1654038398E-004 -1.2381635381E+002  +3.6209797141E-004 -1.1242104401E+002  +2.5916729785E-001 -1.6634699287E+002 
885016.270 +1.2113127282E-001 +1.6873375366E+002  +6.5606871694E-005 +4.3122121154E+000  +3.8864372666E-004 +9.4724726831E+001  +2.4750698116E-001 -1.6567136571E+002 
1010161.452 +1.1363338035E-001 +1.7046058053E+002  +1.5200002227E-003 -8.3538097672E+000  +1.1701111842E-003 +7.2985873430E+001  +1.7995157877E-001 -1.6848535438E+002 
1135306.633 +1.1278633015E-001 +1.6776366854E+002  +1.8263135738E-003 +5.2168950568E+000  +1.2445610540E-003 -1.6276034335E+002  +1.8111584471E-001 -1.6882632812E+002 
1260451.815 +1.1553827663E-001 +1.7162578687E+002  +5.9036806346E-004 +4.7418914844E+001  +2.3046014430E-003 -1.1001044082E+002  +2.0723636397E-001 -1.5725552983E+002 
1385596.996 +1.2641225602E-001 +1.7307880126E+002  +1.3961291948E-003 -5.2348389104E+001  +1.2026410228E-003 +2.6899318991E+001  +2.6474239370E-001 -1.5768494349E+002 
1510742.178 +1.2839934771E-001 +1.7076960732E+002  +8.1412952654E-004 -4.3913817219E+001  +3.4972490737E-004 +8.1440562897E+001  +2.6724719135E-001 -1.5812902418E+002 
1635887.359 +1.3062019187E-001 +1.7189080420E+002  +1.7118606708E-003 -1.6033848119E+002  +9.1853430365E-004 +7.0092161660E+001  +2.3927910940E-001 -1.6028519820E+002 
1761032.541 +1.2731090762E-001 +1.6931859944E+002  +2.5399998514E-004 +1.0669913671E+002  +1.2652820043E-003 -1.4252590334E+001  +2.4446500323E-001 -1.5970124944E+002 
1886177.722 +1.2663410540E-001 +1.6951326689E+002  +1.2557626799E-003 -4.1338273679E+001  +2.2822066889E-003 +1.3464424590E+002  +2.0760511321E-001 -1.6927766724E+002 
2011322.904 +1.3360619055E-001 +1.6821011933E+002  +3.4875407438E-003 +9.1003737175E+001  +3.1388423214E-003 +8.1488319681E+001  +1.5500131183E-001 -1.7010237962E+002 
2136468.085 +1.3283148198E-001 +1.6414062973E+002  +3.4197029903E-003 +7.6835951877E+001  +1.6897744861E-003 -2.9479957107E+001  +2.0186145634E-001 -1.7224222127E+002 
2261613.267 +1.2954470057E-001 +1.6395350140E+002  +3.2014442676E-003 -1.6934566322E+002  +2.1224657367E-003 -1.5469480836E+002  +2.2168599450E-001 +1.5766380332E+002 
2386758.448 +1.3459315149E-001 +1.6512525754E+002  +2.0971554845E-003 -7.8420830535E+001  +3.7743630697E-003 -6.5329642336E+001  +2.4197488646E-001 +1.7884352559E+002 
2511903.630 +1.3834607167E-001 +1.6240793554E+002  +1.9221059296E-003 +9.4862818322E+001  +4.4941576950E-003 -5.3459157146E+001  +1.8141467725E-001 +1.6392755905E+002 
2637048.811 +1.2300117707E-001 +1.6574484751E+002  +8.7542015835E-003 +1.2404578632E+002  +4.0594096378E-003 -3.8542085604E+001  +1.5940358445E-001 +1.5694782104E+002 
2762193.992 +1.1217000691E-001 +1.6833409867E+002  +2.4329263900E-002 -4.0829721987E+001  +1.3289011928E-002 -1.7983818271E+002  +1.1462887506E-001 -3.8255391761E+001 
2887339.174 +1.0810297481E-001 +1.6467057095E+002  +1.6758419858E-002 -1.4685729290E+002  +1.4704274393E-002 -6.1436302759E+001  +5.4644081941E-001 -6.4792048039E+001 
3012484.355 +1.3735971471E-001 +1.7353145880E+002  +8.2878976717E-003 +1.0382972741E+002  +1.3777560453E-002 -1.1552073876E+002  +3.8035593604E-001 -7.9128022489E+001 
3137629.537 +1.3227949826E-001 +1.7183522896E+002  +3.7594230872E-003 +9.6684940992E+001  +2.5137027114E-003 -1.0383763414E+002  +4.9369747968E-001 -9.5943339410E+001 
3262774.718 +1.3348252984E-001 +1.6197435128E+002  +2.1947795388E-002 -1.3391635714E+001  +1.2606165679E-002 +1.4014191531E+002  +3.2596369343E-001 +3.9757978429E+001 
3387919.900 +1.2271935479E-001 +1.5944366083E+002  +7.6709264814E-003 -5.0369189256E+001  +9.8037551057E-003 +1.2226930675E+001  +2.8757885300E-001 +9.0930710761E+001 
3513065.081 +1.0641030257E-001 +1.4718222689E+002  +2.8424344783E-002 -1.1634913819E+002  +1.3548606243E-002 +9.1516317729E+001  +1.1999622998E+000 +1.2346329779E+002 
3638210.263 +1.6884620884E-001 +1.4503707768E+002  +2.7951925469E-003 +1.6175576949E+002  +8.6945372500E-003 +2.2393018500E+001  +6.1579975984E-001 +1.4997964554E+002 
3763355.444 +1.2982322306E-001 +1.4376478380E+002  +1.7607895283E-003 +1.7484217058E+002  +1.7082355467E-002 +3.7160742916E+001  +6.1692878762E-001 +1.2374897814E+002 
3888500.626 +1.9903333552E-001 +1.3234297531E+002  +1.3055015252E-002 +5.2821834497E+001  +6.3191294094E-003 -2.4370804571E+001  +1.9357836502E-001 +1.4911704082E+002 
4013645.807 +1.6123349322E-001 +1.4687667580E+002  +5.4722750764E-003 +4.8851647352E+001  +6.1916709263E-003 +2.0257722688E+001  +2.5697919613E-001 +1.4361646368E+002 
4138790.989 +2.1020432240E-001 +1.4649533873E+002  +3.6839680203E-003 -1.7147921543E+002  +3.4491284996E-003 +1.3195117208E+001  +6.8296940801E-001 +1.1181194846E+002 
4263936.170 +2.0785495067E-001 +1.4412890836E+002  +1.7059474006E-002 +6.0871744684E+001  +1.5298614076E-002 +4.0273298564E+001  +3.5509415273E-001 +9.5224681259E+001 
4389081.352 +2.1888894768E-001 +1.4688177854E+002  +8.2846168644E-003 +6.7209830226E+001  +7.0305231484E-003 -5.0209738409E+001  +4.6794565415E-001 +1.0086231832E+002 
4514226.533 +2.2760490816E-001 +1.2543222253E+002  +1.8038423195E-002 +6.8437641967E+001  +6.4499877172E-003 -6.2986599989E+001  +5.6661227477E-001 +1.3472023382E+002 
4639371.715 +3.1099356708E-001 +1.3759173666E+002  +2.2126367901E-001 +1.0357950439E+002  +1.4516878822E-001 +1.1852327610E+002  +1.0605103091E+001 +8.0172411323E+001 
4764516.896 +2.7600999445E-001 +1.3508793059E+002  +1.5192862501E-002 +1.5845817064E+002  +3.3211761597E-002 +1.8578701667E+001  +1.5859929383E+000 +1.0238602721E+002 
4889662.078 +4.0341134130E-001 +1.3083687481E+002  +3.0869897846E-002 -8.5907650791E+001  +5.4762415091E-002 -1.0232204236E+002  +2.1017025832E+000 -1.1780067067E+002 
5014807.259 +4.5182083995E-001 +1.2658300848E+002  +7.7423974699E-002 +1.1305088271E+002  +1.6028071493E-001 +1.1114965663E+002  +5.3994144766E+000 +1.0115755193E+002 
5139952.441 +4.1873042045E-001 +1.3119429264E+002  +4.8705240285E-002 +7.8195862221E+001  +3.4098392679E-002 -1.5531356741E+002  +3.2958700122E+000 +1.5045347619E+002 
5265097.622 +3.8683846912E-001 +1.2958841803E+002  +4.4726882363E-002 +5.1768127385E+001  +5.0085945713E-002 -1.4571240513E+001  +2.3962485495E+000 +3.5405158817E+001 
5390242.804 +4.0727426110E-001 +1.2726946034E+002  +5.2356967703E-002 +1.0978626653E+002  +1.6053296926E-002 +2.2328408861E+001  +1.3458044498E+000 +3.7848658688E+001 
5515387.985 +4.5844653918E-001 +1.2618881371E+002  +1.9851676570E-002 +5.6015015330E+001  +1.7626946063E-002 -1.7744541420E+002  +1.3354329565E+000 +1.2653656273E+002 
5640533.166 +4.9907601942E-001 +1.3401598063E+002  +3.0327425075E-002 +9.8929315531E+001  +1.0261551190E-002 +1.4000024018E+002  +2.7973947460E+000 +7.9514514066E+001 
5765678.348 +4.6755961867E-001 +1.2019107500E+002  +2.4678482524E-002 +7.7517145728E+001  +4.1363505511E-002 +8.2908535955E+001  +1.9876541131E+000 +6.5993864516E+001 
5890823.529 +5.3806547483E-001 +1.1224032455E+002  +1.4563897790E-002 +4.8703480917E+001  +5.0793192837E-003 +1.5951994514E+002  +2.0366779550E+000 +5.8418126558E+001 
6015968.711 +6.1273403699E-001 +1.2735132408E+002  +2.8470740451E-002 +2.8961483863E+001  +3.0126383628E-002 +5.5922997080E+001  +1.1901786285E+000 +2.4653235889E+001 
6141113.892 +6.7494484209E-001 +1.1309069284E+002  +2.9694555574E-002 +7.6409488834E+001  +1.8674729418E-002 +4.8731372849E+001  +1.4789400369E+000 +3.2039441896E+001 
6266259.074 +7.4282913632E-001 +1.1235953608E+002  +2.0566041655E-002 +1.2915565911E+001  +3.1382793923E-002 -1.1301598127E+001  +2.0070295886E+000 +1.8433797326E+001 
6391404.255 +1.0318664117E+000 +9.1342170525E+001  +4.7116703475E-002 +2.9924920931E+001  +6.4727886840E-003 -2.1429593523E+001  +1.5972594768E+000 +1.1233894675E+001 
6516549.437 +1.0478385453E+000 +8.8728949117E+001  +1.9934594030E-002 -1.3589016952E+001  +4.8772931663E-002 +6.5976629624E+001  +1.7871109219E+000 +4.7651670811E+000 
6641694.618 +1.6823506396E+000 +8.6668218355E+001  +4.3037717591E-002 +5.1109297687E+001  +3.2553900366E-002 +3.2175140782E+000  +1.3982867757E+000 -5.6457937065E+000 
6766839.800 +1.6700577966E+000 +4.4597195643E+001  +4.9939724849E-002 -3.2162773147E+001  +5.3912794524E-002 +2.9387765445E+001  +1.1829459848E+000 +5.8024016039E+000 
6891984.981 +1.7418268007E+000 +3.6873876176E+001  +4.3441685879E-002 +5.8436525567E+001  +4.1158871818E-002 +2.9214602300E+001  +1.4751051943E+000 -1.3492707634E+001 
7017130.163 +1.6950709429E+000 +1.3419704703E+001  +2.2186631856E-002 -1.5792831220E+001  +2.4754192673E-002 -1.0146340925E+001  +1.2645624038E+000 -2.8699890679E+000 
7142275.344 +1.5048494088E+000 +8.8840277570E+000  +1.4607786763E-002 +3.6011953885E+001  +2.0946741563E-002 +1.8552238291E+001  +1.2003802663E+000 -5.6458608296E+000 
7267420.526 +1.5779197034E+000 +7.2419682145E+000  +2.4503386239E-002 -1.2821061433E+001  +5.1080310993E-003 -3.1597774262E+001  +1.3504801448E+000 -1.6255608968E+001 
7392565.707 +1.2451363905E+000 -1.1504797744E+001  +1.2452530317E-002 +2.2800046870E+001  +2.1011924295E-002 +2.1360835537E+001  +1.3064719767E+000 -8.7729088386E+000 
7517710.889 +1.1293320222E+000 -3.6323915564E+000  +1.9006636685E-002 -1.2510469451E+000  +6.4859727459E-003 +4.1949231799E+001  +1.2123492905E+000 -8.4094977327E+000 
7642856.070 +9.9823891059E-001 -1.2285394575E+000  +1.4571115444E-002 -3.4028140671E+001  +1.1349203096E-002 -8.0609857765E-001  +1.0100900033E+000 -5.2454019336E-001 
7768001.252 +8.6480540730E-001 +4.8367602141E+000  +1.3181165611E-002 +5.5742542313E-001  +1.4101479674E-002 -1.4678154973E+001  +9.8764217688E-001 -6.9334448553E-002 
7893146.433 +8.2115238712E-001 +6.8749047890E+000  +8.7664997054E-003 -5.3548167553E+000  +1.6394977929E-002 +1.4650614234E+001  +8.3885484502E-001 -3.9828764889E+000 
8018291.615 +7.6341933884E-001 +6.6377307829E+000  +1.6412388742E-002 -2.1655498579E+001  +9.4988263494E-003 +2.0081257242E+001  +8.0763981619E-001 -1.5247398594E+000 
8143436.796 +8.0454401362E-001 +2.9098474600E+000  +1.0015093290E-002 +1.7992234166E+001  +6.0996166785E-003 +5.1235830110E+001  +8.2034537787E-001 -1.6225879616E+000 
8268581.977 +7.6273927266E-001 +9.5589115739E+000  +8.3039199179E-003 +1.2147502376E+001  +1.2032150873E-002 +7.4481487444E+000  +8.1028411393E-001 -8.4248586785E-001 
8393727.159 +7.0431863427E-001 +9.4863762012E+000  +8.5707324950E-003 -3.1622495928E+001  +1.0989808109E-002 +3.6577328609E+000  +7.4404037289E-001 +2.8883531461E+000 
8518872.340 +7.2639839478E-001 +1.0592223696E+001  +9.4612620298E-003 +1.3857980553E+001  +7.9915940938E-003 +7.2560303054E+000  +7.3259995035E-001 +1.6350989325E+000 
8644017.522 +6.7912989650E-001 +1.2071856634E+001  +1.1792105942E-002 -3.3348730693E+000  +1.4279980855E-002 +7.2601338753E+000  +6.5051638411E-001 -2.3749949667E+000 
8769162.703 +5.9722262686E-001 +4.8835610580E+000  +1.2812782800E-002 -7.9435912350E+000  +1.1429769683E-002 +3.0833462508E+001  +6.6783920813E-001 -5.6118376573E+000 
8894307.885 +5.8789954803E-001 +7.6087699977E+000  +7.3770105766E-003 -3.6688284804E+001  +8.2144268788E-003 +1.5925740021E+001  +6.2141768978E-001 +4.2693241068E+000 
9019453.066 +5.4257221916E-001 +9.7420530103E+000  +1.0653093563E-002 -4.3858428893E+000  +6.3961228439E-003 +6.5843533477E+000  +6.8828722117E-001 -4.6931285520E-001 
9144598.248 +5.5828826733E-001 +9.8740233995E-001  +6.1947018678E-003 -2.8957017737E+000  +6.2918623860E-003 +1.2949843738E+001  +6.2723636816E-001 +3.9575573936E-001 
9269743.429 +5.4707879141E-001 +6.4120935393E+000  +6.8300961361E-003 -1.2969283373E+001  +8.4408411410E-003 +3.2647162002E+001  +5.7140100557E-001 -3.0579229168E+000 
9394888.611 +5.3956507184E-001 +1.9898688319E+000  +6.8537643484E-003 -1.2244740516E+001  +9.3777318631E-003 +2.6192848878E+000  +5.8459374271E-001 -5.2072958416E+000 
9520033.792 +5.3959173476E-001 +6.4498292810E+000  +7.8469910549E-003 -6.8772897373E+000  +8.2453349936E-003 -2.8889837385E+000  +5.9988487677E-001 -2.6448620564E+000 
9645178.974 +5.3220989388E-001 +5.2996648454E+000  +9.0017784501E-003 -2.8811239392E+001  +7.6562664117E-003 +8.5829394491E+000  +5.7862145902E-001 -1.4785689969E+000 
9770324.155 +5.6389384024E-001 +2.7440405401E+000  +1.1445372629E-002 -8.6792115394E+000  +8.4140548503E-003 +3.3197754216E+001  +5.6228483386E-001 -1.5130434287E+000 
9895469.337 +5.2101015702E-001 +2.4751345375E+000  +1.0087752603E-002 -1.8338888361E+001  +1.1281548332E-002 +2.5255050550E+001  +5.8349995654E-001 -2.8323401994E+000 
10020614.518 +4.9963910753E-001 +3.1685424226E+000  +1.0205319883E-002 +8.1033108271E+000  +8.0415737220E-003 +1.9517192589E+001  +6.0475777257E-001 -5.0923602470E+000 
10145759.700 +5.3771664336E-001 +6.1793744516E+000  +7.9517169242E-003 -1.2496687820E+001  +9.5944792457E-003 +1.7638001624E+001  +5.6515559987E-001 -1.0344809029E+001 
10270904.881 +5.3323541742E-001 +6.0881069302E+000  +8.0092394628E-003 -1.2368822223E+001  +8.4716158508E-003 +3.4456973450E+000  +5.5303775559E-001 -3.5232617232E+000 
10396050.063 +5.5845111085E-001 +6.3306079191E+000  +8.0897183054E-003 +1.7502936444E+001  +9.2607143894E-003 +1.9219637054E+001  +5.6868177380E-001 -4.0804736775E-001 
10521195.244 +5.2519492490E-001 +5.5189757968E+000  +1.0056982230E-002 +8.8859217092E+000  +9.5111566968E-003 +4.7240376305E+000  +6.0249746600E-001 +1.6691672445E+000 
10646340.426 +5.8490926729E-001 +6.2722752993E+000  +9.5565350704E-003 +3.4604563705E+000  +8.2106476906E-003 +1.4423613978E+001  +5.7187546356E-001 -2.7794713834E+000 
10771485.607 +5.7620434795E-001 +8.1852165465E+000  +8.2858326547E-003 +8.8213084548E+000  +8.9639604143E-003 +2.7988094110E+001  +6.1301310363E-001 -2.2390691614E+000 
10896630.788 +5.9246685777E-001 +8.8527884264E+000  +9.5666141943E-003 +6.7381947519E+000  +1.2024603900E-002 +1.6332592562E+001  +5.9107777201E-001 +7.8867217829E-001 
11021775.970 +5.5113064957E-001 +8.1863689566E+000  +9.0561068548E-003 +4.8877502143E+000  +8.6990677024E-003 +2.9928891163E+001  +6.3679695160E-001 +2.0213680300E+000 
11146921.151 +5.9808482766E-001 +5.2817397136E+000  +9.8840503411E-003 +9.9896781016E+000  +9.9692210611E-003 +1.4231502773E+001  +6.2932587854E-001 +1.9669723192E+000 
11272066.333 +6.0935893629E-001 +8.5950170080E+000  +1.0454905161E-002 +1.1133376161E+001  +1.1494055488E-002 +2.1572152683E+001  +6.0427791390E-001 +2.0507280310E+000 
11397211.514 +6.3774250751E-001 +4.1884999277E+000  +7.4093090143E-003 +7.5596943076E-001  +1.1922099020E-002 +2.6717926284E+001  +6.5306873670E-001 +2.4414010541E+000 
11522356.696 +5.9220375172E-001 +6.9493909908E+000  +8.9707861523E-003 +3.3998762147E+000  +1.1118657053E-002 +4.6066094950E+000  +6.5695638459E-001 +2.7513214128E+000 
11647501.877 +6.5218447043E-001 +5.4409900857E+000  +1.2411951962E-002 +6.9863972963E+000  +8.7076775281E-003 +1.2151033700E+001  +6.6622883959E-001 +2.5059483486E+000 
11772647.059 +6.6810541177E-001 +5.5548206664E+000  +7.8946783166E-003 +8.5637122478E+000  +7.9143620491E-003 +1.2701197489E+001  +6.6641675688E-001 +2.0287130578E+000 
11897792.240 +6.6129725323E-001 +6.0214423077E+000  +9.5135248899E-003 +2.5057907239E+000  +1.1997674254E-002 +9.6409287852E+000  +6.8345340927E-001 +1.4406454478E+000 
12022937.422 +6.6614910675E-001 +3.3392542682E+000  +9.2693844297E-003 -2.7121629957E+000  +8.2927279450E-003 +2.7228094545E+001  +6.7992507524E-001 +1.2284556750E+000 
12148082.603 +6.7625001945E-001 +5.5639518588E+000  +1.0203231976E-002 +3.4734664848E+000  +1.0523611889E-002 +5.1736048461E+000  +6.8496731712E-001 +1.8136151340E+000 
12273227.785 +6.8070509231E-001 +4.5530986206E+000  +1.0274515621E-002 +1.1014850700E+001  +9.3282443602E-003 +1.6062873411E+001  +7.0482793133E-001 -7.0274675177E-001 
12398372.966 +7.1816683762E-001 +2.2097837682E+000  +8.6631533253E-003 -1.1580837229E+000  +9.7275850583E-003 +1.7617433681E+001  +7.0383858914E-001 +3.2162065182E-001 
12523518.148 +7.0343715532E-001 +2.0073329703E+000  +1.0418816923E-002 +4.9632034780E+000  +1.0650102227E-002 +1.5707795874E+001  +7.4083456765E-001 +1.5359183068E+000 
12648663.329 +7.7469269245E-001 +2.6820787851E+000  +1.0597668445E-002 -9.5324952826E-001  +1.2622503668E-002 +4.6533130778E+000  +7.5601734354E-001 +1.1139798182E+000 
12773808.511 +7.5421120866E-001 +3.1628331825E+000  +1.2492523913E-002 +8.0346303390E+000  +1.1392705435E-002 +1.4844465770E+001  +7.5757046682E-001 -3.0407962348E+000 
12898953.692 +7.6839032779E-001 +2.0126161238E+000  +1.2443868428E-002 +2.4606419678E+000  +1.2197948267E-002 +1.3116585117E+001  +7.7654041789E-001 -1.3801083828E+000 
13024098.874 +7.7348131155E-001 -1.4232384382E-001  +1.1342253991E-002 -3.5410536748E+000  +1.3309587066E-002 +1.6596093915E+001  +7.8373963124E-001 -1.8435676148E+000 
13149244.055 +7.9681921853E-001 +8.6633091974E-001  +1.0152835009E-002 +9.8216664379E+000  +9.2440144325E-003 +2.0179913569E+001  +8.2729676550E-001 -3.1721287969E+000 
13274389.237 +7.9269344128E-001 +2.1321733426E-001  +1.1179109034E-002 +2.3879826336E+000  +1.0650679761E-002 +9.9223656621E+000  +8.3710238243E-001 -1.5514054735E-001 
13399534.418 +8.2798152543E-001 -5.1945438634E-001  +1.2483964549E-002 +1.7963939054E+000  +1.2200650085E-002 +1.3777287749E+001  +8.4517335322E-001 -3.0893262321E+000 
13524679.599 +8.4594021370E-001 -1.9784827743E+000  +1.1084584638E-002 +9.3823351889E+000  +1.2474748536E-002 +9.5002734905E+000  +8.6524420217E-001 -3.3430561358E+000 
13649824.781 +8.6372363596E-001 -2.9942346336E+000  +9.3258433892E-003 +8.4956210953E+000  +1.1648042381E-002 +1.2983900362E+001  +8.6726831927E-001 -3.4267726034E+000 
13774969.962 +8.8399669375E-001 -1.7936263213E+000  +1.0776357738E-002 +1.0297988374E+001  +1.2378758321E-002 +1.4843031240E+001  +9.0319579320E-001 -3.9246901636E+000 
13900115.144 +8.9132831535E-001 -3.5588424197E+000  +1.1763187095E-002 +6.0801028692E+000  +1.1701109361E-002 +1.1398064753E+001  +9.1827580513E-001 -3.0623821234E+000 
14025260.325 +9.0862116525E-001 -2.3778048353E+000  +1.1420136568E-002 +4.5256990512E+000  +1.2846164729E-002 +5.3856098867E-001  +9.4334669598E-001 -3.7052881383E+000 
14150405.507 +9.1801978808E-001 -4.2076298987E+000  +1.2068736448E-002 +5.8979542121E+000  +1.1077512354E-002 +6.3592725159E+000  +9.6353701478E-001 -5.0863692946E+000 
14275550.688 +9.6408252104E-001 -6.3642179054E+000  +1.1009394537E-002 +3.3481127074E+000  +1.2360025409E-002 +2.7327244747E+000  +9.7288477745E-001 -4.0160585775E+000 
14400695.870 +9.8018417215E-001 -5.2878502556E+000  +1.3029837572E-002 +4.3328462407E+000  +1.1966569456E-002 +4.6318001063E+000  +9.8539515248E-001 -4.0969383854E+000 
