!  2-Port S-parameters saved by WinCal
! VAR MeasName=S-Parameters (CALIBRATED_DATA) read from VNA (P5004A)
! VAR MeasDate=29/08/2024 11:51:07
! VAR NAME=S2_r9c4_RESET2_9k-100M_2
! VAR FILENAME=S2_r9c4_RESET2_9k-100M_2.S2P
! VAR DATE=29/08/2024 11:51:07
! VAR PHYS_PORTS=1,2
! VAR ObjTypeName=DATASET
! VAR IndexType=Frequency
!
# Hz S MA R 50
9000.000 +7.4406036204E-002 -1.7301128597E+002  +6.2854862918E-003 +1.1536775776E+002  +6.0697186107E-003 -1.1620745814E+002  +2.2284491224E-001 -1.3074468231E+002 
134145.181 +1.1192167190E-001 +1.7008903108E+002  +4.1419030091E-004 +1.5771627383E+002  +2.5562337472E-004 +1.6243553968E+002  +2.4132977479E-001 -1.7019716128E+002 
259290.363 +1.1288802897E-001 +1.7008047449E+002  +8.9512517785E-004 +1.2685590356E+002  +4.7821032125E-004 +1.0673221493E+002  +2.4207534709E-001 -1.6938744062E+002 
384435.544 +1.1442463642E-001 +1.6973381199E+002  +7.0549945962E-004 -1.6186165148E+002  +1.2662740263E-004 +1.7392060944E+002  +2.4606911256E-001 -1.6970183403E+002 
509580.726 +1.1381177574E-001 +1.7102895051E+002  +7.5117500472E-004 +1.7282008343E+002  +1.7233238490E-003 -6.0028141473E+001  +2.3791686604E-001 -1.6297520105E+002 
634725.907 +1.1721818825E-001 +1.7160089481E+002  +2.5822832383E-004 +2.8810401180E+000  +8.8444261659E-004 +1.2722343320E+002  +2.4098008713E-001 -1.6450125655E+002 
759871.089 +1.2026525026E-001 +1.7129127272E+002  +6.5739221185E-004 +1.4004609271E+002  +1.6069940969E-003 +5.2804583262E+001  +2.6302200418E-001 -1.6416282774E+002 
885016.270 +1.1888553643E-001 +1.6957746753E+002  +5.8083984260E-004 -8.2411706301E+001  +4.8557798650E-004 -2.9011848830E+001  +2.4170034481E-001 -1.6657414463E+002 
1010161.452 +1.1503951520E-001 +1.7132599296E+002  +9.8567368029E-004 +1.5019469810E+002  +1.3690532229E-003 +1.7546602176E+002  +2.1135510169E-001 -1.6969996920E+002 
1135306.633 +1.1913669850E-001 +1.6998572966E+002  +1.6419042686E-003 -1.3510937013E+002  +2.4481369959E-003 -1.7307935224E+001  +1.8747279559E-001 -1.7716661347E+002 
1260451.815 +1.1814131571E-001 +1.7158625804E+002  +2.9568713867E-003 -2.0443575256E+001  +1.2673522086E-003 -1.7415075546E+002  +2.0959321428E-001 -1.5904864839E+002 
1385596.996 +1.2467425834E-001 +1.7236134217E+002  +2.1635711190E-003 -7.2510040133E+001  +4.9392745362E-004 +3.9536603451E+001  +2.6089449713E-001 -1.5068037635E+002 
1510742.178 +1.2968951526E-001 +1.7131334091E+002  +4.4406970378E-004 +4.5148625549E+001  +1.0952460516E-004 -3.8580859256E+001  +2.6002577218E-001 -1.5752220320E+002 
1635887.359 +1.2880963948E-001 +1.6956686126E+002  +8.4636492572E-004 +5.6396124866E+001  +5.1091897912E-004 +1.5369304459E+002  +2.4091998417E-001 -1.5904914598E+002 
1761032.541 +1.3000502219E-001 +1.6932397697E+002  +1.6055295159E-004 -1.4377709416E+002  +1.6023311285E-003 -1.4048835424E+002  +2.3271352446E-001 -1.5795323046E+002 
1886177.722 +1.2739347362E-001 +1.6853214879E+002  +1.4607149423E-004 -6.5904684691E+001  +1.0305281330E-003 -1.1710130603E+002  +2.1695209513E-001 -1.5922097693E+002 
2011322.904 +1.3388658358E-001 +1.6870544618E+002  +1.3145707547E-003 +2.0824652907E+001  +1.9157470384E-003 +4.4766140974E+001  +2.0757315772E-001 -1.6571267818E+002 
2136468.085 +1.2935077624E-001 +1.6709556342E+002  +9.6406722465E-003 +6.8384146515E+001  +4.2750427299E-003 -3.4507673618E+001  +1.1929671014E-001 -1.3909027690E+002 
2261613.267 +1.3390882642E-001 +1.6368354506E+002  +6.8254591487E-004 -9.0510548303E+001  +1.7963673144E-003 -1.1433342002E+002  +2.0870487315E-001 -1.7006169517E+002 
2386758.448 +1.3730281090E-001 +1.6274970997E+002  +3.1539824419E-003 +8.0986042853E+001  +4.5097401249E-003 -1.8965584173E+001  +2.1384233369E-001 +1.5588585444E+002 
2511903.630 +1.3479016725E-001 +1.6034015483E+002  +4.9978739585E-003 +1.1974311305E+002  +1.5155186981E-003 -3.6788365154E+000  +2.8775063436E-001 +1.4986245450E+002 
2637048.811 +1.1495061830E-001 +1.6192743893E+002  +7.9536800750E-003 +7.9831405740E+001  +1.3849555379E-002 +6.0402988139E+001  +4.3362490330E-001 +1.2668021843E+002 
2762193.992 +1.0002176119E-001 +1.7111108493E+002  +2.8032452001E-002 +5.7384260644E+001  +8.4514580437E-003 -3.1852717355E+001  +1.9769370392E-001 +3.9670579555E+001 
2887339.174 +1.1787255512E-001 +1.7351631940E+002  +7.2463083746E-003 -2.5426952586E+001  +9.2486757948E-003 +1.5576040813E+002  +2.6581055200E-001 -9.0486174971E+001 
3012484.355 +1.3958925216E-001 +1.6975696056E+002  +2.0088592846E-003 -5.8273907579E+001  +1.8089495881E-003 +1.3482610313E+002  +1.7354414542E-001 -1.4503762161E+002 
3137629.537 +1.2024096089E-001 +1.7694012967E+002  +1.6850087356E-002 +1.3823377733E+001  +1.7025705626E-002 -1.6745073918E+002  +1.4414814993E-001 -8.6692407949E+000 
3262774.718 +1.4809193993E-001 +1.6151947313E+002  +3.0788547678E-002 +7.8414122383E+001  +3.6038446685E-002 +2.9574656707E+001  +1.3026048392E+000 +7.2679755900E+001 
3387919.900 +1.1895080546E-001 +1.6356116294E+002  +1.8133044408E-002 +9.2505852655E+001  +1.5583867381E-002 -6.3568529524E+001  +2.0990863739E-001 +4.9599600403E+001 
3513065.081 +1.1237265995E-001 +1.6006224927E+002  +7.1189815781E-002 -1.2591295979E+002  +5.4247253473E-002 -1.0105564773E+002  +2.5548216768E+000 -1.6212963257E+002 
3638210.263 +1.6523360935E-001 +1.5276808541E+002  +7.9530244290E-003 +8.6825235898E+001  +6.2264502020E-003 +1.4671394022E+001  +3.7291681681E-001 +1.3774528563E+002 
3763355.444 +1.7874047843E-001 +1.3795115599E+002  +1.3567517391E-003 -1.7590471042E+002  +7.3894169410E-003 +4.8253481829E+001  +3.2921105896E-001 +1.3806829006E+002 
3888500.626 +1.6025365761E-001 +1.3087678351E+002  +9.1987314827E-003 +7.8838903846E+001  +4.8869120674E-003 +4.4933848435E+001  +3.7167426244E-001 +1.3137184427E+002 
4013645.807 +1.9002249351E-001 +1.4692684489E+002  +6.4029673939E-003 +4.2728922856E+001  +4.6389863074E-003 +7.5353299905E+000  +3.9684229605E-001 +1.0941554010E+002 
4138790.989 +1.4999714100E-001 +1.3781823766E+002  +3.2767144071E-002 +1.1186932665E+002  +2.5251596535E-002 +6.1046287727E+001  +1.0357972095E+000 +1.2777167196E+002 
4263936.170 +2.0651980890E-001 +1.3457950418E+002  +1.9791434620E-003 +8.5928267849E+001  +3.5495713554E-003 +1.6639629041E+002  +3.9757873608E-001 +1.3075526592E+002 
4389081.352 +2.0491068238E-001 +1.2396782448E+002  +2.2458132123E-002 +1.5035096351E+002  +2.1539044828E-002 +6.2024713942E+001  +7.1778671638E-001 +1.3305839259E+002 
4514226.533 +2.5217098295E-001 +1.3758578268E+002  +2.7776794573E-002 +1.2556221782E+002  +7.6813866934E-003 +8.5240528129E+001  +8.7316291876E-001 +1.2645564174E+002 
4639371.715 +3.3748247753E-001 +1.3483509723E+002  +1.0862280608E-002 +1.6956044189E+002  +3.6479221532E-002 +1.4632439894E+002  +2.2072203563E+000 +1.0812080631E+002 
4764516.896 +2.9963759744E-001 +1.2247046522E+002  +5.9149588854E-002 -1.2187757741E+002  +8.5420873072E-002 -1.6521309753E+002  +3.1583381886E+000 -1.6026130026E+002 
4889662.078 +5.4343277040E-001 +1.3102491636E+002  +2.7538210007E-002 -7.7635928260E+001  +3.0903012531E-002 -1.5518926392E+002  +1.9377443821E+000 -1.5086624151E+002 
5014807.259 +4.3127861866E-001 +1.3336760357E+002  +8.7394509934E-002 -6.6661767714E+001  +7.5113713653E-002 -1.1436506181E+002  +3.4455549105E+000 -1.4195681892E+002 
5139952.441 +4.1358023429E-001 +1.3232823277E+002  +5.6239052797E-002 +1.3717209557E+002  +2.4152599266E-002 -1.4752831885E+002  +3.2549598380E+000 +9.2322345459E+001 
5265097.622 +3.8650443189E-001 +1.2388876447E+002  +6.1850463990E-002 +8.5740988707E+001  +3.8213500191E-002 +8.1003246527E+001  +1.5100797463E+000 +7.4292447166E+001 
5390242.804 +4.5638449872E-001 +1.2402831483E+002  +6.5728544314E-002 +1.3038857113E+002  +4.2600484127E-002 +1.2492758144E+002  +2.3511336272E+000 +1.0218283122E+002 
5515387.985 +3.8120764026E-001 +1.2974314950E+002  +2.7251790746E-002 +6.0180490318E+001  +6.5615700163E-002 +1.5641572979E+001  +2.2114759267E+000 +8.2491332274E+001 
5640533.166 +3.8774440417E-001 +1.2503070012E+002  +1.2075403503E-002 +8.7217575471E+001  +6.0857381038E-002 +8.6446837678E+001  +2.6701879077E+000 +1.0775167432E+002 
5765678.348 +5.2507777593E-001 +1.2689213670E+002  +2.4804933336E-002 +1.2515065706E+002  +2.9695893466E-002 +8.8895827391E+001  +1.9897614226E+000 +1.0277477142E+002 
5890823.529 +5.5293862352E-001 +1.2247092986E+002  +3.9856317257E-002 +6.4231341240E+001  +3.2439864330E-002 +1.3768817838E+001  +1.7221132608E+000 +3.1668062140E+001 
6015968.711 +6.7918881154E-001 +1.0970022761E+002  +3.3948817405E-002 +6.2278768484E+001  +4.6929820298E-002 +4.4523551317E+000  +1.3937731943E+000 +3.2710357938E+001 
6141113.892 +7.0845187905E-001 +1.1547281637E+002  +3.4598130285E-002 +4.6862236473E+001  +3.8220793012E-002 +4.5908986932E+001  +2.1128053462E+000 +3.9304398038E+001 
6266259.074 +8.7910528176E-001 +1.0128071286E+002  +4.7402833240E-002 +7.3917113942E+001  +3.8346415536E-002 +2.7645149588E+001  +1.4703760395E+000 +2.5384316924E+001 
6391404.255 +8.9556584492E-001 +9.6215842768E+001  +2.7520290418E-002 +4.6494103332E+001  +6.4392756709E-002 +2.9937545265E+001  +1.4213895511E+000 +2.5566214004E+001 
6516549.437 +9.7331106849E-001 +9.0406032931E+001  +6.1080758187E-002 +2.0236218454E+001  +6.3223608138E-002 +7.1468227716E+000  +1.7923324140E+000 +1.2459517049E+001 
6641694.618 +1.5237922315E+000 +8.1765802516E+001  +5.1898808581E-002 +2.2693117252E+001  +4.9509894481E-002 +1.9325951692E+001  +1.1963854862E+000 +2.5604732727E+001 
6766839.800 +1.7359098727E+000 +6.3500771195E+001  +7.6210294407E-002 +3.4669371667E+001  +8.2328728492E-002 -8.5518474668E+000  +1.5092205186E+000 +5.4720229575E+000 
6891984.981 +1.8878972466E+000 +4.1844579812E+001  +4.8413229412E-002 +1.6588108306E+001  +2.8119605097E-002 -3.7423714687E+001  +1.3834782058E+000 -4.6261352468E+000 
7017130.163 +1.4740698994E+000 +1.6551155625E+001  +5.0742165639E-002 -5.9637183382E+000  +4.5655811301E-002 -1.4669212409E+000  +1.2695040653E+000 -1.5310511763E+001 
7142275.344 +1.9552378841E+000 +1.8511968982E+000  +5.1555048456E-002 +4.5383205317E+000  +2.9840077182E-002 +1.8960439179E+001  +1.2963946176E+000 -1.7195007918E+001 
7267420.526 +1.3295324009E+000 +6.8729346024E+000  +3.3035530028E-002 +1.0518867429E+001  +2.3439340478E-002 +3.4338625174E+000  +1.2307790618E+000 -9.6484243190E+000 
7392565.707 +1.3219442772E+000 -3.6267419006E+000  +2.3389408780E-002 +4.2997372403E+000  +2.2337258506E-002 +1.2485218093E+001  +1.2271910574E+000 -8.7035845623E-001 
7517710.889 +1.2044927405E+000 +1.3818453953E+000  +2.0278042689E-002 +1.5933214378E+001  +1.5150059312E-002 +1.5424375075E+001  +1.1565876817E+000 -9.1890106249E+000 
7642856.070 +1.0549583948E+000 -1.6849521862E+000  +2.6704978332E-002 +1.5244825725E+001  +3.0435065942E-002 +1.9161333351E+001  +9.9329463285E-001 -2.5206048158E+000 
7768001.252 +8.8929141232E-001 +3.2130836663E+000  +2.2980479261E-002 -4.6261635382E+000  +2.2218546906E-002 +8.1691415525E+000  +1.0311655279E+000 -3.2905553424E+000 
7893146.433 +9.5297211050E-001 +2.7812452480E+000  +1.7919653341E-002 +6.9893670320E+000  +2.0045347610E-002 +8.8832931905E+000  +8.7248857699E-001 -6.2123298330E+000 
8018291.615 +7.9776472712E-001 +1.0993433217E+001  +1.9458639936E-002 +1.4845087031E+001  +2.7091105308E-002 +2.6801806377E+001  +8.9255680860E-001 -8.3242091203E-001 
8143436.796 +7.9661301364E-001 +1.4322691649E+000  +1.4521620596E-002 -8.5575705355E+000  +1.8157290551E-002 +3.0782323257E+000  +8.7891589035E-001 +1.2018074470E+000 
8268581.977 +7.4181767512E-001 +7.2807562320E+000  +1.9439678261E-002 +3.8544976416E+000  +1.6695757149E-002 -8.7049306155E+000  +7.3667940172E-001 +5.8298753161E+000 
8393727.159 +6.1191112774E-001 +3.6493682668E+000  +1.2849570698E-002 +2.2832221318E+000  +2.0289345278E-002 +1.8170318217E+001  +6.6257898946E-001 +3.4002906288E+000 
8518872.340 +6.6056195878E-001 +1.3889413512E+001  +1.5388528765E-002 +4.2156533442E+000  +1.6622699734E-002 +2.0078097274E+001  +7.5937308429E-001 -5.6217829323E-001 
8644017.522 +6.3562643159E-001 +5.5965705141E+000  +1.7342131801E-002 +2.2342810984E+000  +1.8737652478E-002 +1.3584965488E+001  +6.4926990404E-001 +3.6462529264E+000 
8769162.703 +6.3287705598E-001 +4.5793292633E+000  +1.9244979153E-002 +1.1340844819E+001  +1.7512459044E-002 +9.1720540893E+000  +6.8330563649E-001 +3.1410120593E+000 
8894307.885 +5.9668537435E-001 +1.0448240609E+001  +1.8033074135E-002 -7.9754656307E+000  +1.4718928463E-002 +2.1200493004E+001  +6.6661361077E-001 +1.1684488010E+000 
9019453.066 +6.1265664143E-001 +8.3928854104E+000  +1.5861139527E-002 +4.0112113928E+000  +2.2331289238E-002 +1.0928629378E+001  +6.4474439548E-001 +4.4296271896E+000 
9144598.248 +5.3928366055E-001 +2.6532709330E+000  +1.7125616512E-002 +5.4508139489E+000  +1.8255177832E-002 -2.1595849691E+000  +6.1775432179E-001 -4.7527951027E+000 
9269743.429 +5.8401145023E-001 +3.7051882102E+000  +1.8131515950E-002 -8.1118117545E+000  +2.0730048003E-002 -8.6594762788E+000  +6.2725939495E-001 -2.7110465076E+000 
9394888.611 +5.3195978849E-001 -3.9424202797E-001  +1.7568142010E-002 -1.5923100754E-001  +1.9179886972E-002 +1.9019959930E+001  +6.1704834911E-001 -3.2594986665E+000 
9520033.792 +5.3487920094E-001 +2.2106950952E+000  +1.6722550553E-002 -1.2040248120E+001  +1.9360879602E-002 +1.1921104629E+001  +5.7785092366E-001 -6.0826599612E+000 
9645178.974 +4.9931541903E-001 +1.5248484757E+001  +1.5538259989E-002 -2.5252298424E+000  +1.8259679610E-002 +9.6946097757E+000  +5.3315501363E-001 -8.3457342111E+000 
9770324.155 +4.9679127596E-001 +2.5542841210E+000  +1.9006454066E-002 -6.0195580598E+000  +1.6332032894E-002 +1.9195819987E+001  +5.7421512325E-001 -5.0183838204E+000 
9895469.337 +5.2741765870E-001 +1.9773578390E+000  +1.5201367705E-002 -9.1822424757E+000  +1.8302497896E-002 +1.9654815236E+001  +5.5993935036E-001 -6.5370700515E+000 
10020614.518 +5.6697862943E-001 +2.7864688820E+000  +1.7803087062E-002 +4.2798218758E+000  +1.6725710836E-002 +1.6099843016E+001  +5.7498587654E-001 -1.3928395369E+000 
10145759.700 +4.8877416726E-001 +8.6841439358E+000  +1.6684837793E-002 +3.9873084555E+000  +1.8111846378E-002 +1.1893791732E+001  +5.6713878375E-001 -2.3678030791E+000 
10270904.881 +5.6000853586E-001 +5.9855883139E+000  +1.8311335120E-002 +2.5719742628E+000  +1.6130690937E-002 +9.9613453961E+000  +5.2767339553E-001 +1.8518296326E+000 
10396050.063 +5.5448186096E-001 +4.9573126240E+000  +1.5020568245E-002 -5.2348881899E+000  +1.9049921701E-002 +1.9227774346E+001  +5.2805960610E-001 -2.3305639510E+000 
10521195.244 +5.1443364048E-001 +9.0712377390E+000  +1.7531077553E-002 +4.4804648541E+000  +1.7582693562E-002 +1.4496921545E+001  +5.8357299382E-001 -1.0627452330E+000 
10646340.426 +5.3982816087E-001 +7.0812141456E+000  +1.9244879238E-002 -3.8385405914E-001  +1.9958576028E-002 +2.0229180266E+001  +6.0347664474E-001 +3.6330436121E+000 
10771485.607 +5.3617963281E-001 +7.9432310722E+000  +1.7742095005E-002 +1.1125694690E+000  +1.5474206986E-002 +2.1034641215E+001  +5.7040092579E-001 +3.7692653362E+000 
10896630.788 +5.6525210387E-001 +6.3033151372E+000  +1.8301501750E-002 +1.3516477765E+000  +1.8042520324E-002 +2.2918453324E+001  +5.9998939752E-001 -1.7255572676E+000 
11021775.970 +5.8882241198E-001 +6.2311945926E+000  +1.8945810006E-002 +4.4860571308E+000  +2.0331661287E-002 +1.8951358662E+001  +6.2306296515E-001 +4.4664845387E+000 
11146921.151 +5.6984181844E-001 +8.2164283646E+000  +1.9132506615E-002 +5.9613958400E+000  +1.7961120279E-002 +2.0435726153E+001  +6.2075809323E-001 -1.8336020623E+000 
11272066.333 +5.7476142125E-001 +6.5216196409E+000  +1.9838399904E-002 +4.4328144047E+000  +1.9690543906E-002 +1.5648246361E+001  +6.4006646837E-001 +1.0731047467E+000 
11397211.514 +6.2818545453E-001 +5.3292166720E+000  +1.9479486468E-002 +1.6025998188E+000  +1.6807008242E-002 +1.6742551386E+001  +6.3960831346E-001 +5.2520480663E-001 
11522356.696 +6.0308106150E-001 +6.3113454888E+000  +1.9492256186E-002 -5.3567342545E-001  +1.8842583667E-002 +1.4632319067E+001  +6.2749191826E-001 +2.2064772272E+000 
11647501.877 +6.4966595974E-001 +5.9326914655E+000  +1.9324495735E-002 +4.6546472995E+000  +1.9038121074E-002 +9.8291155878E+000  +6.6186174623E-001 +2.5189429230E+000 
11772647.059 +6.3274721522E-001 +6.6455679639E+000  +1.8165842207E-002 -2.6226348199E+000  +1.9959461042E-002 +2.0837017526E+001  +6.4947770979E-001 +1.4207501312E+000 
11897792.240 +6.3780421301E-001 +5.7107604330E+000  +2.0224530765E-002 -3.8282170467E+000  +1.9197857207E-002 +2.3914214656E+001  +6.8699586993E-001 +1.6420575243E+000 
12022937.422 +6.5765369364E-001 +4.1887177643E+000  +2.0086945746E-002 +4.3310022943E+000  +2.0196313962E-002 +8.9779651197E+000  +6.7912386099E-001 +1.2704158093E+000 
12148082.603 +6.6286482775E-001 +4.1866570014E+000  +2.1494001558E-002 +3.9960523900E+000  +2.1223567112E-002 +1.4822346521E+001  +6.7784758239E-001 +1.9870447684E+000 
12273227.785 +6.6505002553E-001 +4.5889519295E+000  +2.0532010079E-002 +6.0738687697E+000  +1.9018506600E-002 +9.8597744073E+000  +6.9378063235E-001 +7.6353757960E-001 
12398372.966 +7.0137707477E-001 +1.5525336443E+000  +2.1663689908E-002 +4.1164837109E+000  +2.1872356278E-002 +9.8871687243E+000  +6.9726499805E-001 +3.7319118417E-002 
12523518.148 +7.1534964445E-001 +3.4591083726E+000  +2.2253979766E-002 +7.1396638870E+000  +2.0623853575E-002 +1.0292925180E+001  +7.0641079166E-001 +7.0824049629E-001 
12648663.329 +7.2989564758E-001 +2.1500571812E+000  +2.1543389026E-002 +4.7313256958E+000  +2.1551993220E-002 +1.1139833694E+001  +7.5856834301E-001 +4.9395268064E-001 
12773808.511 +7.2043821688E-001 +8.9741374786E-001  +2.2679436515E-002 +6.9722692272E+000  +2.1842323671E-002 +1.4518941649E+001  +7.5241079019E-001 -7.0895664104E-001 
12898953.692 +7.3259012663E-001 +1.2690678781E+000  +2.1385103787E-002 +7.7332241046E+000  +2.0432600913E-002 +1.2203927253E+001  +7.7263938177E-001 -1.5239199885E+000 
13024098.874 +7.4466376236E-001 +1.3246517063E+000  +2.0505150652E-002 +7.2771879966E+000  +2.1373580683E-002 +1.2729859623E+001  +7.8171774257E-001 -9.6507956800E-001 
13149244.055 +7.9111353918E-001 -1.6303104973E+000  +2.4453707477E-002 +6.3178611185E+000  +2.2459214763E-002 +9.7966477579E+000  +7.9698506091E-001 -1.9098290185E+000 
13274389.237 +7.9597798757E-001 -1.1032568220E+000  +2.1773614339E-002 +5.7750952200E+000  +2.3105920390E-002 +9.9129211384E+000  +8.1053991491E-001 -2.0474070548E+000 
13399534.418 +8.2183290869E-001 -1.1263629793E+000  +2.2737293958E-002 +6.3169230961E+000  +2.2763639277E-002 +7.8099039679E+000  +8.4577089051E-001 -2.3153069527E+000 
13524679.599 +8.4052434353E-001 -2.8552668278E+000  +2.1819295764E-002 +2.8422488605E+000  +2.2154863329E-002 +6.8026159255E+000  +8.3245138049E-001 -4.2912139482E+000 
13649824.781 +8.4474214102E-001 -2.2441166817E+000  +2.3594564262E-002 +7.8977412108E+000  +2.2246586223E-002 +6.6818583177E+000  +8.6333796409E-001 -3.0828392305E+000 
13774969.962 +8.8103325233E-001 -2.8757362047E+000  +2.2532927946E-002 +5.6113036832E+000  +2.2836115985E-002 +8.1566855073E+000  +8.9627877829E-001 -2.4811222645E+000 
13900115.144 +8.8592111199E-001 -2.9833246032E+000  +2.3671523516E-002 +5.5967456266E+000  +2.1658881896E-002 +1.0534346845E+001  +8.9623005352E-001 -5.2774575448E+000 
14025260.325 +9.2029151387E-001 -4.1835628268E+000  +2.2089497649E-002 +8.1639455287E+000  +2.4847003710E-002 +8.7652436183E+000  +9.2099695956E-001 -3.8059669379E+000 
14150405.507 +9.2591001905E-001 -4.9059775058E+000  +2.2679593287E-002 +3.6646458220E+000  +2.2964643839E-002 +8.6840353566E+000  +9.3599633039E-001 -4.6017289067E+000 
14275550.688 +9.3357081538E-001 -5.6859499833E+000  +2.2504516635E-002 +3.4862209790E+000  +2.3303390629E-002 +7.9142583320E+000  +9.4890698261E-001 -3.7601900453E+000 
14400695.870 +9.3958051228E-001 -5.5639821375E+000  +2.5578700809E-002 -3.2167987740E-001  +2.4421823726E-002 +6.0724464682E+000  +9.6982506465E-001 -5.2049237533E+000 
