!  2-Port S-parameters saved by WinCal
! VAR MeasName=S-Parameters (CALIBRATED_DATA) read from VNA (P5004A)
! VAR MeasDate=29/08/2024 14:41:50
! VAR NAME=S2_r9c8_pristine_9k-100M_2
! VAR FILENAME=S2_r9c8_pristine_9k-100M_2.S2P
! VAR DATE=29/08/2024 14:41:50
! VAR PHYS_PORTS=1,2
! VAR ObjTypeName=DATASET
! VAR IndexType=Frequency
!
# Hz S MA R 50
9000.000 +9.1133740065E-002 -1.7025164132E+002  +5.3016753719E-003 -1.2034078497E+001  +1.1012384124E-002 +1.7820188915E+002  +2.2634072985E-001 -1.4062406937E+002 
134145.181 +1.1157046546E-001 +1.6962509288E+002  +2.4505094151E-004 -6.5417020787E+001  +4.9070017964E-004 -1.7216870462E+002  +2.3874737121E-001 -1.7136561057E+002 
259290.363 +1.1264042499E-001 +1.6987305016E+002  +3.3344366127E-004 +8.2584788559E+001  +5.8518121274E-004 -1.4194885727E+002  +2.4458806062E-001 -1.7055992609E+002 
384435.544 +1.1477249643E-001 +1.7082995945E+002  +7.1530564129E-004 -6.6389778647E+001  +1.4770766252E-003 +5.4044961436E+001  +2.4001647584E-001 -1.6972765827E+002 
509580.726 +1.1558246972E-001 +1.7001920589E+002  +7.2691826918E-004 -3.0631971348E+001  +1.1982841346E-003 +1.5655764225E+002  +2.4192063412E-001 -1.6815804065E+002 
634725.907 +1.1550057392E-001 +1.7055815438E+002  +8.0323159655E-004 -6.0993061847E+001  +1.3554977402E-003 +1.2582588157E+002  +2.4622870176E-001 -1.6570965545E+002 
759871.089 +1.1897940517E-001 +1.7089134522E+002  +7.8450399651E-004 -6.4631471373E+001  +1.6296585411E-003 +9.5689394258E+001  +2.5295192132E-001 -1.6698626564E+002 
885016.270 +1.2072032452E-001 +1.6898613768E+002  +1.0452639129E-003 -7.2988890664E+000  +1.3255571236E-003 -1.7090337493E+002  +2.4421148889E-001 -1.6719497603E+002 
1010161.452 +1.1800168409E-001 +1.7042040543E+002  +1.9907350670E-003 +3.6584047538E+001  +2.5767391649E-003 -1.4290680947E+002  +2.1392939734E-001 -1.6900110002E+002 
1135306.633 +1.2056536542E-001 +1.6881385220E+002  +3.7161152881E-003 +7.9728704236E+001  +3.2241396918E-003 -1.1828393529E+002  +2.0280516221E-001 -1.7541522123E+002 
1260451.815 +1.2378340035E-001 +1.6992193624E+002  +3.9530485810E-003 +1.5666590985E+001  +3.3685719143E-003 -1.6261092123E+002  +2.2980348460E-001 -1.6095960574E+002 
1385596.996 +1.2644631712E-001 +1.7162085875E+002  +5.3476218414E-003 -5.3667462483E+001  +2.8003598078E-003 +1.4995508426E+002  +2.6926987826E-001 -1.5650163515E+002 
1510742.178 +1.2771770716E-001 +1.7253890922E+002  +4.0284191329E-003 -5.1877303705E+000  +4.7016060610E-003 +1.7367784416E+002  +2.7408075820E-001 -1.5644570548E+002 
1635887.359 +1.2921580307E-001 +1.7133000843E+002  +4.2389235802E-003 +1.6769543457E+001  +3.7192028859E-003 -1.3569061899E+002  +2.4636863749E-001 -1.5924056192E+002 
1761032.541 +1.2818478306E-001 +1.6914733642E+002  +5.1514023832E-003 +5.9138770257E+001  +6.6429974088E-003 -8.6820450367E+001  +2.3266291199E-001 -1.6203203413E+002 
1886177.722 +1.3183249943E-001 +1.6860492211E+002  +7.7421506119E-003 +5.7368760825E+001  +8.5698280229E-003 -7.4931429169E+001  +2.3476588815E-001 -1.5827195817E+002 
2011322.904 +1.3368356221E-001 +1.7016441413E+002  +1.1302552418E-002 +6.6323143439E+001  +1.0513362994E-002 -7.0613164894E+001  +2.2346120430E-001 -1.6256080475E+002 
2136468.085 +1.3533000708E-001 +1.6926532228E+002  +1.1034513614E-002 +7.6998480347E+001  +1.0087168998E-002 -5.8872524892E+001  +2.3909693056E-001 -1.6409020539E+002 
2261613.267 +1.3228216729E-001 +1.6650704352E+002  +1.6881860879E-002 +7.6718396994E+001  +1.7114864593E-002 -4.9325061248E+001  +2.3311110498E-001 -1.6115400373E+002 
2386758.448 +1.2715294165E-001 +1.6613158913E+002  +3.8195234492E-002 +7.9084741492E+001  +3.8028014008E-002 -4.5476241056E+001  +1.7785797587E-001 -1.6453601322E+002 
2511903.630 +1.3846593921E-001 +1.6656971849E+002  +2.7211231956E-002 +9.1789895051E+001  +2.7276560562E-002 -2.4005331725E+001  +2.2567152979E-001 -1.7111019163E+002 
2637048.811 +1.0221086860E-001 +1.7372777409E+002  +1.0414567642E-001 +4.5456871928E+001  +1.0314758180E-001 -6.6710039308E+001  +1.1004394490E-001 -1.0512742415E+002 
2762193.992 +1.3824452511E-001 -1.7456836564E+002  +9.2046808304E-002 -1.1864428763E+001  +9.7454381781E-002 -1.2241460998E+002  +3.3309610654E-001 -1.1689338004E+002 
2887339.174 +1.5549885355E-001 -1.7566489877E+002  +9.8358455229E-002 -2.3451389370E+001  +9.7565734284E-002 -1.2685004306E+002  +3.5625958471E-001 -1.0893055621E+002 
3012484.355 +1.5127093313E-001 +1.7626963354E+002  +4.8015465612E-002 +1.9391768367E+000  +4.4405415320E-002 -9.9000156062E+001  +2.5968978183E-001 -1.3453449985E+002 
3137629.537 +1.5002135694E-001 -1.7483452811E+002  +7.7874516321E-002 -2.0286993190E+001  +7.5100801217E-002 -1.1667726473E+002  +3.1892902983E-001 -1.2767939215E+002 
3262774.718 +1.2449429100E-001 -1.7860337543E+002  +9.3668941754E-002 +2.6281032357E+001  +9.4834799871E-002 -6.5437514890E+001  +1.5667990582E-001 -1.2939521825E+002 
3387919.900 +1.1918260059E-001 +1.6596437940E+002  +1.0009458738E-001 +4.1845719812E+001  +9.8796042633E-002 -4.5112158201E+001  +1.5233970044E-001 -1.3161882739E+002 
3513065.081 +1.2349227499E-001 -1.7679594825E+002  +1.5733918225E-001 +2.1975938125E+001  +1.5134873034E-001 -6.3146044157E+001  +1.8560235328E-001 -6.2312034198E+001 
3638210.263 +1.6185553527E-001 +1.4522340609E+002  +1.4526533381E-001 +1.0990412418E+002  +1.4545873832E-001 +2.8708521342E+001  +3.4535029523E-001 +1.4689404178E+002 
3763355.444 +1.5825714834E-001 +1.3285247261E+002  +1.9554603858E-001 +9.3232130556E+001  +1.8638095749E-001 +1.4310805425E+001  +2.2611830654E-001 +1.2771919975E+002 
3888500.626 +1.6109848155E-001 +1.5402299467E+002  +1.0141642836E-001 +8.2140173662E+001  +9.7826827238E-002 +6.7966434426E+000  +2.2695948508E-001 +1.7692099132E+002 
4013645.807 +1.6782706077E-001 +1.5661026520E+002  +1.0652258333E-001 +8.4748018770E+001  +1.0210093689E-001 +1.3466034801E+001  +2.6169040691E-001 +1.6776365554E+002 
4138790.989 +1.5900394059E-001 +1.5415237122E+002  +1.2762468499E-001 +8.2385247121E+001  +1.2818621565E-001 +1.5609800490E+001  +2.8056658627E-001 +1.6102853677E+002 
4263936.170 +1.5509908099E-001 +1.5490510301E+002  +1.5811397723E-001 +6.8798843686E+001  +1.5557776239E-001 +5.2108486777E+000  +1.9500290136E-001 +1.4403214812E+002 
4389081.352 +1.9961983559E-001 +1.4511046616E+002  +2.0532927544E-001 +1.0610063172E+002  +1.9622996118E-001 +4.4878578143E+001  +5.2719714034E-001 +1.4387185882E+002 
4514226.533 +2.1117277176E-001 +1.3882798062E+002  +2.5184458640E-001 +1.0241238972E+002  +2.4934302126E-001 +4.3633195400E+001  +5.5827544375E-001 +1.3313742365E+002 
4639371.715 +3.0831295817E-001 +1.0971953206E+002  +5.1780738562E-001 +1.1079129934E+002  +5.1389771291E-001 +5.6427001293E+001  +9.9594128768E-001 +1.2689422923E+002 
4764516.896 +4.0855564796E-001 +1.2103015201E+002  +5.4743178908E-001 +1.1877897293E+002  +5.4287479432E-001 +6.8769356440E+001  +1.0058682626E+000 +1.2509772025E+002 
4889662.078 +7.0323937550E-001 +1.2752394257E+002  +1.0241224476E+000 +1.4681219150E+002  +9.9438033163E-001 +9.9816603200E+001  +2.0880110373E+000 +1.4592296721E+002 
5014807.259 +2.8376957361E-001 +1.0520443976E+002  +5.7404130483E-001 +9.2026608847E+001  +5.5857116906E-001 +4.6565771503E+001  +1.0294402806E+000 +1.1153587822E+002 
5139952.441 +2.9531490654E-001 +1.2154621645E+002  +3.7076890880E-001 +9.8434698145E+001  +3.6446846587E-001 +5.6016317354E+001  +6.5857847186E-001 +1.3885651287E+002 
5265097.622 +2.9966182206E-001 +1.2786209935E+002  +3.5517667515E-001 +9.7954023810E+001  +3.4820939027E-001 +5.8871934075E+001  +7.0137493100E-001 +1.4048815105E+002 
5390242.804 +2.4623290300E-001 +1.3732860208E+002  +3.3599186745E-001 +7.8548711738E+001  +3.3055702175E-001 +4.1274800657E+001  +6.1756461393E-001 +1.2581822560E+002 
5515387.985 +3.2507858366E-001 +1.3096901098E+002  +3.4627282246E-001 +9.9955868371E+001  +3.3337879344E-001 +6.5565462048E+001  +7.9120353265E-001 +1.5054448808E+002 
5640533.166 +3.4255975287E-001 +1.3092080672E+002  +3.9154930455E-001 +1.0009014677E+002  +3.8240346795E-001 +6.8244313489E+001  +9.5016774794E-001 +1.4629832413E+002 
5765678.348 +3.3132382115E-001 +1.3389227271E+002  +3.8273780590E-001 +8.5747048321E+001  +3.7623355823E-001 +5.7329891122E+001  +8.3704053048E-001 +1.3711385539E+002 
5890823.529 +3.6956198520E-001 +1.2428771077E+002  +4.9865196819E-001 +9.1751861260E+001  +4.8801766409E-001 +6.5152749757E+001  +1.1257706341E+000 +1.3771346892E+002 
6015968.711 +3.4413154527E-001 +1.0924248415E+002  +6.9023097975E-001 +7.3493966262E+001  +6.7625965983E-001 +4.9888944110E+001  +1.2602905228E+000 +1.1125608058E+002 
6141113.892 +3.7167136002E-001 +9.6510039467E+001  +8.1661403607E-001 +6.1529087770E+001  +8.0346360923E-001 +4.1161775013E+001  +1.2310404860E+000 +9.1094489317E+001 
6266259.074 +3.5025464637E-001 +1.1747737311E+002  +6.0027804379E-001 +6.1224872380E+001  +5.8391318544E-001 +4.3122444957E+001  +9.3144660600E-001 +1.1366285117E+002 
6391404.255 +2.3408496916E-001 +1.0387916033E+002  +7.1761420982E-001 +3.9487078112E+001  +7.0099230975E-001 +2.2426448860E+001  +7.5541990723E-001 +8.2169959964E+001 
6516549.437 +2.3314980751E-001 +7.8277591114E+001  +8.5119447157E-001 +3.3879553983E+001  +8.5600666372E-001 +1.9603925463E+001  +8.6112746054E-001 +7.1336260322E+001 
6641694.618 +2.0313145600E-001 +9.2621053194E+001  +8.0424734893E-001 +2.8217762193E+001  +7.9141070232E-001 +1.6916030011E+001  +7.1726021928E-001 +7.5557290372E+001 
6766839.800 +1.9522490195E-001 +7.5226046040E+001  +9.0025866946E-001 +2.2320116978E+001  +8.9153919596E-001 +1.2472238706E+001  +7.6746605713E-001 +6.0891930519E+001 
6891984.981 +1.0894620033E-001 +1.2049808758E+002  +8.2671349082E-001 +9.2450143278E+000  +8.1297895353E-001 +1.8314506532E+000  +4.4228534455E-001 +3.3827132838E+001 
7017130.163 +1.2064404394E-001 +2.5307016110E+001  +9.2007712986E-001 +8.1175940245E+000  +9.2783209956E-001 +2.8016086008E+000  +3.7898542236E-001 +5.0483891684E+001 
7142275.344 +7.9027989810E-002 +1.5387339201E+002  +8.6430909360E-001 +1.1750454875E+000  +8.7205305410E-001 -1.9370542898E+000  +2.1440161494E-001 +1.2630671145E+001 
7267420.526 +9.0270122350E-002 +7.1713287423E+000  +9.6531493260E-001 +1.6274906224E+000  +9.5279790896E-001 -1.1517636146E-002  +2.6219125518E-001 +2.4143559773E+000 
7392565.707 +4.6516158904E-002 -1.6470848009E+002  +9.5851535773E-001 -6.4348934166E-001  +9.5039539105E-001 -1.9753352468E-001  +8.2393502912E-002 +2.1405833360E+001 
7517710.889 +3.8344592418E-002 +1.1219549902E+002  +9.2496751875E-001 -7.8913333712E-001  +9.2986960836E-001 +1.6504791011E+000  +7.3980486158E-002 +5.1954327122E+001 
7642856.070 +2.1872330245E-001 +1.0096660762E+002  +8.5289277738E-001 -8.1633783556E-001  +8.4867424777E-001 +3.3059578908E+000  +1.5377786795E-001 +8.2382655099E+001 
7768001.252 +1.8015235433E-001 +1.3436313988E+002  +8.4823118839E-001 -2.7355538763E+000  +8.4694083593E-001 +2.1782431092E+000  +6.7844983950E-002 +6.6902466871E+001 
7893146.433 +2.0502359218E-001 +1.2238864227E+002  +8.1179154397E-001 -2.4163570905E+000  +8.1549781949E-001 +3.9768760650E+000  +2.0014378498E-001 +7.7783974783E+001 
8018291.615 +2.6240163981E-001 +1.1834331516E+002  +7.8402171491E-001 -3.6733992933E+000  +7.8632140896E-001 +3.7219003416E+000  +1.5237239733E-001 +1.2689241468E+002 
8143436.796 +2.1376726335E-001 +1.2631862795E+002  +7.7753703009E-001 -4.7832465627E+000  +7.7559346684E-001 +3.8145337301E+000  +1.9034197675E-001 +1.2189019033E+002 
8268581.977 +2.4086329647E-001 +1.2725861860E+002  +7.4632692892E-001 -5.4605465551E+000  +7.4096064481E-001 +4.3809622092E+000  +3.0787315905E-001 +1.1613149876E+002 
8393727.159 +3.3473938426E-001 +1.2724857116E+002  +7.2826890925E-001 -6.2337921377E+000  +7.2362452529E-001 +4.4881434049E+000  +2.3521809974E-001 +1.2827721990E+002 
8518872.340 +2.8007680658E-001 +1.2765704374E+002  +7.2101409914E-001 -6.2976824718E+000  +7.1562514055E-001 +5.2086720279E+000  +3.1338143587E-001 +1.1327001170E+002 
8644017.522 +2.8103809627E-001 +1.3428976166E+002  +7.1050348175E-001 -7.4258691423E+000  +7.1164184923E-001 +5.0643452990E+000  +3.1419533508E-001 +1.1813570492E+002 
8769162.703 +2.2924780864E-001 +1.4028339440E+002  +7.2006115723E-001 -8.3065220617E+000  +7.1863622814E-001 +4.8927343339E+000  +3.0724794955E-001 +1.3139429682E+002 
8894307.885 +2.9791909528E-001 +1.3518272866E+002  +7.0371693019E-001 -8.8450372200E+000  +6.9905162837E-001 +5.0462571808E+000  +2.9784353032E-001 +1.3429493961E+002 
9019453.066 +3.0836464647E-001 +1.3770599551E+002  +6.9899580281E-001 -9.0843468732E+000  +6.8928542100E-001 +5.5055642517E+000  +3.0230396998E-001 +1.3033685654E+002 
9144598.248 +2.9234244654E-001 +1.3617689270E+002  +6.9508149857E-001 -8.3843596569E+000  +6.8973709197E-001 +6.4451200904E+000  +2.6875832403E-001 +1.2322263228E+002 
9269743.429 +3.2705268488E-001 +1.4867057166E+002  +6.9277116205E-001 -1.0028020638E+001  +6.8801929693E-001 +4.9651137797E+000  +3.0708315785E-001 +1.2875131873E+002 
9394888.611 +2.8071140985E-001 +1.4447089293E+002  +6.9900519630E-001 -9.6107349001E+000  +6.9715283354E-001 +5.8248622666E+000  +2.7633777074E-001 +1.3195147738E+002 
9520033.792 +2.4421589735E-001 +1.4218745230E+002  +6.9684356738E-001 -9.5410584381E+000  +6.9789825494E-001 +6.3641063048E+000  +2.9390486216E-001 +1.3559359128E+002 
9645178.974 +2.5954977472E-001 +1.4370602473E+002  +6.9890448674E-001 -9.4324088904E+000  +6.9779602724E-001 +6.5813294898E+000  +2.6505854841E-001 +1.3681150516E+002 
9770324.155 +2.5203289717E-001 +1.5053203125E+002  +7.0492696619E-001 -9.5751927856E+000  +6.9637911481E-001 +6.2613516622E+000  +2.7181542098E-001 +1.3678596529E+002 
9895469.337 +2.7213199999E-001 +1.4998335479E+002  +6.9966880544E-001 -9.6780434776E+000  +6.9300883662E-001 +6.1447538359E+000  +3.0200020666E-001 +1.3184103518E+002 
10020614.518 +2.5802520240E-001 +1.4323642921E+002  +6.9952508669E-001 -8.9812499889E+000  +6.9816061896E-001 +6.7118135364E+000  +2.8103292215E-001 +1.3732312776E+002 
10145759.700 +2.8344002753E-001 +1.4634958280E+002  +7.0280298204E-001 -9.3460179410E+000  +7.0101780398E-001 +6.4953891698E+000  +2.5910654045E-001 +1.3559167014E+002 
10270904.881 +2.3486160627E-001 +1.3912217496E+002  +7.0239819251E-001 -8.2619243839E+000  +7.0337147050E-001 +7.3033437244E+000  +2.5793725060E-001 +1.3138026813E+002 
10396050.063 +2.6129173270E-001 +1.4221834135E+002  +7.0272016504E-001 -8.6950350846E+000  +6.9753396912E-001 +6.5854874288E+000  +2.8471473706E-001 +1.3396173171E+002 
10521195.244 +2.8062468057E-001 +1.3524195578E+002  +7.0275398353E-001 -7.9098416186E+000  +6.9707106694E-001 +7.1997648488E+000  +2.4903057263E-001 +1.3110012048E+002 
10646340.426 +2.5434591451E-001 +1.3248849450E+002  +7.0681968389E-001 -7.4177704525E+000  +7.0372746288E-001 +7.4588289579E+000  +2.7207874368E-001 +1.2817939794E+002 
10771485.607 +2.5059846447E-001 +1.3921794361E+002  +7.0984375361E-001 -7.6447967146E+000  +7.0596989321E-001 +6.8455812903E+000  +2.8324036069E-001 +1.2801439311E+002 
10896630.788 +2.5428874883E-001 +1.4170320945E+002  +7.1851711850E-001 -7.7995703764E+000  +7.1276114872E-001 +6.5682964467E+000  +2.7053214348E-001 +1.3579643650E+002 
11021775.970 +2.6000165668E-001 +1.3996780648E+002  +7.1864059603E-001 -7.6931109851E+000  +7.1335057934E-001 +6.3565172490E+000  +2.8921392444E-001 +1.3107762555E+002 
11146921.151 +2.4143232390E-001 +1.3257166706E+002  +7.2260568850E-001 -6.5546838853E+000  +7.1647214117E-001 +6.6118008063E+000  +2.8400329112E-001 +1.2598188947E+002 
11272066.333 +2.4015490875E-001 +1.3175278646E+002  +7.2654009008E-001 -6.3474622723E+000  +7.1963224942E-001 +6.4811908023E+000  +2.8626339877E-001 +1.2637044235E+002 
11397211.514 +2.5406128806E-001 +1.3788035830E+002  +7.3373404671E-001 -6.5208549035E+000  +7.2845248972E-001 +5.8832724646E+000  +2.5917318566E-001 +1.2865237827E+002 
11522356.696 +2.3095548003E-001 +1.3443594990E+002  +7.4396296737E-001 -5.6779049056E+000  +7.3962221532E-001 +6.2388756393E+000  +2.2486933407E-001 +1.2551786409E+002 
11647501.877 +2.2613311676E-001 +1.3089339102E+002  +7.4208193674E-001 -5.2616555431E+000  +7.3865942135E-001 +5.9290981394E+000  +2.7576889985E-001 +1.2170076465E+002 
11772647.059 +1.9974260950E-001 +1.3438075742E+002  +7.6184804322E-001 -5.1587280039E+000  +7.5480571865E-001 +5.5761907805E+000  +2.3884456718E-001 +1.3335429590E+002 
11897792.240 +2.3465970064E-001 +1.3731135186E+002  +7.6008333525E-001 -5.1743468990E+000  +7.5445865948E-001 +4.9844710181E+000  +2.4186503280E-001 +1.2558961901E+002 
12022937.422 +2.2296739780E-001 +1.3026963706E+002  +7.6374579283E-001 -4.5199203997E+000  +7.5854072605E-001 +5.2587641143E+000  +2.3112446174E-001 +1.2570466265E+002 
12148082.603 +2.0539235160E-001 +1.3025997234E+002  +7.7602623844E-001 -3.9692741634E+000  +7.7092827295E-001 +5.2102952243E+000  +2.0051066406E-001 +1.2469636080E+002 
12273227.785 +1.9554487221E-001 +1.3205177418E+002  +7.8737616437E-001 -3.7792248446E+000  +7.8151506458E-001 +4.7110610530E+000  +1.9151925179E-001 +1.2787765876E+002 
12398372.966 +1.8773649083E-001 +1.3105098528E+002  +7.9239640469E-001 -3.8828514653E+000  +7.8953849628E-001 +4.1451159884E+000  +2.0595689627E-001 +1.3184345102E+002 
12523518.148 +1.6930980618E-001 +1.3023315019E+002  +8.0425243270E-001 -3.1577178914E+000  +7.9846238678E-001 +4.1602601011E+000  +1.8778925905E-001 +1.2604893424E+002 
12648663.329 +1.5742017030E-001 +1.3263910870E+002  +8.1695796857E-001 -2.9761284306E+000  +8.1224477910E-001 +3.7405515268E+000  +1.7446411392E-001 +1.3241434215E+002 
12773808.511 +1.5959339218E-001 +1.2691522121E+002  +8.2127843712E-001 -2.6645982793E+000  +8.1713910673E-001 +3.4688254926E+000  +1.6625863258E-001 +1.3207792789E+002 
12898953.692 +1.5152823473E-001 +1.2979325584E+002  +8.2951553996E-001 -2.5193237301E+000  +8.2519877254E-001 +3.0435391710E+000  +1.5659374581E-001 +1.2695645176E+002 
13024098.874 +1.4902550970E-001 +1.2912269860E+002  +8.3998803385E-001 -2.4678787534E+000  +8.3320824144E-001 +2.6906997233E+000  +1.6074990741E-001 +1.3115542395E+002 
13149244.055 +1.3717953694E-001 +1.2834063788E+002  +8.4787659867E-001 -1.9678119187E+000  +8.3917695849E-001 +2.5268151223E+000  +1.5230481807E-001 +1.2393053501E+002 
13274389.237 +1.2148971822E-001 +1.3562907862E+002  +8.6135525745E-001 -1.8794641690E+000  +8.5689568350E-001 +2.1626630569E+000  +1.2904232505E-001 +1.2775447240E+002 
13399534.418 +1.2237868993E-001 +1.2515955258E+002  +8.6842623734E-001 -1.5534116859E+000  +8.6293911115E-001 +1.9154834474E+000  +1.1518499533E-001 +1.2733473187E+002 
13524679.599 +1.0124800797E-001 +1.3194664837E+002  +8.7933219885E-001 -1.7534836472E+000  +8.7110750540E-001 +1.8340357777E+000  +9.5327757993E-002 +1.1803580185E+002 
13649824.781 +9.6116027991E-002 +1.2423383734E+002  +8.8947485189E-001 -1.4648273524E+000  +8.8448245161E-001 +1.2432243678E+000  +9.3266041349E-002 +1.2222408492E+002 
13774969.962 +8.0549999910E-002 +1.3373975019E+002  +9.0852821037E-001 -1.1566940284E+000  +8.9206836905E-001 +8.7261349131E-001  +9.0806641286E-002 +1.3706694378E+002 
13900115.144 +8.0941519027E-002 +1.1520816379E+002  +9.1519754731E-001 -6.9448797805E-001  +9.0750330699E-001 +6.2609203642E-001  +6.7182151141E-002 +1.2769266706E+002 
14025260.325 +5.0904957283E-002 +1.3999247295E+002  +9.3418664842E-001 -1.0380490802E+000  +9.1648924613E-001 +8.7671772346E-001  +6.4878611923E-002 +1.2709312308E+002 
14150405.507 +7.7018056874E-002 +1.2896838277E+002  +9.3203692773E-001 -2.2245291155E-001  +9.2531375916E-001 +1.9379939969E-001  +4.2635365232E-002 +1.3967393169E+002 
14275550.688 +5.2829938386E-002 +1.2377782730E+002  +9.4641878086E-001 -1.2177784219E+000  +9.2875904945E-001 +8.3462361860E-001  +3.9090877009E-002 +1.0937001581E+002 
14400695.870 +5.5427460696E-002 +1.0598776055E+002  +9.4766858208E-001 -9.4543779509E-001  +9.4342443959E-001 -8.2419910127E-001  +3.4177103427E-002 +1.2141773154E+002 
