!  2-Port S-parameters saved by WinCal
! VAR MeasName=S-Parameters (CALIBRATED_DATA) read from VNA (P5004A)
! VAR MeasDate=29/08/2024 12:19:14
! VAR NAME=S2_r9c5_RESET2_9k-100M_1
! VAR FILENAME=S2_r9c5_RESET2_9k-100M_1.S2P
! VAR DATE=29/08/2024 12:19:15
! VAR PHYS_PORTS=1,2
! VAR ObjTypeName=DATASET
! VAR IndexType=Frequency
!
# Hz S MA R 50
9000.000 +8.2480039606E-002 -1.6121435174E+002  +6.3156075370E-003 +1.7010101465E+002  +2.9582804507E-003 +1.2217614965E+002  +2.8805482491E-001 -1.5162071615E+002 
134145.181 +1.1089186068E-001 +1.6960136369E+002  +5.8611741958E-004 -1.2405755574E+002  +3.5093614022E-004 -8.4744733416E+001  +2.3776926943E-001 -1.7114369262E+002 
259290.363 +1.1158074834E-001 +1.6990793586E+002  +4.6338579442E-004 -1.0152746715E+002  +1.3006309680E-003 -4.9623347635E+001  +2.4890876699E-001 -1.6831454293E+002 
384435.544 +1.1363501805E-001 +1.7012614800E+002  +5.2793330424E-004 -1.0870804831E+002  +8.3981258802E-004 +9.6346148274E+001  +2.3639577061E-001 -1.6886232387E+002 
509580.726 +1.1502662636E-001 +1.7022439247E+002  +6.0456748868E-004 +3.5333232539E+001  +2.8123598413E-004 -1.6279254387E+002  +2.4141942846E-001 -1.6442861243E+002 
634725.907 +1.1802179322E-001 +1.7188021853E+002  +1.2203375315E-003 +2.7487072496E+001  +1.3555743176E-003 +1.7486102985E+002  +2.6174354329E-001 -1.6517101170E+002 
759871.089 +1.1993429234E-001 +1.7109545793E+002  +2.1825653864E-004 -1.2889126660E+002  +3.2439573070E-004 -4.2913695114E+001  +2.4978250078E-001 -1.6647443929E+002 
885016.270 +1.2098329813E-001 +1.6872321305E+002  +4.6370686833E-004 +8.5161265880E+001  +3.4042937183E-004 +3.3931866190E+001  +2.4773162391E-001 -1.6651515347E+002 
1010161.452 +1.1618475129E-001 +1.6988205801E+002  +1.8346796706E-003 -1.6660214557E+002  +1.1278000180E-003 +1.4105204642E+002  +2.2112802946E-001 -1.6626073858E+002 
1135306.633 +1.1329269902E-001 +1.6996929811E+002  +3.1074835685E-003 +1.0776577741E+002  +1.2502504847E-003 +1.7171000787E+002  +2.0225282600E-001 -1.6966888983E+002 
1260451.815 +1.1693403721E-001 +1.7199355420E+002  +1.1453059833E-003 +1.1375880558E+002  +7.6232858247E-004 -1.5018116335E+002  +2.0186207061E-001 -1.6270547921E+002 
1385596.996 +1.2675996775E-001 +1.7210376825E+002  +3.5511668366E-004 +1.7812882303E+002  +2.0425745434E-004 +1.6432835397E+001  +2.6010776682E-001 -1.5996298751E+002 
1510742.178 +1.2624025619E-001 +1.7264410259E+002  +1.3595911967E-003 -1.6324995091E+002  +2.1005093899E-004 -3.4306040883E+001  +2.6036679521E-001 -1.6015209636E+002 
1635887.359 +1.2577712644E-001 +1.7177006228E+002  +1.0741473013E-003 -4.0160763425E+001  +5.7272374081E-004 +8.6495554763E+001  +2.3750541875E-001 -1.5598246073E+002 
1761032.541 +1.3090602280E-001 +1.7142184391E+002  +1.6265113942E-003 +4.9611879170E+001  +2.0402814727E-003 -1.6465919543E+002  +2.5973654508E-001 -1.5141057978E+002 
1886177.722 +1.2830106440E-001 +1.6793925994E+002  +6.4422322032E-004 +1.3705674119E+002  +1.7616628123E-003 -1.1682128926E+000  +2.2658438362E-001 -1.5158333307E+002 
2011322.904 +1.3246513087E-001 +1.6757796726E+002  +9.2347750948E-004 -5.3186210630E+001  +3.7218537496E-004 -5.7101063036E+001  +2.0669420211E-001 -1.6275342472E+002 
2136468.085 +1.2876315358E-001 +1.6488321478E+002  +2.8999479117E-003 -5.5479277286E+001  +2.4129559479E-003 +9.4090808511E+001  +1.4385220122E-001 -1.6752148360E+002 
2261613.267 +1.2322983858E-001 +1.6607550056E+002  +1.5785806180E-003 +1.3054556771E+002  +3.7894074644E-003 +1.4350287359E+001  +2.0391127222E-001 +1.7618395092E+002 
2386758.448 +1.4219603328E-001 +1.6200022397E+002  +2.4170416789E-003 -3.5131627123E+001  +4.0854607066E-003 +6.1130100092E+001  +1.9823526328E-001 +1.6996376324E+002 
2511903.630 +1.3809514454E-001 +1.6274462738E+002  +6.6348321057E-003 +2.5400196938E+001  +1.2496420643E-003 +4.5573437102E+001  +1.1590992274E-001 +1.6079883072E+002 
2637048.811 +1.3497687385E-001 +1.5720253353E+002  +8.8403674123E-003 +5.7395317368E+001  +3.6166714656E-003 +8.5165628084E+001  +2.1278132038E-001 +1.6136618947E+002 
2762193.992 +1.1222831468E-001 +1.6145977436E+002  +1.4948650290E-002 -1.3832669324E+002  +1.9210237388E-002 +1.1731262675E+002  +9.8294949559E-001 -1.4444082916E+002 
2887339.174 +1.1224981204E-001 +1.6171703321E+002  +2.8411545156E-002 +1.6278957213E+002  +3.4336856295E-003 -1.2088655458E+002  +7.7992699382E-001 -1.0117706754E+002 
3012484.355 +1.3033947870E-001 -1.7489706743E+002  +4.8245438709E-003 +8.4872451630E+001  +9.7770009509E-003 -8.7927792264E+000  +3.0302079617E-001 -4.6394643977E+001 
3137629.537 +7.5659908714E-002 +1.7901484975E+002  +5.6227734225E-002 -1.4550951778E+002  +1.0216094782E-001 +1.0695818047E+002  +3.6929688607E+000 -1.4978109506E+002 
3262774.718 +1.2991754414E-001 +1.6344149667E+002  +3.6704223638E-003 +5.2490376963E+001  +9.7018739032E-003 -8.8488273349E+001  +1.0003552479E-001 -6.8893069516E+001 
3387919.900 +1.5408104196E-001 +1.5604462636E+002  +7.6837711387E-003 +1.1295817450E+002  +1.2125460776E-002 -7.1919015113E+001  +1.3770697904E-001 +2.0677292205E+001 
3513065.081 +1.6530663928E-001 +1.5039302168E+002  +4.4358435656E-002 +1.6963395464E+002  +3.6037372940E-002 +1.6954107969E+002  +1.8743955581E+000 +2.8122969690E+001 
3638210.263 +1.5537435864E-001 +1.5019265334E+002  +5.2947795212E-003 +1.7904772005E+002  +1.7434004233E-002 +1.0555843476E+002  +7.6178993938E-001 +1.2309732072E+002 
3763355.444 +1.7916289924E-001 +1.5125705668E+002  +1.2481603802E-002 +1.5614981521E+002  +1.0542350641E-002 -8.3462160676E+001  +1.2119424485E+000 +8.6486958976E+001 
3888500.626 +1.8222354228E-001 +1.4501214250E+002  +2.5698319070E-003 +8.3583703685E+001  +7.4666535029E-003 -3.7514103152E+001  +1.9068824123E-001 +1.4484810785E+002 
4013645.807 +1.7950518859E-001 +1.5303133705E+002  +7.3525746989E-003 -5.2581061531E+001  +2.6425437412E-003 +1.7314390821E+002  +4.3188717475E-001 +9.6736389802E+001 
4138790.989 +1.7941431875E-001 +1.5483700667E+002  +2.1739367898E-003 +2.0158793050E+001  +1.1041618635E-002 +5.5694354746E+000  +2.9601125074E-001 +5.1126819103E+001 
4263936.170 +1.9888033015E-001 +1.3765993332E+002  +1.6704978680E-002 +1.3130729439E+002  +2.0885606864E-002 -1.5413487384E+002  +5.4946529006E-001 +1.3197278625E+002 
4389081.352 +2.1547339512E-001 +1.4174250556E+002  +2.2835738506E-002 +4.6573683693E+001  +9.9008950472E-003 +8.2964260519E+001  +8.6529079111E-001 +1.0423256689E+002 
4514226.533 +2.1734471683E-001 +1.2758071514E+002  +1.3971668557E-002 -9.0336000191E+000  +7.0284908947E-003 -1.5569451130E+001  +6.0037013808E-001 +1.0101393017E+002 
4639371.715 +3.6816331261E-001 +1.2217566004E+002  +3.5521772072E-002 -1.5287674271E+002  +7.2569221386E-002 +1.1604953018E+002  +2.0977873156E+000 +1.4293061807E+002 
4764516.896 +3.3650244113E-001 +1.3119663567E+002  +1.2605162927E-001 +2.9608302559E+001  +5.4346186101E-002 -1.1117995157E+002  +6.7358440706E+000 -6.6598494686E+001 
4889662.078 +2.8332686074E-001 +1.3348228255E+002  +1.1304143909E-002 +1.6272546699E+002  +1.5582495027E-002 +1.1469796096E+002  +2.8629586843E+000 -1.2464783718E+002 
5014807.259 +4.0862309913E-001 +1.3134746163E+002  +2.8268682571E-002 +1.7545128437E+002  +1.0381305588E-001 +2.6053754234E+001  +4.2845763840E+000 +2.8856989323E+001 
5139952.441 +3.7429825881E-001 +1.2856271573E+002  +5.7672703598E-002 +1.4825958290E+002  +1.4935193909E-002 +2.9045106238E+001  +1.9850219473E+000 +2.5623007173E+001 
5265097.622 +4.5116240835E-001 +1.2170081085E+002  +2.1109521527E-002 -1.7805147057E+002  +2.1340588396E-002 -1.7916174522E+002  +1.9124483993E+000 +1.2603017272E+002 
5390242.804 +3.8934528102E-001 +1.1763084188E+002  +5.1612060092E-002 +1.3157049006E+002  +4.3548677990E-003 +1.3151978194E+002  +2.3380105349E+000 +1.0594086925E+002 
5515387.985 +4.8255630789E-001 +1.3356509905E+002  +6.4019643768E-002 +1.4897361166E+002  +1.9054324432E-002 +1.4374512239E+002  +4.2449051329E+000 +9.9133728015E+001 
5640533.166 +5.0191372949E-001 +1.2521851425E+002  +1.7769791935E-002 +5.9685365570E+000  +8.6044869687E-003 +5.7025220377E+001  +2.5199391541E+000 +3.5109135779E+001 
5765678.348 +4.7127369058E-001 +1.1560119266E+002  +2.9125182144E-003 -4.2520354809E+001  +2.2088375698E-002 -5.9754093058E+001  +1.4969617080E+000 +7.4047882050E+001 
5890823.529 +5.4835206774E-001 +1.2474404829E+002  +7.2307275154E-003 +1.6937440651E+002  +6.2276211043E-003 -3.7315701185E+000  +1.7798886074E+000 +5.9535977358E+001 
6015968.711 +6.8388484081E-001 +1.1947472846E+002  +2.7531507846E-002 +1.3958125662E+002  +2.5299200102E-002 +1.3279669015E+002  +2.6108949942E+000 +6.8168763298E+001 
6141113.892 +6.3954753820E-001 +1.0947597933E+002  +6.9097525828E-003 +5.7086772314E+001  +2.5686299222E-002 +8.7763299342E+000  +1.4161083859E+000 +4.8658884636E+001 
6266259.074 +9.1111792103E-001 +1.0813499790E+002  +3.4533912380E-002 +1.0392176489E+002  +1.2513362575E-002 -1.4088471317E+002  +2.4307284326E+000 +2.3227666609E+001 
6391404.255 +1.0977817371E+000 +9.4185452725E+001  +1.6167410059E-002 +6.1168077974E+001  +1.8977732546E-002 -4.2981476205E+001  +1.7481141816E+000 +7.5117538231E+000 
6516549.437 +1.3775900776E+000 +9.9892602610E+001  +1.0325783962E-002 -2.5076819581E+001  +2.1637163945E-002 +1.0595160882E+002  +1.3669255723E+000 +5.9601219220E+000 
6641694.618 +1.0600875099E+000 +6.5783646785E+001  +2.2181302157E-002 -2.8583780287E+001  +1.3249724564E-002 +1.3013971831E+002  +1.4417424072E+000 -1.9049498025E+000 
6766839.800 +1.2738111034E+000 +2.3333875617E+001  +1.7585282723E-002 +1.1574924834E+002  +3.0302711628E-002 +8.0156298895E+001  +1.5439859631E+000 -7.6680524920E+000 
6891984.981 +1.6481453472E+000 +4.2658713769E+001  +7.5225107245E-003 +1.2075784489E+002  +3.3186164966E-002 +4.4588968930E+000  +1.3257682088E+000 -1.2995128440E+001 
7017130.163 +2.0160021678E+000 +1.4754974577E+001  +8.9400521703E-003 -5.1461705041E+001  +1.7298931615E-002 -1.8332131823E+001  +1.3952473220E+000 -1.9274091886E+001 
7142275.344 +1.3657666604E+000 +6.2582313905E+000  +1.9136850792E-002 -1.4968613751E+001  +1.1213594117E-002 +4.8949271116E+001  +1.2177221309E+000 -1.1481123643E+001 
7267420.526 +1.3174134466E+000 +3.7397896007E+000  +1.6572711693E-002 +7.2820106375E+001  +1.4683795957E-002 +4.9946458422E+001  +1.2852162002E+000 -1.3764386057E+001 
7392565.707 +1.2544735031E+000 -2.2663594278E+000  +4.5709971433E-003 -1.2696945993E+002  +1.1623601838E-002 -1.1786942266E+001  +1.2317313355E+000 -1.5212047804E+001 
7517710.889 +1.1057089687E+000 +4.0977048832E+000  +4.2599035600E-004 +1.6315533468E+002  +8.1039986506E-003 +5.3158816741E+001  +1.1691502921E+000 -7.4044917321E+000 
7642856.070 +9.3373288839E-001 -1.2195176070E+000  +5.1613076228E-003 +1.3819018161E+001  +7.2692232942E-003 -8.6264912388E+001  +1.0539875510E+000 -9.0834201654E+000 
7768001.252 +1.0190235760E+000 +9.0554423365E+000  +5.5297243378E-003 +2.6997883671E+001  +9.9802951074E-003 +3.6937561286E+001  +1.0645404432E+000 -6.5953758514E+000 
7893146.433 +8.2932935645E-001 -4.1883176996E-001  +9.1629910859E-003 -1.6460340130E+001  +5.4309526545E-003 +9.3943050729E+000  +9.7792046764E-001 -2.4812188578E+000 
8018291.615 +6.9105532049E-001 +3.0026641798E+000  +4.3427182303E-003 +3.2584575223E+001  +8.3918467051E-003 -9.1229572392E+001  +8.2248348718E-001 -2.8474551069E+000 
8143436.796 +7.3690420926E-001 +5.4380689421E+000  +4.2401316104E-003 +5.0209431905E+000  +4.2705237543E-003 -7.2468945438E+000  +6.8346177384E-001 -2.4906071250E+000 
8268581.977 +6.4398257052E-001 +8.3162895557E+000  +4.2152081073E-003 -2.4289491417E+001  +7.3297052630E-003 +2.0415744232E+001  +8.5349306926E-001 -2.6893839152E-002 
8393727.159 +6.7919989938E-001 +1.4144297045E+001  +5.1827274629E-003 -5.3503726575E+000  +1.1332208573E-003 -5.8719201747E+001  +7.0597496246E-001 -3.5035445648E-001 
8518872.340 +6.9429642303E-001 +1.5533196306E+001  +5.5869927670E-003 -5.1575596910E+001  +4.7888089236E-003 +3.3292956822E+001  +6.6337350933E-001 -1.9651478205E-002 
8644017.522 +6.7618817180E-001 +7.7309014842E+000  +5.4948067400E-003 -2.5403749952E+000  +8.6875486381E-004 +9.2953993171E+001  +6.5597428021E-001 +9.4636132417E-001 
8769162.703 +6.1191607941E-001 +5.4182505540E+000  +2.3096727386E-003 -7.0919551983E+000  +5.4722911941E-003 -5.4945500026E+001  +6.1833442278E-001 -1.3207745238E+000 
8894307.885 +6.5026590967E-001 +1.1434881683E+000  +5.8600038434E-003 -5.5393609545E+001  +4.1215601209E-003 -3.8872786207E+001  +6.2763658770E-001 -2.9057416503E+000 
9019453.066 +5.9427637510E-001 +1.1813047978E+001  +3.2915811272E-003 +1.3479697248E+001  +5.0954071781E-003 +1.2076572508E+001  +6.5880911659E-001 -1.7878909079E+000 
9144598.248 +6.0176362311E-001 +9.6400529283E+000  +1.2029825563E-003 +4.3574064080E+001  +7.1947279255E-003 +4.8120490363E+001  +5.8881740872E-001 -3.6929680403E+000 
9269743.429 +5.7034671570E-001 +5.5012469932E-003  +5.7330408540E-003 -7.9400458481E+000  +5.2365719529E-003 +1.3564579862E+001  +6.2904734205E-001 -2.1905503433E-001 
9394888.611 +5.5894918153E-001 +1.5080724096E+000  +3.9305425738E-003 -1.5217443233E+000  +2.5445467855E-003 +6.2069547100E+001  +6.1291400819E-001 -4.1363345251E+000 
9520033.792 +5.3296194162E-001 +6.6968233381E+000  +6.1645085945E-003 +9.1879443752E+000  +6.3212801009E-003 -1.6269033128E+001  +6.1549306472E-001 -3.3087848427E+000 
9645178.974 +5.2541499894E-001 +5.4925631993E+000  +3.0254131036E-003 -1.7782383412E+001  +4.5767427668E-003 +2.2835518163E+001  +5.9248249624E-001 -1.3775401275E+000 
9770324.155 +5.3814662071E-001 +1.1454188887E+000  +4.7016765742E-003 -3.7683141653E+000  +1.1406224886E-003 +1.5952593522E+002  +6.0149238386E-001 -6.0391484181E+000 
9895469.337 +4.9046451528E-001 -3.9049912386E-001  +8.0987757067E-004 +4.1608053695E+001  +2.8127457994E-003 +1.7334149080E+001  +5.6004146629E-001 -1.4466120437E+000 
10020614.518 +5.4933808557E-001 +3.6338335405E+000  +3.4360598989E-003 +5.7082872244E+000  +4.5152027826E-003 +3.7130985752E+000  +5.9544220572E-001 -5.3281658774E+000 
10145759.700 +5.5615823293E-001 +4.3742856033E+000  +3.0886822594E-003 -1.1832787452E+001  +2.0197626716E-003 +3.6651500092E+001  +5.9439276344E-001 -4.4093567960E+000 
10270904.881 +5.5157774357E-001 +3.0935109098E+000  +4.6558630653E-003 -2.4005220634E+001  +2.9316706008E-003 +4.0827897464E+000  +6.1458636532E-001 -4.7754269653E+000 
10396050.063 +5.6637945809E-001 +4.0293211907E+000  +3.5018981570E-003 -2.1725956538E+001  +5.8431242408E-003 +6.0820145765E+001  +5.9112314288E-001 +5.5488067865E-002 
10521195.244 +5.9045149116E-001 +8.4737381192E+000  +5.1662923450E-003 +1.4533673330E+001  +4.0299384292E-003 +1.6957588488E+001  +6.1231059362E-001 -2.1978379473E+000 
10646340.426 +5.5674640710E-001 +7.8313272977E+000  +6.4948344964E-003 +2.2064051514E+001  +3.3921700995E-003 +4.8360663387E+001  +5.8301807776E-001 +2.7011963429E+000 
10771485.607 +5.4675054365E-001 +6.1672974816E+000  +4.7825243028E-003 -1.5676693508E+001  +4.2910697618E-003 +5.6531638585E+001  +5.8133978017E-001 +2.2530876202E+000 
10896630.788 +5.7858945714E-001 +5.0186416067E+000  +3.9082882249E-003 +2.0292084682E+001  +2.7118149501E-003 +3.4272947906E+001  +6.3098275561E-001 +3.1595755932E+000 
11021775.970 +5.8569564811E-001 +7.7702778065E+000  +3.9442287496E-003 +7.6311309827E+000  +5.4157241805E-003 +1.0197195637E+001  +6.1493243400E-001 +3.0949959252E+000 
11146921.151 +5.8478301523E-001 +8.4765485959E+000  +6.0416473076E-003 -6.7192571992E+000  +6.7791011258E-003 -4.3116353820E+000  +5.9658599320E-001 +9.8667420885E-001 
11272066.333 +6.0849195956E-001 +7.9345535869E+000  +3.1983133842E-003 +4.2802021873E+001  +3.0524675848E-003 +2.7644991210E+001  +6.1928995688E-001 +2.3986316114E+000 
11397211.514 +6.1816569548E-001 +1.0158689280E+001  +2.7612512179E-003 +5.7562680044E+001  +6.3136201747E-004 +3.3334791921E+001  +6.4323368292E-001 +2.1961342208E+000 
11522356.696 +6.1776001112E-001 +4.0465069442E+000  +2.8981762013E-003 +4.5949136118E-002  +4.7292281610E-003 +2.8381588530E+001  +6.3854795791E-001 +2.7868418158E+000 
11647501.877 +6.1986232535E-001 +4.4599181332E+000  +4.9740122157E-003 +1.6617825567E+001  +3.6396668840E-003 +4.5864650066E+001  +6.6589790005E-001 +3.3511727697E+000 
11772647.059 +6.4774078707E-001 +8.2410205842E+000  +4.0395364161E-003 +9.7477206482E-001  +1.7274177718E-003 -4.3931605488E+000  +6.7188798541E-001 +2.3432573100E+000 
11897792.240 +6.6010845472E-001 +6.9217246764E+000  +3.4391516246E-003 +2.3221842605E+001  +5.1910594369E-003 +3.4745329847E+001  +6.6320600314E-001 +8.6444504050E-001 
12022937.422 +6.7434132859E-001 +5.0482047452E+000  +4.3418042656E-003 +3.4988533305E+000  +6.0292120550E-003 +2.0849901149E+001  +6.9352944269E-001 -6.6141188647E-001 
12148082.603 +6.8963549391E-001 +4.4701539598E+000  +5.1747120509E-003 +7.4872144196E+000  +5.7454967511E-003 +3.2853946066E+001  +6.9951382874E-001 +3.1270660270E+000 
12273227.785 +6.9897705869E-001 +4.4281255727E+000  +3.9382630337E-003 +2.8734979393E+001  +4.5813804999E-003 +5.0987613586E+001  +7.0629341107E-001 -2.0903223313E+000 
12398372.966 +7.2419238669E-001 +3.8765812480E+000  +4.2523746040E-003 -1.2266308925E-001  +4.5184631385E-003 +1.8494552326E+001  +7.4656798206E-001 +2.9099122424E+000 
12523518.148 +7.1686947853E-001 +3.6386683835E+000  +4.9293620897E-003 +1.8151118325E+000  +3.5135095365E-003 +3.0071539768E+001  +7.3247228098E-001 +2.2009947785E-001 
12648663.329 +7.6679916896E-001 +9.2356398462E-001  +5.5371025390E-003 +1.0046638216E+001  +5.3613988004E-003 +3.3171047498E+001  +7.6400804293E-001 -1.5343644340E-001 
12773808.511 +7.4761376406E-001 +2.0018083579E+000  +5.7220555146E-003 +1.4137949148E+001  +5.9172014579E-003 +5.1641832012E+001  +7.4348360973E-001 -2.9159269133E+000 
12898953.692 +7.5409512051E-001 +1.4271849504E+000  +5.9174938196E-003 +3.3415410670E+001  +4.3528974792E-003 +2.7033268473E+001  +7.7897770697E-001 -2.1542126112E+000 
13024098.874 +7.8513621423E-001 +2.9883034235E+000  +3.5699383941E-003 +2.0685384080E+001  +3.2524664328E-003 +1.8126536998E+001  +7.8237148562E-001 +7.8035519102E-001 
13149244.055 +8.1352412734E-001 -5.4347589275E-001  +4.6687954735E-003 +1.9504882538E+001  +6.1865717540E-003 +3.9821070682E+001  +8.0724857832E-001 -1.5634311904E+000 
13274389.237 +8.3398789017E-001 -1.4637819151E+000  +4.1425841737E-003 +1.8979273804E+001  +4.8350164507E-003 +1.2334926671E+001  +8.2042092406E-001 -2.4600211120E+000 
13399534.418 +8.3434740463E-001 -1.9354384630E+000  +5.7189604585E-003 +4.1123243026E+001  +5.5234086501E-003 +5.6352280174E+000  +8.4694674686E-001 -3.1240991739E+000 
13524679.599 +8.5738440771E-001 -9.6671116519E-001  +5.7321843669E-003 +1.2516750733E+001  +4.4388023386E-003 +3.0119851622E+001  +8.7516687117E-001 -3.0620117483E+000 
13649824.781 +8.5881381651E-001 -2.3063665711E+000  +7.2835771801E-003 +2.9396570141E+001  +3.9264131178E-003 +1.5426582188E+001  +8.6200643970E-001 -2.0662579670E+000 
13774969.962 +8.9426674904E-001 -2.1746573702E+000  +3.9650830912E-003 +2.6380764072E+001  +4.4518080455E-003 +1.6619060119E+001  +9.0890375672E-001 -4.2076091057E+000 
13900115.144 +9.2698815466E-001 -3.4007335668E+000  +4.3959796487E-003 +1.8837042051E+001  +4.3871213902E-003 +1.1580925674E+000  +8.8867340089E-001 -3.1467009058E+000 
14025260.325 +9.2739518675E-001 -3.4379536930E+000  +5.1769169396E-003 +1.6017984707E+001  +4.6391151942E-003 +9.5567478226E+000  +9.3884830846E-001 -4.4782957725E+000 
14150405.507 +9.2865653326E-001 -5.0674205530E+000  +3.9689358357E-003 -4.1544559697E+000  +5.3167137511E-003 +1.8317179356E+001  +9.6279199475E-001 -4.6831767508E+000 
14275550.688 +9.5561713791E-001 -5.0445888265E+000  +4.0327232296E-003 +1.5996446121E+001  +7.8716032665E-003 +2.7713356626E+001  +9.7454056226E-001 -4.8229571396E+000 
14400695.870 +9.8435896012E-001 -5.2161499349E+000  +6.2118243226E-003 +1.7751930965E+001  +5.0924274111E-003 +2.8209826846E+001  +9.8886094116E-001 -5.5087849022E+000 
