!  2-Port S-parameters saved by WinCal
! VAR MeasName=S-Parameters (CALIBRATED_DATA) read from VNA (P5004A)
! VAR MeasDate=29/08/2024 11:58:06
! VAR NAME=S2_r9c4_RESET3_9k-100M_2
! VAR FILENAME=S2_r9c4_RESET3_9k-100M_2.S2P
! VAR DATE=29/08/2024 11:58:07
! VAR PHYS_PORTS=1,2
! VAR ObjTypeName=DATASET
! VAR IndexType=Frequency
!
# Hz S MA R 50
9000.000 +8.0701400467E-002 -1.6039606571E+002  +8.2505040947E-004 -1.0017439266E+002  +1.5390487045E-002 -3.5813718165E+001  +2.2327454129E-001 -1.4864062647E+002 
134145.181 +1.1049381396E-001 +1.6970429870E+002  +3.8877490854E-004 +1.6901533428E+002  +2.2926019777E-004 -1.5824783210E+002  +2.4121330072E-001 -1.7116640239E+002 
259290.363 +1.1072103154E-001 +1.7036915642E+002  +4.3403721209E-004 +2.2840629518E+001  +7.5263478103E-004 -1.5717365056E+002  +2.4722703055E-001 -1.6911145825E+002 
384435.544 +1.1350462472E-001 +1.7022227771E+002  +4.2849747261E-004 -1.5525020087E+002  +4.1295414553E-004 +5.9793786797E+001  +2.4425790927E-001 -1.6932472768E+002 
509580.726 +1.1289112332E-001 +1.7167888881E+002  +1.1922266663E-003 -2.1448421823E+001  +1.4296891416E-003 -2.7809417000E+001  +2.7387756659E-001 -1.6334155370E+002 
634725.907 +1.1712210050E-001 +1.7137611972E+002  +9.1838478161E-004 +4.6856633393E+000  +4.6049613099E-004 -4.8910192843E+001  +2.5224434317E-001 -1.6763737121E+002 
759871.089 +1.1932410335E-001 +1.7094317003E+002  +2.0332745583E-004 -1.5512433386E+002  +1.0969278579E-003 -1.1003013016E+002  +2.4998090308E-001 -1.6868959531E+002 
885016.270 +1.1977739242E-001 +1.6875111717E+002  +1.8309323856E-004 +5.4924476517E+001  +5.7465661168E-004 -8.2384148483E+001  +2.4202515405E-001 -1.6604373394E+002 
1010161.452 +1.1812508823E-001 +1.7126155894E+002  +1.5689940972E-003 +2.3528993944E+001  +1.2795140404E-003 +1.7509931167E+002  +1.8802864005E-001 -1.7421470103E+002 
1135306.633 +1.1633429324E-001 +1.6875373417E+002  +1.8240329244E-003 +1.1549363070E+002  +2.6435229330E-003 +9.3522357666E+001  +2.0131683245E-001 +1.7863693662E+002 
1260451.815 +1.1565801559E-001 +1.7066542352E+002  +1.6842895261E-003 -1.3712991718E+001  +3.5688909779E-003 -4.0339958769E+001  +2.0298607642E-001 -1.5603718283E+002 
1385596.996 +1.2791794941E-001 +1.7180336727E+002  +6.8675277014E-004 +1.4405247548E+000  +9.1127248452E-004 -9.1393353727E+001  +2.7033328847E-001 -1.5919374896E+002 
1510742.178 +1.2630084278E-001 +1.7196698344E+002  +7.8498139844E-004 -1.6361207296E+002  +6.2417069950E-004 -3.5320438088E+001  +2.6879117543E-001 -1.5392126167E+002 
1635887.359 +1.2725800172E-001 +1.7259976604E+002  +2.3573339825E-004 +6.1206066028E+001  +2.0816568247E-003 -1.7828690617E+002  +2.4058475156E-001 -1.5808868984E+002 
1761032.541 +1.3020803061E-001 +1.7062878678E+002  +1.3064949203E-003 -5.8598563727E+001  +1.3558400463E-003 -1.5377086621E+002  +2.0132006718E-001 -1.6087307438E+002 
1886177.722 +1.2449279406E-001 +1.6697136135E+002  +1.1077158428E-003 +1.1205105906E+002  +3.2947315796E-003 +1.1489031554E+002  +2.1231502264E-001 -1.6214400723E+002 
2011322.904 +1.2948049716E-001 +1.6665848706E+002  +1.9208358889E-003 +1.5287815463E+002  +2.2751260369E-003 -6.9634510044E+001  +1.8145482065E-001 -1.6294366857E+002 
2136468.085 +1.2805124953E-001 +1.6356108849E+002  +2.1459137522E-003 +2.9368804991E+001  +3.6688521306E-003 +6.6445204440E+001  +2.2407247534E-001 -1.7253099144E+002 
2261613.267 +1.3738490319E-001 +1.6319523939E+002  +2.5771507033E-003 +9.9225579532E+001  +2.2910745336E-003 +8.1756701881E+001  +1.7006474520E-001 -1.7254496805E+002 
2386758.448 +1.3194240013E-001 +1.6567227672E+002  +1.1266234220E-003 -2.4343827987E+001  +4.8575231106E-003 -8.6813176989E+001  +1.9808120644E-001 +1.7360573834E+002 
2511903.630 +1.3707633361E-001 +1.6320578682E+002  +3.3921773299E-003 -1.4016904110E+001  +4.4837144539E-003 -1.6010177357E+002  +3.5354805734E-002 +7.2688117018E+001 
2637048.811 +1.0880091299E-001 +1.7324656444E+002  +1.0852359801E-002 +5.0036556842E+000  +1.4383852048E-002 +1.1408628845E+002  +1.2686646294E+000 -1.2248665392E+002 
2762193.992 +1.2400393663E-001 +1.6780194727E+002  +9.8064935871E-003 +6.1576180515E+001  +1.0470631502E-002 -9.4127869264E+001  +4.4890366614E-001 +1.4024492212E+002 
2887339.174 +1.2277101515E-001 -1.7604894774E+002  +3.4139027871E-002 +2.5661065307E+000  +2.1821538541E-002 -1.1099119309E+002  +5.2668635003E-001 -8.3712973680E+001 
3012484.355 +1.2565623962E-001 +1.7123691336E+002  +7.2820351008E-002 +1.1250223907E+000  +5.4900085012E-002 +6.8871691363E+001  +3.1878515679E+000 +1.7430286961E+002 
3137629.537 +1.3454890845E-001 +1.7420024202E+002  +2.2168630016E-003 -6.4651210005E+001  +5.8505205644E-003 +3.1926525489E+000  +1.8590093722E-001 -1.0038895125E+002 
3262774.718 +1.2545559175E-001 +1.6655186963E+002  +6.5981080975E-004 -3.5277196806E+001  +3.4690749798E-003 +5.7394903784E+001  +1.8039092765E-001 +4.8473124070E-001 
3387919.900 +1.4341871153E-001 +1.6470345730E+002  +4.7317892746E-003 +5.7299291124E+000  +3.3192367634E-003 +9.8123853289E+001  +1.3046292675E-001 +4.7566119839E+001 
3513065.081 +1.3440144901E-001 +1.5839634075E+002  +7.5565879190E-003 -1.0646037296E+002  +4.1655326927E-003 +1.6121447595E+002  +4.4622624421E-001 +1.2215871174E+002 
3638210.263 +1.7695886525E-001 +1.4939146906E+002  +1.4580605726E-002 +7.0819557265E+001  +1.1922298942E-003 -7.7310597117E+001  +4.2619098244E-001 +9.3240251823E+001 
3763355.444 +1.9421510225E-001 +1.4623858516E+002  +8.2045160530E-003 -1.4329075910E+002  +5.7624091050E-003 +1.6733439234E+002  +2.7502594986E-001 +1.0796378861E+002 
3888500.626 +1.8888185959E-001 +1.4297738451E+002  +9.7635948353E-003 -1.0676366116E+001  +9.9371019002E-003 -1.2230931401E+002  +3.6692931698E-001 +1.1232934182E+002 
4013645.807 +1.7495453631E-001 +1.5246047523E+002  +9.4380995694E-003 +1.0872702711E-001  +5.9819565126E-003 -8.3888964780E+001  +4.1127682874E-001 +1.0959613731E+002 
4138790.989 +2.3376314589E-001 +1.3339083333E+002  +1.9077778182E-002 +1.5905187466E+002  +6.2830396087E-003 +1.4098327158E+002  +4.4400251687E-001 +1.3629283127E+002 
4263936.170 +1.9575663028E-001 +1.4574389602E+002  +9.2677849901E-003 -5.6985492691E+001  +1.4707108661E-002 +1.0017415324E+001  +7.4782065878E-001 +9.6248257595E+001 
4389081.352 +1.9629449100E-001 +1.4724297147E+002  +1.9852055365E-002 -9.7990849150E+001  +1.4346314277E-002 +2.9309630703E+001  +1.0059149589E+000 +1.3603115561E+002 
4514226.533 +2.4996904701E-001 +1.2022166500E+002  +3.3609118734E-003 +2.8203738676E+001  +3.9009495066E-003 -1.4344890331E+002  +9.2948496206E-001 +9.5147750219E+001 
4639371.715 +2.4996368475E-001 +1.2770508151E+002  +4.9200801463E-003 -4.4971379498E+001  +1.1243709820E-002 +1.3205818058E+002  +1.8016565359E+000 +1.2078053940E+002 
4764516.896 +3.9704787839E-001 +1.2954748802E+002  +3.2743721873E-002 +1.3275368690E+002  +3.8722959128E-002 -3.6946090923E+001  +2.2905422937E+000 -7.7912207636E+001 
4889662.078 +4.5235729847E-001 +1.3806897022E+002  +2.0135907452E-002 +1.0604234589E+002  +1.0818539880E-002 -1.7740603565E+002  +3.0597536784E+000 -1.2463382562E+002 
5014807.259 +4.2180885543E-001 +1.1963574323E+002  +2.0173616286E-002 +1.1165689408E+002  +1.2307792572E-001 -1.3342681874E+002  +4.6476405248E+000 +3.5298493380E+001 
5139952.441 +4.0316646269E-001 +1.2610424556E+002  +2.8603306215E-002 +6.9180857057E+001  +9.6003973936E-002 +3.7795249685E+001  +6.7059306168E+000 -1.7627857130E+002 
5265097.622 +4.2005233814E-001 +1.2933614453E+002  +4.5285697645E-002 +4.6946194713E+001  +3.6342310400E-002 -8.4847348508E+001  +2.5128928681E+000 +1.0063384196E+002 
5390242.804 +4.1976204274E-001 +1.2997786848E+002  +3.3638663033E-002 -1.7953462978E+002  +1.2595520850E-002 -8.8929943365E+001  +3.6031196300E+000 +1.0204849899E+002 
5515387.985 +4.8350007413E-001 +1.2833593959E+002  +2.1931439225E-002 -6.6459713068E+001  +2.3835474347E-002 +1.2857405340E+002  +2.8206076577E+000 +1.3137344192E+002 
5640533.166 +4.8939930972E-001 +1.3218038512E+002  +1.3294016456E-002 +6.4156765828E+001  +6.9102798770E-003 +3.7881878158E+001  +1.8831465121E+000 +6.8275894313E+001 
5765678.348 +5.6743515457E-001 +1.1550173064E+002  +3.3990888782E-002 +9.4739002362E+001  +1.8423701455E-002 -3.6240420839E+000  +2.1572823353E+000 +2.7545340745E+001 
5890823.529 +5.2388784613E-001 +1.1886422196E+002  +2.4431123806E-003 -1.1432604141E+002  +3.6613263360E-002 +8.7112759903E+001  +1.5653593385E+000 +3.9978327130E+001 
6015968.711 +7.6483860880E-001 +1.1149586153E+002  +1.8473786433E-003 +1.4405888361E+002  +2.8679056698E-002 -3.4434402621E+001  +2.4542607113E+000 +1.9825291503E+001 
6141113.892 +8.4477702081E-001 +1.1639317699E+002  +9.5136426993E-003 -4.9188096347E+001  +3.7721768102E-003 +1.3267141879E+002  +2.0731689352E+000 +2.4698321327E+001 
6266259.074 +9.5235491664E-001 +1.0989092674E+002  +1.4164053515E-002 +1.1167278705E+002  +2.8535413379E-002 +1.2476135095E+002  +1.6029332888E+000 +4.0789254753E+001 
6391404.255 +8.8540207420E-001 +9.5140475627E+001  +1.5582313143E-002 -1.2472338381E+002  +9.1351440020E-003 +1.3213745029E+002  +1.8441611280E+000 +7.3972427309E+000 
6516549.437 +1.0274164098E+000 +8.0176354717E+001  +1.7998524371E-002 -1.5642615560E+002  +1.0436088475E-002 +4.8234109292E+001  +1.5727842025E+000 -5.0379743672E+000 
6641694.618 +1.3595795818E+000 +7.0405233984E+001  +2.4962872452E-002 +1.3500321046E+002  +3.7919684248E-002 -4.9233220676E+001  +1.4764462650E+000 -3.7559375194E+000 
6766839.800 +1.8034474491E+000 +5.8485142819E+001  +3.2255706485E-002 +1.7350457865E+001  +3.6144488178E-003 +2.5994835620E+000  +1.6693210086E+000 -1.5811094780E+001 
6891984.981 +2.0064697984E+000 +4.5969480824E+001  +5.7094608541E-003 +1.4815544818E+002  +1.6575243252E-002 +6.6145811445E+001  +1.2653563412E+000 -8.2927424823E+000 
7017130.163 +2.3652284912E+000 +3.3271663540E+001  +3.6372595562E-002 +6.7630297454E+001  +2.2133571900E-002 -5.3348254483E+001  +1.2243417433E+000 -1.4816736705E+001 
7142275.344 +1.3839313845E+000 +1.6322144381E+001  +1.6268902459E-002 -1.9921401482E+001  +1.9204045671E-002 +1.5100758960E+002  +1.4113120700E+000 -7.6711342495E+000 
7267420.526 +1.5057176432E+000 -2.4264635466E+000  +5.2108944567E-003 +5.7641764903E+001  +1.5098318984E-002 +3.4233199521E+001  +1.3864403917E+000 -1.1507537970E+001 
7392565.707 +1.4387549290E+000 -6.2632740033E-001  +9.8919567782E-003 +4.0798684237E+001  +7.2865869994E-003 -4.0895927957E+001  +1.4293295460E+000 -7.5158145192E+000 
7517710.889 +1.1699865385E+000 -3.2829282392E+000  +1.5369264446E-003 +1.1816439341E+002  +6.3416107917E-003 -1.4372710814E+002  +1.1770389127E+000 -1.3589342364E+000 
7642856.070 +9.6755700401E-001 -1.1526506927E-001  +4.4811569808E-003 -7.5278640229E+001  +3.6949793824E-003 +2.6162235093E+001  +1.1895683377E+000 -7.5987369816E+000 
7768001.252 +9.6469127633E-001 -2.3197045897E+000  +4.2216985382E-003 -3.2288619792E+001  +7.8559580737E-003 +9.7306982346E+001  +9.8743190465E-001 -2.9997178938E+000 
7893146.433 +9.2134020030E-001 +2.5147774682E+000  +2.7396117671E-003 +1.3685086515E+002  +4.9296407032E-003 +7.3950052631E+001  +8.9801527005E-001 -6.9812837758E+000 
8018291.615 +8.2910339089E-001 +1.0642696646E+001  +1.5697282174E-003 +9.9411013925E+001  +7.0759528366E-003 +1.1815777254E+002  +9.5909665401E-001 -3.0133470545E+000 
8143436.796 +7.3428009102E-001 +7.8823199900E+000  +3.5999712102E-003 +1.6885190042E+001  +5.0046206272E-003 +1.5548937002E+002  +8.0368197574E-001 -1.7233952694E+000 
8268581.977 +7.5102856593E-001 +1.0601062824E+001  +5.2468523433E-003 +9.1467301912E+001  +5.9029359465E-003 -8.1129932170E+001  +7.4735439461E-001 +5.1708537348E+000 
8393727.159 +6.3120374203E-001 +7.7387506278E+000  +3.5989060241E-003 -3.0393444924E+001  +3.7335675412E-003 +2.6953000813E+001  +7.4210017176E-001 -2.1532181457E+000 
8518872.340 +6.5694155153E-001 +7.7876272809E+000  +2.9564278215E-003 +1.3222684667E+002  +4.4499761329E-003 +8.3939455953E+001  +7.4826357551E-001 -4.9454234370E-001 
8644017.522 +6.9345972988E-001 +1.2727560267E+001  +3.4051271919E-003 +1.3647970356E+002  +1.0655759550E-003 -1.3581843728E+001  +6.4342123726E-001 -2.7414261847E+000 
8769162.703 +6.5188686329E-001 +5.5099192674E+000  +2.1496115103E-003 +4.9811242411E+001  +5.6895501457E-003 +4.1751606223E+001  +6.4659197714E-001 +3.3520967484E+000 
8894307.885 +6.1013284402E-001 +7.2795030970E+000  +1.4512954997E-003 -1.6528803729E+002  +4.3218428252E-003 +5.9520403890E+001  +6.7651508525E-001 -2.7574448358E+000 
9019453.066 +6.3681399751E-001 +9.4544617626E+000  +1.1081809663E-003 -9.5118042644E+000  +3.7376238594E-003 +9.1843457711E+001  +6.3888718525E-001 -3.7223259866E+000 
9144598.248 +5.6127804342E-001 +3.1733083844E+000  +3.1985882205E-003 +4.5137628712E+001  +3.3659069079E-003 +1.2998223857E+002  +5.7755885380E-001 -4.3165345385E+000 
9269743.429 +5.3343902547E-001 +8.8378003904E+000  +1.8672472857E-003 -1.5436341937E+002  +4.3951673889E-003 +6.3611438732E+001  +6.0977507606E-001 -4.3835330759E+000 
9394888.611 +5.3478982267E-001 +5.1584770065E+000  +1.6000691941E-003 +1.3750610422E+002  +4.2359916852E-003 -1.3640047732E+002  +5.8666827152E-001 -6.9490219833E+000 
9520033.792 +5.5922588217E-001 +3.7850649396E+000  +1.5475302888E-003 -1.6417368364E+002  +4.1026463270E-003 -5.3776513082E+001  +5.9712249540E-001 +1.4348188417E+000 
9645178.974 +5.8653152047E-001 +3.4848174009E-001  +1.5404204778E-003 +9.0792626839E+001  +3.0101132190E-003 -3.4542180617E+001  +5.5998828523E-001 -1.1439233463E+000 
9770324.155 +5.5624352633E-001 -2.4719149920E+000  +4.0025861649E-003 -4.4518812039E+001  +1.7895750805E-003 -1.5005847336E+002  +6.2865103108E-001 -6.8383972710E+000 
9895469.337 +5.4141774348E-001 +5.7172348080E+000  +1.9506398072E-003 -3.3519876052E+001  +1.9924858440E-003 -1.2541451741E+002  +5.6890428690E-001 -5.2014047461E+000 
10020614.518 +5.6255960330E-001 +2.5268440557E+000  +2.5550695452E-003 +3.8662228347E+001  +3.5994492610E-003 +1.2729875654E+002  +6.3000717554E-001 -7.2071630577E+000 
10145759.700 +5.6500043935E-001 +6.4401464414E+000  +3.0704387052E-003 +3.8843113680E+001  +1.2846501017E-003 -2.3898302752E+001  +5.9958730239E-001 -2.4345544116E+000 
10270904.881 +5.8307380987E-001 +1.0270968397E+001  +1.6989256257E-003 -1.6681270327E+002  +1.7035752454E-003 -1.6750546101E+002  +5.9468163720E-001 +7.7141804736E-001 
10396050.063 +5.6207165229E-001 +3.4642543023E+000  +8.1626379525E-004 +5.0238272205E+001  +3.8656343650E-003 +6.1948532150E+001  +6.0294403182E-001 -4.0062365091E+000 
10521195.244 +5.7737413238E-001 +7.8074646188E+000  +2.8529396046E-003 +2.5081220917E+000  +8.7703825798E-004 +1.2678347216E+002  +6.2795062051E-001 -1.7693849410E+000 
10646340.426 +5.5534695635E-001 +5.1641916608E+000  +2.9474845981E-003 +5.3349432982E+001  +8.9278952604E-004 +8.2729630034E+001  +5.6916011610E-001 -3.5973146654E-001 
10771485.607 +5.6417650506E-001 +5.7624055869E+000  +1.8390725751E-003 +1.3894053722E+002  +3.1815900249E-004 +1.4690434020E+002  +6.2959757994E-001 +3.6806578644E+000 
10896630.788 +5.6143557238E-001 +5.8508565811E+000  +1.3963905317E-003 -1.6930343492E+002  +1.5742184697E-003 +1.1704173196E+002  +6.1539375296E-001 +4.5412341229E+000 
11021775.970 +5.7419642690E-001 +3.3852266856E+000  +6.5720168267E-004 -1.5637974617E+001  +2.2588047741E-003 +8.4165280241E+001  +6.1812179917E-001 +4.0423289435E+000 
11146921.151 +6.1153149020E-001 +5.5935294774E+000  +4.4706542885E-004 -6.4291879782E+001  +1.2280949364E-003 +1.6395419385E+001  +6.2586144609E-001 +2.2955964710E+000 
11272066.333 +5.8831606864E-001 +7.7036896659E+000  +1.3414180706E-003 -1.1059026209E+002  +1.0420338715E-003 -2.8423655029E+001  +6.1817766133E-001 +4.6967275484E+000 
11397211.514 +6.1476761059E-001 +7.3427439999E+000  +2.3429228975E-003 +8.6589455335E+001  +4.3313313355E-004 +9.3728033041E+001  +6.3391514360E-001 +7.5538677184E-001 
11522356.696 +6.3213014969E-001 +5.3260708071E+000  +4.9769581594E-004 +8.8373966441E+001  +1.3642657973E-003 -1.7248425856E+002  +6.5559490627E-001 +1.4658308034E+000 
11647501.877 +6.2316954382E-001 +8.2607925076E+000  +6.0151784998E-004 -1.2071694395E+002  +2.9864095367E-003 +2.3290638998E+001  +6.5393088885E-001 +2.8518764240E+000 
11772647.059 +6.6425342872E-001 +3.4977122038E+000  +1.7906994114E-003 +1.2303293622E+002  +1.7343781917E-003 +9.2468541820E+001  +6.6989337012E-001 +3.8209108185E+000 
11897792.240 +6.6189007688E-001 +4.7418816461E+000  +1.2950939096E-003 +7.0743985425E+001  +1.0963146558E-003 +1.6471862303E+002  +6.6926816870E-001 +1.2810883592E+000 
12022937.422 +6.5716075223E-001 +2.4020840973E+000  +1.1263581439E-003 +1.5736253308E+002  +2.7456537951E-003 +5.6006282593E+001  +7.0793095140E-001 -7.8702515476E-001 
12148082.603 +7.0129063954E-001 +4.5002977830E+000  +2.4694745665E-003 +1.5225222252E+002  +1.6118951308E-003 +4.7231650091E+001  +7.1123701577E-001 +1.5211371323E+000 
12273227.785 +7.2867620354E-001 +3.8478340449E+000  +2.0530482588E-003 +9.2631726671E+001  +2.2697635343E-003 +5.3081209781E+001  +7.1035658908E-001 +1.5395163747E+000 
12398372.966 +7.4105777523E-001 +4.3241149652E+000  +1.7647841098E-003 +1.1039722308E+002  +8.1735814322E-004 +6.2724543032E+001  +7.3727185443E-001 +2.6485110596E-001 
12523518.148 +7.4718576019E-001 +3.9310380209E+000  +2.4911751656E-003 +7.5270892338E+001  +1.9948020892E-003 +5.2433212235E+001  +7.5397135843E-001 +1.3577081678E+000 
12648663.329 +7.3159760734E-001 +3.3975142351E+000  +5.9983726762E-004 +8.5729970306E+000  +1.0375260330E-003 +7.5485023093E+001  +7.7976913349E-001 -9.9337227860E-001 
12773808.511 +7.2957562458E-001 +2.7209489314E+000  +1.7338734771E-003 +6.8502248698E+001  +1.5860075592E-003 +7.9308494595E+001  +7.8491307047E-001 -9.1607209938E-001 
12898953.692 +7.8530898008E-001 +8.1116910496E-001  +1.5961644191E-003 +5.1530481670E+001  +2.9552634642E-003 +7.2171171720E+001  +8.0830036172E-001 -1.1800416025E-001 
13024098.874 +7.8898310922E-001 +1.7113197033E-001  +1.7539010739E-003 +6.6119113653E+001  +7.2567418704E-004 +5.7002526717E+001  +7.9393768029E-001 -2.8633548785E+000 
13149244.055 +8.1006664572E-001 -1.3293955529E+000  +9.4838227882E-004 -1.6492772255E+002  +1.1809764683E-003 -1.4494902918E+002  +8.3702140128E-001 -2.2707194344E+000 
13274389.237 +8.2242728193E-001 -9.6504256442E-001  +9.6061272430E-004 +1.1433851337E+002  +2.6975855799E-003 +4.2454912658E+001  +8.1384346695E-001 -2.8884233894E+000 
13399534.418 +8.6720611292E-001 -1.0059266912E+000  +1.2970991499E-003 +4.9641113189E+001  +2.3726414523E-003 +8.4417909892E+001  +8.4709171036E-001 -1.5269492762E+000 
13524679.599 +8.6140089907E-001 -1.1825329531E+000  +1.4882457686E-003 -1.7355611086E+002  +1.7731104593E-003 +4.7662561660E+001  +8.7259314047E-001 -2.4859512150E+000 
13649824.781 +8.9139944406E-001 -1.7083266885E+000  +6.4794791348E-004 -1.1564570999E+001  +1.7727297007E-003 +7.2332135394E+001  +8.9602239472E-001 -2.7244065813E+000 
13774969.962 +9.1162490752E-001 -2.5474708048E+000  +1.2407688446E-003 +2.8237640768E+001  +1.5008070359E-003 +6.1864001509E+001  +9.0342011750E-001 -3.2040138087E+000 
13900115.144 +9.2620128721E-001 -3.1170165563E+000  +2.9478419060E-003 +8.4535603134E+001  +2.1726623508E-003 +1.1041936336E+002  +9.2824622187E-001 -3.2997336889E+000 
14025260.325 +9.2343104170E-001 -4.2707223562E+000  +3.5331308477E-003 +8.0050354789E+001  +2.3697915141E-003 +7.9266518159E+001  +9.2893234120E-001 -4.1533051855E+000 
14150405.507 +9.3756357838E-001 -4.4310049732E+000  +4.7908560081E-004 +8.9878105443E+000  +2.4142507153E-003 +7.9790608837E+001  +9.6228557506E-001 -4.9785499995E+000 
14275550.688 +9.5183130139E-001 -5.8960965777E+000  +2.3459385412E-003 +6.6137877715E+001  +7.4919724254E-004 +5.0083017735E+001  +9.6910978038E-001 -5.0958334234E+000 
14400695.870 +9.8796497543E-001 -6.2425913332E+000  +2.8114777910E-003 +3.6846982570E+001  +1.3354747639E-003 +1.0508429524E+002  +9.8537483106E-001 -4.4889527506E+000 
