!  2-Port S-parameters saved by WinCal
! VAR MeasName=S-Parameters (CALIBRATED_DATA) read from VNA (P5004A)
! VAR MeasDate=29/08/2024 12:22:38
! VAR NAME=S2_r9c5_SET1_9k-100M_3
! VAR FILENAME=S2_r9c5_SET1_9k-100M_3.S2P
! VAR DATE=29/08/2024 12:22:38
! VAR PHYS_PORTS=1,2
! VAR ObjTypeName=DATASET
! VAR IndexType=Frequency
!
# Hz S MA R 50
9000.000 +9.4568792122E-002 -1.6674124960E+002  +7.8504058107E-003 +1.1983820301E+001  +4.4971213309E-003 +1.0810142206E+002  +2.8492419431E-001 -1.4431814814E+002 
134145.181 +1.1128004227E-001 +1.7011279325E+002  +1.9688557475E-004 -1.4546691357E+002  +7.4417226667E-005 -1.7740916432E+002  +2.4100489072E-001 -1.7135239362E+002 
259290.363 +1.1081431723E-001 +1.6931561950E+002  +1.3434655616E-003 -1.2724362649E+002  +1.1404351546E-003 -1.7789503355E+002  +2.4384522767E-001 -1.6787393410E+002 
384435.544 +1.1327772063E-001 +1.7000867968E+002  +5.0480659120E-004 -6.8215789834E+001  +8.0108106603E-004 +1.5075195710E+002  +2.4677233007E-001 -1.6924188604E+002 
509580.726 +1.1367969977E-001 +1.7110911427E+002  +1.9743129340E-003 -4.2897153242E+001  +5.8454809385E-004 +1.1456084227E+002  +2.3858871936E-001 -1.6302969199E+002 
634725.907 +1.1797948341E-001 +1.7127084991E+002  +2.0914889115E-003 -1.0996150532E+002  +2.0634361248E-003 +6.4637612233E+001  +2.4715260797E-001 -1.6404918645E+002 
759871.089 +1.1879356375E-001 +1.7117693630E+002  +1.1182525862E-003 -8.0435672267E+001  +1.3360425469E-003 +1.2473067313E+002  +2.5995982401E-001 -1.6704825791E+002 
885016.270 +1.1983903740E-001 +1.6939046613E+002  +7.6083444718E-004 -3.9376856408E+001  +1.3841028498E-003 +1.0842870834E+002  +2.4296258869E-001 -1.6656212121E+002 
1010161.452 +1.1753124092E-001 +1.7096000311E+002  +1.2282149993E-003 +1.8939888811E+001  +1.7578792085E-003 +1.5172565094E+002  +2.1786359478E-001 -1.7043964546E+002 
1135306.633 +1.1417277540E-001 +1.6926014324E+002  +3.4235057348E-003 -3.0795009982E+001  +3.2260414882E-003 -1.7148749485E+002  +1.9565375303E-001 -1.6353631307E+002 
1260451.815 +1.2261762668E-001 +1.7047924293E+002  +9.9851315093E-004 -1.2696596199E+002  +2.7847774852E-003 +1.7751946462E+002  +2.2197632280E-001 -1.6109510664E+002 
1385596.996 +1.2654726502E-001 +1.7454050568E+002  +8.6944848565E-004 -1.3169622259E+002  +2.2646370846E-003 +1.2050169336E+002  +2.5411502171E-001 -1.5965392014E+002 
1510742.178 +1.2575899188E-001 +1.7264684964E+002  +9.2034870947E-004 -4.5975665252E+001  +1.1981855280E-003 +1.3603312743E+002  +2.7455212212E-001 -1.5918814733E+002 
1635887.359 +1.2986616392E-001 +1.7031296187E+002  +7.4868541784E-004 +3.0280570666E+000  +9.6633300778E-004 -1.3121344840E+002  +2.4197432553E-001 -1.5891544318E+002 
1761032.541 +1.3197330063E-001 +1.6976446254E+002  +1.9541926346E-003 +1.5926910592E+001  +2.1465846265E-003 -9.1192491935E+001  +2.2810251795E-001 -1.5960843832E+002 
1886177.722 +1.3474154604E-001 +1.6840166069E+002  +1.1350221758E-003 +5.1323691058E+001  +2.3895076576E-003 -7.8708115850E+001  +2.2551097279E-001 -1.6357528320E+002 
2011322.904 +1.2768011620E-001 +1.6991489876E+002  +3.4699081552E-003 +3.4840366199E+001  +5.0614670814E-003 -6.7894357254E+001  +2.1959460829E-001 -1.6400280430E+002 
2136468.085 +1.3603061883E-001 +1.6553492075E+002  +4.8924551528E-003 +9.3822368378E+001  +5.1851720227E-003 -2.8138127339E+001  +2.0933139549E-001 -1.7163250586E+002 
2261613.267 +1.2674289473E-001 +1.6199144856E+002  +2.1807036933E-002 +7.3458519739E+001  +2.4487248149E-002 -4.5994790427E+001  +1.2295805876E-001 -1.7313916431E+002 
2386758.448 +1.3921969937E-001 +1.6484020477E+002  +9.6907412012E-003 +7.9770600414E+001  +9.3051926912E-003 -4.6337704113E+001  +1.9678292085E-001 -1.7807479463E+002 
2511903.630 +1.3786177485E-001 +1.6537126994E+002  +1.7102979275E-002 +9.8111258041E+001  +1.3744093595E-002 -1.2836050514E+001  +2.2071549831E-001 +1.7186178904E+002 
2637048.811 +1.1501783241E-001 +1.6164439158E+002  +5.5262738276E-002 +9.8117949022E+001  +5.9236113254E-002 -1.7528674889E+001  +2.8246355137E-001 +1.3215218008E+002 
2762193.992 +1.2689562468E-001 +1.6543025132E+002  +5.5817518848E-002 +5.0463849180E+001  +5.5524999772E-002 -6.3903163031E+001  +8.0743934362E-002 +7.0270440750E+001 
2887339.174 +1.2794016849E-001 +1.6928013368E+002  +4.2544771020E-002 -1.2093629852E+001  +2.7208012141E-002 -1.2044806496E+002  +2.1750425817E-001 -1.0322214115E+002 
3012484.355 +1.3040462996E-001 +1.7174554390E+002  +4.8732086269E-002 -5.0112968536E+000  +4.1214260496E-002 -1.1163563751E+002  +1.6468716043E-001 -9.1991170439E+001 
3137629.537 +1.2606575356E-001 +1.6392984378E+002  +6.2463688719E-002 +2.6503736619E+001  +6.4755000283E-002 -6.8290354063E+001  +9.1166407136E-002 -4.1010120740E+001 
3262774.718 +1.3038693282E-001 +1.6018943587E+002  +6.0398544848E-002 +4.1139227239E+001  +5.6910580422E-002 -6.0873360177E+001  +4.5400093995E-002 +3.3997155629E+001 
3387919.900 +1.1833694204E-001 +1.5564124404E+002  +5.7987230505E-002 +5.0018015533E+001  +5.6085954727E-002 -2.8586518030E+001  +1.5865728694E-001 +1.3026687419E+002 
3513065.081 +1.4467216619E-001 +1.5812921896E+002  +4.7780142565E-002 +5.4384383879E+001  +5.4072677481E-002 -2.7648432531E+001  +1.1658469328E-001 +1.2672440224E+002 
3638210.263 +1.4456624999E-001 +1.4871715341E+002  +4.6563090488E-002 +1.0425558366E+002  +4.9920197252E-002 +2.9778842322E+001  +4.0961015951E-001 +1.5457043537E+002 
3763355.444 +1.7194668670E-001 +1.4459723743E+002  +6.0934692605E-002 +1.2555237630E+002  +6.9969653942E-002 +5.2942798018E+001  +4.9587691926E-001 +1.4793018936E+002 
3888500.626 +1.9150772910E-001 +1.3902263711E+002  +6.5809094156E-002 +1.1113118005E+002  +5.4597808648E-002 +3.3690841692E+001  +3.4543712556E-001 +1.5121959507E+002 
4013645.807 +1.8367435821E-001 +1.5201239107E+002  +6.0431380249E-002 +9.9907633411E+001  +5.6491113245E-002 +3.4707998567E+001  +4.4215272239E-001 +1.4088797597E+002 
4138790.989 +1.8703238202E-001 +1.4751133857E+002  +6.2109777853E-002 +9.7609087151E+001  +7.0582941788E-002 +3.3559710223E+001  +4.6942463650E-001 +1.3200257686E+002 
4263936.170 +2.3364645693E-001 +1.4566580762E+002  +1.1335410104E-001 +1.5333605158E+002  +1.1825794228E-001 +8.3270216605E+001  +1.0582268759E+000 +1.3935378715E+002 
4389081.352 +2.1192823179E-001 +1.4212146819E+002  +1.0374905826E-001 +1.1770583597E+002  +1.0051909769E-001 +4.8593718734E+001  +6.8070504284E-001 +1.3110638584E+002 
4514226.533 +2.7334100699E-001 +1.3679299118E+002  +2.1122201262E-001 +1.2235634160E+002  +1.9617114130E-001 +6.6315147610E+001  +1.2344624479E+000 +1.0162530611E+002 
4639371.715 +3.4049511013E-001 +1.1887986576E+002  +4.5819872993E-001 +9.7084417844E+001  +4.6120683974E-001 +4.2868174246E+001  +2.0295026512E+000 +6.7117492622E+001 
4764516.896 +4.5710110328E-001 +1.2434434188E+002  +5.3435836218E-001 +1.2154835521E+002  +5.5627692424E-001 +7.8715581405E+001  +2.2566065984E+000 +9.3531013194E+001 
4889662.078 +3.1588888864E-001 +1.0811687148E+002  +4.9580459510E-001 +2.5245358683E+001  +5.7564033019E-001 -2.0241362718E+001  +2.3946502639E+000 -2.1392076734E+001 
5014807.259 +4.5416704217E-001 +1.3774727244E+002  +4.3049524383E-001 +1.4210333804E+002  +4.0455298715E-001 +1.0363988194E+002  +2.4966678324E+000 +1.0263425147E+002 
5139952.441 +4.1268214554E-001 +1.1340299394E+002  +4.1435049458E-001 +9.0789080534E+001  +3.7927187294E-001 +4.8188000926E+001  +1.5187216548E+000 +7.0456791733E+001 
5265097.622 +4.9466434236E-001 +1.1557824165E+002  +4.9787688710E-001 +9.4938505708E+001  +4.8970938450E-001 +5.8932036253E+001  +2.0326758342E+000 +7.0803756192E+001 
5390242.804 +3.7538666706E-001 +1.3452491295E+002  +2.1629136983E-001 +9.5363964521E+001  +2.1097536828E-001 +5.7274849790E+001  +1.3489895882E+000 +8.4412808728E+001 
5515387.985 +4.5363274083E-001 +1.2511697148E+002  +2.5949052189E-001 +1.3459036897E+002  +2.3604581891E-001 +1.0769473288E+002  +1.6936594450E+000 +1.3520019268E+002 
5640533.166 +3.7893363121E-001 +1.1862474933E+002  +3.1030516160E-001 +7.5764533976E+001  +2.9658195058E-001 +4.4695929270E+001  +1.5989503178E+000 +7.6685811429E+001 
5765678.348 +4.4154142803E-001 +1.2747944904E+002  +2.8982181196E-001 +9.4896135472E+001  +2.4474986078E-001 +6.7553776890E+001  +1.9041031203E+000 +9.3227790493E+001 
5890823.529 +4.4599806511E-001 +1.2466357001E+002  +1.9668367974E-001 +7.3352585371E+001  +2.0988250222E-001 +4.2432855657E+001  +1.0891046558E+000 +7.1050401932E+001 
6015968.711 +4.7929557410E-001 +1.1525178313E+002  +2.8123539848E-001 +5.9927368987E+001  +2.8142243614E-001 +4.1261563724E+001  +1.5226624959E+000 +6.5097397990E+001 
6141113.892 +6.5200746717E-001 +1.0486813661E+002  +3.9094384822E-001 +6.2462826718E+001  +3.6808421691E-001 +4.4369298204E+001  +1.6072347842E+000 +5.3783977416E+001 
6266259.074 +7.7791352693E-001 +9.9370078029E+001  +3.4536182238E-001 +5.4052963463E+001  +3.1241491249E-001 +3.1604855065E+001  +1.0335283187E+000 +3.4343833008E+001 
6391404.255 +7.0044852705E-001 +9.9816029192E+001  +3.3822263642E-001 +4.1423888309E+001  +3.4750443238E-001 +3.0953379526E+001  +1.6301778378E+000 +2.9792897436E+001 
6516549.437 +9.9239575720E-001 +8.2723399457E+001  +4.6608413216E-001 +4.4930598917E+001  +4.2205321792E-001 +2.7453744843E+001  +1.6125877424E+000 +3.3828475997E+001 
6641694.618 +7.9474906875E-001 +4.9025776212E+001  +3.8452910089E-001 +9.3867170182E+000  +3.8134971938E-001 +1.7135735312E-001  +1.0922773123E+000 +5.9568356528E+000 
6766839.800 +1.3481139894E+000 +4.9457277178E+001  +4.5384008664E-001 +1.9954073091E+001  +4.5937513075E-001 +1.2243590522E+001  +1.1274624860E+000 +1.1488018116E+001 
6891984.981 +1.4795288536E+000 +3.3818941988E+001  +4.0835402189E-001 +1.1964102901E+001  +4.0527776312E-001 +2.8179656921E+000  +1.0415587328E+000 +3.8402416576E+000 
7017130.163 +8.5481769692E-001 +1.9967855067E+001  +2.9235837323E-001 -4.7619057500E+000  +2.8892871979E-001 -8.8635564914E+000  +9.3017642204E-001 -9.2284828834E+000 
7142275.344 +1.2613031227E+000 +4.7854749466E+000  +3.1333257158E-001 -1.4037913262E+000  +3.2304207162E-001 -7.1153497811E+000  +9.6924610771E-001 -4.0750489283E+000 
7267420.526 +1.1276947549E+000 +1.2547161881E+001  +2.6088415541E-001 +7.7590041135E-001  +2.5485721214E-001 +3.0470420590E+000  +1.0634425797E+000 -1.8390941238E+001 
7392565.707 +1.0465162199E+000 -6.9489590269E+000  +2.3144781779E-001 +3.2924868264E+000  +2.2783809961E-001 +4.0479253471E+000  +1.0913879404E+000 -9.8475600571E+000 
7517710.889 +8.6710531521E-001 +1.6404337493E+000  +2.0055115005E-001 +1.1406223733E+000  +2.0400097389E-001 +3.8097196397E+000  +8.3153200098E-001 -1.0339581725E+001 
7642856.070 +8.3740682953E-001 +5.7165006788E-001  +1.9409918051E-001 -4.4592771947E-001  +1.8689270980E-001 +2.6816166733E+000  +8.0558984756E-001 +6.1869971676E-002 
7768001.252 +7.1276884121E-001 +6.9315982406E+000  +1.7505194833E-001 +1.9539259844E+000  +1.7338064767E-001 +4.2903525298E+000  +7.4006594957E-001 +5.3295967035E+000 
7893146.433 +6.4319171877E-001 +1.3708760842E+001  +1.7670048773E-001 +8.3045806682E-007  +1.7378273968E-001 +8.6605063165E+000  +7.5869472391E-001 -3.9481436053E+000 
8018291.615 +5.8831006336E-001 +9.0764319220E+000  +1.6764930191E-001 -2.6762694836E+000  +1.6897860769E-001 +4.9393673366E+000  +6.6670897377E-001 +2.5929612378E+000 
8143436.796 +6.2348142650E-001 +1.2095869186E+001  +1.6394741087E-001 -2.1265875911E+000  +1.6741142063E-001 +7.9408981763E+000  +5.7558938778E-001 +7.7738720635E+000 
8268581.977 +4.9493751231E-001 +1.7657088741E+001  +1.5776552748E-001 -1.3558600641E+000  +1.6361163912E-001 +1.0980279442E+001  +6.0605459501E-001 +3.7564196981E+000 
8393727.159 +5.1622393858E-001 +1.9045409026E+001  +1.5790397502E-001 -6.6669869310E-001  +1.5548346962E-001 +1.0094307546E+001  +6.4148346713E-001 +8.2452400245E+000 
8518872.340 +5.0558380493E-001 +1.9320062224E+001  +1.5193154107E-001 -4.3499907351E+000  +1.5493485794E-001 +7.9620393851E+000  +5.2555282479E-001 +7.6220742330E+000 
8644017.522 +5.1044827918E-001 +1.2214190734E+001  +1.5366719100E-001 -3.6257803324E+000  +1.5116342586E-001 +8.4425376660E+000  +4.8553231866E-001 +1.1638101759E+001 
8769162.703 +4.9441723486E-001 +8.2809939027E+000  +1.5745065733E-001 -4.1298644234E+000  +1.5450863998E-001 +7.2800816893E+000  +4.1478675653E-001 +4.4032943335E+000 
8894307.885 +4.0955365836E-001 +1.0897659709E+001  +1.5317805699E-001 -5.6539996233E+000  +1.5692923850E-001 +7.9895799881E+000  +4.0699809834E-001 +5.8821598720E+000 
9019453.066 +3.8261428932E-001 +1.4319420577E+001  +1.5181668924E-001 -4.3014998219E+000  +1.4817407109E-001 +1.0299121142E+001  +4.5974579086E-001 +1.7778499266E+000 
9144598.248 +4.1655619279E-001 +1.6661177167E+001  +1.5239673988E-001 -4.7037635313E+000  +1.5041071860E-001 +1.0651307724E+001  +4.6410579410E-001 +7.6791967357E+000 
9269743.429 +4.1640966020E-001 +9.0931118867E+000  +1.5211759090E-001 -4.5812130202E+000  +1.5257990154E-001 +9.8358200551E+000  +4.5043429010E-001 -2.5420661120E-001 
9394888.611 +3.5048608422E-001 -1.0756694703E+000  +1.5465097979E-001 -6.4421681003E+000  +1.5127682007E-001 +9.6997635287E+000  +4.6926658799E-001 -2.8056023971E+000 
9520033.792 +3.7095171972E-001 +5.1512716452E+000  +1.5876099042E-001 -5.8528900324E+000  +1.5299132975E-001 +1.0940301519E+001  +4.3628471481E-001 -9.9170428647E-001 
9645178.974 +3.5643461513E-001 +4.4719776777E+000  +1.5192691440E-001 -4.4408707001E+000  +1.5132175679E-001 +1.1045316700E+001  +4.1264427980E-001 +5.2614413135E+000 
9770324.155 +3.7314519611E-001 +7.9612972648E+000  +1.5551311545E-001 -4.1328664531E+000  +1.5613934448E-001 +1.1159580722E+001  +4.0417957130E-001 +2.3697193236E+000 
9895469.337 +3.8244135135E-001 +6.2657563468E+000  +1.5634511491E-001 -5.7294161084E+000  +1.5349581100E-001 +1.1112114935E+001  +4.0445957891E-001 -5.5173869674E+000 
10020614.518 +3.7929509051E-001 +6.7772680558E+000  +1.5820407830E-001 -4.2496705387E+000  +1.5538018753E-001 +1.2875415089E+001  +3.9287829782E-001 -3.0137166588E+000 
10145759.700 +3.5805264809E-001 +9.7279556591E+000  +1.5351858466E-001 -4.8730615389E+000  +1.5272343409E-001 +1.1564692575E+001  +4.1487790608E-001 -1.0959227686E+000 
10270904.881 +4.1031933174E-001 +5.7520977639E+000  +1.5725205800E-001 -4.4523867482E+000  +1.5345008137E-001 +1.2761876048E+001  +4.1352111624E-001 +2.7404301337E+000 
10396050.063 +3.9970044770E-001 +1.0022026810E+001  +1.5915836909E-001 -2.9374913443E+000  +1.5571479841E-001 +1.3475533646E+001  +4.4717583414E-001 -1.6939315684E+000 
10521195.244 +3.9792921318E-001 +8.5450933038E+000  +1.5664847642E-001 -2.7623501770E+000  +1.5529677343E-001 +1.2472639782E+001  +4.5281916479E-001 +4.8463762660E+000 
10646340.426 +4.2786183568E-001 +1.2509320775E+001  +1.5821183349E-001 -2.1580593508E+000  +1.5761725840E-001 +1.2584305587E+001  +4.2155947842E-001 +5.2010230739E+000 
10771485.607 +4.0568543757E-001 +1.0035358232E+001  +1.6145888511E-001 -2.2021786964E+000  +1.6003276618E-001 +1.2184653685E+001  +4.3904483362E-001 +1.1159107046E+000 
10896630.788 +4.2486051391E-001 +1.4676681308E+001  +1.5810193158E-001 -2.1640509183E+000  +1.6015183440E-001 +1.2127603917E+001  +4.2786937171E-001 +3.7585623710E+000 
11021775.970 +4.3450622991E-001 +1.4742626222E+001  +1.6106315487E-001 -1.6647898966E+000  +1.6173356601E-001 +1.2422755556E+001  +4.3590081940E-001 +4.5227634977E+000 
11146921.151 +4.5351470593E-001 +1.1749081798E+001  +1.6106950962E-001 -3.3775959187E-001  +1.5974038134E-001 +1.2098034599E+001  +4.5886897788E-001 +5.3269118587E+000 
11272066.333 +4.2008234215E-001 +1.4392061205E+001  +1.6502828240E-001 -1.0320369231E+000  +1.6319077138E-001 +1.0757401864E+001  +4.2085639198E-001 +4.0148441847E+000 
11397211.514 +4.5204396093E-001 +1.1231222018E+001  +1.6499110397E-001 -4.5927741719E-002  +1.6676789368E-001 +1.1130878751E+001  +4.9053474478E-001 +5.8169289344E+000 
11522356.696 +4.7344973285E-001 +1.3776821927E+001  +1.6912132747E-001 +5.0575696377E-001  +1.6475851653E-001 +1.1567932764E+001  +4.5872098403E-001 +5.9772515479E+000 
11647501.877 +4.8172583907E-001 +1.2895012274E+001  +1.6716274734E-001 -3.0894030747E-001  +1.6644239199E-001 +1.1624140833E+001  +4.8174203180E-001 +3.5602169617E+000 
11772647.059 +4.7001351937E-001 +1.1160704463E+001  +1.7238247467E-001 +5.3273190120E-001  +1.6872588528E-001 +1.1398283358E+001  +4.9706903845E-001 +4.3181261171E+000 
11897792.240 +4.9191418992E-001 +8.1118342669E+000  +1.7540932509E-001 +7.5962380717E-001  +1.6985833017E-001 +1.0017415044E+001  +5.0000889322E-001 +1.6860081759E+000 
12022937.422 +4.9459856512E-001 +8.6357835534E+000  +1.7386332278E-001 +1.7416390063E+000  +1.7317655638E-001 +1.1039589027E+001  +5.3453129758E-001 +4.4930609078E+000 
12148082.603 +5.1238681864E-001 +6.7172495841E+000  +1.7883148190E-001 +8.2417598225E-001  +1.7412456085E-001 +1.0424557066E+001  +5.3193672980E-001 +2.9487535385E+000 
12273227.785 +5.1649547712E-001 +7.7071225128E+000  +1.7883536659E-001 +1.0155850957E+000  +1.7837376733E-001 +9.7762575783E+000  +5.1608656402E-001 +2.0723071686E+000 
12398372.966 +5.1732073200E-001 +7.2350767135E+000  +1.8046089388E-001 +1.3423613024E+000  +1.7710732701E-001 +9.7107950300E+000  +5.6200787820E-001 +2.9049775428E+000 
12523518.148 +5.3041235024E-001 +2.7078806358E+000  +1.8408447659E-001 +1.6406096129E+000  +1.8130954121E-001 +8.1685712227E+000  +5.6487512422E-001 -5.9323030865E-001 
12648663.329 +5.6353849384E-001 +5.2978829137E+000  +1.8478838627E-001 +1.5668505729E+000  +1.8185699475E-001 +8.3391232147E+000  +5.5391595506E-001 +1.7824466450E+000 
12773808.511 +5.7443073328E-001 +3.4079199351E+000  +1.8768307826E-001 +2.0373884849E+000  +1.8553109936E-001 +7.4769482988E+000  +5.7464803985E-001 -9.4967063008E-001 
12898953.692 +5.8712173762E-001 +2.4201745296E+000  +1.8796522289E-001 +2.1668455931E+000  +1.8720770411E-001 +7.5194926755E+000  +5.7112111140E-001 +4.8849408856E-001 
13024098.874 +5.8804366007E-001 +2.5591489742E+000  +1.9041999703E-001 +2.1967960589E+000  +1.8880031584E-001 +7.0587592186E+000  +6.1393951086E-001 -1.2912938338E+000 
13149244.055 +6.0471177929E-001 +1.7731920077E+000  +1.9161216736E-001 +2.2944093531E+000  +1.8988064934E-001 +6.2234913729E+000  +6.3336541135E-001 -1.5183837695E-001 
13274389.237 +6.5097241317E-001 +1.3334893518E+000  +1.9364615353E-001 +1.9887184547E+000  +1.9252264569E-001 +6.2607073236E+000  +6.2737172614E-001 -1.7777209194E+000 
13399534.418 +6.5564713204E-001 +2.3357974313E+000  +1.9499526479E-001 +2.3326764384E+000  +1.9244589932E-001 +5.9563347969E+000  +6.6285983342E-001 -2.1050146249E+000 
13524679.599 +6.6741624207E-001 -1.2917080508E+000  +1.9889957207E-001 +2.6576111373E+000  +1.9588239437E-001 +5.3090623242E+000  +6.6253063621E-001 +2.7559998268E-001 
13649824.781 +6.7478074204E-001 -4.2555604880E-001  +1.9776597915E-001 +2.4301745428E+000  +1.9536134346E-001 +4.0783213221E+000  +6.7513195445E-001 -1.0937188053E+000 
13774969.962 +7.0779094777E-001 -2.1989843999E+000  +2.0084963482E-001 +2.8011311992E+000  +2.0084512238E-001 +4.2144402953E+000  +6.9034640804E-001 -3.6927336563E+000 
13900115.144 +6.9733613362E-001 -1.9010067062E+000  +2.0046788620E-001 +2.0503522831E+000  +1.9820210834E-001 +3.6871431627E+000  +7.1427484525E-001 -2.0660810656E+000 
14025260.325 +7.0483736629E-001 -2.8400883869E+000  +2.0377389686E-001 +2.0760226089E+000  +2.0017590832E-001 +3.0042799889E+000  +7.2769617752E-001 -2.8844626257E+000 
14150405.507 +7.2823138654E-001 -4.6481991358E+000  +2.0250780040E-001 +1.7426543515E+000  +2.0404742213E-001 +3.1863645562E+000  +7.4613924311E-001 -4.3973258279E+000 
14275550.688 +7.5893817748E-001 -5.2725940572E+000  +2.0678598117E-001 +2.4423821870E+000  +2.0332407700E-001 +2.7210747035E+000  +7.7891813842E-001 -4.3035632077E+000 
14400695.870 +7.8818166316E-001 -6.0321357150E+000  +2.0714580481E-001 +1.8029081918E+000  +2.0486417000E-001 +1.8992683846E+000  +7.8055592264E-001 -6.0894320055E+000 
