!  2-Port S-parameters saved by WinCal
! VAR MeasName=S-Parameters (CALIBRATED_DATA) read from VNA (P5004A)
! VAR MeasDate=29/08/2024 10:57:40
! VAR NAME=S2_r9c2_RESET6_9k-100M_2
! VAR FILENAME=S2_r9c2_RESET6_9k-100M_2.S2P
! VAR DATE=29/08/2024 10:57:40
! VAR PHYS_PORTS=1,2
! VAR ObjTypeName=DATASET
! VAR IndexType=Frequency
!
# Hz S MA R 50
9000.000 +7.2228397531E-002 -1.7057591218E+002  +9.6274468840E-003 +7.5903377197E+001  +8.2040458066E-004 -5.2259951689E+001  +2.5529815547E-001 -1.5226031615E+002 
134145.181 +1.1166735031E-001 +1.6940595494E+002  +2.2548023036E-004 -1.7422301377E+001  +7.6045259419E-004 +2.7425365816E+001  +2.3988779102E-001 -1.7149744919E+002 
259290.363 +1.1268839499E-001 +1.6990115901E+002  +3.4288440152E-004 +1.3175731776E+002  +6.1694044643E-004 +2.4404346734E+001  +2.4124639307E-001 -1.6974248637E+002 
384435.544 +1.1321740660E-001 +1.7070104062E+002  +6.0247682299E-004 -1.7778207070E+002  +1.1727155354E-003 +5.7808903452E+001  +2.4720525591E-001 -1.6875968490E+002 
509580.726 +1.1333604167E-001 +1.7005928082E+002  +9.2613583334E-004 +8.8191833147E+001  +1.9771811902E-003 +3.1145960351E+001  +2.5313411755E-001 -1.5722968051E+002 
634725.907 +1.1441124971E-001 +1.7185423468E+002  +1.6301504491E-003 -6.4574009568E+001  +1.6904497983E-003 -1.0979355187E+002  +2.5490092873E-001 -1.6570074044E+002 
759871.089 +1.2013745836E-001 +1.7149197072E+002  +4.1150636346E-004 -1.5785365770E+002  +2.6061323693E-004 +4.2161183154E+000  +2.5297833539E-001 -1.6701514614E+002 
885016.270 +1.2086399931E-001 +1.6938798607E+002  +4.3701816014E-004 -9.6229098034E+001  +3.9461172178E-004 +1.6250886991E+002  +2.5093487134E-001 -1.6731444739E+002 
1010161.452 +1.1509903239E-001 +1.6826435746E+002  +1.2433324214E-003 -8.0138937128E+000  +1.8954635010E-003 -1.7854253283E+002  +1.9771600693E-001 -1.7010638745E+002 
1135306.633 +1.1511596024E-001 +1.6808092518E+002  +7.4384267215E-004 -1.6124232201E+002  +2.3439307575E-003 +8.9740884569E+001  +1.8164945536E-001 +1.7554715215E+002 
1260451.815 +1.1705658386E-001 +1.6928729554E+002  +9.1729417013E-004 -7.1070262978E+001  +9.6019863900E-004 -8.7027086768E+001  +2.3762820200E-001 -1.5800787922E+002 
1385596.996 +1.2648756386E-001 +1.7345585754E+002  +1.2658013825E-003 +1.5148333727E+002  +9.1395886928E-004 +1.7269449304E+002  +2.5344364396E-001 -1.5716643431E+002 
1510742.178 +1.2906076006E-001 +1.7216794716E+002  +1.3524013732E-003 -7.8682442905E+001  +1.0324417570E-003 -3.8434906773E+001  +2.4845633921E-001 -1.5869123259E+002 
1635887.359 +1.2797376075E-001 +1.7011712660E+002  +1.1374984618E-003 +5.5461736358E+001  +3.9875886003E-004 -4.8941006127E+001  +2.5254033287E-001 -1.5662444012E+002 
1761032.541 +1.2852551611E-001 +1.6916773938E+002  +2.1177877113E-003 +4.2370401556E+001  +1.0444989601E-003 +1.7099215124E+002  +2.2726598541E-001 -1.6021215323E+002 
1886177.722 +1.3209370052E-001 +1.6799816185E+002  +1.0204986241E-003 -2.0564028713E+001  +6.6232814384E-004 -1.4078867813E+002  +2.1791353733E-001 -1.5819013063E+002 
2011322.904 +1.2570471592E-001 +1.6933253430E+002  +9.1792360465E-004 -7.1080962364E+000  +3.0138065826E-003 -8.7991715812E+001  +1.9951326911E-001 -1.5644525138E+002 
2136468.085 +1.2485702666E-001 +1.6266941209E+002  +5.3796843826E-003 +7.3128550052E+001  +5.8824853850E-003 -7.5710247687E+001  +1.9322288727E-001 -1.6517165176E+002 
2261613.267 +1.3053632038E-001 +1.6254766417E+002  +1.5045740302E-003 -1.4572772197E+002  +3.8054452637E-003 -9.5082107983E+001  +2.0766266020E-001 -1.6819463240E+002 
2386758.448 +1.3395007866E-001 +1.6252287916E+002  +3.6260857315E-003 +3.0448069248E+001  +6.2240921316E-003 -3.0376663222E+001  +1.8916319399E-001 -1.7986923923E+002 
2511903.630 +1.3870133040E-001 +1.6568081347E+002  +2.9008411308E-003 +1.7200967153E+002  +9.8047192049E-003 -4.6899259439E+001  +1.9083636931E-001 +1.6480959641E+002 
2637048.811 +1.3499576191E-001 +1.6298432419E+002  +6.1149194654E-003 +7.1686336575E+001  +6.4343898905E-003 -1.5355740234E+001  +2.6912373118E-001 +1.6858909604E+002 
2762193.992 +1.2245994101E-001 +1.6392372891E+002  +1.3331687797E-002 -4.6127735010E+001  +1.9874012169E-002 -1.5751871982E+002  +2.9958979975E-001 -1.0721765370E+002 
2887339.174 +1.3166890526E-001 +1.7356252788E+002  +2.3561710041E-002 +4.0090599266E+001  +7.2211623968E-003 -1.6728518031E+002  +1.1209424776E-001 -1.2839962722E+001 
3012484.355 +1.1396301091E-001 +1.6988951194E+002  +2.5748782194E-002 -3.1715432297E+001  +1.1282100784E-002 +1.7886245345E+002  +2.0626917694E-001 -5.1998654810E+001 
3137629.537 +1.3686395845E-001 +1.7790832146E+002  +8.3744083128E-003 +3.3582629226E-001  +1.6055036669E-002 -1.5695400511E+002  +2.0758305143E-001 -1.1377409480E+002 
3262774.718 +1.1792778396E-001 +1.6457788741E+002  +3.9134350296E-002 -4.7380776673E+001  +3.5529707639E-002 -1.1759261453E+002  +5.5255287754E-001 -6.1940622428E+001 
3387919.900 +1.2615024523E-001 +1.5416294015E+002  +2.4145436759E-002 +4.9710907338E+000  +2.2090282618E-002 -1.9293468676E+001  +2.5659015330E-001 -1.4403548799E+001 
3513065.081 +1.5693754172E-001 +1.5324047648E+002  +2.0228886961E-002 +5.8573798130E+001  +1.3610130522E-002 -3.9497949796E+001  +2.9624793615E-001 +7.8198451006E+001 
3638210.263 +1.4889271879E-001 +1.5238537455E+002  +1.2723763215E-002 +1.5484988147E+002  +1.4860795374E-002 -3.4026854744E+001  +4.8701840371E-001 +1.2512977322E+002 
3763355.444 +1.6655343623E-001 +1.5152330937E+002  +7.6476611299E-003 +8.9159698932E+001  +1.6810654032E-002 +2.4588526518E+001  +2.9897514834E-001 +1.3253978102E+002 
3888500.626 +1.8319098512E-001 +1.4754381092E+002  +1.3705674994E-002 +1.3460526796E+002  +2.1451338455E-002 +1.9197663590E+001  +4.5154901009E-001 +1.3279900060E+002 
4013645.807 +1.6275010459E-001 +1.4092507555E+002  +2.7933935851E-002 +2.6329768632E+001  +2.1093594106E-002 +8.8767241579E+001  +7.4374983894E-001 +1.0467207217E+002 
4138790.989 +1.7561523705E-001 +1.4525288510E+002  +2.4279938905E-002 +7.2722758829E+001  +1.7403259067E-002 +8.9605080704E-001  +4.0816103903E-001 +1.1588824732E+002 
4263936.170 +2.1679630036E-001 +1.3653403999E+002  +2.7284854530E-002 +1.0622301834E+002  +2.5078628795E-002 +5.5321197020E+001  +4.6089879846E-001 +1.3375298548E+002 
4389081.352 +1.7437235742E-001 +1.4330738962E+002  +1.8775150835E-002 +5.2927606867E+001  +1.6695540130E-002 -6.0751598618E-001  +2.8032279510E-001 +1.0243775451E+002 
4514226.533 +2.2726144768E-001 +1.2539593339E+002  +5.4351633787E-002 +9.4576570606E+001  +5.8567440967E-002 +5.4168749487E+001  +1.0074187810E+000 +1.0730488848E+002 
4639371.715 +1.9473123243E-001 +1.3103200438E+002  +1.9101452431E-001 +5.5506288323E+001  +1.9504901765E-001 +4.0329469648E+001  +5.1113524292E+000 +7.4789262588E+001 
4764516.896 +3.3379287620E-001 +1.2426680831E+002  +1.2492350917E-001 +1.1558006705E+002  +9.6795775290E-002 +5.5914233346E+001  +1.6494552930E+000 +9.1336439710E+001 
4889662.078 +4.7357427032E-001 +1.3363321841E+002  +4.1976753384E-001 +1.2910172285E+002  +3.8858648105E-001 +8.2895865224E+001  +7.0580852907E+000 +6.2101383507E+001 
5014807.259 +3.8878919804E-001 +1.3334657396E+002  +4.1632625954E-001 +9.0930749317E+001  +5.8543085147E-001 +5.1120462249E+001  +1.2278206649E+001 +5.4053292416E+001 
5139952.441 +4.1139136362E-001 +1.3301215902E+002  +7.6084881189E-002 +1.6671170810E+002  +6.4061295491E-002 +1.3462305188E+002  +1.8006837698E+000 +1.4141438905E+002 
5265097.622 +3.9073846381E-001 +1.3296366652E+002  +1.3020837719E-001 +1.3051290081E+002  +9.1173532649E-002 +8.5311456214E+001  +3.2543604169E+000 +1.1898047752E+002 
5390242.804 +4.1102117772E-001 +1.3928672509E+002  +1.7316329383E-001 +1.0705084762E+002  +1.4082693734E-001 +7.5301410471E+001  +4.8809258375E+000 +6.4769202984E+001 
5515387.985 +3.9441967350E-001 +1.3400429889E+002  +5.7205833437E-002 +1.1155703021E+002  +3.7786217521E-002 +7.9440763947E+001  +1.6402011691E+000 +1.0794542441E+002 
5640533.166 +4.9302276977E-001 +1.2397133548E+002  +7.8685031729E-002 +8.8252048903E+001  +8.0475162011E-002 +5.9571782506E+001  +1.8802381988E+000 +8.6963543753E+001 
5765678.348 +4.6589435355E-001 +1.2730896279E+002  +7.9428395504E-002 +8.1638077295E+001  +1.0952913395E-001 +5.8825496323E+001  +2.5660696634E+000 +6.3270245260E+001 
5890823.529 +5.2860936594E-001 +1.0082061007E+002  +8.8159401873E-002 +8.2880405294E+001  +8.8155491115E-002 +3.4211387062E+001  +1.5021165481E+000 +6.7594230292E+001 
6015968.711 +5.8984620840E-001 +1.2640173864E+002  +8.0137219086E-002 +9.4971023215E+001  +8.6880500040E-002 +8.1600839748E+001  +2.8500359691E+000 +8.3422144892E+001 
6141113.892 +7.9869556240E-001 +1.1783556900E+002  +1.3900350096E-001 +8.2416300618E+001  +9.8578209041E-002 +2.5314029686E+001  +2.2932031562E+000 +4.7437832093E+001 
6266259.074 +8.2711669100E-001 +9.7681358895E+001  +1.0980502688E-001 +4.6630038963E+001  +9.9133362931E-002 +2.2232130239E+001  +1.3763903685E+000 +1.8428084547E+001 
6391404.255 +1.1746674677E+000 +8.6345348578E+001  +1.3137418505E-001 +4.6733672988E+001  +1.6005042182E-001 +4.9111689191E+001  +1.9513006328E+000 +3.7956163714E+001 
6516549.437 +1.2903333143E+000 +8.9042199997E+001  +1.0450433985E-001 +4.5253579908E+001  +1.1317576563E-001 +2.8981728029E+001  +1.3425068161E+000 +2.0270243812E+001 
6641694.618 +1.5303679131E+000 +6.5014238743E+001  +1.0031629586E-001 +2.6460564604E+001  +8.9643202258E-002 +2.1431988049E+001  +1.2615254673E+000 +8.1154922658E+000 
6766839.800 +1.6074441727E+000 +6.6831080976E+001  +1.0562795161E-001 +3.0212852784E+001  +9.6947984601E-002 +9.3340515334E+000  +1.3523870275E+000 +5.6613672814E+000 
6891984.981 +2.5714961600E+000 +2.5113784351E+001  +1.5529267130E-001 -1.6535604373E+000  +1.5321633624E-001 +6.5956501212E-001  +1.4206026016E+000 -3.5089642703E+000 
7017130.163 +1.6000752652E+000 +3.2531858994E+001  +8.8068811434E-002 +1.6568006648E+001  +1.0008750510E-001 +5.7787930982E+000  +1.0898531456E+000 -8.6962658510E+000 
7142275.344 +1.6764441577E+000 +1.1567351863E+000  +8.7090054084E-002 -1.5298250433E+001  +7.4465383407E-002 -1.5671363111E+001  +1.2957395414E+000 -6.5466162437E+000 
7267420.526 +1.2682840116E+000 +2.6339872202E+000  +6.1295894233E-002 +2.4422351478E+000  +7.0833398751E-002 +4.5958608661E-001  +1.2659324821E+000 -6.0198962497E+000 
7392565.707 +1.1896042618E+000 -1.1450738375E+000  +4.6175521077E-002 -4.6897764531E+000  +5.9788910080E-002 -2.4340496147E+000  +1.2257596370E+000 -1.4536783040E+001 
7517710.889 +1.1158265367E+000 -4.2221152895E+000  +5.5736949949E-002 +3.3851990912E+000  +4.8977780555E-002 +1.9123993104E+000  +1.1598720031E+000 -1.2298082109E+001 
7642856.070 +9.6289996317E-001 +1.1200541135E+000  +4.9594172326E-002 +8.4853786110E+000  +4.1538918685E-002 +2.4215826769E+000  +1.1265761442E+000 -6.6293478259E+000 
7768001.252 +9.7865600512E-001 +2.2069813349E+000  +4.6159424123E-002 +9.6112893680E+000  +4.2905248202E-002 +1.2599115869E+001  +9.5236142884E-001 -2.7585782073E+000 
7893146.433 +8.8567552018E-001 +2.2437671452E+000  +3.9183675173E-002 +4.1307510575E+000  +4.5201913586E-002 +1.2766272548E+001  +9.1304646831E-001 +2.3888086632E+000 
8018291.615 +7.7077602189E-001 +2.8508215607E+000  +4.1723649550E-002 +5.9107338277E+000  +4.2051217343E-002 -4.1622967306E+000  +7.8332265548E-001 +6.8848712518E+000 
8143436.796 +6.8070095764E-001 +5.6875745608E+000  +4.5610394267E-002 -1.9175245028E+000  +3.3930823842E-002 -3.2131894313E+000  +8.0695550354E-001 -3.5156194278E+000 
8268581.977 +7.0323147238E-001 +5.4868325834E+000  +3.3984621183E-002 -1.2113143973E+001  +3.9760305623E-002 +1.4151153523E+001  +7.5014934570E-001 +2.7331597438E+000 
8393727.159 +5.9441851298E-001 +1.2103725395E+001  +3.8241171282E-002 -4.4840222637E+000  +3.2508292317E-002 +7.7426267513E+000  +6.8350141615E-001 -9.1270075060E-001 
8518872.340 +6.1393504855E-001 +1.3809430117E+001  +3.9756677273E-002 -4.1347374939E+000  +3.2029655149E-002 +9.9395588025E+000  +6.3458633162E-001 -4.7370015674E+000 
8644017.522 +6.6098651353E-001 +9.4633826766E+000  +3.4954487379E-002 -1.5390160130E+000  +3.6731960336E-002 +9.6184217649E+000  +6.5438179573E-001 +8.6174812689E-001 
8769162.703 +6.0869320816E-001 +7.1461877524E+000  +3.4312011324E-002 -5.8120443071E+000  +3.4913624490E-002 +5.6776890268E+000  +5.7607080466E-001 -3.8995807551E+000 
8894307.885 +5.4769000441E-001 +5.1262361600E+000  +3.2491978701E-002 -5.2147541257E+000  +3.3280549072E-002 +4.9416761609E+000  +6.3767811524E-001 +4.6443733802E-001 
9019453.066 +5.4825375584E-001 +9.5227041779E+000  +3.1916740791E-002 -2.6529948066E+000  +3.2390988570E-002 +5.1393800834E+000  +5.8077451429E-001 -3.0906468963E+000 
9144598.248 +5.7153044923E-001 +9.2976088488E+000  +3.2897556947E-002 -1.6583477226E+000  +3.5961332648E-002 +1.8148184886E+001  +5.9198758695E-001 +1.3516687405E+000 
9269743.429 +5.3641266317E-001 +7.2780242719E+000  +3.1217135926E-002 -4.0412860197E+000  +3.4469946600E-002 +1.8071398468E+001  +5.9969000928E-001 -5.8518371377E+000 
9394888.611 +5.3892539966E-001 +4.6163685218E+000  +3.5693098522E-002 +2.0623440529E+000  +3.5069217897E-002 +1.3133736125E+001  +5.8320749057E-001 -2.3595669307E+000 
9520033.792 +5.2154035424E-001 +1.0133329835E+001  +3.3413246977E-002 -5.7008432313E+000  +3.4564392967E-002 +1.5211697195E+001  +5.6526901589E-001 -1.5207598137E+000 
9645178.974 +5.1597383990E-001 -8.5710035337E-001  +3.2542031445E-002 -7.3372511189E+000  +3.3350268664E-002 +1.0649363808E+001  +5.8704651902E-001 -1.9364619321E-001 
9770324.155 +4.9154609598E-001 -9.8070645979E-001  +3.1859249184E-002 -4.9422120687E+000  +3.5641700421E-002 +9.3282034705E+000  +5.6871769852E-001 -4.7511901485E+000 
9895469.337 +4.9884123775E-001 +5.1503659535E+000  +3.5703830112E-002 -4.8353677155E+000  +3.6004099022E-002 +1.1614675742E+001  +5.5800255987E-001 -6.5518537185E+000 
10020614.518 +5.4166775118E-001 +3.9902935838E+000  +3.7431636074E-002 -3.3391838668E+000  +3.4986478077E-002 +1.9246724713E+001  +5.4822659793E-001 -7.1640910909E+000 
10145759.700 +5.3675673072E-001 +9.9443782963E+000  +3.0463243450E-002 +3.1071686036E+000  +3.7117620840E-002 +1.3661191502E+001  +5.5482246038E-001 -1.0660797112E+000 
10270904.881 +5.0972910755E-001 +3.4820039946E+000  +3.3726781812E-002 -9.6010503619E+000  +3.7406334266E-002 +1.2775830055E+001  +5.3921125469E-001 -4.0814285662E+000 
10396050.063 +5.3786567660E-001 +7.4720271803E+000  +3.5887700483E-002 -1.5835726370E+000  +3.2571918575E-002 +1.0260207931E+001  +5.5837131604E-001 -2.0332830463E+000 
10521195.244 +5.2884382710E-001 +3.5569817954E+000  +3.6542980558E-002 -3.5654138770E+000  +3.4913718053E-002 +1.5489325268E+001  +5.9003300715E-001 +1.5191212846E+000 
10646340.426 +5.3661067993E-001 +7.7899412174E+000  +3.5340782937E-002 -2.5945713069E+000  +3.5025132875E-002 +1.6997443915E+001  +5.8847522740E-001 +7.7019281153E-001 
10771485.607 +5.0336842349E-001 +4.4843456398E+000  +3.5300336168E-002 -3.6742099162E-001  +3.6855790578E-002 +8.8619648522E+000  +5.7183851303E-001 -3.1959428259E-001 
10896630.788 +5.6567409706E-001 +8.6915933767E+000  +3.7041276908E-002 -5.7116987144E-001  +3.8242257194E-002 +1.3672944137E+001  +5.7166475434E-001 +1.0961247240E+000 
11021775.970 +5.6902531553E-001 +9.8784183291E+000  +3.7273623895E-002 +2.7377988170E-001  +3.6858379309E-002 +1.2737935221E+001  +6.1848053544E-001 +1.0829537648E-001 
11146921.151 +5.4934480760E-001 +8.5364905247E+000  +3.7842683958E-002 +3.9395424514E-001  +3.6609743704E-002 +1.7855109628E+001  +5.9843836030E-001 +2.6545316574E+000 
11272066.333 +5.8423067261E-001 +8.6418000835E+000  +3.5729902210E-002 -1.9049517971E+000  +3.3763288946E-002 +1.4053656611E+001  +6.0394887247E-001 +1.7232728121E+000 
11397211.514 +5.8597966073E-001 +7.8083421966E+000  +3.8153083211E-002 +6.0145884040E-001  +3.5736240148E-002 +1.0060923988E+001  +5.7240289501E-001 +4.7842016930E+000 
11522356.696 +6.0448083656E-001 +5.4893255054E+000  +3.8023541485E-002 +5.0323861256E-001  +3.6063887928E-002 +1.3106110629E+001  +6.0699533034E-001 +1.7590044681E+000 
11647501.877 +6.0836907433E-001 +5.8230678450E+000  +3.8937783863E-002 -1.5421340066E+000  +3.6022418938E-002 +9.6448916149E+000  +5.9364261637E-001 +1.4651968243E+000 
11772647.059 +6.3413344317E-001 +8.3754548459E+000  +3.6919715833E-002 +3.4568889651E+000  +3.8098553548E-002 +1.0328250193E+001  +6.4933527991E-001 +1.8390415256E+000 
11897792.240 +6.2272187883E-001 +4.8073660071E+000  +3.8453959487E-002 +2.8229285554E+000  +3.8161125360E-002 +1.3829337317E+001  +6.3287349627E-001 -1.3100485200E+000 
12022937.422 +6.4529258548E-001 +7.7190659496E+000  +3.9052045947E-002 +2.3690539964E+000  +3.9758021743E-002 +1.3204384462E+001  +6.4314613611E-001 +3.4488076713E+000 
12148082.603 +6.6924990887E-001 +7.4245570517E+000  +3.9876700814E-002 +2.7768811179E+000  +4.0264475879E-002 +1.2322475683E+001  +6.6551499222E-001 +7.8681041518E-001 
12273227.785 +6.7376983910E-001 +4.6367391397E+000  +4.0690866629E-002 +4.3070541592E+000  +4.0720807407E-002 +1.1615667358E+001  +6.7162386992E-001 +2.2405946407E+000 
12398372.966 +6.5379050435E-001 +6.4761735366E+000  +3.8117928797E-002 +3.4435461953E+000  +3.8066853874E-002 +1.0785677369E+001  +6.7239101854E-001 -8.9989139511E-001 
12523518.148 +6.9973072647E-001 +5.3513991531E+000  +4.0310108969E-002 +4.9177694132E+000  +3.8520904771E-002 +8.3300908191E+000  +6.7933276257E-001 +7.7749627239E-002 
12648663.329 +7.1538102572E-001 +4.8295143633E+000  +4.0891541962E-002 +3.8842083422E+000  +4.2317791882E-002 +8.4343124908E+000  +7.2591678334E-001 -8.7515589463E-001 
12773808.511 +7.2227242771E-001 +1.1392923210E+000  +4.2847994250E-002 +4.7283280056E+000  +4.0656252634E-002 +1.0855452021E+001  +7.2901269077E-001 -5.1149965426E-001 
12898953.692 +7.3995234810E-001 -4.8095941504E-002  +4.3560803435E-002 +3.0960137718E+000  +4.1119594832E-002 +8.0374545483E+000  +7.4290781865E-001 -1.2594186554E+000 
13024098.874 +7.6389611423E-001 +1.4990381226E+000  +4.4142752508E-002 +3.0332241131E+000  +4.1590107788E-002 +6.6343097255E+000  +7.3860302737E-001 -1.3940219070E+000 
13149244.055 +7.6550878716E-001 +1.0966120134E+000  +4.2512641756E-002 +2.5163801615E+000  +4.0608922302E-002 +6.7409472035E+000  +7.6520148048E-001 -2.4351748909E+000 
13274389.237 +7.9083332311E-001 -6.6790723471E-001  +4.2570375044E-002 +4.1231359734E+000  +4.2575323627E-002 +7.3432811522E+000  +8.1211843706E-001 -2.0560167715E+000 
13399534.418 +8.0048833343E-001 -1.3031792461E+000  +4.3564472351E-002 +2.6630238285E+000  +4.1137786458E-002 +7.7618810858E+000  +8.3319308769E-001 -1.0653583003E+000 
13524679.599 +8.1271071745E-001 -7.0261289896E-002  +4.3154184372E-002 +2.7929359705E+000  +4.2524576996E-002 +4.3301675026E+000  +8.3385656131E-001 -1.3471284297E+000 
13649824.781 +8.2704072467E-001 -2.8601263115E-001  +4.4882056912E-002 +1.9460097421E+000  +4.2493584450E-002 +5.5512330527E+000  +8.4297024098E-001 -4.1292243135E+000 
13774969.962 +8.5223622503E-001 -3.4273915976E+000  +4.4372834338E-002 +1.4729896120E+000  +4.3705064827E-002 +5.3096778101E+000  +8.4919220373E-001 -3.2010421905E+000 
13900115.144 +8.5455357939E-001 -3.9124027121E+000  +4.5860990831E-002 +2.5230382334E+000  +4.5619220143E-002 +4.3303962594E+000  +8.6000539711E-001 -3.2782129721E+000 
14025260.325 +8.9748587510E-001 -3.2866595039E+000  +4.6159704872E-002 +1.2932819704E+000  +4.4209901456E-002 +3.6283566835E+000  +8.7731523338E-001 -4.4929836873E+000 
14150405.507 +8.8775029761E-001 -4.8149738804E+000  +4.5490303809E-002 +2.2010709188E+000  +4.5781891907E-002 +2.3703204412E+000  +9.1799331515E-001 -4.9384671264E+000 
14275550.688 +9.1650315783E-001 -4.7415478699E+000  +4.5443475992E-002 +2.4086121453E+000  +4.3870381274E-002 +5.1220606759E+000  +9.3056669252E-001 -3.1356558555E+000 
14400695.870 +9.4453610755E-001 -5.5221856605E+000  +4.6637062023E-002 +3.4131971042E+000  +4.3646047543E-002 +1.8722632630E+000  +9.3808685401E-001 -5.4739548732E+000 
