!  2-Port S-parameters saved by WinCal
! VAR MeasName=S-Parameters (CALIBRATED_DATA) read from VNA (P5004A)
! VAR MeasDate=29/08/2024 09:58:32
! VAR NAME=S2_r9c1_pristine_9k-100M_1
! VAR FILENAME=S2_r9c1_pristine_9k-100M_1.S2P
! VAR DATE=29/08/2024 09:58:32
! VAR PHYS_PORTS=1,2
! VAR ObjTypeName=DATASET
! VAR IndexType=Frequency
!
# Hz S MA R 50
9000.000 +8.0626510188E-002 -1.6765582494E+002  +1.8595931739E-002 -2.5992033562E+001  +9.4196782624E-003 +1.3868109751E+002  +2.3810967300E-001 -1.3295653938E+002 
134145.181 +1.1112509628E-001 +1.6967146530E+002  +2.4259622035E-004 -1.3575796079E+002  +4.6956895531E-004 -3.3318565173E+000  +2.3870093325E-001 -1.7109338632E+002 
259290.363 +1.1276397739E-001 +1.6974132355E+002  +5.4797984532E-004 +1.1116515668E+002  +1.1307196471E-003 -4.3709962841E+001  +2.4083686872E-001 -1.6981437307E+002 
384435.544 +1.1395549013E-001 +1.7004263408E+002  +9.4324786846E-004 -5.7032930114E+001  +1.2352535502E-003 +6.9783114329E+001  +2.4534044421E-001 -1.6823489814E+002 
509580.726 +1.1272265458E-001 +1.7069986527E+002  +8.5408723889E-004 -4.7084460566E+001  +1.5938388571E-003 +9.0472494596E+001  +2.3746958746E-001 -1.6722991750E+002 
634725.907 +1.1686816190E-001 +1.7154940853E+002  +2.4436028136E-003 -8.5843150424E+001  +2.6952720242E-003 +8.5993166786E+001  +2.4279760111E-001 -1.6388400810E+002 
759871.089 +1.1983489093E-001 +1.7071443683E+002  +7.0799137053E-004 -1.0115759826E+002  +6.7747023788E-004 +9.3449582475E+001  +2.4691967750E-001 -1.6788786221E+002 
885016.270 +1.2123591462E-001 +1.6845421211E+002  +1.2431045551E-004 +1.4199544284E+002  +7.8670975687E-004 +1.1825138874E+002  +2.4918538743E-001 -1.6621711951E+002 
1010161.452 +1.1614044583E-001 +1.6880178469E+002  +2.2460590198E-003 -2.6311553953E+000  +1.2053499406E-003 +1.5457228122E+002  +2.2169008588E-001 -1.6681074090E+002 
1135306.633 +1.1832556101E-001 +1.6885758854E+002  +2.3725524898E-003 +4.0674148855E+001  +2.0205541214E-003 +1.2573077453E+002  +1.8169117191E-001 -1.6759763295E+002 
1260451.815 +1.1482242051E-001 +1.7169479413E+002  +4.6942111410E-003 -2.3385559939E+001  +3.8712976984E-003 +1.6049820885E+002  +2.1288327218E-001 -1.6150553713E+002 
1385596.996 +1.2188512613E-001 +1.7292913877E+002  +3.0951706581E-003 -6.6628678037E+001  +2.2391498269E-003 +1.3625033083E+002  +2.5845001484E-001 -1.5588186144E+002 
1510742.178 +1.2919908476E-001 +1.7155449727E+002  +1.3569994594E-003 -6.7491311298E+001  +1.8699901096E-003 +1.3671768468E+002  +2.4964489714E-001 -1.5797749316E+002 
1635887.359 +1.2951193635E-001 +1.6988670597E+002  +1.0195730693E-003 -3.7122294348E+001  +1.8160875785E-003 -1.3577121589E+002  +2.4464266514E-001 -1.5936378149E+002 
1761032.541 +1.2843161061E-001 +1.6871506700E+002  +2.5120208252E-003 +6.8940701549E+000  +4.6801792943E-003 -1.2759741210E+002  +2.1319780890E-001 -1.4989200203E+002 
1886177.722 +1.3215165978E-001 +1.6818114802E+002  +3.6128687185E-003 +3.8784796766E+001  +3.7363156276E-003 -9.7025439241E+001  +2.1861223683E-001 -1.6148634807E+002 
2011322.904 +1.3333396665E-001 +1.6897371864E+002  +4.1940138578E-003 +3.2834106722E+001  +6.6183621732E-003 -8.2490960522E+001  +2.0367974199E-001 -1.5613973258E+002 
2136468.085 +1.2832198372E-001 +1.6484641614E+002  +1.8462088092E-002 +8.8178919785E+001  +1.7342469310E-002 -3.7414255497E+001  +1.4364784678E-001 -1.7955725398E+002 
2261613.267 +1.3849166863E-001 +1.6523596513E+002  +1.0716780502E-002 +8.7062352156E+001  +1.2705144547E-002 -3.6397703055E+001  +1.8546873417E-001 -1.7759206768E+002 
2386758.448 +1.3876614317E-001 +1.6483562751E+002  +1.1148315678E-002 +7.8521549507E+001  +1.0483642996E-002 -3.6208385366E+001  +2.2594192434E-001 -1.7057104287E+002 
2511903.630 +1.2560951005E-001 +1.6175106938E+002  +2.2086938773E-002 +9.9765113094E+001  +2.4043701543E-002 -4.9198482261E+000  +2.4125765067E-001 +1.7726192783E+002 
2637048.811 +1.4219584968E-001 +1.5884239727E+002  +2.1952856792E-002 +1.0342558541E+002  +2.1657700030E-002 -1.6458729741E+001  +2.1001833604E-001 -1.7561437436E+002 
2762193.992 +1.3436200769E-001 +1.7428005062E+002  +7.0328614993E-002 +4.7612598481E-001  +5.7781825188E-002 -9.1266229857E+001  +1.2258298726E-001 -6.9890412574E+001 
2887339.174 +1.3688640948E-001 +1.7152645794E+002  +3.7498638081E-002 -9.7416213041E+000  +3.0365286036E-002 -1.1368537823E+002  +2.0991684488E-001 -1.2653768939E+002 
3012484.355 +1.3555715742E-001 +1.7868885010E+002  +1.0150147654E-001 -4.2321408128E+001  +1.1087249080E-001 -1.4496180508E+002  +4.4518341216E-001 -9.4350926674E+001 
3137629.537 +1.1826787258E-001 +1.6417545437E+002  +1.0550734138E-001 +3.9364358983E+001  +9.7407263870E-002 -5.8031377052E+001  +1.9354390024E-001 +1.5494122647E+001 
3262774.718 +1.4299477924E-001 +1.5984431444E+002  +4.5077639756E-002 +3.8121937801E+001  +4.8310847834E-002 -4.7495197025E+001  +8.8322852846E-002 -1.4357590981E+002 
3387919.900 +1.2295202335E-001 +1.6144346290E+002  +6.4137296669E-002 +6.4773336501E+001  +6.9437888144E-002 -1.9874068011E+001  +2.2596026789E-001 +1.2717929311E+002 
3513065.081 +1.4978968136E-001 +1.5161858187E+002  +8.5737417226E-002 +4.6891483823E+001  +9.1570382868E-002 -2.7993291508E+001  +1.5042760652E-001 +3.3065387827E+000 
3638210.263 +1.7675529706E-001 +1.4732504938E+002  +1.1061943610E-001 +7.9727941844E+001  +8.8503319052E-002 +6.4273622422E-001  +1.9725243492E-001 +7.2142969940E+001 
3763355.444 +1.4852503640E-001 +1.4069115677E+002  +1.3311631464E-001 +9.0979231197E+001  +1.3641928851E-001 +1.6209966351E+001  +4.8032585360E-001 +9.9911186010E+001 
3888500.626 +1.8744895478E-001 +1.5262806620E+002  +5.5818516775E-002 +9.9953526058E+001  +5.2436850950E-002 +2.8052937234E+001  +2.9091712235E-001 +1.5116227531E+002 
4013645.807 +1.6867113498E-001 +1.5132443848E+002  +7.2864587465E-002 +5.5376259760E+001  +6.0945312962E-002 -1.5628115732E+001  +8.5615547988E-002 +1.7124773863E+002 
4138790.989 +1.5834982014E-001 +1.4327850240E+002  +1.0952127308E-001 +9.0693395438E+001  +1.0544932340E-001 +2.2289938856E+001  +4.1737637027E-001 +1.3351060551E+002 
4263936.170 +2.1375474504E-001 +1.5004737111E+002  +6.3828209141E-002 +1.1784882607E+002  +6.3567892888E-002 +4.9380100025E+001  +4.2652160874E-001 +1.5480262754E+002 
4389081.352 +1.9967856074E-001 +1.3909197672E+002  +1.2472768322E-001 +1.0528147805E+002  +1.1555194546E-001 +5.0755569962E+001  +5.7118028472E-001 +1.3667047380E+002 
4514226.533 +2.1610603122E-001 +1.3694071798E+002  +1.7702783104E-001 +9.3456580373E+001  +1.6414718313E-001 +3.3728457267E+001  +6.2905621971E-001 +1.0310259439E+002 
4639371.715 +1.8927724206E-001 +1.2496510945E+002  +3.6254952515E-001 +7.4526923566E+001  +3.4821939034E-001 +1.7490745662E+001  +1.3950837317E+000 +6.7604521836E+001 
4764516.896 +3.1301127003E-001 +1.3156136364E+002  +2.6254889726E-001 +1.3315330902E+002  +2.6818386033E-001 +8.4966933963E+001  +1.1857270680E+000 +1.2978203522E+002 
4889662.078 +5.6072796770E-001 +1.0520409953E+002  +7.6604833025E-001 +8.6513870269E+001  +7.5996078227E-001 +3.6001061693E+001  +1.8919712670E+000 +4.5278395644E+001 
5014807.259 +4.4041482027E-001 +1.2664909121E+002  +4.4146159400E-001 +1.3072664697E+002  +4.6122673021E-001 +8.9223575935E+001  +1.6099941080E+000 +1.1478752739E+002 
5139952.441 +3.9325171577E-001 +1.2703160807E+002  +5.8651794499E-001 +1.2392273225E+002  +5.0845613759E-001 +8.1764109360E+001  +2.6668841775E+000 +1.1318560567E+002 
5265097.622 +4.2395810779E-001 +1.2966220265E+002  +3.5057621588E-001 +1.2874263842E+002  +3.5989193885E-001 +8.6573240194E+001  +1.5774204575E+000 +1.1756373839E+002 
5390242.804 +3.5873254110E-001 +1.3014202885E+002  +3.0066946823E-001 +9.1043833152E+001  +2.9308122021E-001 +5.7765808331E+001  +1.2517110698E+000 +9.3267456439E+001 
5515387.985 +3.8904703039E-001 +1.2604380748E+002  +2.4107109674E-001 +1.0799692139E+002  +2.3394884077E-001 +7.4374484156E+001  +1.0727864666E+000 +1.2653271070E+002 
5640533.166 +3.8515238676E-001 +1.2929458748E+002  +2.6750486123E-001 +9.0182785138E+001  +2.5386971173E-001 +5.8198062570E+001  +1.1673903353E+000 +9.8608119690E+001 
5765678.348 +3.8801366722E-001 +1.2548057724E+002  +2.8540163692E-001 +8.0557008591E+001  +2.7583500177E-001 +5.3103332301E+001  +1.1649157704E+000 +9.4982563268E+001 
5890823.529 +5.1262303273E-001 +1.2271464303E+002  +4.2323580671E-001 +9.1707121834E+001  +3.7585477918E-001 +6.2627013700E+001  +1.8439609901E+000 +8.5849781333E+001 
6015968.711 +4.5826509249E-001 +1.1097750644E+002  +3.9719979696E-001 +6.8108039201E+001  +3.6862439071E-001 +4.5719751136E+001  +1.4611839466E+000 +7.7930257168E+001 
6141113.892 +5.5122001074E-001 +1.1107328584E+002  +4.2766602776E-001 +6.1927159357E+001  +4.1438834143E-001 +4.0505522858E+001  +1.5019206881E+000 +5.7288086923E+001 
6266259.074 +6.5129806963E-001 +9.6118047656E+001  +5.1973469512E-001 +6.5136601554E+001  +5.1887910882E-001 +4.4488214790E+001  +1.7054910157E+000 +7.0139028569E+001 
6391404.255 +6.5017060336E-001 +9.6947205616E+001  +4.2701443930E-001 +4.7290878109E+001  +4.2594750693E-001 +3.0720468343E+001  +1.1644652959E+000 +4.4040733618E+001 
6516549.437 +8.3106511965E-001 +9.3963348414E+001  +4.9187164318E-001 +4.6999211715E+001  +4.8902568125E-001 +3.1789193112E+001  +1.5481187270E+000 +3.7577100096E+001 
6641694.618 +7.6805515968E-001 +7.3508964726E+001  +4.6409339001E-001 +2.5607193618E+001  +4.4999677162E-001 +1.3090070962E+001  +1.1816523727E+000 +1.4694983632E+001 
6766839.800 +1.0211314603E+000 +5.7531836269E+001  +5.2738722783E-001 +2.3189636911E+001  +5.2537650443E-001 +1.4276526092E+001  +1.1057682113E+000 +1.5242538648E+001 
6891984.981 +1.1185176972E+000 +2.8260420558E+001  +5.3544286671E-001 +7.3232267594E+000  +5.1908770353E-001 +1.3098078306E+000  +9.5943360683E-001 +5.2897371101E+000 
7017130.163 +9.9642053194E-001 +2.2005499462E+001  +4.4816854847E-001 +3.7353192366E+000  +4.5487295440E-001 -2.8710130148E-001  +9.6534544780E-001 +8.8677316316E+000 
7142275.344 +1.0327419118E+000 +4.1793296247E+000  +4.2309708672E-001 -2.3988227682E-001  +4.2202177557E-001 -5.5802124030E+000  +9.3340695771E-001 -7.1973606496E+000 
7267420.526 +8.6221197202E-001 +5.0841231264E-001  +3.5186334530E-001 -2.5144501925E-001  +3.4999448461E-001 -3.2041642884E+000  +1.1013411122E+000 -1.1332084409E+001 
7392565.707 +1.0046922223E+000 +3.7165140914E+000  +3.1744267453E-001 +3.8963984066E+000  +3.0058703190E-001 +5.5024326949E+000  +1.0504332055E+000 -7.8192075789E+000 
7517710.889 +8.3663230395E-001 -2.5858720902E+000  +2.9001289670E-001 +1.8567006834E+000  +2.9187250777E-001 +4.6987911700E+000  +8.9514213700E-001 -3.5260504304E+000 
7642856.070 +6.3599771256E-001 +1.8923165630E+000  +2.7905759775E-001 +2.0080706857E+000  +2.7226130521E-001 +4.8088143819E+000  +8.4330863644E-001 -7.3576733511E+000 
7768001.252 +7.3095088480E-001 +3.4958123182E+000  +2.7489400316E-001 +1.4405253703E+000  +2.7127189916E-001 +4.6127474912E+000  +6.8044463503E-001 -3.4035991658E+000 
7893146.433 +5.5826573035E-001 +1.1413693366E+001  +2.5551536047E-001 -3.9309961025E-001  +2.5572852525E-001 +5.2078884112E+000  +6.9107918503E-001 -4.7266016166E+000 
8018291.615 +5.3043087641E-001 +1.2215740169E+001  +2.5013091505E-001 -1.2068442550E+000  +2.4539488852E-001 +7.3707810058E+000  +5.5133512711E-001 -3.1557286421E+000 
8143436.796 +4.4465042266E-001 +6.0949942659E+000  +2.4535498753E-001 -2.9237058556E+000  +2.4275426890E-001 +4.3002969494E+000  +5.3512800651E-001 +4.1873146598E+000 
8268581.977 +5.7598170186E-001 +1.4474599773E+001  +2.4097447071E-001 -2.4315885954E+000  +2.3536204532E-001 +8.1809359930E+000  +4.6936461186E-001 +3.2510232640E+000 
8393727.159 +4.5186963259E-001 +1.4984390708E+001  +2.2908454523E-001 -2.6980980139E+000  +2.3326604458E-001 +7.7449504598E+000  +5.1359769464E-001 +8.5454957111E+000 
8518872.340 +4.6683053364E-001 +1.2338075266E+001  +2.2971025732E-001 -3.0432840247E+000  +2.2659974372E-001 +9.0385702363E+000  +4.9386467166E-001 +3.7763406926E+000 
8644017.522 +4.2566716033E-001 +7.8381847798E+000  +2.2608686197E-001 -4.3550548741E+000  +2.1966579733E-001 +9.2691974500E+000  +4.1919015507E-001 +1.1069342302E+001 
8769162.703 +3.5650358060E-001 +2.1965495476E+001  +2.1921778010E-001 -3.5795037803E+000  +2.1823164943E-001 +9.2423120454E+000  +4.7494592348E-001 +5.5355216396E+000 
8894307.885 +3.6936706438E-001 +1.8787762755E+001  +2.2019604208E-001 -4.6000670020E+000  +2.1409056600E-001 +9.3485334691E+000  +4.3897013115E-001 +7.7358129452E+000 
9019453.066 +3.5226580336E-001 +1.6566261111E+001  +2.1829123136E-001 -3.7592775386E+000  +2.1782478897E-001 +9.1363703006E+000  +4.1688768790E-001 +3.9546756639E+000 
9144598.248 +3.6247917845E-001 +1.0921345953E+001  +2.2047849000E-001 -5.5126664847E+000  +2.1905227217E-001 +1.0508710517E+001  +4.0076570562E-001 +9.1689545774E+000 
9269743.429 +3.1567319742E-001 +9.6505832356E+000  +2.2151480081E-001 -4.9022218907E+000  +2.2102198479E-001 +9.9983268717E+000  +4.0043497166E-001 -5.8888771971E+000 
9394888.611 +3.0376070272E-001 +1.4801048336E+001  +2.1814332258E-001 -5.6043621261E+000  +2.2101001696E-001 +1.0599051935E+001  +3.6600347170E-001 +7.2254144625E+000 
9520033.792 +3.4927154882E-001 +5.5767270886E+000  +2.2395490968E-001 -4.5832935998E+000  +2.1782005648E-001 +1.0239728965E+001  +3.4124342969E-001 +1.0835385885E+000 
9645178.974 +3.4840216258E-001 +1.3832415369E+000  +2.2437918554E-001 -5.2313600122E+000  +2.2248234677E-001 +1.1119994061E+001  +3.3126101976E-001 -1.7224549604E+000 
9770324.155 +3.4798055722E-001 +8.8961882193E+000  +2.2364680446E-001 -5.1337540916E+000  +2.2099915368E-001 +1.1873664668E+001  +3.4061229765E-001 -2.3001098723E+000 
9895469.337 +2.8255447136E-001 +1.1204960979E+001  +2.1997706278E-001 -5.3890469641E+000  +2.1925647267E-001 +1.0665330456E+001  +3.2487841651E-001 +2.8934795776E+000 
10020614.518 +3.1188170552E-001 +7.8133621045E+000  +2.2298666073E-001 -5.4377477003E+000  +2.2292083948E-001 +1.0870192119E+001  +3.0496631427E-001 -7.2080555076E+000 
10145759.700 +3.3976816424E-001 +1.3256421601E+001  +2.2301541338E-001 -3.5745743907E+000  +2.2416222991E-001 +1.0996252965E+001  +3.4104124873E-001 -8.0853530048E-001 
10270904.881 +3.3403975581E-001 +1.0582809589E+001  +2.2386305455E-001 -4.4839199088E+000  +2.2358484933E-001 +1.1794311720E+001  +3.3577555448E-001 -2.5747288201E+000 
10396050.063 +3.4289537938E-001 +1.2103495818E+001  +2.2155835938E-001 -4.4718723336E+000  +2.2192558071E-001 +1.2096705245E+001  +3.5810679631E-001 +1.8440815874E+000 
10521195.244 +3.2053585910E-001 +1.5436016398E+001  +2.2284008565E-001 -3.7678347392E+000  +2.2199106638E-001 +1.1071566292E+001  +3.4945795855E-001 +7.9613576320E+000 
10646340.426 +2.9785993475E-001 +1.1041816044E+001  +2.2553750437E-001 -3.9813008536E+000  +2.2328576798E-001 +1.1017812888E+001  +3.3673962800E-001 +8.1182685734E+000 
10771485.607 +3.4263230415E-001 +1.5399141073E+001  +2.2408100719E-001 -3.1737731272E+000  +2.2220217534E-001 +1.1952771234E+001  +3.8352067091E-001 +1.1922462682E+001 
10896630.788 +3.2717597752E-001 +1.1352400672E+001  +2.3008607967E-001 -2.9768200504E+000  +2.2755269986E-001 +1.1733272188E+001  +3.5629796044E-001 +7.4421252497E+000 
11021775.970 +3.6692055076E-001 +1.2717464715E+001  +2.2948405766E-001 -2.1740697239E+000  +2.2827499288E-001 +1.2086570422E+001  +3.5819645465E-001 +7.3899489537E+000 
11146921.151 +3.5202339988E-001 +1.4359026665E+001  +2.2966331766E-001 -2.0871023638E+000  +2.2806224851E-001 +1.1034291163E+001  +3.7322388077E-001 +1.1422038472E+001 
11272066.333 +3.6970133665E-001 +1.3173690496E+001  +2.3292278754E-001 -1.4607344239E+000  +2.3070680952E-001 +1.1019054290E+001  +3.7054753810E-001 +1.1301558897E+001 
11397211.514 +3.9821358387E-001 +1.2621280046E+001  +2.3485284200E-001 -1.7036133427E+000  +2.3531773291E-001 +1.1100683095E+001  +3.9683030410E-001 +6.4471807082E+000 
11522356.696 +4.0802914540E-001 +1.3338948817E+001  +2.3737996979E-001 -4.4852353462E-001  +2.3470339064E-001 +1.1546933016E+001  +4.2266886856E-001 +9.2365416670E+000 
11647501.877 +4.1080158688E-001 +1.0679607682E+001  +2.4134289164E-001 -7.7071859924E-001  +2.3956137067E-001 +1.0733132747E+001  +4.0215289623E-001 +8.4932448866E+000 
11772647.059 +4.0612907299E-001 +1.3082619472E+001  +2.4057344503E-001 -4.3561167783E-001  +2.3964365569E-001 +1.0111661194E+001  +4.2480171671E-001 +7.1124742163E+000 
11897792.240 +4.1162370056E-001 +1.3852889644E+001  +2.4351443421E-001 +8.0702460281E-001  +2.4300579463E-001 +1.0026430879E+001  +4.5463244524E-001 +3.0273693142E+000 
12022937.422 +4.1915925788E-001 +8.7115018500E+000  +2.4766936154E-001 +3.9526270894E-001  +2.4421231513E-001 +9.4477363588E+000  +4.4007978911E-001 +5.7343847282E+000 
12148082.603 +4.5555767569E-001 +1.0852827988E+001  +2.5081307119E-001 +7.7362193938E-001  +2.4911662945E-001 +9.7374681627E+000  +4.5642128326E-001 +4.0166687936E+000 
12273227.785 +4.4432281112E-001 +9.6923464687E+000  +2.5350035883E-001 +6.6129595649E-001  +2.4863954582E-001 +8.9981589022E+000  +4.3582396898E-001 +4.6375912637E+000 
12398372.966 +4.4613305777E-001 +6.2410732600E+000  +2.5745880753E-001 +1.0125780275E+000  +2.5477205852E-001 +8.6970324843E+000  +4.6075075779E-001 +2.3276425405E+000 
12523518.148 +4.6377429851E-001 +9.5609528330E+000  +2.5893940815E-001 +6.4630178639E-001  +2.5459569859E-001 +7.8572934556E+000  +4.7413405526E-001 +3.3072731912E+000 
12648663.329 +4.8916396535E-001 +4.6391271595E+000  +2.6319200663E-001 +1.1106934789E+000  +2.6017831337E-001 +7.4965803341E+000  +4.8495037315E-001 +1.7144496047E+000 
12773808.511 +4.8190544236E-001 +3.2910295364E+000  +2.6391171744E-001 +1.4993200678E+000  +2.6133831858E-001 +7.4021188451E+000  +5.1269523662E-001 +3.1971116852E+000 
12898953.692 +5.0669836785E-001 +5.1277585750E+000  +2.6752582595E-001 +1.1035989836E+000  +2.6450953788E-001 +6.9252270307E+000  +5.1285789458E-001 +1.2645904799E+000 
13024098.874 +5.2950875708E-001 +2.6995608428E+000  +2.7085141180E-001 +1.5608900905E+000  +2.6895635039E-001 +6.4567648090E+000  +5.0220779935E-001 +1.2199154969E+000 
13149244.055 +5.5239887134E-001 +1.7161967770E+000  +2.7271744786E-001 +2.4548723230E+000  +2.7051125650E-001 +6.7852980725E+000  +5.5458829078E-001 +1.7592242634E+000 
13274389.237 +5.4235516938E-001 +1.6128435690E+000  +2.7569833176E-001 +1.9887036661E+000  +2.7447986463E-001 +5.7233578574E+000  +5.6611069170E-001 -1.6557056247E+000 
13399534.418 +5.6554409022E-001 -2.4045448952E+000  +2.7981647011E-001 +1.7804218392E+000  +2.7545809849E-001 +5.2618863865E+000  +5.7114161261E-001 -2.0058176252E+000 
13524679.599 +5.7423995843E-001 -1.1548181295E+000  +2.8071013046E-001 +1.8773961552E+000  +2.7714777425E-001 +5.0852777340E+000  +5.8776266886E-001 -2.4240402502E-001 
13649824.781 +5.8557521476E-001 -4.4541515107E-001  +2.8278033615E-001 +1.6863644042E+000  +2.7974322348E-001 +4.0457331743E+000  +5.7645791499E-001 -4.4640191370E+000 
13774969.962 +6.2291229223E-001 -3.4445421429E+000  +2.8583273064E-001 +1.9044937052E+000  +2.8137297916E-001 +4.1533087976E+000  +6.1525088266E-001 -2.3381980856E-001 
13900115.144 +6.1212279680E-001 -1.7783596633E+000  +2.8600383414E-001 +1.6498152098E+000  +2.8253493389E-001 +3.4269259706E+000  +6.2134148086E-001 -3.0225975582E+000 
14025260.325 +6.4454600637E-001 -4.5797636464E+000  +2.8912409233E-001 +1.7291589829E+000  +2.8792141722E-001 +2.9435465006E+000  +6.2632390179E-001 -3.5994185868E+000 
14150405.507 +6.3645444183E-001 -5.7274520054E+000  +2.9132324784E-001 +7.8656428695E-001  +2.8872158337E-001 +2.2739340088E+000  +6.4081077722E-001 -5.4236430644E+000 
14275550.688 +6.9006996584E-001 -5.5266087596E+000  +2.9332246689E-001 +1.5965387902E+000  +2.8680056101E-001 +2.4434738061E+000  +6.6884973720E-001 -3.9974854465E+000 
14400695.870 +6.9100314747E-001 -7.5523885393E+000  +2.9739686606E-001 +1.1183640753E+000  +2.9169665172E-001 +1.7435444344E+000  +6.7676932589E-001 -5.8470560054E+000 
