!  2-Port S-parameters saved by WinCal
! VAR MeasName=S-Parameters (CALIBRATED_DATA) read from VNA (P5004A)
! VAR MeasDate=29/08/2024 11:53:53
! VAR NAME=S2_r9c4_SET2_9k-100M_1
! VAR FILENAME=S2_r9c4_SET2_9k-100M_1.S2P
! VAR DATE=29/08/2024 11:53:53
! VAR PHYS_PORTS=1,2
! VAR ObjTypeName=DATASET
! VAR IndexType=Frequency
!
# Hz S MA R 50
9000.000 +9.6338733667E-002 -1.7249803542E+002  +5.2964275252E-003 +1.5855412940E+002  +9.5427834029E-003 -1.5156460347E+002  +2.1851245208E-001 -1.3857415462E+002 
134145.181 +1.1100656610E-001 +1.6932811637E+002  +1.3666511935E-004 -8.8115045801E+000  +2.9124258957E-004 +1.3418513070E+002  +2.3950816523E-001 -1.7121477946E+002 
259290.363 +1.1158498599E-001 +1.6953877444E+002  +1.2974559622E-003 -7.9167368429E+001  +1.4495939801E-003 +3.8432658715E+001  +2.3470386023E-001 -1.6849264386E+002 
384435.544 +1.1394034794E-001 +1.6998377921E+002  +3.3868777091E-004 -4.7902728534E+001  +4.9469680512E-004 +3.4389526184E+001  +2.3986035858E-001 -1.6954991442E+002 
509580.726 +1.1497748851E-001 +1.7213749730E+002  +1.1182658226E-003 -8.2306661768E+001  +2.1035466923E-004 -1.6577986223E+002  +2.4461600610E-001 -1.6781323955E+002 
634725.907 +1.1666985232E-001 +1.7094036018E+002  +1.7409039918E-003 -8.4548219812E+001  +2.5315335988E-003 +1.0863381523E+002  +2.5684720827E-001 -1.6029120321E+002 
759871.089 +1.1930561224E-001 +1.7141748635E+002  +4.9835513321E-004 -6.9330555638E+001  +1.7729410964E-003 +1.3468573171E+002  +2.5236263648E-001 -1.6727407291E+002 
885016.270 +1.2081497171E-001 +1.6865167051E+002  +3.9343370510E-004 -2.4959067622E+001  +8.5620983260E-004 +1.3168538178E+002  +2.4114651581E-001 -1.6830523801E+002 
1010161.452 +1.1758525787E-001 +1.7045927965E+002  +1.9678981605E-003 +1.0345156595E+001  +2.5010475237E-003 -1.5669204402E+002  +2.1833713541E-001 -1.7115082643E+002 
1135306.633 +1.1927821702E-001 +1.6885843888E+002  +2.2441910690E-003 +3.0400693115E+001  +3.0832988181E-003 -1.5084885062E+002  +1.8866867109E-001 -1.7193897576E+002 
1260451.815 +1.2066449002E-001 +1.7115137085E+002  +1.3479954050E-003 -7.5389292977E+001  +1.8450202894E-003 +1.3381850658E+002  +2.2119477984E-001 -1.5819150291E+002 
1385596.996 +1.2583521564E-001 +1.7221648775E+002  +2.8052516835E-003 -5.3972312999E+001  +4.0260669790E-003 +1.2941025932E+002  +2.2764878635E-001 -1.5416502618E+002 
1510742.178 +1.2869890912E-001 +1.7211573265E+002  +5.5460663207E-004 -4.2898869868E+001  +6.4668173124E-004 -1.7329367780E+002  +2.5419465794E-001 -1.6039522109E+002 
1635887.359 +1.2813149728E-001 +1.7044037806E+002  +1.2040986521E-003 -3.2988236348E+001  +1.3739848368E-003 +1.7141837022E+002  +2.4468815154E-001 -1.5873857055E+002 
1761032.541 +1.3336924782E-001 +1.7028928914E+002  +1.9661866432E-003 +3.0281910909E+001  +1.4906249392E-003 -8.8738436265E+001  +2.1509872938E-001 -1.5539491109E+002 
1886177.722 +1.3199148157E-001 +1.6796767972E+002  +3.8216817289E-003 +4.2619769076E+001  +3.5115240534E-003 -8.2190069054E+001  +1.7017840243E-001 -1.4825858211E+002 
2011322.904 +1.3106917745E-001 +1.6952270826E+002  +7.5857730984E-003 +5.0395221128E+001  +5.1639666867E-003 -7.6086017592E+001  +2.0831111633E-001 -1.6194623109E+002 
2136468.085 +1.3229357463E-001 +1.6478559630E+002  +8.3700088163E-003 +7.3426106958E+001  +9.6951600739E-003 -6.5451564590E+001  +1.9550082903E-001 -1.6358141119E+002 
2261613.267 +1.3243402148E-001 +1.6559321795E+002  +8.7669281972E-003 +7.5117539203E+001  +9.5542506620E-003 -5.1536238597E+001  +2.1819734333E-001 -1.6675435462E+002 
2386758.448 +1.4149273212E-001 +1.6566296354E+002  +1.1049246703E-002 +6.9161728097E+001  +1.2613550563E-002 -4.5879530791E+001  +1.7432313801E-001 -1.7056281475E+002 
2511903.630 +1.3760616164E-001 +1.6645948481E+002  +1.2458237869E-002 +8.9372964460E+001  +1.2315962896E-002 -2.9470175305E+001  +2.2794844661E-001 -1.7838118432E+002 
2637048.811 +1.3338050398E-001 +1.6121719118E+002  +2.2853927262E-002 +9.4177845862E+001  +3.1935113279E-002 -2.6633851036E+001  +1.8774755523E-001 +1.7210116160E+002 
2762193.992 +1.2166574105E-001 +1.7154978806E+002  +9.6549601034E-002 +3.5767007641E+001  +9.2332793993E-002 -7.1035904067E+001  +2.2096997596E-001 +2.6982139272E+001 
2887339.174 +1.3743988443E-001 +1.7678700591E+002  +5.5028647720E-002 -1.3129359853E+001  +5.6386677329E-002 -1.0379920027E+002  +1.0661345206E-001 -3.9540469245E+001 
3012484.355 +1.4796459994E-001 +1.7732041485E+002  +4.7355549832E-002 -3.5789019672E+001  +4.9278970093E-002 -1.3750859885E+002  +2.7997558359E-001 -9.1587486906E+001 
3137629.537 +1.3139641573E-001 +1.7814075506E+002  +1.2101528567E-001 -2.0952005466E+000  +1.1953913146E-001 -9.8540858205E+001  +4.1101952944E-001 -1.9970182949E+001 
3262774.718 +1.1599467201E-001 +1.6507218833E+002  +1.0076569523E-001 +1.4962635735E+001  +1.0825231399E-001 -7.9738817461E+001  +2.6771066650E-001 -4.3732308993E+001 
3387919.900 +1.3242955714E-001 +1.6234468270E+002  +5.2036149909E-002 +4.0514441423E+001  +5.1272704512E-002 -3.8000605284E+001  +8.7272520990E-002 +1.6980623256E+002 
3513065.081 +1.4947607720E-001 +1.5859635413E+002  +7.9212480657E-002 +6.6678591317E+001  +8.0297969600E-002 -1.8905362756E+001  +2.9306681416E-001 +8.2057320939E+001 
3638210.263 +2.0137869707E-001 +1.4817353942E+002  +9.1890814913E-002 +1.3633016649E+002  +9.0247413178E-002 +5.1584815723E+001  +5.6698051622E-001 +1.2393395630E+002 
3763355.444 +1.7383879975E-001 +1.5145499403E+002  +1.0456898894E-001 +1.2420477055E+002  +9.8668829796E-002 +5.1925992566E+001  +7.0718777291E-001 +1.3642698136E+002 
3888500.626 +1.8464257454E-001 +1.5194249459E+002  +6.1025919366E-002 +1.0989504887E+002  +4.5979156118E-002 +3.2466623957E+001  +4.0631991916E-001 +1.4912517646E+002 
4013645.807 +1.7804720867E-001 +1.5427956039E+002  +7.4497156426E-002 +7.8235232617E+001  +7.3018661354E-002 +5.2613890238E+000  +2.9695809536E-001 +1.0775904322E+002 
4138790.989 +1.5415954116E-001 +1.5074125402E+002  +1.1435522862E-001 +8.5771541206E+001  +1.0286184193E-001 +1.7130266553E+001  +5.3423454312E-001 +1.1885753613E+002 
4263936.170 +1.7457152393E-001 +1.4652652312E+002  +1.3385323609E-001 +7.3720737560E+001  +1.1844524908E-001 +1.6059163064E+001  +4.8893745030E-001 +9.1303638890E+001 
4389081.352 +2.2002461220E-001 +1.4514564934E+002  +9.4031801418E-002 +1.0799113943E+002  +7.8577286544E-002 +4.2092687371E+001  +4.4737923286E-001 +1.2927437437E+002 
4514226.533 +2.3938425097E-001 +1.3921309030E+002  +1.1668816910E-001 +1.1119268429E+002  +1.1554021689E-001 +5.8506816887E+001  +5.6994697230E-001 +1.3176746523E+002 
4639371.715 +3.0928872232E-001 +1.2169237134E+002  +6.3835814901E-001 +1.4244889076E+002  +6.1284635759E-001 +8.6158044242E+001  +3.1499120138E+000 +1.3453242953E+002 
4764516.896 +3.6328956301E-001 +1.2116717430E+002  +4.2119615615E-001 +1.2732842939E+002  +3.8327183427E-001 +7.5893514846E+001  +1.5227295594E+000 +1.1075394575E+002 
4889662.078 +2.9875605407E-001 +1.4356876622E+002  +6.6533636431E-001 -1.0363995021E+002  +6.4141323396E-001 -1.5392706167E+002  +2.4985867905E+000 -1.5472123532E+002 
5014807.259 +4.0008778347E-001 +1.2613945636E+002  +3.4227583493E-001 +1.0743147424E+002  +3.2808170616E-001 +6.3116407737E+001  +1.2093086581E+000 +8.8717997756E+001 
5139952.441 +3.5516023179E-001 +1.3640648549E+002  +2.3236324998E-001 +1.3713380195E+002  +2.1472139132E-001 +9.1048487113E+001  +1.4062496156E+000 +1.3106501835E+002 
5265097.622 +3.0229982539E-001 +1.1276198278E+002  +3.9644581515E-001 +4.8263780777E+001  +4.0739262876E-001 +1.4662410103E+001  +1.3805219280E+000 +3.2177311130E+001 
5390242.804 +3.0963741345E-001 +1.3745658481E+002  +1.8074711616E-001 +1.1147954047E+002  +1.6560974893E-001 +7.4612902090E+001  +1.1856170056E+000 +1.3340321941E+002 
5515387.985 +3.8677800309E-001 +1.3329351997E+002  +2.3024547386E-001 +1.1131457610E+002  +2.1394058503E-001 +8.3312307010E+001  +1.4350501325E+000 +1.2279690848E+002 
5640533.166 +4.4531256105E-001 +1.2628189717E+002  +2.7720444576E-001 +9.3545580331E+001  +2.6568328125E-001 +6.1965093645E+001  +1.2338424699E+000 +9.0346083372E+001 
5765678.348 +4.6344721741E-001 +1.2105759325E+002  +3.0172336759E-001 +9.1370280265E+001  +2.9478616457E-001 +6.4123098515E+001  +1.3132714614E+000 +9.4836655610E+001 
5890823.529 +4.4237771640E-001 +1.2298916920E+002  +3.2604151471E-001 +8.5918600306E+001  +3.1471368063E-001 +5.9095766809E+001  +1.6912176990E+000 +9.1858192352E+001 
6015968.711 +5.1792996974E-001 +1.1572906208E+002  +3.9219785198E-001 +7.6547229294E+001  +3.9981514629E-001 +5.0913924972E+001  +1.8332345259E+000 +7.4289968327E+001 
6141113.892 +5.3188899171E-001 +1.1438798663E+002  +3.9166299651E-001 +4.7314053862E+001  +3.7000286563E-001 +2.9087380168E+001  +1.6668749203E+000 +3.1050116811E+001 
6266259.074 +7.0218721706E-001 +1.0274942127E+002  +4.2527627831E-001 +6.1862671241E+001  +4.1659812433E-001 +3.9100600091E+001  +1.4691988848E+000 +5.3283062256E+001 
6391404.255 +8.1893381855E-001 +1.0475182719E+002  +4.0950660143E-001 +5.7778531374E+001  +4.0363561158E-001 +4.0973898491E+001  +1.3675528505E+000 +4.1993408414E+001 
6516549.437 +6.9113841374E-001 +8.9837817748E+001  +3.7828428087E-001 +3.5055855745E+001  +3.9208933553E-001 +1.9609402192E+001  +1.3118302855E+000 +2.6819995864E+001 
6641694.618 +7.2019799131E-001 +8.2120973078E+001  +3.6441044406E-001 +2.7525488469E+001  +3.4873763861E-001 +1.4118156671E+001  +9.9000503853E-001 +1.6801686989E+001 
6766839.800 +7.7866085461E-001 +6.2232529137E+001  +3.9858216701E-001 +1.0801906577E+001  +3.9468075914E-001 +3.5254334912E-001  +1.2333477021E+000 -5.4278318716E+000 
6891984.981 +8.8532502432E-001 +3.9397874194E+001  +4.1798376185E-001 +5.2326913193E+000  +4.0810158192E-001 -6.6516592005E-001  +1.0868290969E+000 +9.0340129086E-001 
7017130.163 +1.1466316116E+000 +1.9204460123E+001  +4.0851706148E-001 +4.1974881298E+000  +4.1730572748E-001 -1.6047277740E+000  +1.0159795202E+000 +3.2194635595E+000 
7142275.344 +9.3789788354E-001 +1.5214088120E+001  +3.2614504825E-001 +2.2416785946E+000  +3.4144464003E-001 -1.1182332163E+000  +8.8461241543E-001 +2.7142089997E+000 
7267420.526 +8.9288817878E-001 +9.5864128326E+000  +3.0171202994E-001 -4.5612022417E-001  +2.9218131364E-001 -3.7681287258E-001  +1.0074984369E+000 -8.8979025306E+000 
7392565.707 +1.0965385717E+000 -3.7872142174E+000  +2.8529402866E-001 +5.3483212461E+000  +2.8721298692E-001 +4.6702469976E+000  +1.0210830626E+000 +5.9041682447E-002 
7517710.889 +7.7318047488E-001 +7.0243365372E-001  +2.4792143833E-001 +1.7713072082E+000  +2.4682210567E-001 +5.2177360812E+000  +9.1360012650E-001 +1.6004863399E+000 
7642856.070 +6.7481667105E-001 +8.5849236289E+000  +2.4138379746E-001 +2.4248029824E+000  +2.3431315258E-001 +6.0034880508E+000  +8.5215482678E-001 +1.6194723622E+000 
7768001.252 +7.1556268463E-001 +8.5086012029E+000  +2.2851774226E-001 +1.4496741667E-001  +2.3807187393E-001 +6.2432339327E+000  +7.5373792785E-001 +6.2776499718E-001 
7893146.433 +6.5371534333E-001 +5.1686971780E+000  +2.2980306382E-001 -8.7139971090E-001  +2.3806705336E-001 +5.3634698454E+000  +6.6402730758E-001 -1.2984089791E+001 
8018291.615 +5.4909211366E-001 +1.7713012842E+001  +2.0813968964E-001 -1.7986611290E+000  +2.1439499453E-001 +7.0598379103E+000  +6.5417702379E-001 -7.2859994976E+000 
8143436.796 +5.9655999817E-001 +1.8167574980E+001  +2.0297889458E-001 -2.1248336302E+000  +2.0503249673E-001 +6.8854130740E+000  +5.6185197469E-001 +6.7912481510E+000 
8268581.977 +6.0579874283E-001 +1.0617692453E+001  +2.1238398000E-001 -3.2283975321E+000  +2.0719384544E-001 +6.7999024199E+000  +4.8695992038E-001 -3.5775328094E+000 
8393727.159 +5.2997740000E-001 +1.7852342250E+001  +1.9953092494E-001 -1.6052067637E+000  +1.9818469563E-001 +9.8214538440E+000  +5.3656121254E-001 +8.9997868291E+000 
8518872.340 +4.6194983957E-001 +1.0817456668E+001  +1.9256684149E-001 -3.8928912615E+000  +1.9517585584E-001 +8.0357471710E+000  +4.4703282057E-001 +1.2975799352E+001 
8644017.522 +3.8495051163E-001 +3.3859833744E+000  +2.0008913006E-001 -5.7229225948E+000  +1.9816406772E-001 +6.9960740382E+000  +4.8847286968E-001 +5.0843664271E+000 
8769162.703 +5.1107493052E-001 +1.4782908162E+001  +1.9322724754E-001 -3.5961380908E+000  +1.9236200777E-001 +1.0612223468E+001  +4.6045121005E-001 +1.3730462907E+001 
8894307.885 +4.1323458469E-001 +1.1309053818E+001  +1.9364513146E-001 -4.4727535183E+000  +1.9114294776E-001 +1.0176769516E+001  +3.9943941923E-001 +1.0987371700E+001 
9019453.066 +3.8486591505E-001 +1.1264570768E+001  +1.9281401514E-001 -4.4215632748E+000  +1.8949228428E-001 +9.9269040155E+000  +4.3910665224E-001 +4.4462192912E+000 
9144598.248 +3.8652420397E-001 +9.2524234944E+000  +1.9287378411E-001 -5.1878779052E+000  +1.8688490150E-001 +1.0271613052E+001  +4.0769656840E-001 +5.6366410376E+000 
9269743.429 +3.0874704186E-001 +1.5148835006E+001  +1.8882856903E-001 -5.5565574454E+000  +1.9019210570E-001 +9.4350587103E+000  +4.0140789511E-001 +1.3862267168E+000 
9394888.611 +3.4926785096E-001 +1.2500672680E+001  +1.8766990763E-001 -5.4372541421E+000  +1.9057186140E-001 +1.0310765840E+001  +3.6613443050E-001 +6.3680831796E+000 
9520033.792 +3.5986955989E-001 +1.1038747945E+001  +1.8619587955E-001 -4.0952213851E+000  +1.8927435175E-001 +1.0418194628E+001  +3.8247897254E-001 +1.0343788379E+001 
9645178.974 +3.4122663466E-001 +1.1028478994E+001  +1.9049623138E-001 -5.1503073501E+000  +1.9043998023E-001 +1.0139729376E+001  +3.4410365404E-001 +3.3861959346E+000 
9770324.155 +3.5334740708E-001 +1.2938212123E+001  +1.9074283094E-001 -5.1799996531E+000  +1.9041181257E-001 +1.0428114974E+001  +3.6469434767E-001 -2.9883609886E+000 
9895469.337 +3.7295932929E-001 +9.3437294787E+000  +1.9255428609E-001 -5.3582202283E+000  +1.9034147110E-001 +1.0933176045E+001  +3.2902403501E-001 +1.4670049247E+000 
10020614.518 +3.5674501024E-001 +7.4951197675E+000  +1.9347302264E-001 -4.4104804598E+000  +1.9196784246E-001 +1.1967355410E+001  +3.7048552953E-001 -2.3381010563E-001 
10145759.700 +3.4779594274E-001 +1.3734531203E+001  +1.9445576841E-001 -3.8895437122E+000  +1.8988599188E-001 +1.2172505746E+001  +3.8162031768E-001 +2.4289734379E+000 
10270904.881 +3.7011680005E-001 +1.1654133889E+001  +1.9506163002E-001 -4.4396920191E+000  +1.9403346356E-001 +1.2634157696E+001  +3.5924307707E-001 -2.9118397751E+000 
10396050.063 +3.9725394851E-001 +1.5420860156E+001  +1.9446936887E-001 -2.2444996966E+000  +1.9289217548E-001 +1.3184671158E+001  +3.9933893496E-001 +5.6741013018E+000 
10521195.244 +3.8279800391E-001 +1.1661255933E+001  +1.9734004852E-001 -3.2714452789E+000  +1.9684096086E-001 +1.2207127330E+001  +3.7710943806E-001 +2.2531645383E+000 
10646340.426 +3.8012266784E-001 +1.1295162972E+001  +1.9872817458E-001 -2.4342006291E+000  +1.9619704200E-001 +1.2258151659E+001  +3.9125681974E-001 +6.1013100224E-001 
10771485.607 +3.4466131779E-001 +1.7581161037E+001  +1.9670032038E-001 -2.6090955723E+000  +1.9615451582E-001 +1.1959532045E+001  +3.9818218483E-001 +5.7105090761E+000 
10896630.788 +3.7633492997E-001 +1.0622507186E+001  +1.9944186695E-001 -1.7391103594E+000  +1.9519607611E-001 +1.1980943936E+001  +4.1466428653E-001 +7.9927245086E+000 
11021775.970 +3.5547500799E-001 +1.1660793990E+001  +2.0164022678E-001 -2.6201267326E+000  +1.9801239177E-001 +1.1839707293E+001  +3.8746869630E-001 +5.5120175396E+000 
11146921.151 +4.0185731134E-001 +1.4173752210E+001  +2.0277594252E-001 -1.4065339211E+000  +1.9865333095E-001 +1.2005772297E+001  +4.1686744773E-001 +1.1249721288E+001 
11272066.333 +3.8564057972E-001 +8.1785684021E+000  +2.0715025947E-001 -2.0602779855E+000  +2.0313041404E-001 +1.1425720859E+001  +4.1030358377E-001 +5.0259180811E+000 
11397211.514 +4.1403511799E-001 +1.3737237629E+001  +2.0666049324E-001 -8.7924038024E-001  +2.0308973354E-001 +1.1559829946E+001  +4.2760339717E-001 +5.6709568880E+000 
11522356.696 +4.3129502818E-001 +9.9285124897E+000  +2.1063409767E-001 -5.4309618561E-001  +2.0775460805E-001 +1.1512349609E+001  +4.3464654521E-001 +5.0116255722E+000 
11647501.877 +4.3882492258E-001 +8.0667417958E+000  +2.1132520426E-001 +1.3473712928E-002  +2.0970766617E-001 +1.0934326493E+001  +4.2921985403E-001 +4.0412659192E+000 
11772647.059 +4.4535569884E-001 +8.2692529886E+000  +2.1273344752E-001 +9.8625707016E-001  +2.1362744223E-001 +1.1041579465E+001  +4.5377219695E-001 +6.4560388463E+000 
11897792.240 +4.3314604611E-001 +8.8056467492E+000  +2.1539890602E-001 +5.0877155887E-001  +2.1265738148E-001 +1.0317623008E+001  +4.5904263199E-001 +5.3444207359E+000 
12022937.422 +4.6227365847E-001 +8.2757866229E+000  +2.1773391191E-001 +6.7748964929E-001  +2.1609323920E-001 +1.0067877437E+001  +4.7619362535E-001 +3.5335354411E+000 
12148082.603 +4.8644726283E-001 +8.3607093739E+000  +2.1963945891E-001 +9.2830406003E-001  +2.1757771448E-001 +9.7359388138E+000  +4.7436870428E-001 +5.9896771645E+000 
12273227.785 +4.7424064033E-001 +6.6702679754E+000  +2.2097318418E-001 +8.9874846228E-001  +2.1812976906E-001 +9.5575394268E+000  +5.0455322359E-001 +4.6598396277E+000 
12398372.966 +4.5857615940E-001 +7.8096284744E+000  +2.2385744864E-001 +5.6910864898E-001  +2.2196520781E-001 +8.0743538510E+000  +4.8713425864E-001 +3.7448705282E+000 
12523518.148 +4.9925949450E-001 +6.7989703369E+000  +2.2434919634E-001 +1.1416532018E+000  +2.2236009803E-001 +8.5978825549E+000  +4.9420314236E-001 +5.1233409391E+000 
12648663.329 +5.1576194094E-001 +3.8264328346E+000  +2.2888582518E-001 +1.6695566291E+000  +2.2713509323E-001 +8.4214488646E+000  +5.3667534061E-001 +3.4679562770E+000 
12773808.511 +4.9777135037E-001 +5.0176459746E+000  +2.3018288368E-001 +1.2008826261E+000  +2.2903248617E-001 +7.9336512500E+000  +5.3500636060E-001 +1.7405313235E+000 
12898953.692 +5.2546998202E-001 +4.8123106670E+000  +2.3498963299E-001 +1.3035662400E+000  +2.3212408658E-001 +7.1207370887E+000  +5.3959675898E-001 -3.6765586546E-001 
13024098.874 +5.4073338572E-001 +3.2043441427E+000  +2.3472829740E-001 +1.1012157320E+000  +2.3376583639E-001 +6.7058048056E+000  +5.4397719593E-001 +2.1945929769E+000 
13149244.055 +5.5075329797E-001 +8.5800937468E-001  +2.3838431949E-001 +1.3731212823E+000  +2.3448222690E-001 +5.6244250940E+000  +5.5839482945E-001 +1.4037823863E+000 
13274389.237 +5.6891053252E-001 -3.6045721409E-002  +2.4208584375E-001 +1.4601064069E+000  +2.3909014858E-001 +5.2122060186E+000  +5.7287233285E-001 -2.0429237627E+000 
13399534.418 +5.7366032380E-001 +1.7937064397E-001  +2.4349524439E-001 +1.5466510503E+000  +2.4088271043E-001 +5.1042816735E+000  +5.8888182882E-001 -3.1035624788E+000 
13524679.599 +5.9376004700E-001 -1.9768256723E+000  +2.4781928116E-001 +1.7256486473E+000  +2.4359421932E-001 +4.9642347336E+000  +6.2377955734E-001 -1.8622607627E+000 
13649824.781 +6.3284210114E-001 -2.9357910968E+000  +2.4743716026E-001 +1.9782573930E+000  +2.4449460385E-001 +4.6696089659E+000  +6.2940051054E-001 -1.3953924853E-001 
13774969.962 +6.5276796634E-001 +1.0436749820E-001  +2.4895828813E-001 +1.9868145704E+000  +2.4516134698E-001 +4.1836074761E+000  +6.3810003816E-001 -3.5259565309E+000 
13900115.144 +6.4952574814E-001 -3.4121036473E+000  +2.5247836557E-001 +1.9866570735E+000  +2.4852932237E-001 +3.6877408121E+000  +6.7872349338E-001 -4.7083606874E+000 
14025260.325 +6.6226263618E-001 -3.8352845613E+000  +2.5311216494E-001 +1.6015987389E+000  +2.5002118763E-001 +2.9622013944E+000  +6.6618681799E-001 -5.2486453532E+000 
14150405.507 +6.8373601738E-001 -3.2854358013E+000  +2.5240592801E-001 +1.2963029993E+000  +2.4915268439E-001 +2.3114655845E+000  +6.8101071340E-001 -3.5655167396E+000 
14275550.688 +6.9423720517E-001 -5.7604992106E+000  +2.5738196561E-001 +1.0656293915E+000  +2.5553744735E-001 +2.1279462714E+000  +7.1081110184E-001 -5.4358179206E+000 
14400695.870 +6.9675123787E-001 -6.9179947278E+000  +2.5744316823E-001 +1.0466526297E+000  +2.5344141051E-001 +1.2300228684E+000  +7.2155112769E-001 -5.0992955448E+000 
