!  2-Port S-parameters saved by WinCal
! VAR MeasName=S-Parameters (CALIBRATED_DATA) read from VNA (P5004A)
! VAR MeasDate=29/08/2024 11:00:06
! VAR NAME=S2_r9c2_SET2_9k-100M_1
! VAR FILENAME=S2_r9c2_SET2_9k-100M_1.S2P
! VAR DATE=29/08/2024 11:00:06
! VAR PHYS_PORTS=1,2
! VAR ObjTypeName=DATASET
! VAR IndexType=Frequency
!
# Hz S MA R 50
9000.000 +8.7180303260E-002 -1.6868220650E+002  +3.5946808579E-003 +4.0451963298E+001  +8.4729376973E-003 -9.8526914451E+001  +2.8590990647E-001 -1.5226485326E+002 
134145.181 +1.1121719815E-001 +1.6944120273E+002  +5.9858295832E-004 -3.6853528341E+001  +5.7473015459E-004 +9.8908327647E+001  +2.4207004096E-001 -1.7136889008E+002 
259290.363 +1.1287531699E-001 +1.6978898307E+002  +5.4378985655E-004 +9.2976682311E+000  +6.7068921667E-004 +8.1021649866E+001  +2.4274743702E-001 -1.6966430276E+002 
384435.544 +1.1428399102E-001 +1.7008741767E+002  +1.0544809638E-003 -8.0188100778E+001  +6.7456204858E-004 +1.1401018129E+002  +2.4122197747E-001 -1.7000850780E+002 
509580.726 +1.1327642952E-001 +1.6988786726E+002  +2.6080911159E-004 -1.3583535542E+002  +9.1396355358E-004 +3.0080547927E+001  +2.5185046181E-001 -1.6834685282E+002 
634725.907 +1.1730623540E-001 +1.7246230657E+002  +1.3339715505E-003 -1.3415902406E+002  +9.8698289472E-004 -5.1522045388E+000  +2.4995193892E-001 -1.6295131418E+002 
759871.089 +1.1983989273E-001 +1.7029876118E+002  +6.4200213885E-004 -8.7859384171E+001  +1.0285459268E-003 +1.1259741093E+002  +2.4850771820E-001 -1.6655187388E+002 
885016.270 +1.2097774015E-001 +1.6949269545E+002  +1.3094445039E-003 -7.1319383410E+001  +1.3023804085E-003 +9.7612713593E+001  +2.4337705889E-001 -1.6618001129E+002 
1010161.452 +1.1686697465E-001 +1.6934398637E+002  +1.5603519122E-003 -9.1947615463E+001  +1.1364276559E-003 +1.2233033766E+002  +2.2137220309E-001 -1.6827833143E+002 
1135306.633 +1.1887320648E-001 +1.6856572315E+002  +1.4711508677E-003 -7.7957012198E+000  +8.9209859691E-004 -1.3113391625E+002  +2.1723903152E-001 -1.6808570781E+002 
1260451.815 +1.1950253272E-001 +1.7127178259E+002  +5.1448508316E-004 -3.9837592033E+000  +2.3475029691E-003 +1.3622378790E+002  +2.2698866670E-001 -1.6203912676E+002 
1385596.996 +1.2358167350E-001 +1.7204174787E+002  +1.1435510745E-003 -1.0468597496E+002  +1.6425824775E-003 +2.3294115790E+001  +2.6250847970E-001 -1.5753272999E+002 
1510742.178 +1.2818598664E-001 +1.7161528349E+002  +9.3655763106E-004 -1.2179363634E+002  +3.5009674573E-004 -1.2367841801E+002  +2.4209676461E-001 -1.5837502246E+002 
1635887.359 +1.3032634802E-001 +1.7169976586E+002  +1.1045543366E-003 -3.9273222620E+001  +9.1192973579E-004 -7.8714592459E+001  +2.4796838017E-001 -1.5909569489E+002 
1761032.541 +1.3004429392E-001 +1.7124843422E+002  +2.0749487747E-003 +2.4836363228E+001  +2.0066009051E-003 -6.9082923906E+001  +2.1596573807E-001 -1.4786542026E+002 
1886177.722 +1.3211859398E-001 +1.6773872831E+002  +1.9790242310E-003 +8.0875412390E+001  +1.4050484626E-003 -6.7133970751E+001  +2.2432424456E-001 -1.6156916614E+002 
2011322.904 +1.3204918223E-001 +1.6765313410E+002  +3.1902317223E-003 +5.2419256282E+001  +3.2016308784E-003 -1.0722809054E+002  +1.9764334533E-001 -1.5999705488E+002 
2136468.085 +1.2779562688E-001 +1.6917162391E+002  +6.1255195157E-003 +8.0904393407E+001  +4.8618646449E-003 -7.8834836002E+001  +1.9662614139E-001 -1.6468306896E+002 
2261613.267 +1.3539294147E-001 +1.6423380950E+002  +1.0411980085E-002 +8.9568877648E+001  +2.1073716062E-002 -1.5842956372E+001  +2.1867226178E-001 +1.3669182592E+002 
2386758.448 +1.3102943732E-001 +1.6666729235E+002  +7.5904051045E-003 +3.9588333073E+001  +1.2145447579E-002 -6.9319475721E+001  +1.7398715675E-001 -1.7017219267E+002 
2511903.630 +1.3184182623E-001 +1.6661571803E+002  +1.2122221820E-002 +7.6625596476E+001  +1.4283622149E-002 -3.8621293956E+001  +1.9508587025E-001 +1.7705664277E+002 
2637048.811 +1.2472072191E-001 +1.5919879305E+002  +1.4092058807E-002 +1.1413499746E+002  +1.6639488430E-002 -2.4825772540E+001  +2.4148590570E-001 +1.6852038156E+002 
2762193.992 +1.1950829740E-001 +1.7367109250E+002  +8.2352403685E-002 -2.1319468954E-001  +6.0825829860E-002 -1.0448192523E+002  +2.7339908423E-001 +3.5989929913E-001 
2887339.174 +1.2694355348E-001 +1.7376277717E+002  +3.2409222892E-002 -3.4913328474E+001  +3.4974742723E-002 -1.3659454692E+002  +2.4121163251E-001 -1.0303177156E+002 
3012484.355 +1.2368039832E-001 -1.7919754440E+002  +7.1959879614E-002 -4.7969295029E+001  +9.1521690145E-002 -1.5642499116E+002  +5.0816195004E-001 -5.0504311869E+001 
3137629.537 +1.3115290226E-001 +1.7179345082E+002  +3.5576096435E-002 +2.8299812817E+000  +3.9071652938E-002 -8.7662247672E+001  +9.7273890297E-002 -4.9475156698E+001 
3262774.718 +1.2462004596E-001 +1.6481418668E+002  +4.4761923758E-002 -3.2830747038E+000  +3.9742561137E-002 -9.3712104808E+001  +2.3471676604E-001 -8.0866089639E+001 
3387919.900 +1.3431269714E-001 +1.6536939710E+002  +4.1913997451E-002 +3.2701881892E+001  +3.4404775316E-002 -4.9224105426E+001  +1.1978999004E-001 +8.4362992255E+001 
3513065.081 +1.4471319102E-001 +1.5447386294E+002  +1.1594281403E-001 +9.3151409785E+001  +1.0578866275E-001 +6.8774429285E+000  +1.1069486990E+000 +8.5795318681E+001 
3638210.263 +1.4458447767E-001 +1.5392853957E+002  +1.5537599652E-001 +5.3208734771E+001  +1.6078287226E-001 -2.6195672825E+001  +1.3963761035E+000 +5.1472323456E+001 
3763355.444 +1.8543109467E-001 +1.4745230647E+002  +3.8011305565E-002 +4.9870309346E+001  +3.3766690005E-002 -9.8513923817E+000  +5.9158858983E-002 +8.5314382646E+001 
3888500.626 +1.7267457289E-001 +1.5185396976E+002  +4.1203239023E-002 +6.7983663014E+001  +5.0277534805E-002 -6.5086568111E+000  +2.2834492761E-001 +1.0717310725E+002 
4013645.807 +1.8334060396E-001 +1.4952822244E+002  +7.0215036927E-002 +5.1993322055E+001  +6.8860017749E-002 -1.5049707202E+001  +4.0881465489E-001 +3.5659876716E+001 
4138790.989 +1.6890129517E-001 +1.4991916757E+002  +5.7906022656E-002 +5.5599623953E+001  +5.8215285886E-002 -1.1965888110E+000  +3.1266163153E-001 +8.9099936354E+001 
4263936.170 +1.9682404835E-001 +1.5366136497E+002  +2.7288567883E-002 +8.7696216033E+001  +2.6194613213E-002 +2.2442900552E+001  +3.1389465550E-001 +1.5374514022E+002 
4389081.352 +2.0917197226E-001 +1.3844665717E+002  +4.7861681728E-002 +8.7721757344E+001  +4.6554442791E-002 +2.9249869929E+001  +2.9781886443E-001 +1.3130501476E+002 
4514226.533 +2.1193727002E-001 +1.3675115706E+002  +1.8286249367E-001 +9.9512193454E+001  +1.7156790045E-001 +4.9104124012E+001  +1.5150821683E+000 +1.0224019556E+002 
4639371.715 +2.5064804985E-001 +1.3439085054E+002  +1.5611679142E-001 +1.0047973004E+002  +1.2918016051E-001 +3.9372385683E+001  +1.0251922970E+000 +9.0954488143E+001 
4764516.896 +3.2227085150E-001 +1.3915760591E+002  +1.5405523628E-001 +1.4762328379E+002  +1.5661038664E-001 +9.4000425103E+001  +1.6662499385E+000 +1.1902355846E+002 
4889662.078 +6.6388547579E-001 +1.3737154813E+002  +7.9663608130E-001 +1.5344950772E+002  +7.3688857729E-001 +1.0384679862E+002  +3.5443653477E+000 +9.2933743985E+001 
5014807.259 +3.6260250974E-001 +1.3490621091E+002  +2.7462327428E-001 -4.6476564424E+001  +2.8953031221E-001 -8.7933665681E+001  +3.3798180702E+000 -1.0203612725E+002 
5139952.441 +4.3161064423E-001 +1.3206416838E+002  +1.9788881642E-001 +9.7096162307E+001  +1.9290007892E-001 +5.7659201736E+001  +1.2978772171E+000 +6.1701539091E+001 
5265097.622 +3.2079260098E-001 +1.3081659520E+002  +1.9374561203E-001 +7.1704455518E+001  +1.8373215589E-001 +3.2937966046E+001  +1.4793291087E+000 +5.2482121203E+001 
5390242.804 +3.4958843554E-001 +1.4119090827E+002  +9.9977968294E-002 +9.1931712604E+001  +8.9274792918E-002 +5.2376304080E+001  +1.0346432707E+000 +9.0719234103E+001 
5515387.985 +4.1037382651E-001 +1.3325829938E+002  +1.2801045741E-001 +1.1814083368E+002  +1.4516482784E-001 +8.3604079156E+001  +1.4243784383E+000 +1.1727149136E+002 
5640533.166 +5.0188584379E-001 +1.2140854322E+002  +2.2085166879E-001 +1.0820743904E+002  +2.2195244378E-001 +7.5221465847E+001  +1.6320697060E+000 +9.8936336534E+001 
5765678.348 +5.0557641175E-001 +1.2595639200E+002  +1.7380956061E-001 +8.6652398935E+001  +1.6792214151E-001 +6.0661016157E+001  +1.2138582854E+000 +7.2475832416E+001 
5890823.529 +4.8982241569E-001 +1.1567383174E+002  +1.7892111803E-001 +5.3020480001E+001  +1.8201835068E-001 +2.7146177497E+001  +1.1321814656E+000 +3.6096288561E+001 
6015968.711 +6.0495823525E-001 +1.1878204037E+002  +2.0800839110E-001 +8.6000182252E+001  +2.1718883526E-001 +6.3512255383E+001  +1.5511981191E+000 +7.6305989212E+001 
6141113.892 +7.0424373139E-001 +1.1559398419E+002  +1.7851383953E-001 +7.8256938466E+001  +1.7995838194E-001 +5.0636610715E+001  +9.5030034980E-001 +5.8299172930E+001 
6266259.074 +6.6130105940E-001 +9.6833609995E+001  +2.8599285745E-001 +4.5540586058E+001  +2.7592121517E-001 +2.6928390493E+001  +1.8206954178E+000 +4.0522011282E+001 
6391404.255 +7.9543550712E-001 +9.7581734404E+001  +2.3049232802E-001 +3.3921106856E+001  +2.2388490624E-001 +1.2899986413E+001  +1.3577303669E+000 +9.1610251117E-001 
6516549.437 +6.5386234196E-001 +6.9052505253E+001  +2.5381063357E-001 +2.1808824659E+001  +2.4075965149E-001 +9.6890944702E+000  +1.0681883504E+000 +1.9979766221E+001 
6641694.618 +1.2115155699E+000 +7.0970768032E+001  +2.2521530826E-001 +3.2574695433E+001  +2.5171154726E-001 +2.5232262660E+001  +7.3442124371E-001 +2.2941697945E+001 
6766839.800 +1.1974222158E+000 +5.7091680303E+001  +2.8065564977E-001 +1.7283368217E+001  +2.7463067598E-001 +1.3086548376E+001  +1.4207378179E+000 +6.4010611799E+000 
6891984.981 +1.2059125910E+000 +3.1038794606E+001  +2.5445940424E-001 +4.7275982000E+000  +2.5803208397E-001 -8.9191029869E-001  +1.0795533295E+000 -4.4510464757E+000 
7017130.163 +1.6457317840E+000 +1.6453655605E+001  +2.8215461593E-001 +2.2587301890E+000  +2.4606299487E-001 -5.3566427006E+000  +1.1862051948E+000 -1.1017960291E+001 
7142275.344 +1.3611096557E+000 +1.4433612339E+001  +2.2934185652E-001 +2.5418749329E+000  +2.1154101802E-001 +1.8577181780E+000  +1.1115958467E+000 -1.4018300492E+000 
7267420.526 +1.3077465400E+000 -3.8064289835E-001  +1.9314238580E-001 +2.6988870267E+000  +1.9059711736E-001 -1.5656366769E+000  +1.1518141086E+000 -1.6507567016E+001 
7392565.707 +1.1563064181E+000 +1.0197544633E+000  +1.5599767501E-001 +4.7085513379E+000  +1.5389978735E-001 +6.3203109276E+000  +1.1087806327E+000 -8.9260136528E+000 
7517710.889 +9.4872313924E-001 +6.7184471096E+000  +1.4056684144E-001 +5.9891559498E+000  +1.4160487526E-001 +2.4087123309E+000  +1.0837305720E+000 -1.3267285672E+001 
7642856.070 +8.2643258638E-001 -5.2965064546E+000  +1.3821941844E-001 +1.6647647466E+000  +1.3098001911E-001 +2.8191934085E+000  +8.9617697763E-001 -7.2089780001E+000 
7768001.252 +7.0580222272E-001 +4.9931254136E+000  +1.2458527512E-001 +1.6992776494E+000  +1.2435984862E-001 +4.2628740670E+000  +8.6425761005E-001 +1.8206150252E+000 
7893146.433 +7.2152409911E-001 +1.2057772086E+001  +1.1868174077E-001 -1.5969115255E+000  +1.1881471869E-001 +6.2426617002E+000  +7.5631165638E-001 -6.2523248829E+000 
8018291.615 +5.1823403981E-001 +9.6811256669E+000  +1.1461677387E-001 -5.2056761805E+000  +1.1651340643E-001 +4.6917023313E+000  +7.4775712111E-001 +1.1858170232E+000 
8143436.796 +6.4489306848E-001 +6.8705491996E+000  +1.1688756339E-001 -1.9644443660E+000  +1.1449057566E-001 +5.4202925910E+000  +6.8100615360E-001 +3.4036921690E+000 
8268581.977 +6.1018022846E-001 +7.1385922279E+000  +1.1040486551E-001 -1.6019071675E+000  +1.1498192258E-001 +8.5923495590E+000  +6.4353908404E-001 +2.8038351913E+000 
8393727.159 +5.6600480106E-001 +1.4410185978E+001  +1.0578093289E-001 -4.2962800127E+000  +1.1037631219E-001 +1.0097747161E+001  +6.2555039335E-001 -2.1750246626E+000 
8518872.340 +5.3634692373E-001 +3.1678489089E+000  +1.1379132582E-001 -2.6482560285E+000  +1.1093552993E-001 +8.2302109255E+000  +5.8209992397E-001 +3.8587918311E+000 
8644017.522 +5.3326617326E-001 +8.0739702496E+000  +1.0408026177E-001 -4.8292496017E+000  +1.0675172071E-001 +1.3453093406E+001  +5.7970182017E-001 +1.7766990349E+000 
8769162.703 +4.8170374101E-001 +9.6794945495E+000  +1.0575223590E-001 -2.4122532394E+000  +1.0816319616E-001 +9.1349790818E+000  +5.5354424329E-001 -8.3505987470E-001 
8894307.885 +4.9050331195E-001 +6.2599979708E+000  +1.0555989513E-001 -4.4187078149E+000  +1.0106545885E-001 +9.7380316483E+000  +4.9997829414E-001 +7.9470424831E+000 
9019453.066 +5.4419147662E-001 +4.8388183368E+000  +1.0378774143E-001 -2.6402836276E+000  +1.0606385611E-001 +1.1523352434E+001  +5.3842718883E-001 +3.9717641496E+000 
9144598.248 +4.9831653795E-001 +7.7124427184E+000  +1.0474915436E-001 -5.8893410060E+000  +1.0799867796E-001 +7.9807081985E+000  +4.7327427843E-001 +4.9818639882E+000 
9269743.429 +4.8537234658E-001 +7.0779165045E+000  +1.0591316862E-001 -3.8999939255E+000  +1.0523709543E-001 +1.2721533397E+001  +5.2382962739E-001 -9.2803743414E-001 
9394888.611 +4.3168073925E-001 +3.8122583771E+000  +1.0522173859E-001 -4.7346196357E+000  +1.0463209819E-001 +1.0444513796E+001  +4.1488327591E-001 -6.9006810424E-001 
9520033.792 +4.5724110471E-001 +5.6664299373E+000  +1.0409411522E-001 -5.5491006510E+000  +1.0565702448E-001 +1.1354744930E+001  +4.7236274588E-001 -2.7001001714E+000 
9645178.974 +4.7258799470E-001 +2.6981593707E+000  +1.0450135757E-001 -5.0175394362E+000  +1.0480299119E-001 +1.1011172251E+001  +4.8948089221E-001 -8.9623735061E-001 
9770324.155 +4.6715453221E-001 +7.4071931159E+000  +1.0658334213E-001 -4.4945513420E+000  +1.0254516793E-001 +1.2279288224E+001  +4.7823091240E-001 -1.0094948619E+000 
9895469.337 +4.6801302265E-001 +7.4744644950E+000  +1.0603108050E-001 -4.1161777627E+000  +1.0573526871E-001 +1.1736776175E+001  +4.3331621484E-001 -2.6103931433E+000 
10020614.518 +4.1864090537E-001 +8.5105015039E+000  +1.0899051500E-001 -3.1365082135E+000  +1.0565691829E-001 +1.0605054251E+001  +4.8066799373E-001 -5.4731708654E+000 
10145759.700 +5.0858359498E-001 +2.0552259077E+000  +1.0800263292E-001 -2.7136242906E+000  +1.0754154931E-001 +1.3097915414E+001  +4.8912574179E-001 -5.3927210813E+000 
10270904.881 +4.6504000878E-001 +4.8828091651E+000  +1.0791050799E-001 -3.8026117204E+000  +1.0305673720E-001 +1.3980165274E+001  +4.8229104807E-001 -2.0530568905E+000 
10396050.063 +4.5182365215E-001 +8.5285623998E+000  +1.0769905578E-001 -2.4226083263E+000  +1.0634224558E-001 +1.2229660951E+001  +4.7344909662E-001 -3.6753478584E+000 
10521195.244 +4.5972056412E-001 +1.3088334395E+001  +1.0473012364E-001 -3.2361331810E+000  +1.0680720069E-001 +1.4138871264E+001  +4.4695058308E-001 -1.7760930960E+000 
10646340.426 +4.4646535972E-001 +1.1794634837E+001  +1.0777165350E-001 -2.4824236883E+000  +1.0676839022E-001 +1.1685859893E+001  +4.7433968385E-001 +1.5561018356E+000 
10771485.607 +4.7642338163E-001 +5.4498526004E+000  +1.1160896802E-001 -1.5614082687E+000  +1.0760565705E-001 +1.3701231187E+001  +4.9177795337E-001 +2.6159429971E+000 
10896630.788 +4.6048675034E-001 +1.0285910677E+001  +1.0697315590E-001 -1.7357484654E+000  +1.0757302122E-001 +1.2491166184E+001  +4.9481457649E-001 +4.9797575270E+000 
11021775.970 +5.0495731857E-001 +8.2181648138E+000  +1.1001465176E-001 -5.4687644258E-001  +1.0893895112E-001 +1.3041714166E+001  +5.0932902405E-001 +5.1303426358E+000 
11146921.151 +4.9340762147E-001 +5.9315045507E+000  +1.1259608124E-001 -8.9511767673E-001  +1.0816725198E-001 +1.2000104120E+001  +4.8745342372E-001 +2.8719109909E+000 
11272066.333 +5.0136548781E-001 +9.1586910982E+000  +1.1169316230E-001 +2.6010630716E-001  +1.1106382298E-001 +1.2913745794E+001  +5.0719892669E-001 +5.1786127000E+000 
11397211.514 +4.8392255308E-001 +1.0922770894E+001  +1.1274914447E-001 -6.4268463407E-001  +1.1071843327E-001 +1.2073210052E+001  +5.0823145702E-001 +1.9547597890E+000 
11522356.696 +5.0839002919E-001 +9.7854227495E+000  +1.1242637435E-001 -1.6494910248E-001  +1.1497033602E-001 +1.1380233421E+001  +5.2841993132E-001 +9.9594827230E-001 
11647501.877 +5.0083108026E-001 +8.3112403194E+000  +1.1405862222E-001 -1.1349141067E+000  +1.1551235215E-001 +1.2369760215E+001  +5.2920478833E-001 +3.1411053972E+000 
11772647.059 +5.1749268590E-001 +9.0747690632E+000  +1.1728316133E-001 +6.2730049575E-001  +1.1342471368E-001 +1.0956418708E+001  +5.3118729420E-001 +7.9412141468E-001 
11897792.240 +5.5545088587E-001 +8.4718848313E+000  +1.1808528282E-001 +1.0685869132E+000  +1.1713847061E-001 +1.1171317542E+001  +5.3812719530E-001 +4.0297992558E+000 
12022937.422 +5.6229227620E-001 +6.8720330167E+000  +1.1934145077E-001 +2.3085772857E+000  +1.1669945635E-001 +1.0844860380E+001  +5.6120965548E-001 +3.7607056698E+000 
12148082.603 +5.6713620910E-001 +7.6465195319E+000  +1.1915328371E-001 +6.1424968635E-001  +1.1896565107E-001 +1.0990388592E+001  +5.7550286689E-001 +5.3308320113E-001 
12273227.785 +5.9914161242E-001 +6.5072466653E+000  +1.2183170683E-001 +1.2344128829E+000  +1.2123003221E-001 +1.0872661806E+001  +6.0941641314E-001 +2.0081253937E-001 
12398372.966 +6.1000486708E-001 +4.7024464986E+000  +1.2401689720E-001 +2.5317249723E+000  +1.2084610281E-001 +9.6166014747E+000  +5.9503468409E-001 +6.3723551119E-001 
12523518.148 +5.8896696628E-001 +2.7000755449E+000  +1.2603062852E-001 +1.8192873546E+000  +1.2237884906E-001 +9.2809601668E+000  +6.0394198923E-001 -4.2075105092E-001 
12648663.329 +6.1183940563E-001 +4.3285193740E+000  +1.2790502955E-001 +1.6101594499E+000  +1.2239209933E-001 +9.1290137508E+000  +6.2864162122E-001 -1.1347139335E+000 
12773808.511 +6.3231358609E-001 +2.5326864967E+000  +1.2824240606E-001 +2.8667431592E+000  +1.2634809048E-001 +8.8814222315E+000  +6.5919049846E-001 +8.9005325468E-001 
12898953.692 +6.2498169416E-001 +5.3778629757E-001  +1.3020164257E-001 +1.9006890124E+000  +1.2664118424E-001 +7.8980548595E+000  +6.7920404614E-001 -1.2470410873E-001 
13024098.874 +6.4820217543E-001 +1.9153506171E+000  +1.2987672245E-001 +2.2032464584E+000  +1.2882518052E-001 +7.3840892646E+000  +6.7491072674E-001 -7.1879780617E-001 
13149244.055 +6.7856134696E-001 +1.5372494865E+000  +1.2984988708E-001 +2.5131610349E+000  +1.3079339653E-001 +7.2405040626E+000  +6.8012862270E-001 -1.1253315483E+000 
13274389.237 +6.9639256247E-001 +5.1142806173E-001  +1.3276939949E-001 +3.5253591826E+000  +1.3085708031E-001 +7.2069678538E+000  +6.9552740953E-001 -9.9465976979E-002 
13399534.418 +6.7546301648E-001 -2.4449162348E+000  +1.3427443618E-001 +2.5595521365E+000  +1.3195051948E-001 +5.2993315245E+000  +6.8938353938E-001 -2.3240648231E+000 
13524679.599 +7.2191457941E-001 -1.8738527287E+000  +1.3582727361E-001 +2.5009174790E+000  +1.3630818489E-001 +5.8681389327E+000  +7.3034421132E-001 -3.5286068504E+000 
13649824.781 +7.0393506871E-001 -2.9537967240E+000  +1.3651118020E-001 +2.5323217041E+000  +1.3438426601E-001 +4.1276710098E+000  +7.4501318835E-001 -3.2127774972E+000 
13774969.962 +7.3966061086E-001 -2.2517166056E+000  +1.3667907988E-001 +2.6676223167E+000  +1.3620786206E-001 +4.8290498785E+000  +7.7165066008E-001 -2.6919981405E+000 
13900115.144 +7.6902021593E-001 -3.6476425184E+000  +1.3789009657E-001 +2.8256323917E+000  +1.3481688293E-001 +3.8793298095E+000  +7.9639039929E-001 -3.1648902293E+000 
14025260.325 +7.7144347010E-001 -3.9430522899E+000  +1.3767311121E-001 +1.5056969239E+000  +1.3648861361E-001 +3.4081479629E+000  +7.9140448402E-001 -3.5002571754E+000 
14150405.507 +7.9694291656E-001 -3.5456658037E+000  +1.3990724788E-001 +1.8282513639E+000  +1.3609995181E-001 +2.7412099136E+000  +8.1961797075E-001 -3.9544772526E+000 
14275550.688 +8.0140513334E-001 -4.6463100088E+000  +1.4114978552E-001 +1.9440023611E+000  +1.3863116387E-001 +2.0155663950E+000  +8.3513722848E-001 -5.5182104736E+000 
14400695.870 +8.5666987570E-001 -5.7167750297E+000  +1.4035623974E-001 +1.9364013355E+000  +1.3990300003E-001 +2.1028079385E+000  +8.3692010198E-001 -6.5443138702E+000 
