!  2-Port S-parameters saved by WinCal
! VAR MeasName=S-Parameters (CALIBRATED_DATA) read from VNA (P5004A)
! VAR MeasDate=29/08/2024 10:26:05
! VAR NAME=S2_r9c2_pristine_9k-100M_1
! VAR FILENAME=S2_r9c2_pristine_9k-100M_1.S2P
! VAR DATE=29/08/2024 10:26:05
! VAR PHYS_PORTS=1,2
! VAR ObjTypeName=DATASET
! VAR IndexType=Frequency
!
# Hz S MA R 50
9000.000 +9.5819308212E-002 -1.7065446261E+002  +5.2082938626E-003 +4.4485922906E+000  +7.8536316122E-004 +1.6499703466E+002  +2.1742860867E-001 -1.4220038748E+002 
134145.181 +1.1205536229E-001 +1.6971078505E+002  +1.0972647633E-004 +1.3017696022E+002  +3.7375067116E-004 +1.3777147153E+002  +2.3992645159E-001 -1.7145481237E+002 
259290.363 +1.1249645723E-001 +1.6969824331E+002  +5.7855296486E-004 -5.4338868402E+001  +7.8013247509E-004 +1.4434967447E+002  +2.4503416026E-001 -1.6926543881E+002 
384435.544 +1.1474950986E-001 +1.6959357533E+002  +5.6375713861E-004 -3.4790338104E+001  +3.4633661951E-004 -1.3294193078E+002  +2.3874620696E-001 -1.6975975142E+002 
509580.726 +1.1615560080E-001 +1.7007683123E+002  +1.6857565634E-003 +9.3984563107E+000  +1.5930386907E-003 +6.4592525550E+001  +2.4767693502E-001 -1.6519331157E+002 
634725.907 +1.1854903619E-001 +1.7102453033E+002  +8.1015465514E-004 -6.6452164642E+001  +8.3962956214E-004 +5.4180948086E+001  +2.5363765506E-001 -1.6566365442E+002 
759871.089 +1.1916742506E-001 +1.7094393992E+002  +8.9232096499E-004 -3.8662366612E+001  +1.6632171427E-003 +1.3280973001E+002  +2.4516380237E-001 -1.6670694598E+002 
885016.270 +1.2054445225E-001 +1.6956740702E+002  +1.0433977050E-003 -1.8174186110E+001  +5.3339831120E-004 +1.7171085497E+002  +2.4275828196E-001 -1.6693265755E+002 
1010161.452 +1.1935081751E-001 +1.6930585743E+002  +2.7252701527E-003 +1.9272172082E+001  +2.0260775301E-003 -1.5257486097E+002  +2.1956287322E-001 -1.6786782846E+002 
1135306.633 +1.1741121979E-001 +1.6948985319E+002  +5.2916322156E-003 +3.3854704190E+001  +4.3039432553E-003 -1.0043348520E+002  +1.8587128512E-001 -1.6655149236E+002 
1260451.815 +1.2088034590E-001 +1.7076740035E+002  +4.3537058211E-003 +1.0347601090E+001  +4.8132145077E-003 -1.5685214484E+002  +2.2695733977E-001 -1.6196421471E+002 
1385596.996 +1.2749062413E-001 +1.7208178437E+002  +3.3020227468E-003 -5.4983573689E+001  +3.4253067027E-003 +1.4702023241E+002  +2.6837205129E-001 -1.5789262265E+002 
1510742.178 +1.2926852737E-001 +1.7126293103E+002  +3.2889267721E-003 -7.8828708448E+000  +3.9125419550E-003 -1.5596690189E+002  +2.5961373648E-001 -1.5902462851E+002 
1635887.359 +1.3221733238E-001 +1.7166198478E+002  +3.8078544274E-003 +4.3235404029E+000  +3.7255684849E-003 -1.6197041080E+002  +2.5108579688E-001 -1.5822900814E+002 
1761032.541 +1.2769359270E-001 +1.6965861830E+002  +5.9307088197E-003 +4.3077378614E+001  +5.2986360809E-003 -8.9079845483E+001  +2.4321806730E-001 -1.6049222426E+002 
1886177.722 +1.3283771036E-001 +1.7081645859E+002  +6.0971496627E-003 +4.9867261456E+001  +6.8185440883E-003 -8.0615418240E+001  +2.3756525388E-001 -1.6168230023E+002 
2011322.904 +1.3507618126E-001 +1.6917222732E+002  +1.0884375831E-002 +9.0495798487E+001  +1.0752652418E-002 -4.5850152776E+001  +2.1686681853E-001 -1.6719459307E+002 
2136468.085 +1.3593718111E-001 +1.6981214342E+002  +1.4162931411E-002 +8.0213913491E+001  +1.3068244641E-002 -4.5323730528E+001  +2.1968205631E-001 -1.6741033066E+002 
2261613.267 +1.3776013096E-001 +1.6794847820E+002  +1.8501910510E-002 +7.7940506179E+001  +1.6344642919E-002 -4.6083089535E+001  +2.1573074892E-001 -1.6410266716E+002 
2386758.448 +1.3804951424E-001 +1.6818164902E+002  +2.1058155604E-002 +7.8572194793E+001  +2.0330826932E-002 -3.7010354217E+001  +2.1628031153E-001 -1.6556718248E+002 
2511903.630 +1.2591481224E-001 +1.6638476954E+002  +5.3633836327E-002 +5.9267626194E+001  +5.8520152377E-002 -5.9071347694E+001  +1.4738825963E-001 -1.3821476036E+002 
2637048.811 +1.1823118236E-001 +1.6318344712E+002  +9.9913710050E-002 +6.6830510404E+001  +9.9103158963E-002 -4.5109666336E+001  +3.0179991335E-002 -5.2711576153E+001 
2762193.992 +1.2570264325E-001 +1.7315171070E+002  +6.2354714246E-002 +3.4586937593E+001  +6.2080640565E-002 -7.0167910021E+001  +1.7619420819E-001 -1.4013090713E+002 
2887339.174 +1.1632153731E-001 +1.7564221080E+002  +8.6840318930E-002 +3.8487998997E+001  +9.1557261132E-002 -7.2123707304E+001  +1.2852998420E-001 -1.2017561867E+002 
3012484.355 +1.0497651650E-001 -1.6429244163E+002  +1.3630915132E-001 +1.0079811787E+001  +1.4186525203E-001 -8.9905661643E+001  +2.4080845580E-001 -1.0042563085E+002 
3137629.537 +1.5063250642E-001 +1.7597102302E+002  +4.9992804619E-002 +6.4575693179E+000  +4.4555550335E-002 -9.0454000537E+001  +2.5570221107E-001 -1.3678128431E+002 
3262774.718 +1.3096374184E-001 -1.7294281570E+002  +1.1398539353E-001 +8.6675993531E-001  +1.1964261570E-001 -8.9061089749E+001  +2.6872418398E-001 -1.0464841208E+002 
3387919.900 +1.1326260190E-001 +1.7531016932E+002  +1.0457431550E-001 +3.5017272724E+001  +1.0656844789E-001 -5.3318291341E+001  +1.3872259888E-001 -1.3226240173E+002 
3513065.081 +1.2601739909E-001 +1.7277439898E+002  +1.0310547736E-001 +4.5131626308E+001  +9.9700360133E-002 -3.8228972636E+001  +1.1421229526E-001 -1.6019870379E+002 
3638210.263 +1.4449650950E-001 +1.5094657439E+002  +1.1892188576E-001 +8.4910911390E+001  +1.1525094574E-001 +3.6773951629E+000  +1.9345737795E-001 +1.5816453708E+002 
3763355.444 +1.3601849495E-001 +1.4705602894E+002  +1.4724451836E-001 +8.9119664422E+001  +1.4902531315E-001 +1.1788057480E+001  +2.7137662277E-001 +1.4591016367E+002 
3888500.626 +1.3322955072E-001 +1.3883604599E+002  +1.8445093132E-001 +7.8209695650E+001  +1.6949045045E-001 +6.9011881493E+000  +1.9041273601E-001 +1.3654805337E+002 
4013645.807 +1.6148100363E-001 +1.6454116601E+002  +9.9532190079E-002 +5.2715758720E+001  +9.7779635181E-002 -1.8255155488E+001  +1.4672373590E-001 -1.6231383795E+002 
4138790.989 +1.5679088271E-001 +1.5915898868E+002  +1.2064479453E-001 +6.7720730386E+001  +1.1808589322E-001 -3.6312009600E-001  +1.9920732212E-001 +1.6731847961E+002 
4263936.170 +2.0077537809E-001 +1.5516083529E+002  +1.3117123368E-001 +9.3541818989E+001  +1.2551616952E-001 +2.8285472508E+001  +3.0809037287E-001 +1.4708027030E+002 
4389081.352 +1.8986533417E-001 +1.4886023102E+002  +1.7460385220E-001 +9.4328928254E+001  +1.6887274814E-001 +3.0714959032E+001  +3.8427940137E-001 +1.4232100125E+002 
4514226.533 +1.1560155861E-001 +1.4331880481E+002  +2.6432279836E-001 +6.3846316568E+001  +2.5380578539E-001 +6.0222757613E+000  +2.9020776672E-001 +1.0770034433E+002 
4639371.715 +2.2307774198E-001 +1.4504762635E+002  +1.7387963186E-001 +9.1714607359E+001  +1.6717841358E-001 +3.7281590682E+001  +3.2514416539E-001 +1.5302390954E+002 
4764516.896 +1.0626438754E+000 -9.8193381152E+001  +2.0077215480E+000 -4.5722624504E+001  +1.9640401234E+000 -9.7351086197E+001  +3.5580840453E+000 -6.2989348906E+001 
4889662.078 +5.4407469453E-001 +1.4376213854E+002  +6.5997028468E-001 +1.6987274094E+002  +6.4678701508E-001 +1.2094610552E+002  +1.6049260354E+000 +1.7161003407E+002 
5014807.259 +3.2128655788E-001 +1.2482442153E+002  +4.1419877629E-001 +1.0820721859E+002  +3.9480460126E-001 +6.2553208253E+001  +8.0689399280E-001 +1.3243589690E+002 
5139952.441 +3.3081619912E-001 +1.2643752947E+002  +4.4327702829E-001 +1.1534133695E+002  +4.2363813904E-001 +7.3804445061E+001  +1.0507589695E+000 +1.4316963034E+002 
5265097.622 +2.9393604128E-001 +1.4236466820E+002  +2.2731652311E-001 +1.0198894469E+002  +2.1982353073E-001 +6.3812856509E+001  +6.1463335567E-001 +1.5796201015E+002 
5390242.804 +2.8988397121E-001 +1.4280415073E+002  +2.3123393999E-001 +9.8063380210E+001  +2.2629385940E-001 +6.0785361177E+001  +6.6168611337E-001 +1.5938377160E+002 
5515387.985 +2.7758759126E-001 +1.2896297286E+002  +3.5880270636E-001 +9.0002561540E+001  +3.4524604122E-001 +5.5671341918E+001  +7.7628212512E-001 +1.4467124091E+002 
5640533.166 +3.0318486170E-001 +1.2835583069E+002  +4.4018455090E-001 +8.1122391646E+001  +4.3061374430E-001 +5.0360572252E+001  +8.4826580575E-001 +1.2041530865E+002 
5765678.348 +3.8952334049E-001 +1.2889580716E+002  +4.5242434961E-001 +1.0328666804E+002  +4.4415107795E-001 +7.4681202746E+001  +1.1482646467E+000 +1.4438074710E+002 
5890823.529 +3.4080258474E-001 +1.2979774528E+002  +3.8231639325E-001 +7.9594792671E+001  +3.7515322137E-001 +5.3420654056E+001  +7.3782761776E-001 +1.4030074543E+002 
6015968.711 +3.5360333378E-001 +1.2732617161E+002  +4.5411994966E-001 +7.7863697469E+001  +4.4633497857E-001 +5.5101950826E+001  +9.2519859729E-001 +1.3319493202E+002 
6141113.892 +3.1420272306E-001 +1.1579007500E+002  +6.2406314695E-001 +6.6743904393E+001  +6.0161817759E-001 +4.5377389816E+001  +1.1377707270E+000 +1.1402821065E+002 
6266259.074 +3.1366547854E-001 +1.1382030500E+002  +6.5509851161E-001 +5.1920832801E+001  +6.4673745180E-001 +3.3667684135E+001  +9.1524425279E-001 +9.0614986426E+001 
6391404.255 +3.7578747536E-001 +1.1250485342E+002  +6.3056128591E-001 +5.4169678138E+001  +6.1933769690E-001 +3.8438226781E+001  +8.3466642289E-001 +1.0525513898E+002 
6516549.437 +2.5117195828E-001 +9.6982398556E+001  +7.4761137182E-001 +3.6121646748E+001  +7.3515679473E-001 +2.2737841657E+001  +7.6412452657E-001 +8.3790725622E+001 
6641694.618 +3.0009649184E-001 +9.7962215702E+001  +7.8438967644E-001 +3.0169851703E+001  +7.7515310598E-001 +1.9018341502E+001  +7.1127921860E-001 +6.0675548033E+001 
6766839.800 +1.2553048081E-001 +6.3903330898E+001  +8.7328820762E-001 +1.3017509507E+001  +8.6196746567E-001 +3.4453775539E+000  +6.1649282454E-001 +3.3756190163E+001 
6891984.981 +2.3520998492E-001 +7.5415334766E+001  +8.9347200899E-001 +1.5498074212E+001  +8.8422210208E-001 +8.1567709936E+000  +6.4391698800E-001 +3.7158968740E+001 
7017130.163 +5.9508095321E-002 +1.0118523172E+002  +8.4892186942E-001 +6.4433372551E+000  +8.4691260380E-001 +5.8463426489E-001  +4.0124759107E-001 +3.8984427906E+001 
7142275.344 +1.5694685483E-001 +1.3645930745E+001  +9.4657495898E-001 +2.6951529674E+000  +9.4128041725E-001 -9.4762740236E-001  +3.7448365573E-001 -4.2629825749E+000 
7267420.526 +1.1296705113E-001 -4.0024664068E+001  +9.4256524289E-001 +7.3543255206E-001  +9.3912311293E-001 -1.6955234957E+000  +2.5507926146E-001 +8.3173969599E+000 
7392565.707 +7.4557978472E-002 +1.2481443053E+002  +9.0103997812E-001 +1.2562717639E-001  +8.9896771536E-001 +2.1127478214E-001  +1.2864635693E-001 +2.0862037101E+001 
7517710.889 +1.9571776164E-001 +9.1565370530E+001  +8.7308625106E-001 +1.8288539742E-001  +8.7365960870E-001 +2.5123543998E+000  +8.4456115781E-002 +3.0491974342E+001 
7642856.070 +1.7980114413E-001 +1.0428381517E+002  +8.4167350314E-001 -1.2006214777E+000  +8.4206432493E-001 +2.8375056110E+000  +7.3780574960E-002 +3.6950264942E+001 
7768001.252 +1.8649745626E-001 +1.1886154844E+002  +8.2095770277E-001 -2.8650854237E+000  +8.2190470413E-001 +1.8965668445E+000  +3.7018689550E-002 +1.3601517696E+002 
7893146.433 +1.9735241897E-001 +1.2298705089E+002  +7.8283778518E-001 -2.6779070119E+000  +7.8195183380E-001 +3.7221904300E+000  +2.0269161435E-001 +7.3442947121E+001 
8018291.615 +2.3690631745E-001 +1.2775375622E+002  +7.6473921992E-001 -3.4159804393E+000  +7.5459245037E-001 +3.8269609023E+000  +1.7536403679E-001 +6.2920519032E+001 
8143436.796 +2.1070482512E-001 +1.2989122567E+002  +7.4045138806E-001 -5.8117354041E+000  +7.4408099218E-001 +2.9316229618E+000  +2.4677904175E-001 +1.1706193175E+002 
8268581.977 +3.1350402801E-001 +1.2150358812E+002  +7.1739862012E-001 -4.9905516900E+000  +7.1494675014E-001 +5.0245022037E+000  +2.0098978857E-001 +1.0265822631E+002 
8393727.159 +2.7687533467E-001 +1.3072647983E+002  +7.1125714357E-001 -6.4172858890E+000  +7.1203914018E-001 +4.4961971847E+000  +2.1701706579E-001 +1.0980638611E+002 
8518872.340 +2.9497861981E-001 +1.3327715357E+002  +6.9960816043E-001 -7.6246827237E+000  +6.9624567081E-001 +5.0008459760E+000  +2.5068403320E-001 +1.1691131543E+002 
8644017.522 +2.6460118904E-001 +1.3413274238E+002  +6.9446754983E-001 -6.6790927894E+000  +6.8982958719E-001 +5.9944363188E+000  +2.7107831775E-001 +9.1974572367E+001 
8769162.703 +3.0457917112E-001 +1.3397619213E+002  +6.8838927713E-001 -8.3322166725E+000  +6.8148944661E-001 +4.8050140667E+000  +2.3833704001E-001 +1.3161631606E+002 
8894307.885 +2.3942658568E-001 +1.3082511199E+002  +6.8472298936E-001 -8.0094390823E+000  +6.7961990962E-001 +6.1128735809E+000  +3.0023339832E-001 +1.1993492304E+002 
9019453.066 +2.3566933242E-001 +1.3003039553E+002  +6.8534688926E-001 -8.8554339560E+000  +6.8149364636E-001 +6.0600029007E+000  +2.8703173620E-001 +1.2858461399E+002 
9144598.248 +2.7675889112E-001 +1.2546229673E+002  +6.7363669188E-001 -8.3962821487E+000  +6.6313551412E-001 +6.6782191566E+000  +2.7728554597E-001 +1.2486159434E+002 
9269743.429 +2.5806778743E-001 +1.3912732778E+002  +6.7169659235E-001 -9.2049541244E+000  +6.6901621803E-001 +6.1427664364E+000  +2.9795569310E-001 +1.2736967424E+002 
9394888.611 +2.5345472041E-001 +1.3416800623E+002  +6.7727028175E-001 -8.6148523110E+000  +6.7165903441E-001 +6.9648031994E+000  +2.3295278738E-001 +1.2916200709E+002 
9520033.792 +2.3993698286E-001 +1.4154232419E+002  +6.8318329859E-001 -9.0782894129E+000  +6.7805311230E-001 +6.4258091840E+000  +2.1223547027E-001 +1.3455963757E+002 
9645178.974 +2.5753160880E-001 +1.4504313484E+002  +6.8108305215E-001 -1.0224853250E+001  +6.7335778797E-001 +5.7842735608E+000  +2.6411322376E-001 +1.4402960962E+002 
9770324.155 +2.4517159209E-001 +1.4137519297E+002  +6.7953281481E-001 -9.7343251968E+000  +6.7678212223E-001 +6.6532504646E+000  +2.4923123435E-001 +1.4202805558E+002 
9895469.337 +2.4987808537E-001 +1.3994876609E+002  +6.8057895191E-001 -9.0513969778E+000  +6.7990095267E-001 +7.1073413355E+000  +1.9882233306E-001 +1.3630231647E+002 
10020614.518 +2.7839740958E-001 +1.3771575114E+002  +6.7519538580E-001 -9.0291687943E+000  +6.7211738210E-001 +6.8293218293E+000  +2.2890650039E-001 +1.3565720264E+002 
10145759.700 +2.3772247447E-001 +1.3768271392E+002  +6.7935015790E-001 -8.4659049303E+000  +6.7592756037E-001 +7.1909625370E+000  +2.4050419745E-001 +1.2649123425E+002 
10270904.881 +2.2635307530E-001 +1.4395244432E+002  +6.8216285795E-001 -9.1148724570E+000  +6.7775410582E-001 +6.4909004592E+000  +2.8737301814E-001 +1.3416402358E+002 
10396050.063 +2.2049181868E-001 +1.3804423083E+002  +6.8668832244E-001 -8.3464793482E+000  +6.8335647494E-001 +6.9886795013E+000  +2.5816321223E-001 +1.3366100561E+002 
10521195.244 +1.9462900174E-001 +1.4062554932E+002  +6.9122010374E-001 -7.8165107886E+000  +6.8760296788E-001 +7.5158845190E+000  +2.4429340885E-001 +1.2883047579E+002 
10646340.426 +2.4489188460E-001 +1.3489336988E+002  +6.7943048140E-001 -7.7888449332E+000  +6.7822108070E-001 +6.9513556831E+000  +2.7569385303E-001 +1.2285951557E+002 
10771485.607 +2.3851317865E-001 +1.3178130011E+002  +6.8594628000E-001 -7.2925504285E+000  +6.8069138688E-001 +7.4573998962E+000  +2.7040605973E-001 +1.2248381220E+002 
10896630.788 +2.3892502336E-001 +1.3666561254E+002  +6.9389282528E-001 -7.1908209714E+000  +6.8920226892E-001 +7.0458472282E+000  +2.2815144625E-001 +1.2284494484E+002 
11021775.970 +2.2236420187E-001 +1.2762531217E+002  +6.9185105924E-001 -6.3533697515E+000  +6.8896774574E-001 +7.2821845306E+000  +2.6950151155E-001 +1.1913793596E+002 
11146921.151 +2.5618897556E-001 +1.3350602697E+002  +7.0006004414E-001 -6.8624240393E+000  +6.9585419408E-001 +6.6000638941E+000  +2.2410477482E-001 +1.2656968065E+002 
11272066.333 +2.3789637416E-001 +1.2762516075E+002  +7.0679865497E-001 -6.4642210710E+000  +7.0301503701E-001 +6.6954780009E+000  +2.1321599478E-001 +1.2949476024E+002 
11397211.514 +2.0681789767E-001 +1.2871275293E+002  +7.1524585511E-001 -5.9814192907E+000  +7.1206294122E-001 +6.5967842556E+000  +2.1843791748E-001 +1.2836735451E+002 
11522356.696 +2.5417278273E-001 +1.3003846712E+002  +7.1169874230E-001 -6.1402712272E+000  +7.0660917061E-001 +5.8315663325E+000  +2.4426915049E-001 +1.2843447564E+002 
11647501.877 +2.1752586515E-001 +1.2608949081E+002  +7.2145615207E-001 -5.2102451744E+000  +7.1794490498E-001 +6.0028360983E+000  +2.2523379398E-001 +1.2274375254E+002 
11772647.059 +2.0141016655E-001 +1.2921000219E+002  +7.3001975872E-001 -4.9593093171E+000  +7.2360915227E-001 +5.7848066789E+000  +2.3552748474E-001 +1.1965426306E+002 
11897792.240 +1.9612847681E-001 +1.3211227569E+002  +7.4017156019E-001 -4.7230951195E+000  +7.3272328470E-001 +5.4677145389E+000  +2.1156006561E-001 +1.1996019207E+002 
12022937.422 +1.9546933206E-001 +1.2595946891E+002  +7.4050794405E-001 -4.3101847231E+000  +7.3739799101E-001 +5.2932541234E+000  +2.2389878861E-001 +1.2111345546E+002 
12148082.603 +1.9393262517E-001 +1.2918985793E+002  +7.5154636768E-001 -4.4250615162E+000  +7.4734025952E-001 +4.6977432346E+000  +2.0780756403E-001 +1.2745620552E+002 
12273227.785 +1.6609134241E-001 +1.1842646828E+002  +7.6042144648E-001 -3.4915352194E+000  +7.5681017332E-001 +5.0638559633E+000  +1.8506670805E-001 +1.2436948327E+002 
12398372.966 +1.5026894365E-001 +1.2494545160E+002  +7.7052835575E-001 -3.2712939554E+000  +7.6721037720E-001 +4.7105176234E+000  +1.7253070665E-001 +1.1948677169E+002 
12523518.148 +1.6460239586E-001 +1.1976742056E+002  +7.7640729684E-001 -2.9217691763E+000  +7.7031122300E-001 +4.2701756117E+000  +1.7431609019E-001 +1.2190764770E+002 
12648663.329 +1.4570460222E-001 +1.2346501555E+002  +7.8528334156E-001 -2.9512886177E+000  +7.8182894525E-001 +3.7525885607E+000  +1.6965751235E-001 +1.2037575762E+002 
12773808.511 +1.4316402723E-001 +1.2409289333E+002  +7.9494153017E-001 -2.9217368696E+000  +7.8957800374E-001 +3.2716184203E+000  +1.6044758132E-001 +1.2676250513E+002 
12898953.692 +1.2911932138E-001 +1.2742364143E+002  +8.0738453789E-001 -2.4076582025E+000  +8.0272893654E-001 +3.2858594223E+000  +1.3162908382E-001 +1.1994565409E+002 
13024098.874 +1.1222026676E-001 +1.2197143537E+002  +8.1546270513E-001 -2.2108565986E+000  +8.1085692899E-001 +2.7483651938E+000  +1.4627988113E-001 +1.2586778583E+002 
13149244.055 +1.2222342411E-001 +1.1922489080E+002  +8.1896873390E-001 -1.8432216797E+000  +8.1234198578E-001 +2.6442945642E+000  +1.3279000619E-001 +1.1206524297E+002 
13274389.237 +1.0203806004E-001 +1.2827249722E+002  +8.3536807523E-001 -1.8005214119E+000  +8.2755669697E-001 +2.1912445856E+000  +1.1099243633E-001 +1.1388863137E+002 
13399534.418 +1.0124191550E-001 +1.1372671908E+002  +8.5101881360E-001 -2.2746871970E+000  +8.3531196024E-001 +1.8631922430E+000  +1.0280990318E-001 +1.1863271424E+002 
13524679.599 +7.4193028603E-002 +1.0883740419E+002  +8.5971787888E-001 -1.3059454716E+000  +8.4846827546E-001 +1.8611665947E+000  +8.3623687136E-002 +1.1860549046E+002 
13649824.781 +6.6156131697E-002 +1.1484477305E+002  +8.6514862891E-001 -9.9722480930E-001  +8.5500872622E-001 +1.4835099278E+000  +8.8102044095E-002 +1.0030078805E+002 
13774969.962 +6.1027107580E-002 +1.0355729123E+002  +8.6508809209E-001 -1.3749366646E+000  +8.6540356795E-001 +1.2333264307E+000  +6.1608264409E-002 +1.1139588340E+002 
13900115.144 +5.4577617311E-002 +9.8601077201E+001  +8.8228826560E-001 -1.4769648622E+000  +8.6999450327E-001 +5.7916645908E-001  +5.0740701189E-002 +1.0171847668E+002 
14025260.325 +5.9605077520E-002 +8.6624955867E+001  +8.9049757195E-001 -1.4388896725E-001  +8.7441698025E-001 +4.3177141424E-001  +5.4647501858E-002 +8.8380709935E+001 
14150405.507 +4.5064876374E-002 +7.2184336415E+001  +8.8677716680E-001 -1.2110117158E+000  +8.9173550505E-001 +7.7005192447E-001  +3.2575021815E-002 +6.1031552501E+001 
14275550.688 +3.1709177167E-002 +6.3652296011E+001  +9.0319845875E-001 -6.2745500311E-001  +9.0674414814E-001 +5.7137533602E-001  +2.9259112216E-002 +7.6487149382E+001 
14400695.870 +3.1561806067E-002 +4.6717320162E+001  +9.1736645692E-001 +3.6940511242E-002  +9.1456757801E-001 +3.5876615574E-001  +1.6838821675E-002 +1.7467219931E+001 
