!  2-Port S-parameters saved by WinCal
! VAR MeasName=S-Parameters (CALIBRATED_DATA) read from VNA (P5004A)
! VAR MeasDate=29/08/2024 13:44:08
! VAR NAME=S2_r9c6_RESET2_9k-100M_3
! VAR FILENAME=S2_r9c6_RESET2_9k-100M_3.S2P
! VAR DATE=29/08/2024 13:44:08
! VAR PHYS_PORTS=1,2
! VAR ObjTypeName=DATASET
! VAR IndexType=Frequency
!
# Hz S MA R 50
9000.000 +8.0110075605E-002 -1.7534568823E+002  +8.0285354671E-003 -1.3853232400E+002  +6.0727267936E-003 +1.6584736355E+002  +2.3108871521E-001 -1.4170058811E+002 
134145.181 +1.1121898762E-001 +1.6965235108E+002  +5.0425230881E-004 +1.5872997897E+002  +6.2461193896E-004 +7.1919189482E+001  +2.4114959853E-001 -1.7213193730E+002 
259290.363 +1.1239339389E-001 +1.6913980579E+002  +1.0339124122E-003 -6.7561344185E+001  +8.0158366516E-004 +5.6493275552E+001  +2.4061214983E-001 -1.6964017243E+002 
384435.544 +1.1115921971E-001 +1.7073854614E+002  +8.1257601654E-004 -1.1422482781E+002  +1.1014844272E-003 +7.3203856241E+001  +2.4235378240E-001 -1.6944275243E+002 
509580.726 +1.1459409538E-001 +1.6979718702E+002  +1.5762490176E-003 -1.0169159572E+002  +1.7495786550E-003 +3.7919199440E+001  +2.5494220558E-001 -1.6257077268E+002 
634725.907 +1.1606758788E-001 +1.7231532489E+002  +1.1155169694E-003 -1.1327845317E+002  +2.0576221791E-003 +5.3249431747E+001  +2.3500848045E-001 -1.6292374969E+002 
759871.089 +1.2146700139E-001 +1.7139027661E+002  +5.6912449794E-004 -8.7620390230E+001  +7.3480462293E-004 +9.5933219618E+001  +2.4934094652E-001 -1.6784536907E+002 
885016.270 +1.2140703232E-001 +1.6905828373E+002  +2.3743763383E-005 -5.9013707715E+001  +1.8229159895E-004 -7.9059044231E+001  +2.5077222105E-001 -1.6858895209E+002 
1010161.452 +1.1727863811E-001 +1.6987531171E+002  +1.3749143833E-003 -8.7183602474E+001  +2.9990229980E-004 +3.0716998967E+001  +2.1016442266E-001 -1.6750219590E+002 
1135306.633 +1.1791654650E-001 +1.6884486030E+002  +1.5089817848E-003 -2.6400019381E+001  +2.7672790145E-003 +1.7439887696E+002  +2.0547347818E-001 -1.6760678192E+002 
1260451.815 +1.2151825348E-001 +1.7048219357E+002  +1.8139193726E-003 -1.6579419923E+002  +1.6580114543E-003 +1.3928672938E+002  +2.2877463577E-001 -1.5420713190E+002 
1385596.996 +1.2324224756E-001 +1.7114430391E+002  +2.2354667622E-004 +7.5667511269E+001  +2.3242804074E-003 +1.7298509863E+002  +2.7673850367E-001 -1.5657501551E+002 
1510742.178 +1.2886585605E-001 +1.7138075153E+002  +4.2140939567E-004 -9.7948484077E+001  +1.0326764661E-003 +1.6659519673E+002  +2.6993309219E-001 -1.5961756991E+002 
1635887.359 +1.2922613680E-001 +1.7071345476E+002  +6.4404385145E-004 +2.4677060606E+001  +8.6266644966E-004 -1.4382320021E+002  +2.5447603691E-001 -1.5482964852E+002 
1761032.541 +1.3207587394E-001 +1.6981175231E+002  +9.7109981785E-004 +5.0376408160E+001  +8.5915935116E-004 -1.0490574979E+002  +2.2090054465E-001 -1.6243590164E+002 
1886177.722 +1.2766087794E-001 +1.6993612158E+002  +8.8568687638E-004 -2.0063072297E+001  +3.2190277103E-003 -8.5766312563E+001  +2.0551008402E-001 -1.6391407167E+002 
2011322.904 +1.3008157911E-001 +1.6914928300E+002  +1.5670219773E-003 +6.3829887201E+001  +6.3218025763E-003 -7.7818415639E+001  +1.8436945348E-001 -1.5894636416E+002 
2136468.085 +1.2494727109E-001 +1.6462799734E+002  +7.0685831009E-003 +1.0114632082E+002  +1.0421392208E-002 -6.0060686433E+001  +1.5945988606E-001 -1.6285135344E+002 
2261613.267 +1.2764319833E-001 +1.6644923436E+002  +3.6671981767E-003 +6.6762863436E+001  +4.8587299511E-003 -8.8329561779E+001  +2.0051770688E-001 -1.6813638940E+002 
2386758.448 +1.3440709169E-001 +1.6585060547E+002  +1.0666998826E-002 +7.5786874190E+001  +8.3310887735E-003 -7.8576095076E+001  +9.3963800737E-002 -1.7393583686E+002 
2511903.630 +1.3444655100E-001 +1.6264200754E+002  +1.0234234006E-002 +9.9923099764E+001  +8.0841806160E-003 -2.6774297127E+001  +2.2841808426E-001 +1.7278869504E+002 
2637048.811 +1.3322874361E-001 +1.6278282115E+002  +2.0913793190E-002 +7.1833652780E+001  +1.6822833426E-002 -4.2707377807E+001  +1.2473750071E-001 +1.1629716841E+002 
2762193.992 +1.1067326312E-001 +1.6456784859E+002  +7.0604686855E-002 +9.1934459610E+000  +5.6566260772E-002 -8.8631977854E+001  +2.4265341180E-001 -2.6791963885E+001 
2887339.174 +9.4378995827E-002 +1.7159939794E+002  +5.5018123916E-002 -7.5595762228E+001  +5.8215406571E-002 -1.5395473209E+002  +5.8726041397E-001 -1.1043068615E+002 
3012484.355 +1.2497261464E-001 +1.7191334887E+002  +2.8231048900E-002 -2.3210817027E+001  +3.7556400221E-002 -1.1607118435E+002  +1.2531764489E-001 -7.6247083804E+001 
3137629.537 +1.2425636172E-001 +1.6873613408E+002  +3.8791388189E-002 +2.7091273984E+001  +3.0897633900E-002 -9.9350816355E+001  +1.0309603241E-001 +5.6907848735E+001 
3262774.718 +1.2869671456E-001 +1.7461606971E+002  +4.6331201219E-002 -1.9072811807E+001  +4.5470215303E-002 -1.4813323904E+002  +3.9980724877E-001 -6.0931656763E+001 
3387919.900 +1.4600678867E-001 +1.6163589867E+002  +2.2381234863E-002 +4.4242046777E+001  +2.3120718691E-002 -3.3897705821E+001  +1.2316630849E-001 +1.0378524304E+002 
3513065.081 +1.4219115281E-001 +1.4744322956E+002  +3.4843748236E-002 +1.1872715818E+002  +3.0871097304E-002 -1.4796214565E+000  +4.5040687159E-001 +1.4183201509E+002 
3638210.263 +1.5795351409E-001 +1.3175779233E+002  +7.5916920397E-002 +1.2429826502E+002  +5.4193704902E-002 +6.3167463719E+001  +6.4097099909E-001 +1.4320785391E+002 
3763355.444 +1.7444725800E-001 +1.4771529703E+002  +4.7182268614E-002 +8.3510926259E+001  +3.4394876652E-002 +6.2146003531E+000  +3.6728124596E-001 +1.1376113227E+002 
3888500.626 +1.9568462472E-001 +1.5058411827E+002  +3.4099450812E-002 +1.3969259908E+002  +2.3267155522E-002 +5.7019416976E+001  +5.9771480040E-001 +1.5501371623E+002 
4013645.807 +1.7442134019E-001 +1.5441272126E+002  +2.9102529175E-002 +6.3413333962E+001  +3.2544410998E-002 -2.8600595477E+000  +2.3929455227E-001 +1.1522586064E+002 
4138790.989 +1.7939051297E-001 +1.4843325415E+002  +3.4812800272E-002 +8.8445339953E+001  +3.0890006083E-002 +2.5421557447E+001  +3.8141967661E-001 +1.4132263474E+002 
4263936.170 +2.1061083695E-001 +1.5102526837E+002  +6.2892354317E-002 +9.3681661348E+001  +5.1638784811E-002 +3.0802751487E+001  +7.5464953387E-001 +9.8902809948E+001 
4389081.352 +2.2077299083E-001 +1.3809951168E+002  +4.4792154730E-002 +1.1862559158E+002  +3.7817760938E-002 +7.0979160246E+001  +7.0441081851E-001 +1.5014753231E+002 
4514226.533 +2.2602257827E-001 +1.4710970546E+002  +9.0079760758E-002 +8.7461559353E+001  +5.4178401400E-002 +3.4790746122E+001  +9.8625603152E-001 +9.3189087042E+001 
4639371.715 +2.3460477503E-001 +1.2644040182E+002  +1.5670099545E-001 +1.1442226487E+002  +1.6092924052E-001 +7.1330020021E+001  +1.8074206279E+000 +1.1290814173E+002 
4764516.896 +3.6996080485E-001 +1.3121528539E+002  +2.2431671919E-001 +1.2399736127E+002  +2.5158539864E-001 +7.8158724705E+001  +2.0974840602E+000 +9.2676180581E+001 
4889662.078 +4.0580014777E-001 +1.3048697406E+002  +3.6735512259E-001 -9.0351138005E+001  +3.3647605278E-001 -1.5053331950E+002  +3.3962592464E+000 -1.5116947933E+002 
5014807.259 +3.4693742445E-001 +1.3681923699E+002  +1.2519035839E-001 +7.6305846561E+001  +1.0379706258E-001 +3.7221365142E+001  +1.0194542341E+000 +3.3734819579E+001 
5139952.441 +3.8247962178E-001 +1.3742129865E+002  +2.1807429355E-001 +1.2442217889E+002  +1.6955800685E-001 +7.4902172101E+001  +2.7566406319E+000 +9.3732783625E+001 
5265097.622 +3.7933202772E-001 +1.3411916868E+002  +1.2415395490E-001 +1.4618068289E+002  +1.3629669468E-001 +9.8332815105E+001  +1.7333497970E+000 +1.2949338893E+002 
5390242.804 +4.0494991569E-001 +1.3179521585E+002  +1.6851360000E-001 +9.8903513887E+001  +1.7064686626E-001 +6.9370621367E+001  +1.6669132213E+000 +8.2539646398E+001 
5515387.985 +3.9585709384E-001 +1.3862883688E+002  +1.4382640567E-001 +7.9561560279E+001  +1.4748815513E-001 +4.1629535093E+001  +1.9257228339E+000 +5.8552651721E+001 
5640533.166 +4.4408365937E-001 +1.1669554695E+002  +1.2636433514E-001 +1.0594463674E+002  +1.5393484285E-001 +6.1986911347E+001  +1.2600478129E+000 +1.0352825096E+002 
5765678.348 +4.6331509120E-001 +1.1989493527E+002  +1.9093695566E-001 +8.8663824683E+001  +1.6924935005E-001 +5.0284970775E+001  +2.0038320620E+000 +7.5748602880E+001 
5890823.529 +5.2161329030E-001 +1.2136061780E+002  +2.1065425795E-001 +8.4310428081E+001  +1.9540604156E-001 +6.0377538367E+001  +2.5006539092E+000 +6.8246307487E+001 
6015968.711 +5.6937128661E-001 +1.1792054447E+002  +2.0515953915E-001 +6.4540188734E+001  +1.7900112395E-001 +4.7426198919E+001  +1.9754630351E+000 +5.1832130844E+001 
6141113.892 +6.9691557551E-001 +1.0299889272E+002  +2.3035969137E-001 +5.5757900559E+001  +2.1545018400E-001 +3.9460880782E+001  +1.8226726366E+000 +4.6687231287E+001 
6266259.074 +7.9440973684E-001 +1.0597593703E+002  +2.2153748389E-001 +5.1518165360E+001  +2.3150308138E-001 +3.9749213236E+001  +2.0874629981E+000 +3.1559366848E+001 
6391404.255 +6.9222532635E-001 +9.2899798119E+001  +1.6582379628E-001 +2.6054253789E+001  +1.7152842907E-001 +1.2672240996E+001  +1.2688401034E+000 +9.5012685351E+000 
6516549.437 +9.5640046556E-001 +9.1211893094E+001  +1.9388704121E-001 +3.6709667011E+001  +1.7958716123E-001 +2.0643895180E+001  +1.4288240467E+000 -4.2871197697E+000 
6641694.618 +1.5454408010E+000 +6.6201117703E+001  +2.5836247864E-001 +2.9571090312E+001  +2.5792257438E-001 +2.1284556619E+001  +1.2118364339E+000 +1.2851175681E+001 
6766839.800 +1.7426387027E+000 +5.8691531761E+001  +2.7441063177E-001 +3.0699215588E+001  +2.3264154547E-001 +1.9167449693E+001  +1.0523108052E+000 +8.6191493210E+000 
6891984.981 +1.8959825453E+000 -2.9198103113E+000  +2.8031919213E-001 -1.7598629494E+001  +2.7987314951E-001 -1.8962002691E+001  +1.1176226064E+000 -1.1759239550E+001 
7017130.163 +1.4027282547E+000 +1.8836690815E+001  +1.8656642723E-001 +2.5912345878E+000  +1.9349807739E-001 -4.2348869375E+000  +1.1165851798E+000 -9.6589089846E+000 
7142275.344 +1.4250143210E+000 +7.3669004812E+000  +1.7170873403E-001 -1.3234840591E+000  +1.7394837550E-001 -3.6948161003E+000  +1.3550018835E+000 -7.4961748588E+000 
7267420.526 +1.2126769662E+000 +3.4619992084E-001  +1.3651584591E-001 -1.0859007238E+000  +1.3992535136E-001 -5.1877952866E+000  +1.1364382815E+000 -1.5620794274E+001 
7392565.707 +1.0596639095E+000 -5.6181355702E+000  +1.1665613764E-001 +3.2162356710E+000  +1.2675976448E-001 +1.6752211076E+000  +1.2168229112E+000 -1.2902427278E+001 
7517710.889 +1.1701861434E+000 +2.8714507319E+000  +1.2018784365E-001 +5.9139656668E+000  +1.1136772088E-001 +7.3255811190E+000  +1.1287705240E+000 -2.3902538966E+000 
7642856.070 +8.5572164221E-001 -2.1233758700E+000  +1.0233193976E-001 +4.9989730147E+000  +9.6934410578E-002 +9.7576193178E+000  +1.1071143309E+000 -4.9147379193E+000 
7768001.252 +7.6096738494E-001 +4.7323674239E+000  +9.9833131409E-002 -6.6003565457E-001  +9.4228381158E-002 +9.5309013480E+000  +8.8123829625E-001 -5.2021463900E+000 
7893146.433 +7.5523543460E-001 +9.5001186323E+000  +9.5131586377E-002 +1.1711720429E+000  +1.0145023855E-001 +5.0223486270E+000  +8.2027089455E-001 -5.6742631039E+000 
8018291.615 +6.7057668881E-001 +6.2073472000E+000  +9.4344102498E-002 +1.6066482392E+000  +9.1921264310E-002 +6.3623596609E+000  +7.3557011234E-001 +3.9568411554E+000 
8143436.796 +6.7467547138E-001 +2.6301553449E+000  +8.9781852283E-002 +1.7699478892E+000  +8.7531133008E-002 +8.1827694910E+000  +7.4490584736E-001 -2.1283270294E+000 
8268581.977 +6.0019124533E-001 +9.3577876251E+000  +8.2314233952E-002 -1.6588920032E-002  +7.7691601387E-002 +5.8992179465E+000  +6.6146155082E-001 +3.1920099969E+000 
8393727.159 +6.3333561179E-001 +1.3703880221E+001  +8.6032567944E-002 -2.0158080568E+000  +8.2542346413E-002 +7.5453044567E+000  +6.2327060241E-001 -3.5922815492E-001 
8518872.340 +5.6174964085E-001 +4.7598505274E+000  +8.9491830737E-002 -2.7124318707E+000  +8.4087614725E-002 +7.0323391229E+000  +6.2178377755E-001 +5.5886149710E+000 
8644017.522 +5.2932513784E-001 +1.0244848583E+001  +8.1774618285E-002 -4.5068712794E+000  +7.9296354548E-002 +1.0706752249E+001  +6.5319168822E-001 +5.1822741139E+000 
8769162.703 +5.0485880871E-001 +7.5727829567E+000  +8.5030711059E-002 -4.6885034769E+000  +8.8330571567E-002 +9.2806671008E+000  +5.7224891443E-001 -7.9045461682E-001 
8894307.885 +5.3515340002E-001 +1.0198064000E+001  +7.9198537910E-002 -8.3552858341E+000  +8.2231165057E-002 +1.2342376229E+001  +5.1775416105E-001 +4.9085569229E+000 
9019453.066 +4.8142502618E-001 +1.2772216155E+001  +7.9368494491E-002 -5.7369047054E+000  +8.0864291339E-002 +1.1709104399E+001  +5.9865173052E-001 +2.3664375268E+000 
9144598.248 +5.4249894972E-001 +1.0959333619E+001  +7.7073795919E-002 -5.4458164831E+000  +8.0149451426E-002 +1.1540210007E+001  +5.3156833411E-001 -1.6646555205E+000 
9269743.429 +4.7908328919E-001 +6.3891084247E+000  +8.1879706494E-002 -3.6947795342E+000  +7.8433054679E-002 +1.1213786296E+001  +5.3145713450E-001 +6.3688290192E+000 
9394888.611 +5.3285518697E-001 +3.1840322484E+000  +8.2186583474E-002 -6.0505274953E+000  +7.8627505302E-002 +1.1411222845E+001  +4.9260664842E-001 +1.3056168405E+000 
9520033.792 +4.7103180276E-001 +4.0677606486E+000  +8.1832477808E-002 -5.5062009022E+000  +8.0366483238E-002 +1.1139443243E+001  +5.6479664693E-001 -2.1459305812E+000 
9645178.974 +4.9485512341E-001 +2.2848046331E+000  +8.3725799551E-002 -3.1041873394E+000  +8.1815232464E-002 +1.3247126788E+001  +5.0461613829E-001 -5.5555670861E+000 
9770324.155 +4.4494916106E-001 +2.4528170426E-002  +8.1536613412E-002 -4.9494097778E+000  +8.2511645368E-002 +1.0455807689E+001  +5.0682033161E-001 -2.2991755586E+000 
9895469.337 +4.8353918753E-001 +2.3753171118E+000  +8.3184572755E-002 -4.1057452125E+000  +8.0583494066E-002 +1.1559723734E+001  +5.0975731772E-001 -1.5333723608E-001 
10020614.518 +4.9712513659E-001 +7.1614990056E+000  +8.5263803474E-002 -8.5157900329E-001  +7.8721033840E-002 +1.3723247823E+001  +4.9764756034E-001 -6.2318917472E+000 
10145759.700 +4.4945589161E-001 +6.5533704862E+000  +8.3908844878E-002 -2.3305706763E+000  +8.2469348612E-002 +1.1604816276E+001  +5.3623524699E-001 -4.3627818212E+000 
10270904.881 +4.6425117783E-001 +3.3832244449E+000  +8.3085160434E-002 -1.9735119116E+000  +8.2883989009E-002 +1.1299959204E+001  +5.0860276928E-001 -2.0436757725E+000 
10396050.063 +4.6191662634E-001 +7.9480751999E+000  +8.3381818008E-002 -1.0843530745E+000  +8.1547936682E-002 +1.4421746288E+001  +5.1420546598E-001 +1.8082902839E+000 
10521195.244 +5.2572787084E-001 +6.9196535639E+000  +8.4184304418E-002 -2.0642104792E+000  +8.3307192681E-002 +1.4989295071E+001  +5.0056053126E-001 -2.6548647531E-001 
10646340.426 +5.0787933790E-001 +9.7531522606E+000  +8.3880055424E-002 -1.6449478461E+000  +8.2453511283E-002 +1.2874327911E+001  +5.6015482190E-001 -2.3702520446E+000 
10771485.607 +5.0458850027E-001 +9.9004100470E+000  +8.4151467202E-002 -1.9444828894E+000  +8.1744635905E-002 +1.3162399495E+001  +5.2333838464E-001 +1.5497981828E-001 
10896630.788 +4.9052125511E-001 +9.6236753694E+000  +8.4960829435E-002 -1.6886945099E+000  +8.3665471124E-002 +1.3084873642E+001  +4.9805048312E-001 +1.6682151573E+000 
11021775.970 +4.9986197873E-001 +7.3100377897E+000  +8.6726131333E-002 -1.9795033770E+000  +8.7820184365E-002 +1.3216773728E+001  +5.3377829401E-001 +3.0186203517E+000 
11146921.151 +5.1620054144E-001 +6.5294835145E+000  +8.6375892945E-002 -1.7420425205E+000  +8.4788238010E-002 +1.2451902039E+001  +5.3480203586E-001 -1.3049863052E-001 
11272066.333 +5.0734703762E-001 +9.7517836200E+000  +8.8980716839E-002 -4.4794454520E-002  +8.5671229547E-002 +1.2440304493E+001  +5.4908210756E-001 +3.9078140878E+000 
11397211.514 +5.4256444273E-001 +1.0175583440E+001  +8.7797440253E-002 +6.5710135746E-001  +8.6266708630E-002 +1.2495573870E+001  +5.6639246496E-001 +2.4447133678E+000 
11522356.696 +5.6530794077E-001 +7.0981071617E+000  +8.9158179657E-002 +6.1720540297E-001  +8.7927386315E-002 +1.2139375558E+001  +5.4365906820E-001 +2.0047279860E+000 
11647501.877 +5.3804458798E-001 +8.0598505544E+000  +8.9362345446E-002 +7.8822805017E-001  +8.9985818538E-002 +1.0988554883E+001  +5.6976855740E-001 +4.4234563651E+000 
11772647.059 +5.7086929509E-001 +6.4775704802E+000  +8.8989347650E-002 +1.3801599358E+000  +9.1575301145E-002 +1.0942243718E+001  +5.8001351672E-001 -8.2357825431E-002 
11897792.240 +5.8613534323E-001 +6.5892391668E+000  +9.1299944287E-002 +2.5712258157E+000  +8.9088434520E-002 +1.1797127246E+001  +5.8828378454E-001 +1.2450367300E+000 
12022937.422 +6.1950629834E-001 +7.0458860747E+000  +9.2107903790E-002 +2.7848200230E+000  +9.3010213612E-002 +1.0700255078E+001  +6.0536825288E-001 +3.2264419922E+000 
12148082.603 +6.0583141628E-001 +5.6609619050E+000  +9.3212418060E-002 +2.4480672875E+000  +9.7027777915E-002 +1.0675636320E+001  +6.1633773229E-001 +1.4089256673E-001 
12273227.785 +6.1577107028E-001 +4.0468445131E+000  +9.4696086146E-002 +7.5297160940E-001  +9.2953967617E-002 +1.0982290654E+001  +6.1022956751E-001 +2.8796975166E+000 
12398372.966 +6.1412743508E-001 +2.7434034087E+000  +9.8027776322E-002 +3.3259665120E+000  +9.5771740016E-002 +8.8038404958E+000  +6.3766484834E-001 +2.2143427317E-001 
12523518.148 +6.4053466966E-001 +3.6258026999E+000  +9.5564475560E-002 +1.6379381564E+000  +9.6790385890E-002 +9.3637409785E+000  +6.4726460874E-001 +8.1557962561E-001 
12648663.329 +6.7210613365E-001 +4.1030454770E+000  +9.7837546550E-002 +3.8835583467E+000  +9.5842252944E-002 +8.4727601728E+000  +6.4027669705E-001 +4.4048383392E-001 
12773808.511 +6.5463170226E-001 +3.2845919457E-001  +1.0000583164E-001 +1.5676069640E+000  +9.8545679367E-002 +8.6605245869E+000  +6.5236776744E-001 -8.1031389566E-002 
12898953.692 +6.6487321291E-001 +2.1588782163E+000  +9.9720269509E-002 +2.9128828783E+000  +9.8117702928E-002 +7.7016137382E+000  +7.1293857322E-001 +6.3623343089E-001 
13024098.874 +7.1195235336E-001 +2.0858620578E+000  +9.9430396852E-002 +2.6620913899E+000  +9.9675224230E-002 +7.8588559063E+000  +7.0528092037E-001 +9.4996472970E-001 
13149244.055 +7.0664716096E-001 +2.0536959696E+000  +1.0296701251E-001 +2.4360628651E+000  +1.0002134310E-001 +6.8032404447E+000  +6.9679276826E-001 -1.0828660423E+000 
13274389.237 +7.2605851249E-001 -3.8882438308E-001  +1.0316834422E-001 +3.7986042633E+000  +1.0165539536E-001 +7.1643135746E+000  +7.3090614452E-001 -5.7348973439E-001 
13399534.418 +7.5862299451E-001 -8.0520878680E-001  +1.0240015405E-001 +2.2913469992E+000  +1.0354646336E-001 +5.8527269118E+000  +7.2733691762E-001 -2.4680754928E+000 
13524679.599 +7.7700021482E-001 -2.1400922131E+000  +1.0517515585E-001 +2.8874120248E+000  +1.0469348816E-001 +4.5043813867E+000  +7.5254401666E-001 -2.4579005361E+000 
13649824.781 +7.7985256011E-001 -1.3339555792E+000  +1.0460807602E-001 +2.6708084971E+000  +1.0224123249E-001 +5.0758530849E+000  +7.8546594612E-001 -2.8249171571E+000 
13774969.962 +7.8447967199E-001 -2.9612106552E+000  +1.0540829063E-001 +2.3392095022E+000  +1.0380350422E-001 +4.9732691277E+000  +8.0791189064E-001 -3.1745781081E+000 
13900115.144 +7.9766801742E-001 -4.4065602630E+000  +1.0752215752E-001 +2.2317863444E+000  +1.0599970850E-001 +3.4010866450E+000  +7.9918309201E-001 -4.6159754965E+000 
14025260.325 +8.2911005670E-001 -4.8456421726E+000  +1.0706304019E-001 +2.7988153879E+000  +1.0646105776E-001 +3.6658317895E+000  +8.2772802959E-001 -4.6807977825E+000 
14150405.507 +8.3485249494E-001 -3.9314178961E+000  +1.0868628500E-001 +2.1491693863E+000  +1.0593453268E-001 +3.6365079267E+000  +8.5022953871E-001 -4.9689778847E+000 
14275550.688 +8.4924498678E-001 -5.0183652449E+000  +1.0789915864E-001 +2.5004797993E+000  +1.0681004102E-001 +2.7877052292E+000  +8.7212944032E-001 -4.4535814857E+000 
14400695.870 +8.6274691391E-001 -5.1492245578E+000  +1.0807956233E-001 +2.3109025605E+000  +1.0560658894E-001 +2.1212814267E+000  +9.0265736772E-001 -4.7699849230E+000 
