!  2-Port S-parameters saved by WinCal
! VAR MeasName=S-Parameters (CALIBRATED_DATA) read from VNA (P5004A)
! VAR MeasDate=29/08/2024 14:14:23
! VAR NAME=S2_r9c6_SET2_9k-100M_1
! VAR FILENAME=S2_r9c6_SET2_9k-100M_1.S2P
! VAR DATE=29/08/2024 14:14:23
! VAR PHYS_PORTS=1,2
! VAR ObjTypeName=DATASET
! VAR IndexType=Frequency
!
# Hz S MA R 50
9000.000 +8.9652232372E-002 -1.6499604197E+002  +8.7884204487E-003 -3.6500234024E+001  +4.7717646749E-003 -1.3318753807E+002  +2.2384420256E-001 -1.4323982843E+002 
134145.181 +1.1130107179E-001 +1.6958929435E+002  +3.6058959757E-004 -1.3792858716E+002  +3.5158533320E-005 -2.8365393939E+001  +2.4135476804E-001 -1.7096312985E+002 
259290.363 +1.1179831171E-001 +1.6972717150E+002  +8.9169908771E-004 -3.2935667673E+001  +8.8632941482E-004 +1.3831624152E+002  +2.4168334054E-001 -1.6808440947E+002 
384435.544 +1.1453276111E-001 +1.6973590532E+002  +5.5460092310E-004 +4.7472251240E+001  +2.4783846390E-004 -2.4535380680E+001  +2.3916552941E-001 -1.6878641126E+002 
509580.726 +1.1365091110E-001 +1.7138613857E+002  +8.6373481706E-004 -1.9995291140E+001  +1.0631917763E-003 -1.0473983676E+002  +2.6237968312E-001 -1.6476470886E+002 
634725.907 +1.1586636844E-001 +1.7215669950E+002  +7.4691840390E-004 -3.0018519923E+000  +7.8358634228E-004 -1.0865359238E+002  +2.7367493836E-001 -1.6456097667E+002 
759871.089 +1.2051729868E-001 +1.7148248878E+002  +1.8949733646E-005 +1.7756090034E+002  +3.6908384976E-004 +2.5384374866E+001  +2.5473094001E-001 -1.6682425222E+002 
885016.270 +1.2111028780E-001 +1.6932982567E+002  +4.9029184319E-004 -1.2527781807E+002  +4.3115408406E-004 +1.0620207407E+002  +2.4900464355E-001 -1.6630578280E+002 
1010161.452 +1.1848758250E-001 +1.6968510564E+002  +9.6955256638E-004 -2.0050437849E+001  +5.4525049848E-004 +9.0274391088E+000  +2.1845538505E-001 -1.6373326402E+002 
1135306.633 +1.0999536783E-001 +1.7094128662E+002  +2.5837266593E-003 +1.7670254770E+002  +1.7239748118E-003 +4.8420578441E+001  +1.5146912135E-001 +1.7117883638E+002 
1260451.815 +1.2011317129E-001 +1.6983104763E+002  +1.3605796433E-003 +7.8573149098E+000  +1.5705301347E-003 +3.1690816764E+001  +2.3291621997E-001 -1.5791013651E+002 
1385596.996 +1.2355699187E-001 +1.7226682579E+002  +5.9853703350E-004 +1.7330376562E+002  +1.9294528652E-004 +8.4793950137E+001  +2.4493769014E-001 -1.5616082832E+002 
1510742.178 +1.2554281252E-001 +1.7184513814E+002  +8.0995977393E-004 -1.0214215667E+001  +1.7165545193E-003 +7.4348804483E+001  +2.5641756853E-001 -1.6089355408E+002 
1635887.359 +1.2631445360E-001 +1.7104351587E+002  +9.5031999709E-004 +7.3561698132E+001  +1.2359770125E-003 -3.1982053075E+001  +2.3295891694E-001 -1.5839705966E+002 
1761032.541 +1.2359421244E-001 +1.6987908794E+002  +7.9008619476E-004 +3.7323126350E+001  +2.7661071618E-004 +1.7590351389E+002  +2.1024896686E-001 -1.6007495573E+002 
1886177.722 +1.3046594704E-001 +1.6962181690E+002  +1.6965121757E-003 +4.9141351076E+001  +1.0889634028E-003 +1.1411976993E+002  +2.2334293085E-001 -1.5897023242E+002 
2011322.904 +1.3473290817E-001 +1.6682758806E+002  +3.6312055403E-004 +3.3583517047E+001  +9.4926795011E-004 -2.6669519719E+001  +1.9152625750E-001 -1.5750303049E+002 
2136468.085 +1.2772260620E-001 +1.6712074678E+002  +2.5489018512E-003 +1.1018784853E+002  +3.4049962037E-003 -8.7809002560E+001  +1.9873166867E-001 -1.7332671904E+002 
2261613.267 +1.3670491966E-001 +1.6492483523E+002  +4.1489909144E-004 +7.0366295210E+001  +1.0459667912E-003 -5.0063951108E+001  +1.4606134938E-001 -1.5721866673E+002 
2386758.448 +1.3905960777E-001 +1.6366673965E+002  +4.2754010305E-003 +6.6829422699E+001  +4.1170258454E-003 -6.5659515593E+000  +2.2797606115E-001 +1.7643891973E+002 
2511903.630 +1.2491196869E-001 +1.5855415468E+002  +1.1066809489E-002 +8.5243283582E+001  +1.0037505960E-002 -1.4100957495E+001  +1.9948691526E-001 +1.7237158506E+002 
2637048.811 +1.3083537347E-001 +1.6093836682E+002  +9.0958874483E-003 +1.1155023047E+002  +9.1235362812E-003 +4.8629990908E+001  +3.7992777473E-001 +1.5724857763E+002 
2762193.992 +1.0847590832E-001 +1.5705081310E+002  +2.5023809881E-002 +1.5003295380E+002  +1.1861774467E-002 -5.7960238104E+001  +6.8432497657E-001 +1.4718611680E+002 
2887339.174 +1.0702201290E-001 +1.6533931406E+002  +3.5279553035E-002 +3.4378991704E+000  +3.5664612156E-002 -1.0258256755E+002  +3.8121536006E-001 -3.0107010530E+001 
3012484.355 +1.2250623154E-001 +1.7096756943E+002  +6.6456291439E-003 +6.6928494224E+001  +1.7870068326E-002 -8.1751618574E+001  +1.0146234490E-001 +6.7594437506E+001 
3137629.537 +1.2272368700E-001 +1.7380412698E+002  +6.9217951119E-002 +1.3729539999E+001  +3.2743144132E-002 -4.1636767679E+001  +6.9835515690E-001 +2.7151327078E+001 
3262774.718 +1.3772346780E-001 +1.5965965414E+002  +2.5468799732E-002 +8.1169730547E+001  +1.4219477474E-002 -5.9395887928E+000  +5.5761265638E-001 +1.1075056481E+002 
3387919.900 +7.9116530504E-002 +1.6214070860E+002  +4.2593387130E-002 +9.6424961898E+001  +3.1092330313E-002 -2.3062445156E+001  +3.9010120306E-001 +9.0807603075E+001 
3513065.081 +1.6435398052E-001 +1.4808501480E+002  +1.3803152912E-002 +4.8096896011E+001  +1.5296964696E-002 -2.7885864775E+001  +5.6440809846E-002 +1.5719516551E+002 
3638210.263 +1.6345369463E-001 +1.5029844341E+002  +1.0095001372E-002 +6.8211764783E+001  +1.6797512721E-002 -3.5119637307E+001  +2.8796614136E-001 +1.3235151045E+002 
3763355.444 +1.6882193393E-001 +1.5040259283E+002  +2.9158292014E-002 +9.3744281875E+001  +3.0013004222E-002 +1.6314401826E+001  +4.5240962621E-001 +9.7102326096E+001 
3888500.626 +1.7810279717E-001 +1.5292093263E+002  +2.3294337485E-002 +8.5510100152E+001  +2.0372248311E-002 +3.3375881869E+001  +6.0458298191E-001 +1.2203499721E+002 
4013645.807 +1.6082781273E-001 +1.5441244812E+002  +1.9168817698E-002 +7.9776298391E+000  +2.7922687017E-002 -4.1055998234E+001  +1.0808645860E-001 +2.0369604262E+001 
4138790.989 +1.8093804859E-001 +1.4843549619E+002  +3.3600749495E-002 +1.0353009940E+002  +2.1685366190E-002 +6.8919569519E+001  +8.0846035136E-001 +1.2543839866E+002 
4263936.170 +2.1058722272E-001 +1.4591990878E+002  +1.3020441833E-002 +1.3158076042E+002  +1.9448089109E-002 +6.7216564633E+001  +7.2987827914E-001 +1.5624737413E+002 
4389081.352 +2.1353588917E-001 +1.3571496710E+002  +1.9950378542E-002 +5.8853597929E+001  +1.4407550378E-002 +7.6038613747E+000  +3.6739972560E-001 +9.2242143934E+001 
4514226.533 +2.4407474999E-001 +1.3112352076E+002  +6.1141996977E-002 +6.6747311954E+001  +6.6908557382E-002 +5.8172560059E+001  +1.1454127890E+000 +8.3051014189E+001 
4639371.715 +2.9900632078E-001 +1.3555562137E+002  +2.9852468726E-002 +7.9939731923E+001  +3.1699390485E-002 -5.3197738467E+000  +5.7553796175E-001 +6.6735337148E+001 
4764516.896 +3.9912072061E-001 +1.1174248790E+002  +1.6321791427E+000 -1.2582535569E+002  +2.4779431249E-001 +1.0547982954E+002  +2.4357216275E+001 -1.7577870099E+002 
4889662.078 +5.8500663557E-001 +1.3563475692E+002  +1.1952931156E-001 -7.2644705362E+001  +1.4686892966E-001 -1.2314166303E+002  +3.2716277709E+000 -1.4289630145E+002 
5014807.259 +3.9373565450E-001 +1.3627353826E+002  +1.2398726516E-001 +1.3884192801E+002  +9.1794330467E-002 +1.1643857710E+002  +3.9680516069E+000 +1.0312651117E+002 
5139952.441 +3.5705393898E-001 +1.2145363726E+002  +1.2202850487E-001 +1.3283562186E+002  +7.9612151998E-002 +9.5599406671E+001  +2.7186868319E+000 +1.1374205074E+002 
5265097.622 +4.0685585950E-001 +1.1812610352E+002  +1.3435540736E-001 +9.7101241385E+001  +9.8231843914E-002 +8.9089718585E+001  +2.6300873678E+000 +1.1527937438E+002 
5390242.804 +4.1372104350E-001 +1.2540967724E+002  +4.1247380331E-002 +8.9084520440E+001  +7.2613392619E-002 +6.5841928022E+001  +1.9479548234E+000 +1.0235248807E+002 
5515387.985 +4.3146582129E-001 +1.2356818203E+002  +8.1707567780E-002 +1.3185568657E+002  +3.9483707738E-002 +6.9267517520E+001  +2.2428337755E+000 +9.9814371946E+001 
5640533.166 +4.7452216674E-001 +1.2238593401E+002  +1.0806490965E-001 +1.2901665109E+002  +7.6327410397E-002 +8.3339453446E+001  +4.4815280335E+000 +9.7940975071E+001 
5765678.348 +4.8800585484E-001 +1.2317601763E+002  +5.8323156893E-002 +8.5757012918E+001  +5.1440498082E-002 +4.5799953386E+001  +1.3749669440E+000 +6.3511174560E+001 
5890823.529 +5.7113587409E-001 +1.2689367385E+002  +7.0635956582E-002 +1.1969495411E+002  +4.7942376497E-002 +8.1260368478E+001  +1.6889493177E+000 +9.7078148640E+001 
6015968.711 +5.7435247881E-001 +1.2298227641E+002  +9.7598308277E-002 +7.1087088555E+001  +8.0626084415E-002 +4.9556455990E+001  +2.7551699436E+000 +5.2324271265E+001 
6141113.892 +7.7822544279E-001 +1.1266601276E+002  +6.3406176235E-002 +5.7397749274E+001  +8.3545393365E-002 +3.9311288260E+001  +1.6554189675E+000 +3.8088047316E+001 
6266259.074 +8.0001898972E-001 +9.5453652866E+001  +7.6574815626E-002 +5.9577227391E+001  +9.0194381078E-002 +1.3345059371E+001  +1.8716881767E+000 +4.7479045879E+001 
6391404.255 +9.9219356835E-001 +8.9095147485E+001  +7.4728964262E-002 +3.0804667041E+001  +1.1421870006E-001 +1.5616087763E+001  +1.8056471098E+000 -3.0915200061E+000 
6516549.437 +1.1250350697E+000 +8.7445232644E+001  +7.3347403184E-002 +4.6896337787E+001  +5.8906903771E-002 +2.0125891265E+001  +9.2772215193E-001 +1.7812138111E+001 
6641694.618 +1.3373945943E+000 +7.0607398998E+001  +8.9354022350E-002 +2.3784749315E+001  +9.9018248745E-002 +2.1760933939E+001  +1.5238861011E+000 -3.7698997349E+000 
6766839.800 +2.0987701585E+000 +4.9014447818E+001  +1.2998791911E-001 +2.1926303642E+001  +9.1095257189E-002 -3.5821976201E+000  +1.1669910275E+000 -1.0060080144E+001 
6891984.981 +1.9751785699E+000 +3.3816125225E+001  +9.2154854732E-002 -3.1331076383E+000  +9.7625972765E-002 +1.0898190259E+000  +1.2222223266E+000 -9.9970957277E+000 
7017130.163 +1.8629163925E+000 +4.1368976486E+000  +1.0514758940E-001 -1.5250720106E+001  +8.7250325513E-002 -1.3169349958E+001  +1.2203002881E+000 -7.0308204983E+000 
7142275.344 +1.4799962295E+000 +1.2908218757E+001  +6.2904268395E-002 -2.8337438303E+000  +5.0754076218E-002 -1.0430802363E+001  +1.2259745884E+000 -1.0729917608E+001 
7267420.526 +1.4986792796E+000 +7.6075509020E+000  +6.1519419079E-002 -3.4527024827E+000  +6.6691679294E-002 +1.0015423681E+001  +1.2494995669E+000 -1.3865896122E+001 
7392565.707 +1.2700552516E+000 +2.4203690408E+000  +4.8433235264E-002 +2.7478165744E+000  +4.5669411336E-002 +5.2618188593E+000  +1.3974818897E+000 -5.3534214641E+000 
7517710.889 +1.1274724697E+000 +1.4640657985E+000  +4.2213295023E-002 +1.1934884364E+001  +3.2857643352E-002 +7.0780487164E+000  +1.2125020685E+000 -5.9095726600E+000 
7642856.070 +9.8264848458E-001 -2.1013644747E-001  +4.1904116919E-002 -8.7052057035E+000  +3.9964678145E-002 +1.0261705398E+001  +1.0992829363E+000 -4.1292628974E+000 
7768001.252 +9.2234509786E-001 +5.4223437088E+000  +3.8855649031E-002 +5.1350568755E+000  +3.8785137404E-002 +1.1591148879E+001  +9.6339566481E-001 -6.6079994625E+000 
7893146.433 +9.2654604711E-001 +8.0906373083E+000  +2.9549466221E-002 -8.9396491662E+000  +3.1155108899E-002 -7.0053563151E+000  +8.9042386944E-001 +1.8164305521E+000 
8018291.615 +7.8489468264E-001 +7.3444094622E+000  +3.5967132201E-002 -1.8637580662E+000  +2.7139890609E-002 -5.3645721431E+000  +7.3317858439E-001 +3.2854569152E+000 
8143436.796 +8.0824906663E-001 +4.6749010568E+000  +4.0791741518E-002 -1.2661192980E-001  +2.6834470745E-002 +1.5898117660E+001  +8.7029959145E-001 +2.4110781296E+000 
8268581.977 +7.3706878613E-001 +3.8834871205E+000  +3.3404887252E-002 +1.0205367500E-002  +3.0550607796E-002 +8.4687417312E+000  +7.8596467956E-001 +8.5384687653E-001 
8393727.159 +6.9960705633E-001 +2.6225863564E+000  +3.4532725302E-002 +1.9680332715E+000  +3.2247114599E-002 +7.1573426344E+000  +7.5670804698E-001 +1.4425107308E+000 
8518872.340 +6.2598587719E-001 +1.1023689823E+001  +2.8079933007E-002 -2.7021593925E+000  +2.7412059750E-002 +1.4575048504E+001  +7.0246190646E-001 -2.4214260783E+000 
8644017.522 +6.8326752459E-001 +8.8142635761E+000  +3.0465527968E-002 -2.3603143067E-001  +2.6817444735E-002 +1.1590447799E+001  +6.8867796394E-001 -1.6243566591E+000 
8769162.703 +6.2988334828E-001 +5.5409415298E+000  +3.2355691406E-002 -5.3590905609E+000  +2.9791942689E-002 +1.6776786021E+001  +6.0591538465E-001 -2.7761287441E+000 
8894307.885 +5.7700362187E-001 +7.8147585708E+000  +2.6998809352E-002 -1.5541933628E+000  +2.4614312833E-002 -7.6620223465E-001  +6.2046963705E-001 -4.5879769811E+000 
9019453.066 +5.5616335700E-001 +4.2162758610E+000  +3.0154278983E-002 -7.7172738862E+000  +3.1545477010E-002 +8.9865732302E+000  +5.8452411874E-001 +2.1079832199E+000 
9144598.248 +4.9762032650E-001 +2.8131081429E+000  +3.0014348931E-002 -4.9732429682E+000  +3.0866119645E-002 +7.9728195301E+000  +5.8160149114E-001 -1.3711225309E+000 
9269743.429 +5.2287002083E-001 +3.1673279913E+000  +2.8971536759E-002 -8.7196932189E+000  +2.9774531709E-002 +1.4298940344E+001  +5.9291422992E-001 -2.7966039907E+000 
9394888.611 +4.9251120994E-001 +6.7626331106E+000  +2.8853795797E-002 +2.1441474010E+000  +2.8149825839E-002 +8.8903706037E+000  +5.4301465431E-001 +1.6206315968E+000 
9520033.792 +5.2985188880E-001 +8.1919490105E-001  +2.6739589893E-002 -1.0414026595E+001  +3.1155463757E-002 +1.6546985315E+001  +5.5310843298E-001 -1.5688866589E+000 
9645178.974 +5.2212751914E-001 +2.1455580010E+000  +3.3080440508E-002 -9.3072788939E+000  +2.9880173276E-002 +1.4250586359E+001  +5.4433806396E-001 -4.4828469532E+000 
9770324.155 +5.1510193305E-001 +9.6920247070E-001  +2.6733014369E-002 -5.8476768122E+000  +3.3397011600E-002 +9.8681296283E+000  +5.3409904770E-001 -6.6054197348E+000 
9895469.337 +5.2616590984E-001 +3.4374446714E+000  +3.0150435005E-002 -4.3000283302E+000  +3.0091829275E-002 +9.1755603007E+000  +5.6140328791E-001 -2.0662805559E+000 
10020614.518 +5.4663245578E-001 +4.8122958205E+000  +2.8952758902E-002 -9.8438955074E-001  +2.7369656082E-002 +1.3968752707E+001  +5.2024307658E-001 -4.7731217709E+000 
10145759.700 +5.2972394172E-001 +5.7339380589E+000  +2.9573894080E-002 +3.6696791295E+000  +2.9506233624E-002 +1.2430218556E+001  +5.3207948903E-001 -2.9780447810E+000 
10270904.881 +5.6936447840E-001 +2.1739009100E+000  +3.2587367392E-002 -1.2355443268E+000  +3.0687445520E-002 +1.5006611407E+001  +5.4675044510E-001 -3.6016502727E+000 
10396050.063 +4.9467412686E-001 +5.2134843189E+000  +2.8596302227E-002 +1.6068206933E+000  +2.8886946906E-002 +1.9405756492E+001  +5.6317973313E-001 +3.2363430659E+000 
10521195.244 +5.4087045702E-001 +6.2445407287E+000  +3.1907447275E-002 -1.1212993780E+000  +3.2053014904E-002 +1.2710289396E+001  +5.6406189941E-001 -4.9015904925E+000 
10646340.426 +5.7087725626E-001 +6.7701545448E+000  +3.0705894904E-002 +5.5740099150E-002  +3.0344627855E-002 +1.8840492548E+001  +5.5757213606E-001 +6.6187854902E-001 
10771485.607 +5.1903219386E-001 +5.0665948838E+000  +3.1402542199E-002 +2.4770924748E+000  +3.1905525092E-002 +6.6754539201E+000  +5.6887484943E-001 +1.3507800079E+000 
10896630.788 +5.2585268008E-001 +9.8130198934E+000  +3.0803401991E-002 -1.9959605837E+000  +3.2031596793E-002 +1.3622052386E+001  +5.5730609634E-001 -7.7337799210E-001 
11021775.970 +5.9003998509E-001 +5.9311264828E+000  +3.0275732766E-002 +2.1139852933E+000  +3.1654012135E-002 +1.0680992155E+001  +6.1874078461E-001 +1.8002668971E+000 
11146921.151 +5.6843441960E-001 +8.0487225051E+000  +3.4599640684E-002 -1.4085159586E+000  +3.0265857565E-002 +1.3773092885E+001  +5.9911503624E-001 +4.5963968343E+000 
11272066.333 +5.6861524542E-001 +6.3954782914E+000  +3.2743413069E-002 +3.0080011074E+000  +3.3147435832E-002 +9.4023202110E+000  +6.1160863311E-001 +1.7776252861E+000 
11397211.514 +5.8909321937E-001 +6.8297955593E+000  +3.3141477678E-002 +3.8566960973E+000  +3.2694315634E-002 +1.1163236900E+001  +6.2623873881E-001 +1.3757461208E+000 
11522356.696 +5.7148968338E-001 +5.9974131538E+000  +3.3239431683E-002 -9.0862692916E-004  +3.2661227592E-002 +9.8188440652E+000  +6.1644237315E-001 +3.5860239831E+000 
11647501.877 +6.1794496262E-001 +6.8211927065E+000  +3.2810905424E-002 +1.5344485657E+000  +3.4512411211E-002 +1.2048284968E+001  +6.4199971446E-001 +9.9493079734E-001 
11772647.059 +6.4294321044E-001 +8.0914131026E+000  +3.1972407619E-002 +4.3272612794E+000  +3.3935239175E-002 +1.3230552888E+001  +6.3331884166E-001 +2.1764503574E+000 
11897792.240 +6.2363624209E-001 +5.6687606590E+000  +3.4387725328E-002 +1.8701368405E+000  +3.2207103346E-002 +1.0640114826E+001  +6.8065611192E-001 -1.9861497616E-001 
12022937.422 +6.1840236661E-001 +6.7701187837E+000  +3.4891684371E-002 +2.1876244000E+000  +3.4315323535E-002 +1.0585157416E+001  +6.2767459942E-001 +2.1155173876E+000 
12148082.603 +6.4632914992E-001 +4.6002101437E+000  +3.3369272280E-002 +5.0919837272E+000  +3.2592359209E-002 +1.4963716786E+001  +6.8306060175E-001 -1.3933072939E+000 
12273227.785 +6.7370601744E-001 +2.2630340974E+000  +3.5019152338E-002 -1.6318446230E-001  +3.5139069793E-002 +8.3458435361E+000  +6.7528955415E-001 +3.1974063919E+000 
12398372.966 +7.1245743529E-001 +4.2480333365E+000  +3.4386640544E-002 +2.6894936286E+000  +3.5135712571E-002 +1.1490228426E+001  +7.0559003437E-001 -5.9644008733E-002 
12523518.148 +6.8298856304E-001 +2.4068522359E+000  +3.6097580831E-002 +1.3497378537E+000  +3.5494587556E-002 +1.0965768820E+001  +7.1697330709E-001 -1.1050189566E+000 
12648663.329 +7.2416840544E-001 +2.3528642743E+000  +3.6317725270E-002 +2.3648874592E+000  +3.5736528004E-002 +8.8754429510E+000  +7.2013852688E-001 -3.0804303870E-001 
12773808.511 +7.2777603567E-001 -6.0680184853E-001  +3.7199843546E-002 +2.1028899285E+000  +3.4521449345E-002 +9.8222130139E+000  +7.7083955728E-001 -1.8471032538E+000 
12898953.692 +7.3366400393E-001 +1.0404611465E+000  +3.5983491494E-002 +2.3520902750E+000  +3.5709313894E-002 +9.1265362994E+000  +7.7645671109E-001 -4.6713501213E-001 
13024098.874 +7.5227032714E-001 +6.7728370607E-001  +3.7008450602E-002 +3.9283090219E+000  +3.7442368605E-002 +7.3422063218E+000  +7.6860459144E-001 -2.8518512750E+000 
13149244.055 +7.8363865652E-001 -9.2221586477E-001  +3.6658511646E-002 +1.3771299347E+000  +3.7161516152E-002 +6.6775415051E+000  +7.8762240271E-001 -1.2080689775E+000 
13274389.237 +7.7701016354E-001 -1.2254029986E+000  +3.8967923270E-002 +3.2820659907E+000  +3.8112462084E-002 +9.5958782996E+000  +8.0955652153E-001 -1.9684168845E+000 
13399534.418 +7.9654266076E-001 -2.1912777036E+000  +3.7340284776E-002 +3.1329882311E+000  +3.6915775449E-002 +6.2415116544E+000  +8.3488937965E-001 -8.8408706250E-001 
13524679.599 +8.1808081230E-001 -1.0886602626E+000  +3.7681330069E-002 +4.0460515710E+000  +3.8104302221E-002 +6.2028836111E+000  +8.5178251783E-001 -4.0436882108E+000 
13649824.781 +8.2363737702E-001 -2.3637988072E+000  +3.8058023961E-002 +2.4374414263E+000  +3.8272236289E-002 +4.7407279318E+000  +8.4819144559E-001 -2.1098592553E+000 
13774969.962 +8.5246304463E-001 -3.0743478494E+000  +3.7910787972E-002 +4.7403458224E+000  +3.9635277284E-002 +4.9457137151E+000  +8.6236947858E-001 -4.6640105506E+000 
13900115.144 +8.7079310974E-001 -3.0649634959E+000  +3.9444133940E-002 +8.4302019507E-001  +3.9733775093E-002 +4.7116916449E+000  +8.6609810713E-001 -3.3696439242E+000 
14025260.325 +8.7341116137E-001 -4.6256856760E+000  +3.8080059139E-002 +1.4841140107E+000  +3.9681200503E-002 +5.9093280628E+000  +9.0143972811E-001 -2.9521021398E+000 
14150405.507 +9.1251035797E-001 -5.2727494216E+000  +3.9201169436E-002 +3.0667167689E+000  +3.8195731048E-002 +5.3936373458E+000  +9.1249895418E-001 -4.5099072980E+000 
14275550.688 +9.1402666581E-001 -5.1159570502E+000  +3.8090579701E-002 +2.6468095633E+000  +3.9558527445E-002 +2.9401757569E+000  +9.1774034340E-001 -4.6556660478E+000 
14400695.870 +9.5954078430E-001 -4.7210295603E+000  +4.0315908569E-002 +1.4861419029E+000  +3.9115612078E-002 +2.8542750297E+000  +9.4817990053E-001 -5.5671408387E+000 
