!  2-Port S-parameters saved by WinCal
! VAR MeasName=S-Parameters (CALIBRATED_DATA) read from VNA (P5004A)
! VAR MeasDate=29/08/2024 12:35:02
! VAR NAME=S2_r9c5_RESET4_9k-100M_3
! VAR FILENAME=S2_r9c5_RESET4_9k-100M_3.S2P
! VAR DATE=29/08/2024 12:35:02
! VAR PHYS_PORTS=1,2
! VAR ObjTypeName=DATASET
! VAR IndexType=Frequency
!
# Hz S MA R 50
9000.000 +9.0223198474E-002 -1.5480505790E+002  +1.1798436373E-002 +1.6998355290E+002  +1.5004638875E-002 +8.1479028554E+001  +2.3544142389E-001 -1.4040566457E+002 
134145.181 +1.1121220419E-001 +1.6983046177E+002  +2.0216418102E-004 -3.3701432763E+001  +6.3880908814E-004 +1.5135969872E+002  +2.4480729104E-001 -1.7093528508E+002 
259290.363 +1.1378973276E-001 +1.7038802891E+002  +6.8756494235E-004 -1.5353782858E+002  +6.7546290957E-004 +1.4370572595E+002  +2.3792001955E-001 -1.6897293460E+002 
384435.544 +1.1430413064E-001 +1.7023448774E+002  +1.0579949972E-003 -2.9634802706E+001  +1.2079684795E-004 -1.3807703785E+002  +2.4245964340E-001 -1.6978829548E+002 
509580.726 +1.1448984218E-001 +1.7125971457E+002  +3.3776722690E-004 -1.5542489653E+002  +3.4293714723E-004 -4.5500821689E+001  +2.5454285577E-001 -1.6719978615E+002 
634725.907 +1.1685902783E-001 +1.7218023516E+002  +1.4833967267E-003 -9.3746330682E+001  +1.6553342476E-003 +3.4131016502E+001  +2.5705227763E-001 -1.6509639197E+002 
759871.089 +1.2127060791E-001 +1.7063223225E+002  +7.2190507979E-004 -1.4555528550E+002  +2.3241874396E-004 -1.2768698410E+002  +2.5623839027E-001 -1.6574545136E+002 
885016.270 +1.2106074323E-001 +1.6955658820E+002  +3.6243180008E-004 +9.9751400085E+001  +4.1481779397E-004 -1.7513939532E+002  +2.4180575914E-001 -1.6756491680E+002 
1010161.452 +1.1769597094E-001 +1.7100143908E+002  +1.0171081977E-003 -2.2629431934E+001  +9.6427359566E-004 -1.1769150360E+002  +2.2500681217E-001 -1.6872994131E+002 
1135306.633 +1.1559349780E-001 +1.6714968312E+002  +9.1677030514E-004 +1.0955556638E+002  +1.8313615738E-003 +1.5836153931E+002  +2.1911703692E-001 -1.6716002833E+002 
1260451.815 +1.2238589993E-001 +1.6922434760E+002  +5.7199909882E-004 +1.1865739225E+002  +3.3529889206E-004 +1.3005439283E+002  +2.3190372763E-001 -1.5717983028E+002 
1385596.996 +1.2617433492E-001 +1.7224498211E+002  +3.8380344835E-004 -2.3720314512E+001  +8.3124567475E-004 -1.0896248278E+002  +2.5772322325E-001 -1.5861868600E+002 
1510742.178 +1.2790763839E-001 +1.7193318044E+002  +6.5270616107E-004 +4.4859764197E+001  +1.2156745487E-003 +2.0217062973E+001  +2.6137785441E-001 -1.5857955590E+002 
1635887.359 +1.2670404518E-001 +1.7121905333E+002  +1.4805196547E-004 -5.2628813466E+001  +1.7931476424E-003 +1.3526394938E+002  +2.4484310259E-001 -1.5957322774E+002 
1761032.541 +1.2855378680E-001 +1.6905084656E+002  +1.5749288928E-003 -4.2777006605E+001  +6.5560170645E-004 -1.3206414201E+002  +2.3356825922E-001 -1.5728396163E+002 
1886177.722 +1.2567414727E-001 +1.6795064885E+002  +5.0072185103E-004 -4.4566255684E+001  +2.2109357690E-003 -9.5351937505E+001  +2.1697696035E-001 -1.6307132006E+002 
2011322.904 +1.2769122036E-001 +1.6884340799E+002  +2.8160411746E-003 -1.6318026686E+001  +3.7653767110E-004 -1.6269286748E+002  +2.1276416885E-001 -1.6782905551E+002 
2136468.085 +1.2591970882E-001 +1.6396578904E+002  +2.2416106343E-003 -5.7751258070E+001  +3.3546317235E-003 +6.9638912892E+000  +1.3914871580E-001 -1.5788641315E+002 
2261613.267 +1.2481295076E-001 +1.6694045481E+002  +2.8169360776E-003 -1.4061288871E+002  +2.2493819135E-003 +1.4392935308E+002  +1.9218484915E-001 -1.7479682814E+002 
2386758.448 +1.3940295828E-001 +1.6574129505E+002  +1.7585018482E-003 -1.6290032300E+002  +2.3068915883E-003 -1.4369310239E+002  +1.8878226854E-001 -1.7495766235E+002 
2511903.630 +1.3744574806E-001 +1.6110683512E+002  +1.6945210383E-002 -1.5181744168E+002  +1.1631670735E-002 +1.1750735279E+002  +3.1037494421E-001 +1.0602627826E+002 
2637048.811 +1.2630087181E-001 +1.6024734268E+002  +1.6404785496E-002 +9.0422234816E+001  +8.5966381399E-003 +2.1797293580E+000  +3.3730903324E-001 +1.4843132666E+002 
2762193.992 +1.0919153993E-001 +1.6846469520E+002  +4.3036960715E-002 -1.1583105964E+002  +2.4482058994E-002 +8.5198410586E+001  +1.1299856570E+000 +9.4327757795E+000 
2887339.174 +9.6486315106E-002 +1.7229340315E+002  +2.5321891553E-002 -5.0364326707E+001  +1.2569084925E-002 -1.1457744203E+002  +2.6100341488E-001 -8.7476438715E+001 
3012484.355 +1.2300845544E-001 +1.7973363303E+002  +7.6838411847E-003 -2.8243811492E+001  +4.8476716383E-003 +5.8765500677E+001  +1.9757244923E-001 -7.5660331435E+001 
3137629.537 +1.2956922519E-001 +1.6618511707E+002  +7.3266414539E-003 -2.1621633737E+001  +6.3136396058E-003 -1.5924858559E+002  +1.8071308694E-001 -5.7286151103E+001 
3262774.718 +1.1477486524E-001 +1.5275643008E+002  +1.7054651731E-002 -2.1298747685E+001  +2.8220895552E-002 -7.4019016295E+001  +9.0288769609E-001 -6.8632258090E+001 
3387919.900 +1.2438222846E-001 +1.6165986404E+002  +6.2670926074E-003 -5.6701940666E+001  +2.2345263633E-003 -1.2784107275E+002  +1.1953808398E-001 -1.0802915053E+002 
3513065.081 +1.6171870782E-001 +1.4579909875E+002  +1.2280829146E-002 -4.2915077094E-001  +1.1665666872E-002 +2.1506860863E+000  +3.8750593247E-001 +8.9811375857E+001 
3638210.263 +1.7470426826E-001 +1.4593746451E+002  +1.9547612859E-002 +1.2425221272E+002  +9.3592920685E-003 +8.9254642233E+001  +7.8642660118E-001 +1.5969279753E+002 
3763355.444 +1.9025147433E-001 +1.5464387370E+002  +4.3706492162E-003 -1.6504852160E+002  +2.7202187641E-003 +1.5170271451E+002  +4.5209898929E-001 +1.5730617224E+002 
3888500.626 +1.8703399092E-001 +1.4731760247E+002  +8.4458622021E-003 -2.0296036771E+001  +4.7824680928E-003 +3.0602989179E+001  +3.1916889727E-001 +1.4850241323E+002 
4013645.807 +2.3035223367E-001 +1.4575295233E+002  +2.6040217914E-002 +1.4527322565E+002  +1.7771823864E-002 +9.9667748175E+001  +7.4597054009E-001 +1.4214825183E+002 
4138790.989 +1.6973699526E-001 +1.4874863477E+002  +7.1145655641E-002 +4.2829580500E+001  +5.8514322598E-002 -1.9557185358E+001  +2.0751228425E+000 +1.8565588334E+001 
4263936.170 +2.0957791879E-001 +1.3910640677E+002  +4.2569958178E-003 -7.6384172072E+001  +1.4823396467E-002 +2.9474997089E+001  +5.7106317498E-001 +1.1200803893E+002 
4389081.352 +2.2894688649E-001 +1.3810871939E+002  +1.6989857069E-002 +8.5674802450E+001  +3.7713813811E-003 +1.9571368544E+001  +1.0681733441E+000 +3.8952466371E+000 
4514226.533 +2.3666813208E-001 +1.3830728917E+002  +2.2740543063E-002 -6.1048193356E+001  +5.8234432131E-002 +1.3791065848E+002  +1.7831274796E+000 +8.4941801600E+001 
4639371.715 +3.3084693277E-001 +1.2440017573E+002  +3.5987720196E-002 +1.5449855483E+002  +3.0047229997E-002 +3.0183967380E+001  +3.3846354555E+000 +1.1774515132E+002 
4764516.896 +3.5682218528E-001 +1.3433965528E+002  +6.1223898954E-002 -6.0377174575E+000  +4.9086074877E-002 +5.0989005506E+001  +3.2057901959E+000 -4.1060959806E+001 
4889662.078 +3.8612179232E-001 +1.1113870938E+002  +5.4959511549E-002 -3.5252035192E+001  +1.9413262458E-001 +6.0258217761E+000  +9.6584722021E+000 -1.6758448319E+002 
5014807.259 +4.1821716648E-001 +1.2798509602E+002  +7.3825366904E-003 +1.5641167621E+002  +2.2643805201E-002 -6.8467942972E+001  +2.2699127832E+000 -1.6303484601E+002 
5139952.441 +4.5319745484E-001 +1.3322285269E+002  +6.7654578142E-002 +1.6558085829E+002  +3.6588632069E-002 +3.2867038577E+001  +3.4141137475E+000 +1.1043832318E+002 
5265097.622 +3.9853512273E-001 +1.2018366951E+002  +3.9954242517E-002 +1.0752132102E+001  +3.7090129351E-002 +1.2482412345E+002  +2.7772304646E+000 +7.3179166869E+001 
5390242.804 +3.6921763801E-001 +1.3105587373E+002  +1.9562120884E-002 +1.6495944917E+002  +1.3761493414E-002 -9.6172436233E+001  +2.3474637438E+000 +2.7081655879E+001 
5515387.985 +4.5479628353E-001 +1.2610586750E+002  +1.3508678930E-002 +5.4109242429E+001  +2.6226312055E-002 +2.1025258695E+000  +2.3421177970E+000 +1.0599467149E+002 
5640533.166 +4.3863847966E-001 +1.2168148490E+002  +4.5243854576E-002 +1.0416512595E+001  +3.2582902162E-002 +6.6559979417E+001  +2.2967757403E+000 +2.3318112799E+001 
5765678.348 +5.1941700413E-001 +1.2899571046E+002  +2.2476613485E-002 +1.8540053421E+001  +4.0163300208E-003 -6.1624331212E+001  +1.9251945903E+000 +3.5611703508E+001 
5890823.529 +6.2803548095E-001 +1.2062853388E+002  +7.0222201751E-003 +2.7343213909E+001  +1.8177357685E-002 +2.1360117037E+001  +1.7075420934E+000 +4.6869594025E+001 
6015968.711 +6.4615664116E-001 +1.2670473887E+002  +3.9926432684E-002 +1.0103589864E+002  +1.2871746701E-002 +5.7484676361E+001  +1.8917010363E+000 +5.5195679087E+001 
6141113.892 +7.0198426424E-001 +1.1271835111E+002  +1.1869152580E-002 +7.0226626590E+001  +5.5078889174E-002 +7.4326035256E+001  +2.5178773858E+000 +3.5336773087E+001 
6266259.074 +6.7443700199E-001 +1.0366805511E+002  +1.9076211559E-002 +1.3678593038E+002  +3.0645489813E-002 -2.9966877368E+000  +2.1174434295E+000 +1.3007363519E+001 
6391404.255 +1.0016294349E+000 +9.6521328009E+001  +1.8437453043E-002 +1.0538341322E+002  +3.3720601825E-002 +6.2964914919E+001  +1.3432281010E+000 +1.9641766359E+001 
6516549.437 +1.0388551078E+000 +9.3032149145E+001  +1.8510245755E-002 +1.2346867181E+002  +1.6944410986E-002 -3.5983713221E+001  +1.6713603217E+000 +3.5850346378E+000 
6641694.618 +1.2315817635E+000 +4.1014865943E+001  +3.6082389554E-002 -4.2295610804E+000  +2.2526530810E-002 +9.6938175589E+000  +1.5773485255E+000 -2.0202496860E+000 
6766839.800 +1.9569680924E+000 +5.6153162037E+001  +2.2731928879E-002 +1.1731026187E+002  +3.2946822607E-002 +3.3873697175E+001  +1.2139935611E+000 -3.3164407103E+000 
6891984.981 +2.2424825095E+000 +3.8336808373E+001  +3.7549545065E-002 +2.5584847413E+001  +6.1991796873E-003 -9.2957054137E+001  +1.2809696719E+000 -1.0903660537E+001 
7017130.163 +1.8805801580E+000 +1.7836810814E+001  +5.5651682984E-003 +1.1251495345E+002  +1.1608318353E-002 +1.0116273703E+001  +1.1807166552E+000 -1.2010945740E+001 
7142275.344 +1.8081610405E+000 +1.1081387166E+001  +3.4678461084E-002 -1.4833161821E+001  +1.0305282263E-002 +7.5328833820E+001  +1.2247769089E+000 -1.7268823735E+001 
7267420.526 +1.6265401296E+000 -1.1052469318E+000  +5.1156147446E-003 +2.0127311703E+001  +2.9098799355E-002 -6.0924236498E+000  +1.2962093157E+000 -1.8133281587E+001 
7392565.707 +1.3929116607E+000 -7.5228669670E+000  +7.1839839656E-003 -2.3802755097E+001  +1.0703014677E-002 -2.4072696035E+001  +1.3901002917E+000 -5.6693644949E+000 
7517710.889 +1.1594079237E+000 -5.2342071768E+000  +3.0021430052E-003 +7.8287018670E+001  +1.1971214233E-002 +9.8977126212E+000  +1.1182376511E+000 -5.9518437693E+000 
7642856.070 +1.0285311202E+000 +1.0945756334E+000  +1.3627804890E-002 +3.3142527199E+001  +7.0836965692E-003 -4.5175192532E+000  +1.1675327138E+000 -2.6654692567E+000 
7768001.252 +9.3798241883E-001 +4.5077220005E+000  +7.7744821931E-003 +2.9208929596E+001  +1.1435621508E-002 +1.4601516144E+000  +9.9563316619E-001 -2.3793087373E+000 
7893146.433 +8.9577241800E-001 +6.2060233388E+000  +1.4011966791E-002 +1.5060426335E+001  +8.0379493423E-003 +5.3607896332E+001  +8.9551831026E-001 -4.5266159400E+000 
8018291.615 +7.8370570796E-001 +5.5824626737E+000  +8.0577743329E-003 +7.8619649817E+000  +6.4993452794E-003 +1.1581378905E+001  +7.9937048974E-001 -2.0657134305E+000 
8143436.796 +7.0304401022E-001 +6.5467539324E+000  +1.6193438334E-002 +7.7794665612E+000  +1.4480983679E-002 +5.6879177576E+000  +7.9345150209E-001 +8.3518422198E-001 
8268581.977 +8.2696650673E-001 +1.2651052596E+001  +1.0183883056E-002 +1.6234414074E+000  +1.3167270475E-002 +6.3464908125E+000  +7.6774444204E-001 -2.6496000486E+000 
8393727.159 +6.6514009356E-001 +4.8649785429E+000  +8.7758221820E-003 -1.4305748636E+001  +9.8954151436E-003 +3.1851178521E+001  +7.1449646114E-001 -4.5828823443E-001 
8518872.340 +6.7313151563E-001 +4.1964997387E+000  +9.0763216888E-003 -4.9238139719E+000  +1.0339806611E-002 +1.6704511079E+001  +7.3931977855E-001 -1.0810104661E+000 
8644017.522 +6.3489543934E-001 +8.8442355285E+000  +9.7551364667E-003 +2.6221244498E+000  +8.2374159254E-003 +2.8483379601E+001  +6.6493940940E-001 -2.4087580210E+000 
8769162.703 +6.3513545944E-001 +9.0686612483E+000  +9.7294928994E-003 +1.3877759815E+001  +7.1347389318E-003 +2.4802390388E+001  +6.6669050804E-001 +1.9827424001E+000 
8894307.885 +5.8397811429E-001 +5.3335483376E+000  +5.7554334960E-003 -1.8887939931E+001  +1.0407669892E-002 +1.5445675744E+001  +6.3281026105E-001 +2.7169558262E+000 
9019453.066 +5.7064538094E-001 +6.7882490045E+000  +5.1770263218E-003 -1.1958125999E+001  +7.2869305330E-003 +1.3002855854E+001  +6.5046258776E-001 -2.4889771363E+000 
9144598.248 +5.9649135386E-001 +7.6125487712E+000  +2.0313188875E-003 -7.7898740936E+001  +8.1506888084E-003 +2.6711502045E+001  +6.6065062868E-001 -3.8379552935E+000 
9269743.429 +6.2488697140E-001 +6.2923343466E+000  +5.6482905888E-003 -2.0805166436E+001  +9.8117640369E-003 +1.0259511460E+001  +5.6245291081E-001 +4.8850247856E-001 
9394888.611 +5.6920418789E-001 +3.2707406584E+000  +5.2624007639E-003 +7.1911948000E+000  +1.0686388428E-002 +2.0367819601E+001  +6.1033435109E-001 -3.1229027577E+000 
9520033.792 +4.6993745919E-001 -1.4503381595E-001  +5.7711101462E-003 +1.3511075075E+000  +1.0328710580E-002 +1.8505939126E+001  +6.0780924114E-001 -1.0439119197E-001 
9645178.974 +5.5965533004E-001 +3.9252179597E+000  +9.4943956547E-003 -2.4055202324E+001  +7.7419813606E-003 +4.1543948214E+001  +5.9414240529E-001 -2.2655328100E+000 
9770324.155 +5.6898871101E-001 +4.7281062257E+000  +7.1538668911E-003 -7.5638241686E+000  +8.1360984308E-003 +1.8307708940E+001  +5.6359011099E-001 -5.6344717387E+000 
9895469.337 +5.4311574999E-001 -1.3384859114E+000  +8.5552524702E-003 -6.7766037812E+000  +5.5853775108E-003 +2.8527077069E+000  +6.0165240339E-001 -2.9970464310E+000 
10020614.518 +5.6907915380E-001 +1.1016817691E+000  +8.4135043846E-003 +5.4356903737E-001  +1.1927583235E-002 +1.4080512029E+001  +6.2654265653E-001 -2.2526900449E+000 
10145759.700 +5.6901702206E-001 +5.4553092755E+000  +1.0116845729E-002 +8.3287891615E+000  +7.4865921770E-003 +2.0114670646E+001  +5.9619753152E-001 -1.9930107139E+000 
10270904.881 +5.1502171695E-001 +2.4833171945E+000  +7.0939612108E-003 -1.5314700617E+000  +9.8982346610E-003 +2.6194275580E+001  +5.8417977957E-001 -4.4310285539E+000 
10396050.063 +5.5985806841E-001 +7.5015198934E+000  +7.5761086446E-003 +1.0644760339E+001  +1.0403934995E-002 +4.5292071727E+000  +5.6356505676E-001 +1.6632729662E+000 
10521195.244 +5.4995813718E-001 +4.4288736468E+000  +8.5759249003E-003 +2.5248336480E+000  +7.6946063149E-003 +2.4038834230E+001  +5.7041807718E-001 +1.8684705902E+000 
10646340.426 +5.7154952229E-001 +6.7271439741E+000  +9.5377156793E-003 +6.7269221660E+000  +7.8615181590E-003 +2.0274754374E+001  +6.0826788327E-001 -1.3402063504E+000 
10771485.607 +5.9647684609E-001 +9.2557205240E+000  +6.9958156888E-003 +2.7905512256E+001  +7.2359923846E-003 +2.7699244938E+000  +6.0004502175E-001 +1.3039490614E+000 
10896630.788 +5.6761841920E-001 +8.9343100265E+000  +8.1718536408E-003 -9.5480904523E+000  +9.0788352531E-003 +8.3071266455E+000  +5.9305127497E-001 +2.6769037985E+000 
11021775.970 +5.9973161802E-001 +1.0589170341E+001  +9.7756111097E-003 +5.5676864137E+000  +8.1480166436E-003 +1.1717471504E+001  +6.3406903215E-001 +2.5881142465E+000 
11146921.151 +5.9354261636E-001 +9.3067623338E+000  +9.2202855903E-003 +1.6458396896E+000  +1.0660871007E-002 +1.1982392953E+001  +6.1093194542E-001 -7.5387186777E-001 
11272066.333 +6.2259392174E-001 +8.0899457017E+000  +7.8406346654E-003 +2.0946135256E+001  +8.4893241469E-003 +1.7228298230E+001  +6.3124231511E-001 +2.8937950058E+000 
11397211.514 +6.2286304331E-001 +5.6318009826E+000  +7.8304317878E-003 +1.7038195400E+001  +9.0045527990E-003 +1.9500754088E+001  +6.4237376414E-001 +2.8035723030E+000 
11522356.696 +6.1051026244E-001 +8.5784991374E+000  +7.3183814096E-003 +4.7484802418E+000  +9.5176920508E-003 +3.2559272515E+001  +6.2219367980E-001 +2.7902539938E+000 
11647501.877 +6.2209740370E-001 +7.4056205234E+000  +8.3990579290E-003 +1.3180851326E+001  +7.9191646742E-003 +3.3607646125E+001  +6.6442399298E-001 +9.9263233174E-001 
11772647.059 +6.5587773155E-001 +8.4507907763E+000  +7.8714559108E-003 +1.8714528301E+001  +1.1123492040E-002 +1.1179695306E+001  +6.5630933953E-001 +2.6030323957E+000 
11897792.240 +6.7028467639E-001 +5.8021551053E+000  +8.6894423408E-003 +1.9438301678E+001  +8.8513526221E-003 +1.7925431085E+001  +6.7797811773E-001 +1.4102492250E+000 
12022937.422 +6.5375603364E-001 +4.8030046260E+000  +8.5613034684E-003 +2.5098472587E+001  +7.0920574271E-003 +2.8936794199E+001  +6.7957921980E-001 +1.7093128992E+000 
12148082.603 +6.7718349935E-001 +4.6386277334E+000  +9.4716422188E-003 +7.0499805747E+000  +9.0005360682E-003 +1.7053374091E+001  +6.9463371404E-001 +7.9252622333E-001 
12273227.785 +6.8334984665E-001 +4.8237495479E+000  +7.9960027077E-003 +1.6750495595E+001  +9.7185245589E-003 +2.1097283967E+001  +6.9973227020E-001 -5.7416024409E-001 
12398372.966 +7.0147267051E-001 +3.4298704908E+000  +8.8866046395E-003 +4.1288089799E+000  +9.0130556917E-003 +2.2225150890E+001  +7.2330917957E-001 +1.0578713993E+000 
12523518.148 +7.2553829436E-001 +2.3661891072E+000  +8.8719478672E-003 -8.2540496205E-001  +1.1273154142E-002 +1.9022886088E+001  +7.1841735546E-001 -6.0823914699E-001 
12648663.329 +7.5024918733E-001 +1.8366455063E-001  +8.4553953870E-003 +4.9626181511E+000  +1.0958946516E-002 +2.8258106332E+001  +7.5479473040E-001 -5.0876114896E-001 
12773808.511 +7.5930886607E-001 +2.2848410861E+000  +8.5463292113E-003 +9.3082615780E+000  +9.1835720285E-003 +1.8878546394E+001  +7.5196032580E-001 +6.4234284727E-001 
12898953.692 +7.6888138777E-001 +1.7151223899E+000  +9.6060957921E-003 +4.7603064273E+000  +9.2922877679E-003 +1.4207569666E+001  +7.7705336886E-001 -2.2983248850E+000 
13024098.874 +7.9162083971E-001 +1.4978039388E+000  +1.0532237719E-002 +1.5118259785E+001  +9.2312861119E-003 +2.6562975350E+001  +7.9587656534E-001 -1.3448485261E+000 
13149244.055 +8.0773211541E-001 -3.9014630867E-001  +7.8556636674E-003 +1.3417996622E+001  +9.9758669694E-003 +1.7818561364E+001  +7.9397526353E-001 -9.1551713140E-001 
13274389.237 +8.0336444433E-001 -1.5508071953E+000  +9.8327780835E-003 +1.0191674442E+001  +1.1399053418E-002 +2.0876877518E+001  +8.1088162350E-001 -1.6224708991E+000 
13399534.418 +8.3629032861E-001 +2.5730587887E-001  +9.0506759919E-003 +6.4783538077E+000  +8.8614255285E-003 +8.0934363067E+000  +8.1864764780E-001 -9.7741115421E-001 
13524679.599 +8.4012960414E-001 -2.0553210384E+000  +9.1953415708E-003 +1.4557621985E+001  +8.8882675039E-003 +1.3942678055E+001  +8.7848369225E-001 -2.7857106886E+000 
13649824.781 +8.8405016843E-001 -3.0423662709E+000  +1.0751256598E-002 +1.9086921608E+001  +9.1762179813E-003 +9.4889511286E+000  +8.8590737024E-001 -2.7711151311E+000 
13774969.962 +8.8695329796E-001 -3.4982165413E+000  +9.8326984694E-003 +1.9328392577E+001  +1.0905626329E-002 +1.0718720107E+001  +8.9998978419E-001 -2.9799880294E+000 
13900115.144 +9.0436341026E-001 -3.1830061812E+000  +9.6445948864E-003 +9.0755057576E+000  +1.0996675411E-002 +1.3083573133E+001  +9.0478126015E-001 -3.3725049255E+000 
14025260.325 +9.0725338286E-001 -3.6736698354E+000  +1.0659833331E-002 +1.4309780740E+001  +8.4455922634E-003 +6.7594937594E+000  +9.4894974882E-001 -3.9000490126E+000 
14150405.507 +9.4555803085E-001 -4.4912648593E+000  +9.0478343512E-003 +3.2776762440E+000  +1.0652712038E-002 +3.9711309001E+000  +9.5075249892E-001 -5.1258821512E+000 
14275550.688 +9.6625845870E-001 -5.4732766277E+000  +1.0294595502E-002 +1.3407992539E+001  +9.5629723954E-003 +1.4890937514E+001  +9.7571909324E-001 -5.1552113895E+000 
14400695.870 +9.5949871252E-001 -5.6602670330E+000  +9.9799411239E-003 +1.3378405337E+001  +9.7906655139E-003 +8.9021263195E+000  +9.5523572910E-001 -4.2910530030E+000 
