!  2-Port S-parameters saved by WinCal
! VAR MeasName=S-Parameters (CALIBRATED_DATA) read from VNA (P5004A)
! VAR MeasDate=29/08/2024 13:35:14
! VAR NAME=S2_r9c6_pristine_9k-100M_2
! VAR FILENAME=S2_r9c6_pristine_9k-100M_2.S2P
! VAR DATE=29/08/2024 13:35:14
! VAR PHYS_PORTS=1,2
! VAR ObjTypeName=DATASET
! VAR IndexType=Frequency
!
# Hz S MA R 50
9000.000 +8.6183527075E-002 -1.6606706296E+002  +4.9976276093E-003 -1.3025547630E+002  +9.2290252130E-003 +1.7476626985E+002  +1.8596957084E-001 -1.3661113938E+002 
134145.181 +1.1103584373E-001 +1.6962361011E+002  +2.0819832735E-004 -1.1032384242E+002  +1.2428298721E-004 +6.1800414664E+000  +2.3743135882E-001 -1.7176704387E+002 
259290.363 +1.1187175614E-001 +1.6948793589E+002  +6.3834433896E-004 -3.1631564705E+000  +3.3542162863E-004 -1.7833081357E+002  +2.3777965130E-001 -1.6890309577E+002 
384435.544 +1.1399765409E-001 +1.7013273995E+002  +2.4333787541E-004 -2.1958640149E+001  +5.2364819372E-004 +1.6968469746E+002  +2.4263989830E-001 -1.7027973437E+002 
509580.726 +1.1267547026E-001 +1.7081126820E+002  +1.3845970608E-003 -3.9871979509E+001  +2.1557139488E-003 +1.6403706864E+002  +2.4075851215E-001 -1.6659311146E+002 
634725.907 +1.1722721982E-001 +1.7088706229E+002  +1.8113214559E-003 -5.2051786186E+001  +1.8202372757E-003 -1.7888715866E+002  +2.5363330267E-001 -1.6323263885E+002 
759871.089 +1.1991699174E-001 +1.7087999910E+002  +1.5751048353E-003 -6.6781927921E+001  +1.6798505473E-003 +1.1726429805E+002  +2.5783057757E-001 -1.6633253622E+002 
885016.270 +1.2117492677E-001 +1.6915996515E+002  +6.4058858755E-004 -5.1647563142E+001  +8.3112264207E-004 +1.7178798489E+002  +2.4681250490E-001 -1.6741379131E+002 
1010161.452 +1.1662832143E-001 +1.6876137506E+002  +1.5589463640E-003 +3.6755913122E+001  +3.8539811822E-003 -1.4374303303E+002  +2.1554043408E-001 -1.6669268719E+002 
1135306.633 +1.2046089725E-001 +1.6865979470E+002  +2.9931435465E-003 +3.9443238619E+001  +4.2184228894E-003 -1.2496508040E+002  +1.9414880909E-001 -1.6531324382E+002 
1260451.815 +1.1532038859E-001 +1.7002577732E+002  +5.1977242189E-003 -3.8804514293E+000  +7.0523380760E-003 -1.5491553270E+002  +2.2875202320E-001 -1.5809850972E+002 
1385596.996 +1.2647853117E-001 +1.7098123700E+002  +2.8259578001E-003 -3.7526395311E+001  +4.0075451153E-003 +1.4060137967E+002  +2.7173244534E-001 -1.6110975194E+002 
1510742.178 +1.2840475630E-001 +1.7159217596E+002  +2.0526137772E-003 -1.7393477588E+001  +2.8751019553E-003 -1.5326616143E+002  +2.5406880538E-001 -1.6105936692E+002 
1635887.359 +1.3223498564E-001 +1.7207063279E+002  +4.6336498403E-003 -3.5172390062E+000  +4.2732273546E-003 -1.3558007820E+002  +2.4171063824E-001 -1.5899717791E+002 
1761032.541 +1.2961732851E-001 +1.6903858354E+002  +5.9078687116E-003 +4.8967476569E+001  +5.8806029315E-003 -8.6486208387E+001  +2.2952522732E-001 -1.5831898450E+002 
1886177.722 +1.2914201608E-001 +1.6704329456E+002  +1.0017772125E-002 +7.0344517338E+001  +1.1805081148E-002 -6.1238603908E+001  +2.1436592728E-001 -1.5799817741E+002 
2011322.904 +1.2973951755E-001 +1.6810056077E+002  +1.6085731187E-002 +7.8363865937E+001  +2.1470848600E-002 -5.6336928512E+001  +1.7879991390E-001 -1.6195990812E+002 
2136468.085 +1.3521131311E-001 +1.6726924496E+002  +1.4675808021E-002 +7.6131815059E+001  +1.5623164340E-002 -5.7847233019E+001  +2.1714811865E-001 -1.5828841805E+002 
2261613.267 +1.2780096978E-001 +1.6749999203E+002  +2.6957953134E-002 +6.9934095828E+001  +2.7078872153E-002 -5.0033317299E+001  +1.9993529760E-001 -1.6046578469E+002 
2386758.448 +1.3534941205E-001 +1.6439773594E+002  +2.5500152599E-002 +8.2395116377E+001  +2.4806766345E-002 -3.4774187406E+001  +2.1414102167E-001 -1.6151262814E+002 
2511903.630 +1.3288326120E-001 +1.6754285069E+002  +3.6563909234E-002 +7.7796394835E+001  +3.8290281400E-002 -4.0252414684E+001  +1.8447144298E-001 -1.6818906800E+002 
2637048.811 +1.1815666525E-001 +1.6730122664E+002  +7.8095854485E-002 +6.7200090632E+001  +7.7425638404E-002 -4.7958712715E+001  +8.3093494671E-002 -1.6518082718E+002 
2762193.992 +1.1450677928E-001 -1.7984428854E+002  +8.5205926014E-002 +3.0353931194E+001  +8.8420384319E-002 -8.0225899137E+001  +1.5909315037E-001 -1.2499474553E+002 
2887339.174 +1.4065605816E-001 -1.7788748017E+002  +5.8757335490E-002 +4.3431224367E+000  +6.2502206526E-002 -9.8725721146E+001  +2.2508664646E-001 -1.3525888167E+002 
3012484.355 +1.4882198189E-001 -1.7822038368E+002  +8.9287784318E-002 +3.3557943239E-001  +8.6733617819E-002 -9.8389593722E+001  +2.3358144181E-001 -1.0178729187E+002 
3137629.537 +1.2717002447E-001 -1.6651865533E+002  +1.2198452235E-001 -2.7326340374E+000  +1.2597832385E-001 -9.5575806362E+001  +2.7060848888E-001 -1.0880196441E+002 
3262774.718 +1.2996198307E-001 -1.7147289627E+002  +1.3865859601E-001 +1.5396119646E+001  +1.4793109299E-001 -7.5847351006E+001  +1.8715989015E-001 -6.6376172335E+001 
3387919.900 +1.2972577225E-001 +1.7730479126E+002  +9.3716335635E-002 +2.3797537718E+001  +9.3802730776E-002 -6.4688834551E+001  +1.8346162002E-001 -1.2203715554E+002 
3513065.081 +1.3289676214E-001 +1.6577789926E+002  +1.0120272008E-001 +6.4991505872E+001  +9.8040154585E-002 -1.9136447968E+001  +1.5147283555E-001 +1.6548314219E+002 
3638210.263 +1.4044487214E-001 +1.5359498047E+002  +1.2672913657E-001 +8.0398299023E+001  +1.2057722000E-001 -2.3526747727E+000  +1.7293660435E-001 +1.4812748639E+002 
3763355.444 +1.6522176719E-001 +1.5058881460E+002  +1.1112915226E-001 +1.0924953376E+002  +1.0800322537E-001 +2.9784013947E+001  +3.4016679325E-001 +1.6389584199E+002 
3888500.626 +1.3643390362E-001 +1.4803049000E+002  +1.6388120425E-001 +8.3263303142E+001  +1.5526681838E-001 +7.6919818166E+000  +2.4568630821E-001 +1.4045379771E+002 
4013645.807 +1.6549643982E-001 +1.4786826254E+002  +1.5128800875E-001 +8.1154746286E+001  +1.5139824729E-001 +1.0751407059E+001  +1.7711415984E-001 +1.3778979900E+002 
4138790.989 +1.7292776920E-001 +1.4250302097E+002  +1.5189578299E-001 +1.0140374190E+002  +1.4919808190E-001 +3.4441706090E+001  +3.6297681637E-001 +1.6028759017E+002 
4263936.170 +1.6696223604E-001 +1.5011925834E+002  +1.4784706530E-001 +7.4507100921E+001  +1.4435683055E-001 +9.6113701356E+000  +1.9014999461E-001 +1.5795966071E+002 
4389081.352 +2.0832460591E-001 +1.4633724982E+002  +1.7268077568E-001 +1.0060697277E+002  +1.6637485199E-001 +4.0277416724E+001  +3.8454203881E-001 +1.4722386738E+002 
4514226.533 +1.7826754096E-001 +1.4436448603E+002  +1.9611891030E-001 +8.8922959909E+001  +1.8840886064E-001 +3.2246415314E+001  +3.9800965811E-001 +1.4726688851E+002 
4639371.715 +2.6107627489E-001 +1.3087968788E+002  +3.1853952907E-001 +1.1988213826E+002  +3.1034638598E-001 +6.4913574387E+001  +7.6729886410E-001 +1.4707731729E+002 
4764516.896 +4.1084358901E-001 +1.3123840867E+002  +4.5935108585E-001 +1.3724885400E+002  +4.4682441122E-001 +8.8291733067E+001  +9.8644604787E-001 +1.4939908696E+002 
4889662.078 +9.4988235220E-001 +1.1683315297E+002  +1.9325196342E+000 +1.4431006996E+002  +1.8646297505E+000 +9.4259598234E+001  +4.5822851723E+000 +1.4009018851E+002 
5014807.259 +4.5225793238E-001 +1.3941423360E+002  +5.3164092999E-001 +1.5161977053E+002  +5.1783865166E-001 +1.0659838369E+002  +1.4039594700E+000 +1.5988041020E+002 
5139952.441 +3.2264698882E-001 +1.3194422633E+002  +3.9044929485E-001 +1.0941622837E+002  +3.7868929318E-001 +6.7425063019E+001  +8.8816116925E-001 +1.3515882302E+002 
5265097.622 +3.5760821475E-001 +1.3558552707E+002  +3.8604923474E-001 +1.2228683432E+002  +3.8113620907E-001 +8.2270601670E+001  +1.0496246280E+000 +1.4905861846E+002 
5390242.804 +3.5672413921E-001 +1.2706440355E+002  +4.2244720401E-001 +1.0408702792E+002  +4.1436955709E-001 +6.7487887896E+001  +8.7463381929E-001 +1.3664711428E+002 
5515387.985 +3.0102970108E-001 +1.3224492061E+002  +3.3987749224E-001 +8.9385826477E+001  +3.3320076351E-001 +5.5836737033E+001  +6.9870672213E-001 +1.4204135993E+002 
5640533.166 +3.0979414682E-001 +1.2082930416E+002  +3.9878713651E-001 +8.2848398462E+001  +3.8848105774E-001 +5.1142039070E+001  +6.5124103399E-001 +1.3928333260E+002 
5765678.348 +3.1571600748E-001 +1.3248645895E+002  +3.9636658922E-001 +8.5353059143E+001  +3.8596949807E-001 +5.6361203705E+001  +8.7680804323E-001 +1.3735940171E+002 
5890823.529 +3.8818812816E-001 +1.2926964896E+002  +4.4248488248E-001 +9.0183204207E+001  +4.3556783874E-001 +6.4283974929E+001  +9.7200788379E-001 +1.3626835701E+002 
6015968.711 +3.7711661819E-001 +1.1880432149E+002  +5.2510107070E-001 +7.9782474583E+001  +5.2320812294E-001 +5.4909282902E+001  +9.6041114836E-001 +1.2774325674E+002 
6141113.892 +3.2317381936E-001 +1.1241925984E+002  +6.2746186254E-001 +6.3898057183E+001  +6.1711177616E-001 +4.0942796854E+001  +9.8626403020E-001 +1.0688778903E+002 
6266259.074 +3.3101644188E-001 +1.0778714660E+002  +6.4428670152E-001 +5.3538176421E+001  +6.4102879897E-001 +3.5507125593E+001  +7.8340072041E-001 +9.7839964350E+001 
6391404.255 +4.1366566100E-001 +1.0938740513E+002  +6.4649468475E-001 +5.9296541093E+001  +6.3679203705E-001 +4.2504678176E+001  +8.7057607915E-001 +1.1121973402E+002 
6516549.437 +2.2093832720E-001 +8.8270397864E+001  +8.3937332550E-001 +3.4811095358E+001  +8.1771946851E-001 +2.1691322733E+001  +9.5917419517E-001 +7.6246503768E+001 
6641694.618 +2.8507148663E-001 +7.5320824628E+001  +8.6985759400E-001 +3.2915702493E+001  +8.4989100933E-001 +2.1310181013E+001  +8.0134779155E-001 +7.8506350614E+001 
6766839.800 +2.8246306066E-001 +7.2501969744E+001  +8.5547335602E-001 +2.4543916827E+001  +8.5855430007E-001 +1.5507671117E+001  +5.7367588967E-001 +6.4172767790E+001 
6891984.981 +2.0211576537E-001 +6.6994093946E+001  +8.8316067415E-001 +1.6412369284E+001  +8.7821085578E-001 +8.8822289995E+000  +5.3414332020E-001 +5.7690274950E+001 
7017130.163 +1.3916154380E-001 +1.7025485569E+001  +9.3851220321E-001 +7.7423550208E+000  +9.4441336399E-001 +2.0743488132E+000  +4.5345437683E-001 +4.0884537607E+001 
7142275.344 +3.7615096928E-002 +6.3575612149E+001  +8.9973628299E-001 +2.7863319327E+000  +9.0077152478E-001 -9.4797426859E-001  +2.9065132093E-001 +9.9459767087E+000 
7267420.526 +1.1405219687E-001 -3.9855178612E+001  +9.6089279175E-001 +2.1634077323E-001  +9.5176939874E-001 -1.3901493314E+000  +2.7643690745E-001 +8.2686166743E+000 
7392565.707 +8.2800079423E-002 +5.9599957734E+001  +9.4165135635E-001 +1.2506045679E+000  +9.4625071401E-001 +1.5897583261E+000  +1.8420537790E-001 -2.1347954055E+001 
7517710.889 +1.1829524266E-001 +9.6274391856E+001  +9.0563622526E-001 -1.3368363776E+000  +9.0297824625E-001 +1.2937755336E+000  +2.4673201409E-002 -1.1524942231E+002 
7642856.070 +1.1879322286E-001 +1.0950318018E+002  +8.5397512686E-001 -2.3776123941E+000  +8.5640648861E-001 +7.0239362628E-001  +1.9477231214E-001 +1.3775948596E+002 
7768001.252 +1.2548218171E-001 +8.7249579175E+001  +8.4489975590E-001 -1.4710405222E+000  +8.4822036314E-001 +3.5521730569E+000  +1.0395476035E-001 +8.5328620906E+001 
7893146.433 +1.8093719012E-001 +1.1540129931E+002  +8.0499392378E-001 -3.0961423272E+000  +8.0168615933E-001 +3.1535738345E+000  +1.3587095641E-001 +1.0847320912E+002 
8018291.615 +1.9868536062E-001 +1.1647651138E+002  +7.7549677969E-001 -4.4403571375E+000  +7.7216182340E-001 +3.4415937464E+000  +2.3190404936E-001 +1.1566648881E+002 
8143436.796 +2.3560958679E-001 +1.3340995314E+002  +7.6748731667E-001 -5.6914149896E+000  +7.6696734629E-001 +3.4927139227E+000  +1.6945268420E-001 +1.2719666407E+002 
8268581.977 +2.5077223799E-001 +1.1963483732E+002  +7.3659432405E-001 -5.5238103929E+000  +7.3489369272E-001 +4.1821415975E+000  +2.5976455816E-001 +1.2290344880E+002 
8393727.159 +2.6153912797E-001 +1.2892119224E+002  +7.2586498203E-001 -5.9125977853E+000  +7.2406679262E-001 +4.9969055740E+000  +2.4750751159E-001 +1.0156391738E+002 
8518872.340 +2.6366915322E-001 +1.2299861878E+002  +7.1262929166E-001 -6.1972862836E+000  +7.0898269127E-001 +6.0596589676E+000  +2.7573484966E-001 +1.1280478212E+002 
8644017.522 +2.7432239369E-001 +1.2851791418E+002  +6.9643851219E-001 -6.8556927233E+000  +6.9213524384E-001 +5.1867922916E+000  +3.3760112136E-001 +1.1401266362E+002 
8769162.703 +2.1475480596E-001 +1.1700157119E+002  +7.1656867108E-001 -6.6508314661E+000  +7.1367187584E-001 +6.6895118266E+000  +2.1293621038E-001 +1.2411904265E+002 
8894307.885 +2.5706506427E-001 +1.4140172030E+002  +6.9850562664E-001 -8.5955860262E+000  +6.9299940825E-001 +5.1268609650E+000  +3.1216092126E-001 +1.2733216327E+002 
9019453.066 +2.8934204337E-001 +1.3029228529E+002  +6.8762395817E-001 -8.0954672837E+000  +6.8754421141E-001 +6.6981544290E+000  +2.6214539299E-001 +1.2022016824E+002 
9144598.248 +2.5156285451E-001 +1.3528049134E+002  +6.9522304495E-001 -8.2375272988E+000  +6.8990830668E-001 +6.4601555513E+000  +2.4051477508E-001 +1.2799851906E+002 
9269743.429 +2.6038832722E-001 +1.4079057094E+002  +6.8812368453E-001 -9.2336635943E+000  +6.8880141700E-001 +6.0904030880E+000  +2.6775115133E-001 +1.3341171807E+002 
9394888.611 +2.3804874877E-001 +1.3446448759E+002  +6.8470235457E-001 -8.4490341434E+000  +6.8117451534E-001 +6.5180348971E+000  +2.9582166494E-001 +1.2859401993E+002 
9520033.792 +2.9120018947E-001 +1.5094477367E+002  +6.8741984525E-001 -1.0199167087E+001  +6.8081708155E-001 +5.8404424230E+000  +2.6068725101E-001 +1.3316087966E+002 
9645178.974 +3.0075445498E-001 +1.4308370942E+002  +6.8068957359E-001 -9.6523461149E+000  +6.7648540514E-001 +6.2452648884E+000  +2.6944289483E-001 +1.3147964016E+002 
9770324.155 +2.8189669594E-001 +1.5163512702E+002  +6.9124257066E-001 -1.0188035252E+001  +6.8713557607E-001 +5.5707087387E+000  +2.6324735291E-001 +1.4140557290E+002 
9895469.337 +2.3011709933E-001 +1.3849962963E+002  +6.9432477020E-001 -8.8902054185E+000  +6.9082766287E-001 +6.9054425531E+000  +2.4036441905E-001 +1.4031425162E+002 
10020614.518 +2.6261725309E-001 +1.4516019670E+002  +6.8785084264E-001 -8.7716252426E+000  +6.8420170209E-001 +6.7833204020E+000  +2.5844196494E-001 +1.2586315513E+002 
10145759.700 +2.5202906449E-001 +1.4017936259E+002  +6.8918160279E-001 -8.8586500006E+000  +6.8485458344E-001 +6.8594309427E+000  +2.7096510672E-001 +1.3210453874E+002 
10270904.881 +2.6053918132E-001 +1.3922628427E+002  +6.8848357291E-001 -8.8043942483E+000  +6.8354090230E-001 +6.7114652066E+000  +2.7703976148E-001 +1.3488049574E+002 
10396050.063 +2.5861972687E-001 +1.3432002037E+002  +6.8906779214E-001 -8.1741374243E+000  +6.8341786196E-001 +7.2725372621E+000  +2.7729030102E-001 +1.3292530978E+002 
10521195.244 +2.6576778083E-001 +1.3648660255E+002  +6.9206178664E-001 -8.2431080834E+000  +6.8654834023E-001 +7.0235369937E+000  +2.7358375023E-001 +1.3275764921E+002 
10646340.426 +2.8705186008E-001 +1.3817992310E+002  +6.8981025728E-001 -8.1736480612E+000  +6.8521522231E-001 +6.7292221873E+000  +2.7439966718E-001 +1.2539037381E+002 
10771485.607 +2.3229198446E-001 +1.3403871180E+002  +7.0031248341E-001 -7.2793705191E+000  +6.9492225749E-001 +7.1010713679E+000  +2.5620188018E-001 +1.2569187759E+002 
10896630.788 +2.6789669950E-001 +1.2879376125E+002  +6.9720692648E-001 -7.2116899319E+000  +6.9384995217E-001 +6.7457828229E+000  +2.7057676911E-001 +1.3030785620E+002 
11021775.970 +2.4909830918E-001 +1.2546714424E+002  +7.0872141765E-001 -6.5641003441E+000  +7.0229559539E-001 +7.3234848167E+000  +2.2351486090E-001 +1.3224810756E+002 
11146921.151 +2.2501519602E-001 +1.3068947479E+002  +7.1511225589E-001 -6.4429905946E+000  +7.1069955293E-001 +6.8004352480E+000  +2.5491360815E-001 +1.2774354416E+002 
11272066.333 +2.3191516396E-001 +1.3452885121E+002  +7.1886573668E-001 -6.7171576830E+000  +7.1708530746E-001 +6.1813686015E+000  +2.5715316618E-001 +1.3125863339E+002 
11397211.514 +2.5841225625E-001 +1.3051264231E+002  +7.1637003529E-001 -6.0106238956E+000  +7.1183099461E-001 +6.4510775539E+000  +2.4207931379E-001 +1.2014593586E+002 
11522356.696 +2.3087508002E-001 +1.3242943090E+002  +7.2918940060E-001 -5.5304675077E+000  +7.2336746217E-001 +6.3628354088E+000  +2.2761170722E-001 +1.2171143484E+002 
11647501.877 +2.1286173456E-001 +1.2828680383E+002  +7.3646583051E-001 -5.2807048292E+000  +7.3022773513E-001 +6.0593988109E+000  +2.3481920740E-001 +1.2563823760E+002 
11772647.059 +2.2362469707E-001 +1.2754689105E+002  +7.4187867639E-001 -5.2364074398E+000  +7.3549629034E-001 +5.7260712978E+000  +2.2854099548E-001 +1.2782703865E+002 
11897792.240 +2.1400499759E-001 +1.2035969836E+002  +7.4596778818E-001 -4.4291513318E+000  +7.3938568790E-001 +5.8401481232E+000  +2.2706760867E-001 +1.2269197481E+002 
12022937.422 +2.0449860624E-001 +1.3147874663E+002  +7.5520358445E-001 -4.8059645300E+000  +7.5164133989E-001 +4.8159097405E+000  +2.2983768539E-001 +1.2750002274E+002 
12148082.603 +1.7903208874E-001 +1.2280597888E+002  +7.6378818199E-001 -3.8863749876E+000  +7.5911280247E-001 +5.2628587089E+000  +2.0790979190E-001 +1.2312419581E+002 
12273227.785 +1.5916438971E-001 +1.2209290740E+002  +7.7304937776E-001 -3.5486838709E+000  +7.7231803039E-001 +4.8230471002E+000  +2.0349317453E-001 +1.2573952268E+002 
12398372.966 +1.7633674479E-001 +1.2710921115E+002  +7.7994251484E-001 -3.5491721537E+000  +7.7387495548E-001 +4.3556459488E+000  +1.9506765375E-001 +1.2257117738E+002 
12523518.148 +1.6966947050E-001 +1.2468029776E+002  +7.8699321897E-001 -3.0863343758E+000  +7.8302549729E-001 +3.9760985112E+000  +1.9128954594E-001 +1.2077683843E+002 
12648663.329 +1.5646761342E-001 +1.2884596602E+002  +7.9849649515E-001 -2.8069548989E+000  +7.9008702692E-001 +3.8060059141E+000  +1.8606388034E-001 +1.1872940494E+002 
12773808.511 +1.2802972661E-001 +1.1630743737E+002  +8.0860680212E-001 -2.2077511604E+000  +8.0352016365E-001 +3.7322727980E+000  +1.6716327426E-001 +1.2190331569E+002 
12898953.692 +1.3758022272E-001 +1.2659411163E+002  +8.1741261544E-001 -2.6427061981E+000  +8.1093390931E-001 +3.0003126931E+000  +1.6423172485E-001 +1.2700510482E+002 
13024098.874 +1.2749005809E-001 +1.1980672534E+002  +8.2807383378E-001 -1.9741268697E+000  +8.2236168160E-001 +2.9326989003E+000  +1.3468266620E-001 +1.2578637912E+002 
13149244.055 +1.1847895164E-001 +1.2062066751E+002  +8.3659213441E-001 -1.9443419790E+000  +8.3087653926E-001 +2.5409906077E+000  +1.2731809945E-001 +1.2521370633E+002 
13274389.237 +1.0783399106E-001 +1.1922805466E+002  +8.4405752541E-001 -1.5889904029E+000  +8.3764590351E-001 +2.1880458250E+000  +1.3318804861E-001 +1.2018717024E+002 
13399534.418 +1.1654722535E-001 +1.1819363455E+002  +8.5472867498E-001 -1.4401408690E+000  +8.4906447401E-001 +2.1267320832E+000  +8.2468013218E-002 +1.1786072053E+002 
13524679.599 +1.1603093758E-001 +1.1415267113E+002  +8.5327759097E-001 -1.6390857618E+000  +8.6002187734E-001 +1.3097595988E+000  +8.8089167659E-002 +1.2079129903E+002 
13649824.781 +6.8359656171E-002 +1.1759287867E+002  +8.7171409661E-001 -1.2443031676E+000  +8.6747160471E-001 +1.1141420264E+000  +9.8865636306E-002 +1.2390211739E+002 
13774969.962 +8.2456341526E-002 +1.0589833614E+002  +8.8111071840E-001 -1.4164164898E+000  +8.7730971065E-001 +1.1928102159E+000  +7.2978177917E-002 +1.2013455449E+002 
13900115.144 +5.5976359723E-002 +1.3906814691E+002  +9.0598786208E-001 -6.0595746005E-001  +8.8496915592E-001 +5.2221075682E-001  +7.9671376227E-002 +1.1754812664E+002 
14025260.325 +3.0739526542E-002 +9.8192113863E+001  +9.0215426539E-001 -6.1361102208E-001  +8.9883872490E-001 +1.2534442051E+000  +5.5803473643E-002 +1.2810009401E+002 
14150405.507 +4.3649407167E-002 +1.2205390183E+002  +9.2069930420E-001 -7.5049156631E-001  +9.0917281305E-001 +5.7595603012E-001  +3.1535759602E-002 +9.3021723849E+001 
14275550.688 +1.7680810806E-002 +6.1105816576E+001  +9.3751343967E-001 -3.9589800649E-001  +9.2157724112E-001 -8.1062806166E-001  +2.5781292842E-002 +9.5079782342E+001 
14400695.870 +1.7895943273E-002 +7.5415902241E+001  +9.3624119401E-001 -1.0370213145E+000  +9.3802090325E-001 +5.3431614788E-001  +1.1874390905E-002 +6.4089366370E+001 
