!  2-Port S-parameters saved by WinCal
! VAR MeasName=S-Parameters (CALIBRATED_DATA) read from VNA (P5004A)
! VAR MeasDate=29/08/2024 10:43:50
! VAR NAME=S2_r9c2_RESET4_9k-100M_1
! VAR FILENAME=S2_r9c2_RESET4_9k-100M_1.S2P
! VAR DATE=29/08/2024 10:43:51
! VAR PHYS_PORTS=1,2
! VAR ObjTypeName=DATASET
! VAR IndexType=Frequency
!
# Hz S MA R 50
9000.000 +8.7109471798E-002 -1.6871684281E+002  +1.3395078298E-003 -8.1464362653E+001  +5.4806279679E-003 +3.4324470695E+001  +2.9167825420E-001 -1.4947574976E+002 
134145.181 +1.1101277545E-001 +1.6951751598E+002  +2.6308722805E-004 -1.9305521050E+001  +2.9642136039E-004 +1.5015602161E+002  +2.3884005404E-001 -1.7009742749E+002 
259290.363 +1.1037959702E-001 +1.7050587616E+002  +2.3093412120E-004 -1.4714306446E+002  +1.1685595748E-003 -1.7733303402E+002  +2.3112536876E-001 -1.6867752367E+002 
384435.544 +1.1449339997E-001 +1.6987645503E+002  +1.6523160616E-005 -1.3871636185E+002  +4.5540289482E-004 -2.0061512788E+001  +2.4046978776E-001 -1.6949386919E+002 
509580.726 +1.1230176522E-001 +1.7020440790E+002  +1.3207136856E-003 -8.4558761798E+001  +1.1094501496E-003 +1.3873645920E+002  +2.4159572510E-001 -1.6570436351E+002 
634725.907 +1.1607425276E-001 +1.7085318532E+002  +8.8075072056E-004 -1.6485472594E+002  +8.1298288484E-004 +1.2854372778E+002  +2.4473621466E-001 -1.6449472672E+002 
759871.089 +1.2035908174E-001 +1.7055863742E+002  +6.0139085008E-004 -9.7320571165E+001  +1.0185284351E-003 +5.7884165564E+001  +2.4427501726E-001 -1.6559696351E+002 
885016.270 +1.2066151184E-001 +1.6861213576E+002  +2.2023018794E-004 -5.8348692700E+001  +2.7320565886E-004 +1.2863354478E+002  +2.4686539870E-001 -1.6792456589E+002 
1010161.452 +1.1823159149E-001 +1.6981676865E+002  +1.0292410787E-003 -3.0012439493E+001  +7.4368746991E-004 -1.7039713750E+002  +2.0278328437E-001 -1.6722869987E+002 
1135306.633 +1.1537170519E-001 +1.6850267951E+002  +1.4148390291E-003 -3.2048046701E+001  +1.9912077550E-003 -1.5158961965E+002  +2.0477987242E-001 -1.6992170842E+002 
1260451.815 +1.1654118607E-001 +1.6842966777E+002  +1.4977719925E-003 -8.4592399073E+001  +1.6675812260E-003 +9.1663599302E+001  +2.1452640683E-001 -1.6121839768E+002 
1385596.996 +1.2789473828E-001 +1.7288868798E+002  +3.0477040183E-004 -4.6304851164E+001  +2.2073481365E-003 +5.5214841028E+001  +2.6855622294E-001 -1.5665171322E+002 
1510742.178 +1.2858326856E-001 +1.7197891637E+002  +4.9367822014E-004 -1.4177475641E+002  +1.2242313294E-003 +1.3436751106E+002  +2.8224419544E-001 -1.5767988723E+002 
1635887.359 +1.2830214862E-001 +1.7046930370E+002  +5.5065307315E-004 -7.3229090515E+001  +1.3640050363E-003 +1.3010313018E+002  +2.4332178289E-001 -1.5771733242E+002 
1761032.541 +1.2425928710E-001 +1.6972273357E+002  +7.2893465858E-004 +5.1343475025E+001  +1.2050603859E-003 +1.7963774592E+002  +2.2611745752E-001 -1.6192304036E+002 
1886177.722 +1.2902546090E-001 +1.6865109605E+002  +4.7516041144E-003 +2.0346323525E+001  +1.5035875978E-003 -7.3097871343E+001  +1.9581614504E-001 -1.6174686331E+002 
2011322.904 +1.3110142099E-001 +1.6693993406E+002  +2.8746984214E-003 +6.0429230567E+001  +3.5869673155E-003 -4.5108494502E+001  +1.9928974500E-001 -1.6969388856E+002 
2136468.085 +1.2813441518E-001 +1.6671704505E+002  +5.0248594687E-003 +6.5280270664E+001  +4.5962800065E-003 -7.8448165558E+001  +1.7952571008E-001 -1.6285196442E+002 
2261613.267 +1.2783102633E-001 +1.6623278019E+002  +3.0933019415E-003 +8.9750786264E+001  +2.9454932686E-003 -3.2564630363E+001  +2.2085306803E-001 -1.7838855719E+002 
2386758.448 +1.3280624223E-001 +1.6890660142E+002  +8.2361420966E-003 +6.9385027759E+001  +4.8624339230E-003 -7.5028904024E+001  +2.0771528384E-001 +1.7875386827E+002 
2511903.630 +1.3808856453E-001 +1.6439589819E+002  +1.0097682749E-002 +8.5049597059E+001  +5.4748906624E-003 -2.3512898849E+001  +1.6736820087E-001 -1.7707562231E+002 
2637048.811 +1.2979442488E-001 +1.6715984830E+002  +1.9956825687E-002 +7.1062067990E+001  +1.7275583954E-002 -5.9373561129E+001  +1.4355235989E-001 +1.3434072531E+002 
2762193.992 +1.2197721554E-001 +1.7305807516E+002  +2.1353503513E-002 +3.6316823468E+001  +2.0296928439E-002 -9.9944348239E+001  +9.5084498825E-002 +1.0479816578E+002 
2887339.174 +1.2653615885E-001 -1.7813859499E+002  +2.3682180929E-002 -8.7113961793E+001  +3.1867548714E-002 +1.7857732020E+002  +3.7400647281E-001 -9.6239814941E+001 
3012484.355 +1.2919870562E-001 +1.7498554231E+002  +2.0752272437E-002 -4.3301652562E+001  +2.3378212334E-002 -1.5227592810E+002  +2.2551702804E-001 -7.0999566835E+001 
3137629.537 +1.2895259557E-001 +1.6745831002E+002  +1.7728136886E-002 -1.5633154517E+001  +2.1879199501E-002 -1.0029447476E+002  +1.0617263638E-001 -8.7374738602E+001 
3262774.718 +3.1437039202E-002 -1.5662178315E+002  +6.2450891164E-002 -3.7404962318E+000  +6.6587891357E-002 -1.0250362421E+002  +8.7413132461E-002 -8.4115488665E+001 
3387919.900 +1.3777126375E-001 +1.6035200341E+002  +4.9003823620E-002 +9.2378805174E-001  +2.7303395680E-002 -5.5136536367E+001  +2.4962103198E-001 +2.8759115888E+001 
3513065.081 +1.5192344043E-001 +1.5246239610E+002  +4.8874635636E-002 +6.0058330423E+001  +3.4587026026E-002 -1.9989969619E+001  +3.9754188139E-001 +7.7398175233E+001 
3638210.263 +1.8287159049E-001 +1.4909436418E+002  +5.9168335332E-002 +1.3879032915E+002  +6.7889494042E-002 +6.6109951386E+001  +1.1252029745E+000 +1.3959143305E+002 
3763355.444 +1.8870445783E-001 +1.5258114154E+002  +1.1018830940E-002 +9.9302865043E+001  +1.9316173035E-002 +3.9795274491E+001  +3.8274814030E-001 +1.3236037063E+002 
3888500.626 +1.6753095912E-001 +1.5942673001E+002  +2.5174627247E-002 +3.9628263733E+001  +1.9767641566E-002 -5.2068289277E+001  +5.2789416095E-002 +1.7778906248E+002 
4013645.807 +1.6210231184E-001 +1.4663254306E+002  +4.1973549712E-002 +4.1114711958E+001  +2.9919671546E-002 -1.7299172475E+001  +1.8774320155E-001 +7.7526483286E+001 
4138790.989 +1.8409304811E-001 +1.4774010766E+002  +2.3403647714E-002 +8.6601569547E+001  +2.2647595753E-002 +2.8244966728E+001  +3.4260312717E-001 +1.5326096497E+002 
4263936.170 +2.0406539763E-001 +1.3632824097E+002  +4.0925280116E-002 +1.2728973611E+002  +3.6950087440E-002 +5.3269061621E+001  +5.4167527779E-001 +1.4693280444E+002 
4389081.352 +1.8394060440E-001 +1.3402474300E+002  +4.7585429268E-002 +1.1033186480E+002  +4.5619432578E-002 +3.8732097461E+001  +6.0794961426E-001 +1.2614049540E+002 
4514226.533 +2.2840879499E-001 +1.3915302197E+002  +5.1547178047E-002 +8.9148160632E+001  +6.0589583843E-002 +3.2811035506E+001  +5.4636196767E-001 +1.1208996930E+002 
4639371.715 +2.2914260549E-001 +1.3382305612E+002  +1.2263118670E-001 +1.2606659458E+002  +9.6335345689E-002 +6.4840927372E+001  +1.5488478858E+000 +1.3061660887E+002 
4764516.896 +3.5642888778E-001 +1.3482229597E+002  +2.5322087427E-001 -1.4897582608E+002  +3.0295566631E-001 +1.5991449346E+002  +3.5917177254E+000 +1.6866852962E+002 
4889662.078 +4.4893815013E-001 +1.3443886492E+002  +4.8204465201E-001 +1.5687727171E+002  +4.4454425635E-001 +1.0498962257E+002  +5.1441374426E+000 +1.0876212949E+002 
5014807.259 +4.4540471046E-001 +1.1094727736E+002  +2.6923739874E-001 -1.5823019260E+002  +3.0491646122E-001 +1.6416846673E+002  +2.5400342142E+000 +1.7752805565E+002 
5139952.441 +4.9015040067E-001 +1.1906094090E+002  +3.4443669476E-001 +1.2004017750E+002  +2.6703125047E-001 +9.0849119912E+001  +2.2854834780E+000 +9.8423776935E+001 
5265097.622 +3.8080367694E-001 +1.2320395052E+002  +1.6586839392E-001 +1.2377069571E+002  +1.5397534890E-001 +7.6702866845E+001  +1.8514685273E+000 +1.0973093056E+002 
5390242.804 +3.3769740018E-001 +1.2521223148E+002  +2.2995824756E-001 +1.2170085124E+002  +2.4218357727E-001 +9.6649519468E+001  +3.6505955565E+000 +1.2864636364E+002 
5515387.985 +3.9031209542E-001 +1.2845070776E+002  +1.0938651430E-001 +1.0555497300E+002  +8.2027840377E-002 +7.8527085248E+001  +1.3319401978E+000 +1.0587758087E+002 
5640533.166 +4.5260443996E-001 +1.2772221469E+002  +1.1057033777E-001 +9.1745794471E+001  +1.1656029646E-001 +6.4601782856E+001  +1.3016091465E+000 +9.1243620457E+001 
5765678.348 +4.4072844258E-001 +1.2595527847E+002  +1.2136989160E-001 +9.5974197537E+001  +1.3656540558E-001 +6.5377813639E+001  +1.7233165298E+000 +9.3330754407E+001 
5890823.529 +5.2108483390E-001 +1.2708778178E+002  +1.2427129917E-001 +6.9348510388E+001  +1.2312496534E-001 +5.3351978026E+001  +1.3425273190E+000 +5.6408079915E+001 
6015968.711 +5.2862477260E-001 +1.2246056983E+002  +2.8992343150E-001 +8.6464199350E+001  +3.0092724337E-001 +6.3850322450E+001  +5.0251697626E+000 +7.7463122663E+001 
6141113.892 +6.2598341737E-001 +1.1596402132E+002  +1.6900075611E-001 +6.3929415367E+001  +1.6500342376E-001 +3.8845198170E+001  +1.8729380947E+000 +4.3743224713E+001 
6266259.074 +6.2871401343E-001 +1.0053732371E+002  +1.9101385137E-001 +4.9285507088E+001  +2.2302431918E-001 +2.0877174780E+001  +2.0660109153E+000 +2.6635797887E+001 
6391404.255 +7.1067193407E-001 +8.5964576930E+001  +1.7571424318E-001 +3.3012463506E+001  +1.5729831687E-001 +1.9759535951E+001  +1.1730729900E+000 +2.5238315571E+001 
6516549.437 +9.5345349315E-001 +7.8256678712E+001  +2.0447700652E-001 +3.7460624741E+001  +2.1035920634E-001 +1.9433762955E+001  +1.5151004177E+000 +2.3088991074E+001 
6641694.618 +1.5262243861E+000 +5.4738102280E+001  +2.6242729478E-001 +2.0766862137E+001  +2.6167417494E-001 +4.3544727329E+000  +1.2036740611E+000 +9.6627141500E-001 
6766839.800 +1.5265641711E+000 +4.8297486473E+001  +2.1185165073E-001 +1.0273848975E+001  +1.9685905475E-001 +7.4886512055E+000  +1.2813299333E+000 +3.6892789117E+000 
6891984.981 +1.3290773937E+000 +3.4824424226E+001  +1.9687735284E-001 +3.0139390829E+000  +1.8421856828E-001 -6.1677305433E+000  +1.2816949150E+000 -1.1273018715E+001 
7017130.163 +1.2374352069E+000 +1.1556400610E+001  +1.7882264415E-001 -5.1807305213E+000  +1.5995043004E-001 -9.2296706909E+000  +1.0606433736E+000 -1.3245846557E+001 
7142275.344 +1.3411868813E+000 +1.2486809810E+001  +1.2742858112E-001 -3.3569168280E+000  +1.5440323901E-001 -9.8829848341E+000  +1.1660417566E+000 -1.3272631782E+001 
7267420.526 +1.2420549723E+000 -1.7358445435E+000  +1.2890884046E-001 -2.9708853177E+000  +1.3178307337E-001 -2.4962838795E+000  +1.2131990516E+000 -1.2569895952E+001 
7392565.707 +1.0322771093E+000 +2.0064289315E+000  +1.0908629976E-001 +5.2486283111E+000  +9.6700125993E-002 +1.0261190405E-002  +1.2992269395E+000 -6.3304787556E+000 
7517710.889 +1.0920259182E+000 -1.0089741330E+000  +9.0792161142E-002 +2.0138631730E+000  +9.4702155445E-002 +5.6306816441E+000  +1.0138394362E+000 -6.6993658139E+000 
7642856.070 +9.3882375933E-001 +2.9735412368E+000  +9.3626197993E-002 +4.6934284402E+000  +9.4060716137E-002 +7.1135096717E+000  +9.7904862085E-001 -1.8566431661E+000 
7768001.252 +8.2379458883E-001 +6.2003204240E+000  +8.9765916575E-002 +7.2381261217E-001  +8.6375575886E-002 +4.8730839218E+000  +9.9919994324E-001 -3.4594231586E+000 
7893146.433 +8.3662603209E-001 +7.9544190171E-001  +8.6001653574E-002 -5.3950155333E+000  +7.8958283186E-002 +1.1274705096E+001  +8.2404090623E-001 -5.4362160341E-001 
8018291.615 +6.7265799792E-001 -9.5619452931E-001  +8.8739473701E-002 -2.3585261634E+000  +8.3952051955E-002 +4.2981122753E+000  +7.9928916335E-001 +3.8459453218E+000 
8143436.796 +6.7748433234E-001 +7.8842757137E+000  +7.8170107050E-002 -1.4704785622E+000  +8.0355327291E-002 +8.7332940747E+000  +7.5630652712E-001 -2.5895089040E+000 
8268581.977 +6.5488573064E-001 +1.6733800227E+001  +7.7746096437E-002 +1.4717300844E-001  +7.7404345368E-002 +8.7667221952E+000  +7.1329814303E-001 -3.3707115981E+000 
8393727.159 +5.9770913250E-001 +9.8473908892E+000  +7.8699229040E-002 -1.6756155094E+000  +7.6193676693E-002 +6.8887902570E+000  +6.3110842051E-001 +4.4962239397E+000 
8518872.340 +6.0060331579E-001 +1.0896553490E+001  +7.6869137206E-002 -2.0574146731E+000  +8.0690590650E-002 +9.7484788671E+000  +6.0659461271E-001 +2.6906777225E+000 
8644017.522 +5.8491794116E-001 +1.1072886653E+001  +7.5084466100E-002 -7.5998535269E+000  +7.5020604106E-002 +8.7173961072E+000  +6.2489622111E-001 -2.3724844383E-001 
8769162.703 +4.9367690184E-001 +1.1725963825E+001  +7.5201075276E-002 -4.6473688743E+000  +7.2011194237E-002 +8.4904187277E+000  +5.7859795929E-001 +1.3498740556E+000 
8894307.885 +5.6573628367E-001 +3.4025632657E+000  +7.4307445747E-002 +4.1335292770E-001  +7.3548507494E-002 +1.1400828235E+001  +5.9285509915E-001 +2.9480148079E+000 
9019453.066 +5.4799331095E-001 +4.8420580021E+000  +7.0778900595E-002 -2.4514860572E+000  +7.1417473486E-002 +1.4971991645E+001  +5.5607766895E-001 +2.8220525993E+000 
9144598.248 +4.9440963680E-001 +2.1745346058E+000  +7.1671855992E-002 -4.2513227559E+000  +7.4218389674E-002 +6.7397451826E+000  +5.1073384445E-001 +4.4636547850E-001 
9269743.429 +4.5436210024E-001 +1.8662929523E+000  +7.1397261528E-002 -2.9928356181E+000  +7.3082892247E-002 +1.1129546532E+001  +5.4854331518E-001 -8.6083130237E-001 
9394888.611 +4.5582084103E-001 +1.2771235932E+000  +7.4269537950E-002 -4.3482733198E+000  +7.3632317804E-002 +9.6614267516E+000  +4.9344683680E-001 -4.8678983771E+000 
9520033.792 +4.8436918382E-001 +5.6731864194E+000  +7.3281788642E-002 -4.5412368783E+000  +7.4306027608E-002 +1.0352615026E+001  +5.0343916328E-001 +1.4906484456E-001 
9645178.974 +5.2499118146E-001 +4.9281898186E+000  +7.7542449428E-002 -6.0895849750E+000  +7.0882686479E-002 +1.1003611053E+001  +5.3605257339E-001 -5.9787306787E+000 
9770324.155 +4.6358237474E-001 +2.4938385627E+000  +7.3449695677E-002 -4.6340544090E+000  +7.0098607058E-002 +9.3379122454E+000  +4.6606277983E-001 -4.2901985980E+000 
9895469.337 +4.6197377500E-001 +5.7571996705E+000  +7.5704637134E-002 -3.3221379939E+000  +7.2595021799E-002 +8.8426272242E+000  +4.7819862243E-001 +2.9394344066E-001 
10020614.518 +4.8359534063E-001 +8.0305694829E+000  +7.2536167607E-002 -2.3245836720E+000  +7.2734222955E-002 +1.2338180660E+001  +5.1414557760E-001 -3.3802630837E+000 
10145759.700 +5.3430097752E-001 +5.3783580693E+000  +7.6154851915E-002 -4.0803977049E-001  +7.2998202947E-002 +1.3701730756E+001  +4.8468688076E-001 -1.8799848825E+000 
10270904.881 +4.9002651159E-001 +8.4028843316E+000  +7.4991080635E-002 -1.3428986143E+000  +7.3483102595E-002 +1.3199969351E+001  +5.2152965835E-001 -1.7181324512E+000 
10396050.063 +4.6932305960E-001 +9.6934073180E+000  +7.2843027724E-002 -3.2870362203E+000  +7.3145162252E-002 +1.3059789148E+001  +5.0020687697E-001 -2.1813481702E-001 
10521195.244 +4.7420313763E-001 +9.4358979702E+000  +7.5329464348E-002 -2.2705029653E+000  +7.8076904174E-002 +1.2689070577E+001  +5.6302597880E-001 +4.3357679313E-001 
10646340.426 +5.4220690300E-001 +1.1739132964E+001  +7.5276078740E-002 -1.6403363191E+000  +7.3766350492E-002 +1.4809819051E+001  +5.2889638973E-001 +2.7384331501E+000 
10771485.607 +4.8434919128E-001 +1.1045466999E+001  +7.8033945589E-002 -1.3865967034E+000  +7.5531322635E-002 +1.1527305880E+001  +4.7873964012E-001 +1.0869786862E+000 
10896630.788 +4.8885301584E-001 +9.3109339437E+000  +7.6252371331E-002 -1.4521777395E+000  +7.4762963422E-002 +1.3149098602E+001  +5.5907988729E-001 +1.9141636443E+000 
11021775.970 +5.1493689993E-001 +1.1033387477E+001  +7.5815053721E-002 -9.4200246969E-001  +7.7706948401E-002 +1.2398825447E+001  +5.9600928288E-001 +3.6776421983E+000 
11146921.151 +4.8113170915E-001 +8.6884806200E+000  +7.9453347821E-002 +3.2240184447E-001  +7.6982530678E-002 +1.4240336691E+001  +5.5043756535E-001 +3.1584602126E+000 
11272066.333 +5.4585947800E-001 +8.5753755413E+000  +7.8309682371E-002 +4.0505416138E-001  +7.8717763620E-002 +1.1685436404E+001  +5.3700140629E-001 -1.2551189152E+000 
11397211.514 +5.5116499502E-001 +7.9306880593E+000  +7.9091339784E-002 +5.9579895718E-001  +7.9671011436E-002 +1.3706184461E+001  +5.8707065750E-001 +1.3261674313E+000 
11522356.696 +5.4026319252E-001 +7.5512346761E+000  +8.0427109769E-002 -6.0120871517E-002  +7.9295359518E-002 +1.1595409740E+001  +5.3789598168E-001 +4.4103271514E+000 
11647501.877 +5.6324425958E-001 +5.0538179561E+000  +8.2954460950E-002 +1.3183563457E+000  +8.1905767018E-002 +1.3048307595E+001  +5.5727037757E-001 +2.1756271491E+000 
11772647.059 +5.6803222048E-001 +7.1805639489E+000  +8.3758974312E-002 +1.3199883931E+000  +8.2039191721E-002 +1.1822734844E+001  +5.9651568980E-001 +2.1940169002E+000 
11897792.240 +5.5314767862E-001 +6.3613700477E+000  +8.4252377881E-002 +1.9175982583E+000  +8.1855066871E-002 +1.0994750202E+001  +6.1176868639E-001 +3.4463138287E+000 
12022937.422 +6.1007433564E-001 +4.8314790228E+000  +8.4772191126E-002 +1.2916088234E+000  +8.5272271014E-002 +1.0337169265E+001  +6.1505519692E-001 +3.4683699504E-002 
12148082.603 +6.2864635523E-001 +3.6935839279E+000  +8.5786313562E-002 +1.4658742879E+000  +8.4557950543E-002 +1.1001420114E+001  +6.2290339967E-001 +2.5105661312E+000 
12273227.785 +5.8871389433E-001 +4.0405712154E+000  +8.4258945577E-002 +1.0749386213E+000  +8.3768239861E-002 +1.0550514307E+001  +6.2329578574E-001 +2.9722167680E+000 
12398372.966 +6.3137478542E-001 +4.4895336782E+000  +8.6611015279E-002 +2.4116035969E+000  +8.5049245788E-002 +9.7349696958E+000  +6.4883035088E-001 -1.5276406009E+000 
12523518.148 +6.6201384870E-001 +3.8794067917E+000  +8.7963074671E-002 +2.9946204534E+000  +8.7139863083E-002 +9.7500935093E+000  +6.5233464792E-001 -2.2487284690E-001 
12648663.329 +6.4999482193E-001 +3.5080213876E+000  +8.8377580825E-002 +2.3596652523E+000  +8.8851568913E-002 +1.0013720643E+001  +6.7392815682E-001 +2.7076731960E-001 
12773808.511 +6.5890591490E-001 +1.9719862019E+000  +8.9220427585E-002 +2.5653522678E+000  +9.0867131524E-002 +8.7641993190E+000  +6.9185472388E-001 -5.8554423903E-001 
12898953.692 +6.8562384102E-001 +1.5116632980E+000  +9.2480447737E-002 +2.6514641656E+000  +8.9452295025E-002 +8.5727017660E+000  +6.9038410620E-001 -2.6148606136E+000 
13024098.874 +7.1067924359E-001 +3.4422213556E-001  +9.2281828251E-002 +2.8707274696E+000  +8.9021932501E-002 +8.8160790367E+000  +7.1596968846E-001 -7.0801832457E-001 
13149244.055 +7.1224487484E-001 +1.4144609074E+000  +9.0066047495E-002 +2.3345507309E+000  +9.1748646418E-002 +6.9352176011E+000  +7.1314147730E-001 -1.7486253807E+000 
13274389.237 +7.4525698648E-001 -1.4219713558E+000  +9.3913838832E-002 +2.3762665017E+000  +9.2185824763E-002 +8.2905904416E+000  +7.4479197200E-001 -2.4079889842E+000 
13399534.418 +7.5272741236E-001 -2.3738126124E-001  +9.2845408675E-002 +2.6867895306E+000  +9.3426499912E-002 +6.3308624435E+000  +7.6504112613E-001 -5.8289965132E-001 
13524679.599 +7.5847717461E-001 -4.6904105975E-001  +9.4406790519E-002 +2.3733158562E+000  +9.4627745494E-002 +4.7258820606E+000  +7.5820647680E-001 -2.8012160913E+000 
13649824.781 +7.5004012178E-001 -2.1162048642E+000  +9.5511504798E-002 +1.8259382674E+000  +9.4169998512E-002 +4.6310164656E+000  +7.7251330751E-001 -2.8450154063E+000 
13774969.962 +7.9590137504E-001 -2.7683423074E+000  +9.7241942094E-002 +2.7012703229E+000  +9.4848148773E-002 +5.3672121939E+000  +7.9846467664E-001 -2.0763478684E+000 
13900115.144 +8.2395297001E-001 -4.1008268180E+000  +9.7654345830E-002 +2.4069225124E+000  +9.5571738045E-002 +4.8233750479E+000  +8.3401531382E-001 -3.1306278221E+000 
14025260.325 +8.2734156199E-001 -2.6053720169E+000  +9.7681505356E-002 +2.8043331362E+000  +9.7449221366E-002 +4.0998792940E+000  +8.4484471012E-001 -3.9278235950E+000 
14150405.507 +8.3500127550E-001 -3.7966991576E+000  +9.7486217655E-002 +9.1697333995E-001  +9.6104275127E-002 +2.6336569038E+000  +8.4294173970E-001 -5.4665767528E+000 
14275550.688 +8.5163225682E-001 -5.4945634493E+000  +9.8071212265E-002 +1.9213509793E+000  +9.6581704508E-002 +2.2762986990E+000  +8.6626379697E-001 -5.5212042295E+000 
14400695.870 +8.8012107034E-001 -5.1123707461E+000  +9.9031597598E-002 +1.6636904445E+000  +9.7640249053E-002 +3.3027186111E+000  +9.0347325853E-001 -4.9521131629E+000 
