!  2-Port S-parameters saved by WinCal
! VAR MeasName=S-Parameters (CALIBRATED_DATA) read from VNA (P5004A)
! VAR MeasDate=29/08/2024 10:38:07
! VAR NAME=S2_r9c2_RESET2_9k-100M_1
! VAR FILENAME=S2_r9c2_RESET2_9k-100M_1.S2P
! VAR DATE=29/08/2024 10:38:07
! VAR PHYS_PORTS=1,2
! VAR ObjTypeName=DATASET
! VAR IndexType=Frequency
!
# Hz S MA R 50
9000.000 +8.9563660088E-002 -1.5264892293E+002  +5.0502210169E-003 +1.7741300544E+002  +1.1262292835E-002 +1.5851567670E+002  +2.5657021489E-001 -1.4986921666E+002 
134145.181 +1.0994797413E-001 +1.6970401107E+002  +3.4329851380E-004 -2.0622794197E+001  +6.0699230811E-004 -1.6661133765E+002  +2.4057801920E-001 -1.7119497318E+002 
259290.363 +1.1166650613E-001 +1.6945387415E+002  +7.2507607290E-004 -9.4943878530E+001  +1.3192032567E-003 +1.3584013809E+002  +2.3433624507E-001 -1.6739730704E+002 
384435.544 +1.1289533923E-001 +1.6988372284E+002  +4.8499908665E-004 -6.9811311555E+001  +3.7282522104E-004 +9.4124886670E+001  +2.4342778946E-001 -1.6996633795E+002 
509580.726 +1.1310246594E-001 +1.6992230525E+002  +3.2901485620E-003 -8.2985524423E+001  +3.2188707754E-003 +9.9338407699E+001  +2.5140624110E-001 -1.6289112957E+002 
634725.907 +1.1607245977E-001 +1.7102302861E+002  +8.3663516848E-004 -7.3297870196E+001  +1.4573345295E-003 +1.3414507397E+002  +2.5247418491E-001 -1.6831973538E+002 
759871.089 +1.1832107819E-001 +1.7168123686E+002  +1.6923791647E-003 -9.2474290074E+001  +1.0355707658E-003 +8.8995464022E+001  +2.5298714092E-001 -1.6560471493E+002 
885016.270 +1.2067346638E-001 +1.6878265091E+002  +7.9097299696E-004 -4.3963562016E+001  +1.0715896915E-003 +1.5087593276E+002  +2.4034286991E-001 -1.6753556608E+002 
1010161.452 +1.1408948304E-001 +1.7047898647E+002  +1.9905913750E-003 +2.4069758734E+001  +9.7606772858E-004 -1.6604099821E+002  +2.1715825835E-001 -1.7085862034E+002 
1135306.633 +1.1751125469E-001 +1.6825442755E+002  +3.5500135659E-003 -2.3599987153E+001  +4.8173418660E-003 -1.4879569596E+002  +1.9464910591E-001 -1.6474439062E+002 
1260451.815 +1.2095140146E-001 +1.7100013510E+002  +1.7679562258E-003 -2.5037071287E+001  +3.0309837027E-003 +1.7101269797E+002  +2.0268695951E-001 -1.6296486870E+002 
1385596.996 +1.2737709437E-001 +1.7167736428E+002  +9.5762358803E-004 -9.9250848604E+001  +1.6194563051E-003 +1.6230928912E+002  +2.5392096249E-001 -1.5933536518E+002 
1510742.178 +1.2981774866E-001 +1.7157724827E+002  +2.2751398617E-003 -3.5817696362E+001  +1.4168756246E-003 +1.0545255948E+002  +2.5298551018E-001 -1.5781776451E+002 
1635887.359 +1.2515233186E-001 +1.7061363989E+002  +2.6181686163E-003 -1.6302144905E+001  +2.8669872124E-003 -1.5377030296E+002  +2.4666120853E-001 -1.5865447143E+002 
1761032.541 +1.3028790617E-001 +1.6930078265E+002  +3.7261215900E-003 +1.8494203543E+001  +9.8776342362E-004 -1.1786112837E+002  +2.2134887305E-001 -1.5824797079E+002 
1886177.722 +1.3397011168E-001 +1.6877097493E+002  +3.1034695181E-003 +9.2372956147E+001  +4.7096738394E-003 -6.6042015675E+001  +2.1161543136E-001 -1.7159890378E+002 
2011322.904 +1.2961962846E-001 +1.6950203435E+002  +7.5692799446E-003 +4.9023960312E+001  +6.8304989184E-003 -7.1692833622E+001  +2.0634920405E-001 -1.6318008457E+002 
2136468.085 +1.3156752833E-001 +1.6777369780E+002  +1.0741676802E-002 +5.9919660410E+001  +7.3149399036E-003 -6.8943476497E+001  +1.8150793986E-001 -1.6501839875E+002 
2261613.267 +1.2757287153E-001 +1.6184715184E+002  +1.2008830961E-002 +6.8252073466E+001  +1.4487391165E-002 -3.4627460830E+001  +2.0431503087E-001 -1.6925273605E+002 
2386758.448 +1.3790216831E-001 +1.6437052671E+002  +1.1502771703E-002 +8.1808876692E+001  +1.1192499090E-002 -2.1952997331E+001  +2.2236852064E-001 -1.7551870814E+002 
2511903.630 +1.3384590018E-001 +1.5886550238E+002  +3.5883155162E-002 +7.1856755455E+001  +3.7556286286E-002 -3.7738715615E+001  +9.9142888961E-002 -1.5559684622E+002 
2637048.811 +1.2833619872E-001 +1.6180220518E+002  +3.0292616477E-002 +9.9407410527E+001  +2.3910056565E-002 -7.7313735195E+000  +2.5444532060E-001 +1.7318859767E+002 
2762193.992 +1.3017065263E-001 +1.6639534229E+002  +4.8178750033E-002 +4.4820263766E+001  +5.1671711706E-002 -6.3414517333E+001  +3.7933488042E-002 +1.7460771801E+002 
2887339.174 +1.2197592211E-001 +1.7330622488E+002  +7.9294318871E-002 +1.2970375270E+001  +6.7519633779E-002 -1.0242195363E+002  +1.4352851726E-001 -7.5242337455E+001 
3012484.355 +1.3274648676E-001 +1.7173948882E+002  +3.3165793465E-002 -3.8799187653E+000  +3.6664688248E-002 -1.0642748872E+002  +1.6677039694E-001 -1.3051194181E+002 
3137629.537 +1.4290665505E-001 +1.7292279097E+002  +4.5749226807E-002 +3.2472934269E+000  +3.9981578017E-002 -1.0231143144E+002  +1.4757329788E-001 -1.1013476424E+002 
3262774.718 +1.3129521706E-001 +1.7503037831E+002  +6.2743983508E-002 +1.6504617542E+001  +6.0068561609E-002 -7.1003675491E+001  +1.4851646201E-002 -1.9375635026E+001 
3387919.900 +1.0582088606E-001 +1.5988489570E+002  +1.0057997472E-001 +3.7917600563E+001  +1.0380112336E-001 -4.8802624860E+001  +6.5628905781E-002 +3.2919701643E+001 
3513065.081 +1.5619147094E-001 +1.5339833178E+002  +4.4580780502E-002 +8.9839175531E+001  +4.3071937150E-002 +1.1846173696E+001  +2.7217810065E-001 +1.5938598458E+002 
3638210.263 +1.6632957047E-001 +1.4897783205E+002  +6.8631224545E-002 +9.2544899625E+001  +6.3228786278E-002 +1.5777877047E+001  +2.6986451256E-001 +1.3445161116E+002 
3763355.444 +1.7586848401E-001 +1.4780234574E+002  +6.4048492762E-002 +1.2846045439E+002  +5.7364768830E-002 +4.2535172602E+001  +4.5791027240E-001 +1.5762166538E+002 
3888500.626 +1.7699919003E-001 +1.5579681772E+002  +6.1752929393E-002 +9.7963900204E+001  +6.0054205821E-002 +3.3280836020E+001  +4.2438714718E-001 +1.4433527651E+002 
4013645.807 +1.8065840128E-001 +1.5423953327E+002  +5.7960513879E-002 +1.0618621457E+002  +5.4360699615E-002 +3.7953037677E+001  +4.4107987471E-001 +1.5062899987E+002 
4138790.989 +1.9935361571E-001 +1.5127263698E+002  +4.9984767158E-002 +7.5615503723E+001  +5.7271383291E-002 +1.4655464415E+001  +2.0923272569E-001 +1.5440953356E+002 
4263936.170 +1.7258654240E-001 +1.5177131819E+002  +7.9460286833E-002 +9.7426826113E+001  +7.7189735374E-002 +4.0049878359E+001  +5.1360341536E-001 +1.4980426673E+002 
4389081.352 +2.1231950223E-001 +1.4463275568E+002  +9.6024766924E-002 +1.2467349660E+002  +9.0395547980E-002 +6.1002070340E+001  +6.5172090259E-001 +1.4987295337E+002 
4514226.533 +2.4592563792E-001 +1.3266477947E+002  +1.7924896520E-001 +1.2858514613E+002  +1.6959238662E-001 +7.1861661028E+001  +8.7634195230E-001 +1.3745593321E+002 
4639371.715 +1.9246243066E-001 +1.3151751351E+002  +1.8439426870E-001 +7.9038049200E+001  +1.8502220180E-001 +1.5582539729E+001  +5.9564208101E-001 +9.0355032921E+001 
4764516.896 +2.2981106449E-001 +1.3304479520E+002  +3.6554329352E-001 +7.1955904301E+001  +3.5141399034E-001 +1.4357760906E+001  +1.7938171013E+000 +5.4492316884E+001 
4889662.078 +4.1929059873E-001 +1.5824730360E+002  +1.0423423317E+000 -1.5202446029E+002  +9.8745478769E-001 +1.5674758048E+002  +5.8518369332E+000 +1.7828276853E+002 
5014807.259 +3.7720533260E-001 +9.6068203842E+001  +1.2588291719E+000 +7.3124346454E+001  +1.2157525989E+000 +2.1972682233E+001  +5.8468489626E+000 +4.6817448677E+001 
5139952.441 +3.8354247944E-001 +1.3554726238E+002  +3.2074415633E-001 +1.5387215501E+002  +3.1873341214E-001 +1.1316443466E+002  +1.8409887930E+000 +1.4133258866E+002 
5265097.622 +3.0521818858E-001 +1.2098059298E+002  +2.7664371380E-001 +8.4456487846E+001  +2.7073420520E-001 +3.9770495134E+001  +9.2151300237E-001 +8.7027193101E+001 
5390242.804 +3.2128783393E-001 +1.2840827147E+002  +2.0421193487E-001 +9.1653288611E+001  +1.9485528066E-001 +5.5832646140E+001  +8.7517194939E-001 +1.1386527369E+002 
5515387.985 +4.1177889132E-001 +1.2966049321E+002  +2.9623140823E-001 +1.1354962090E+002  +2.6951409744E-001 +8.4298403283E+001  +1.4655437317E+000 +1.1808345820E+002 
5640533.166 +4.1003088588E-001 +1.3248881219E+002  +2.5197247259E-001 +1.1539545883E+002  +2.6423529029E-001 +8.1714743225E+001  +1.6009066370E+000 +1.2099788659E+002 
5765678.348 +4.8506974661E-001 +1.2717490978E+002  +3.0554519305E-001 +9.1438795712E+001  +3.0005102398E-001 +6.3866167228E+001  +1.2992470269E+000 +8.9564381980E+001 
5890823.529 +4.5269001470E-001 +1.1441472290E+002  +3.2776165465E-001 +6.5536782728E+001  +3.1305613509E-001 +3.8527104921E+001  +1.0360843000E+000 +6.1895679960E+001 
6015968.711 +4.7356180213E-001 +1.1999451822E+002  +2.9510289429E-001 +6.8035974543E+001  +2.9850556905E-001 +4.2932192334E+001  +1.1766231647E+000 +7.0319377273E+001 
6141113.892 +5.5897184957E-001 +1.1166011512E+002  +3.8066269021E-001 +5.7499910133E+001  +3.5620070360E-001 +3.7876938287E+001  +1.2820576369E+000 +4.9699975037E+001 
6266259.074 +6.9707064344E-001 +9.7321330659E+001  +4.1674596461E-001 +5.9252290348E+001  +4.0449710749E-001 +4.1488622785E+001  +1.0693734445E+000 +5.9359604503E+001 
6391404.255 +6.9281318694E-001 +9.4956867322E+001  +4.2684871470E-001 +4.3140818241E+001  +4.4377202754E-001 +2.7887352859E+001  +1.3254880527E+000 +3.5239884624E+001 
6516549.437 +7.0039470995E-001 +8.4332545794E+001  +4.2688690686E-001 +3.8349098468E+001  +4.1440173084E-001 +2.4131028079E+001  +1.2414615913E+000 +4.0082443802E+001 
6641694.618 +1.0430673995E+000 +6.7686176606E+001  +4.8166102568E-001 +2.7885747908E+001  +4.9636129583E-001 +1.2102633098E+001  +1.0263456482E+000 +5.5350476677E+000 
6766839.800 +9.1217523965E-001 +5.7513770400E+001  +4.6513579051E-001 +2.1307337436E+001  +4.3464842478E-001 +1.3073638092E+001  +1.0049920775E+000 +2.2995398475E+001 
6891984.981 +9.1352085585E-001 +2.2070925016E+001  +4.7772760691E-001 +2.1937792714E-001  +4.6891651161E-001 -6.7260626984E+000  +1.1408844650E+000 +2.0898440705E+000 
7017130.163 +1.0906065225E+000 +3.2586902791E+001  +4.2205167391E-001 +8.8432132162E+000  +4.0224432728E-001 +3.6348867280E+000  +8.1291201927E-001 +9.7126505938E-001 
7142275.344 +7.9458112362E-001 +1.6692539066E+000  +3.5470686622E-001 -3.6842365796E+000  +3.4690675454E-001 -7.9688482887E+000  +8.1720929160E-001 -8.6335879583E+000 
7267420.526 +1.0352926943E+000 +9.9200897157E+000  +3.4903728672E-001 +3.8630531052E+000  +3.4287599142E-001 +2.0267338287E+000  +1.1200627744E+000 -3.7727269661E+000 
7392565.707 +9.7877458725E-001 -6.8749241403E+000  +3.0239363424E-001 +1.7642075877E+000  +3.0930990589E-001 +1.1383073672E+000  +9.1214712765E-001 -1.3248096383E+001 
7517710.889 +8.2334690414E-001 -3.6012386268E-001  +2.8414641019E-001 +3.0234328986E+000  +2.8922747643E-001 +4.4854413599E+000  +9.5332437369E-001 -1.1325589787E+001 
7642856.070 +7.6697842525E-001 +3.7851581748E+000  +2.5154294517E-001 +8.9583283668E-001  +2.5159880363E-001 +4.5171200361E+000  +6.4090117456E-001 +6.8855470948E+000 
7768001.252 +6.6066269134E-001 +1.0649615603E+001  +2.3956808682E-001 +3.9453557122E-001  +2.3831920588E-001 +7.5802929693E+000  +7.8236848826E-001 +5.2951614551E+000 
7893146.433 +6.0397579605E-001 +1.4329861954E+001  +2.3841259236E-001 +3.4092471293E-001  +2.3518288214E-001 +4.7657942308E+000  +6.3613154143E-001 +3.8183770012E+000 
8018291.615 +5.2787941468E-001 +8.7969303716E+000  +2.2669411427E-001 -2.9470985263E+000  +2.2563156552E-001 +5.7590935374E+000  +5.7116107740E-001 +6.3548316147E+000 
8143436.796 +5.3198680844E-001 +1.1578412473E+001  +2.3073218695E-001 -1.3511014100E+000  +2.2744825134E-001 +6.9611066303E+000  +5.9114986587E-001 -2.8604232538E+000 
8268581.977 +4.6181408479E-001 +1.6358242786E+001  +2.1664011656E-001 -4.5213903825E+000  +2.1275005293E-001 +6.7522139845E+000  +4.9609335213E-001 +8.9280997006E+000 
8393727.159 +5.1470405842E-001 +9.4364408461E+000  +2.2001660324E-001 -3.7551090674E+000  +2.1683101142E-001 +7.2380283471E+000  +5.1796496990E-001 +1.4133728357E+001 
8518872.340 +3.9661206488E-001 +1.2987075088E+001  +2.1222691220E-001 -3.8993360896E+000  +2.0726961561E-001 +7.2898512005E+000  +4.8516608456E-001 +1.6728120569E+001 
8644017.522 +3.9923668271E-001 +1.2020736448E+001  +2.1171509603E-001 -3.2599082468E+000  +2.1113447580E-001 +8.0692073734E+000  +4.8560033873E-001 +2.8846475380E+000 
8769162.703 +3.6535417244E-001 +7.8353625825E+000  +2.0660016141E-001 -5.2020307901E+000  +2.0629179899E-001 +9.1874790706E+000  +4.6533439125E-001 +1.1850655670E+001 
8894307.885 +4.3617121128E-001 +1.0271894750E+001  +2.0895278872E-001 -3.6174567488E+000  +2.0445623851E-001 +1.0442798267E+001  +4.9041111150E-001 +9.5886271843E-001 
9019453.066 +3.6592707129E-001 +1.8322680051E+001  +2.0289713829E-001 -5.1533923244E+000  +2.0149008969E-001 +1.0110470866E+001  +4.3264672094E-001 +3.7786454789E+000 
9144598.248 +3.6890135267E-001 +1.4632221096E+001  +2.0258988465E-001 -3.2651921790E+000  +2.0062499611E-001 +9.6429331219E+000  +4.5604960136E-001 +1.1810356186E+001 
9269743.429 +3.3072863086E-001 +1.9229290004E+001  +2.0227965080E-001 -4.9303871466E+000  +2.0179819656E-001 +1.0628288820E+001  +4.2513375884E-001 +9.5917492079E+000 
9394888.611 +3.6264054274E-001 +1.5193860944E+001  +2.0352115736E-001 -5.9363872843E+000  +2.0309290262E-001 +1.0404471908E+001  +3.2738625521E-001 +8.0484740588E-002 
9520033.792 +3.6615804434E-001 +1.0736912100E+001  +2.0442608839E-001 -5.0710107689E+000  +2.0028075918E-001 +1.1438104322E+001  +3.6006152324E-001 +5.0802975802E+000 
9645178.974 +3.1359588218E-001 +1.7046611209E+001  +1.9965151865E-001 -5.5122603411E+000  +2.0337766664E-001 +1.0941938069E+001  +3.6184452500E-001 +6.8880432254E+000 
9770324.155 +3.1348350463E-001 +4.7064050033E+000  +2.0228257628E-001 -4.5762734947E+000  +2.0743216592E-001 +1.0901057892E+001  +3.9324589789E-001 -3.3707355006E+000 
9895469.337 +3.0151033947E-001 +1.2917263403E+001  +2.0483568379E-001 -5.0432970919E+000  +2.0342693264E-001 +1.0991996269E+001  +3.5398345600E-001 +2.6539417774E+000 
10020614.518 +3.9057918313E-001 +1.0819378635E+001  +2.0885975313E-001 -4.3574423645E+000  +2.0554048331E-001 +1.1996030419E+001  +3.4160114392E-001 -5.8653143993E+000 
10145759.700 +3.3732377166E-001 +1.2411684596E+001  +2.0673738202E-001 -5.1222484948E+000  +2.0362624191E-001 +1.1588024775E+001  +3.5108730219E-001 +1.2283104966E+000 
10270904.881 +3.3685161973E-001 +2.8640921555E+000  +2.1329373967E-001 -4.3102298556E+000  +2.0744815146E-001 +1.2053156310E+001  +3.6593349271E-001 +1.8793209993E+000 
10396050.063 +3.7849279861E-001 +1.5881072131E+001  +2.0722998457E-001 -2.7592069926E+000  +2.0393724969E-001 +1.2184164200E+001  +3.5226808561E-001 +7.1586956162E+000 
10521195.244 +3.5244484486E-001 +1.3873639542E+001  +2.1033468604E-001 -3.3098607109E+000  +2.0772803359E-001 +1.2585117585E+001  +3.7308604881E-001 +4.8103616365E+000 
10646340.426 +3.3595953318E-001 +1.3950122539E+001  +2.1138753374E-001 -3.1302119691E+000  +2.0785322771E-001 +1.1915572365E+001  +3.9809907189E-001 +7.4155601803E+000 
10771485.607 +3.5616247233E-001 +1.5739140900E+001  +2.1228208254E-001 -3.3815025275E+000  +2.0612171877E-001 +1.1906343910E+001  +3.8131426644E-001 +8.4430041624E+000 
10896630.788 +3.6466317112E-001 +1.6951320055E+001  +2.1296204105E-001 -2.1571313123E+000  +2.1060635664E-001 +1.1832535306E+001  +3.8354775511E-001 +6.9407191899E+000 
11021775.970 +3.9129913762E-001 +1.7312127646E+001  +2.1223671777E-001 -1.7610275879E+000  +2.1227311025E-001 +1.1608805754E+001  +3.7307733598E-001 +8.5424502234E+000 
11146921.151 +3.9760092059E-001 +9.4217627739E+000  +2.2028213482E-001 -1.7044741271E+000  +2.1504992920E-001 +1.2037825171E+001  +4.0131614293E-001 +7.6612745347E+000 
11272066.333 +3.6843095507E-001 +1.6660850374E+001  +2.1938183908E-001 -1.7221644193E+000  +2.1783879518E-001 +1.1235641841E+001  +3.7874280932E-001 +5.7727815259E+000 
11397211.514 +3.6879197320E-001 +1.5419411062E+001  +2.1993535333E-001 -1.1659075019E+000  +2.1878370803E-001 +1.1007082686E+001  +4.1748384339E-001 +6.3556523587E+000 
11522356.696 +4.1853135977E-001 +1.4946067068E+001  +2.2353059085E-001 -9.3842658620E-001  +2.2194707655E-001 +1.0895159896E+001  +4.1126415336E-001 +6.1192789146E+000 
11647501.877 +3.9694586966E-001 +1.4915155006E+001  +2.2436642580E-001 -8.0766564722E-001  +2.2081280295E-001 +1.0861463266E+001  +4.2084766400E-001 +7.5232656417E+000 
11772647.059 +4.2471122292E-001 +1.2498506018E+001  +2.2736502055E-001 +1.5966241667E-001  +2.2500921220E-001 +1.1073435314E+001  +4.3044934765E-001 +8.6873504519E+000 
11897792.240 +4.2482146172E-001 +1.2223363125E+001  +2.3012469144E-001 +1.7204260338E-001  +2.2689223952E-001 +1.0339789422E+001  +4.4804908867E-001 +6.8390246781E+000 
12022937.422 +4.2158635592E-001 +1.1221158413E+001  +2.3315471626E-001 +5.0776814664E-002  +2.3262920968E-001 +9.6826667727E+000  +4.3630355184E-001 +3.7517864614E-001 
12148082.603 +4.5999405628E-001 +9.0879612137E+000  +2.3520267685E-001 +4.4890401107E-001  +2.3037498390E-001 +9.7247398560E+000  +4.5199256002E-001 +5.4495035584E+000 
12273227.785 +4.7535784689E-001 +9.8797320201E+000  +2.3616661217E-001 +7.2735531772E-001  +2.3475193481E-001 +9.6138412587E+000  +4.5917655705E-001 +3.8790195000E+000 
12398372.966 +4.6964497538E-001 +7.4300033987E+000  +2.3870612737E-001 +5.2521489012E-001  +2.3794093307E-001 +8.6254989739E+000  +4.7461575533E-001 +3.3353577282E+000 
12523518.148 +4.8977526442E-001 +7.4839176483E+000  +2.4464360237E-001 +1.2632492516E+000  +2.4157828771E-001 +8.4625499391E+000  +5.1001364299E-001 +1.6975032541E+000 
12648663.329 +5.1160004230E-001 +6.5136196881E+000  +2.4415712255E-001 +1.5311182438E+000  +2.3999730994E-001 +8.0810521920E+000  +4.9111036595E-001 +3.1430526215E+000 
12773808.511 +5.2013531005E-001 +3.8585099270E+000  +2.4818304065E-001 +1.5573291342E+000  +2.4534527120E-001 +7.5130371083E+000  +5.2172887967E-001 +1.2288449058E+000 
12898953.692 +5.2592204493E-001 +4.3530011146E+000  +2.5076214886E-001 +1.6689719437E+000  +2.4765845622E-001 +7.4366792596E+000  +5.2616882616E-001 +2.3087897821E+000 
13024098.874 +5.3266419170E-001 +8.9085559450E-001  +2.5335486710E-001 +1.3190324446E+000  +2.5146622765E-001 +7.0182689742E+000  +5.4841883566E-001 +9.1148990744E-001 
13149244.055 +5.4717811428E-001 +2.5833145197E+000  +2.5646435012E-001 +1.7795979849E+000  +2.5329365401E-001 +6.4605825937E+000  +5.6402335832E-001 +6.7605077248E-001 
13274389.237 +5.5367920231E-001 +2.2175494947E+000  +2.5698803233E-001 +1.4814931306E+000  +2.5239705161E-001 +5.6793322499E+000  +5.5260744919E-001 +2.0692378085E+000 
13399534.418 +5.7258795663E-001 +1.4266503792E+000  +2.5876378982E-001 +1.4867459287E+000  +2.5723285999E-001 +4.9923623064E+000  +5.7123162371E-001 +7.9978584037E-002 
13524679.599 +5.7853873847E-001 -8.2753607993E-001  +2.6229202570E-001 +1.7587282094E+000  +2.5881543739E-001 +4.7253513898E+000  +5.9549265917E-001 -3.6701572217E-001 
13649824.781 +6.1902797511E-001 -1.6025413817E+000  +2.6552103086E-001 +1.6565201305E+000  +2.6156302456E-001 +4.1901803958E+000  +5.8043616815E-001 -2.5399382243E+000 
13774969.962 +6.2022156220E-001 -1.3666867407E+000  +2.6713266979E-001 +1.8081348692E+000  +2.6397250878E-001 +4.1944070421E+000  +6.2936790447E-001 -1.8006955701E+000 
13900115.144 +6.1634280419E-001 -1.1493243990E+000  +2.6799985404E-001 +1.3904490784E+000  +2.6514889707E-001 +3.5426832405E+000  +6.4458236052E-001 -3.3913653206E+000 
14025260.325 +6.5935889791E-001 -1.5833415849E+000  +2.6942571516E-001 +1.6885933794E+000  +2.6667572824E-001 +3.0218761410E+000  +6.5547239376E-001 -4.2429083187E+000 
14150405.507 +6.5565209830E-001 -5.1308171996E+000  +2.7314064845E-001 +1.6206859744E+000  +2.6746565773E-001 +3.1842490015E+000  +6.9310240103E-001 -3.5666398173E+000 
14275550.688 +6.8296009520E-001 -5.2109006460E+000  +2.7433012528E-001 +1.2173296348E+000  +2.7020551680E-001 +1.7433442581E+000  +6.7531095811E-001 -4.6466170262E+000 
14400695.870 +6.9578887455E-001 -6.4744094199E+000  +2.7525254787E-001 +1.0336368168E+000  +2.7228195532E-001 +1.8240293300E+000  +7.1741106130E-001 -4.6505554932E+000 
