!  2-Port S-parameters saved by WinCal
! VAR MeasName=S-Parameters (CALIBRATED_DATA) read from VNA (P5004A)
! VAR MeasDate=29/08/2024 12:15:37
! VAR NAME=S2_r9c5_RESET1_9k-100M_2
! VAR FILENAME=S2_r9c5_RESET1_9k-100M_2.S2P
! VAR DATE=29/08/2024 12:15:37
! VAR PHYS_PORTS=1,2
! VAR ObjTypeName=DATASET
! VAR IndexType=Frequency
!
# Hz S MA R 50
9000.000 +8.9247811139E-002 -1.5609266268E+002  +6.2004945827E-003 -1.7227464262E+002  +5.9084400391E-003 -7.1920182432E+001  +2.6771217800E-001 -1.3915671593E+002 
134145.181 +1.1125251828E-001 +1.6980970964E+002  +3.1457319470E-004 -1.0684026394E+002  +2.4612752149E-004 +1.6809565167E+002  +2.4397870652E-001 -1.7045608149E+002 
259290.363 +1.1230166682E-001 +1.6966051577E+002  +4.9453834490E-004 -6.6781527343E+001  +2.6133229791E-004 +2.2768915790E+001  +2.4522149584E-001 -1.6900355691E+002 
384435.544 +1.1469067552E-001 +1.6988809462E+002  +3.3642026401E-004 -1.2845947001E+002  +7.4984547719E-004 +8.8832963838E+001  +2.4132707030E-001 -1.6898267064E+002 
509580.726 +1.1181208589E-001 +1.7159659603E+002  +1.0431975654E-003 -7.4116747894E+001  +8.1523857227E-004 +6.1523698932E+001  +2.4494693176E-001 -1.6796484217E+002 
634725.907 +1.1630776195E-001 +1.7218162783E+002  +5.2397716236E-004 -1.5063632453E+002  +8.5572849834E-004 +7.1626955560E+001  +2.6256772512E-001 -1.6573202922E+002 
759871.089 +1.1961342288E-001 +1.7143846082E+002  +1.2708365266E-003 -1.0440828723E+002  +1.2171572053E-003 +6.5076218069E+001  +2.4880848014E-001 -1.6719676484E+002 
885016.270 +1.2099438745E-001 +1.6888635021E+002  +6.0630797776E-004 -9.4542411493E+001  +3.9311710150E-004 +1.5443832946E+002  +2.4277732449E-001 -1.6726270678E+002 
1010161.452 +1.1803416298E-001 +1.6935718057E+002  +1.6212133583E-003 -3.0046366952E+001  +1.3934196514E-003 -1.4829020307E+002  +2.2301622487E-001 -1.6558591193E+002 
1135306.633 +1.1619510643E-001 +1.6845936307E+002  +2.1902941189E-003 +1.8415400111E+000  +3.7740571615E-003 +1.7999424195E+002  +2.0480144574E-001 -1.6773009579E+002 
1260451.815 +1.2032174807E-001 +1.6839033497E+002  +1.7018442513E-003 +1.8375547887E+001  +5.8297914837E-004 +1.6373566288E+002  +2.2862506957E-001 -1.6172861885E+002 
1385596.996 +1.2633753586E-001 +1.7295638157E+002  +1.5064713087E-003 -6.1600497423E+001  +2.2936398662E-003 +1.2079878341E+002  +2.6869089901E-001 -1.5454507827E+002 
1510742.178 +1.2851834598E-001 +1.7215505042E+002  +8.6301043150E-004 -2.4133777607E+001  +2.2298799544E-003 -1.7440588609E+002  +2.5191711760E-001 -1.5687984565E+002 
1635887.359 +1.2851385994E-001 +1.7116062364E+002  +8.9977502665E-004 -5.1963658482E+001  +1.5592408716E-003 +1.7701282792E+002  +2.4939311970E-001 -1.6032540095E+002 
1761032.541 +1.3144253836E-001 +1.7029875444E+002  +1.5857086207E-003 +1.9296240183E+001  +1.6374872174E-003 -1.0565145017E+002  +2.3534315478E-001 -1.6145587731E+002 
1886177.722 +1.3038419841E-001 +1.6728963067E+002  +5.0342040411E-003 +7.6572096526E+001  +5.8570805293E-003 -6.2591663778E+001  +1.8972762523E-001 -1.6143598708E+002 
2011322.904 +1.3177153851E-001 +1.6947834255E+002  +6.3425868359E-003 +5.9700210562E+001  +5.8483901589E-003 -6.4492006681E+001  +2.0861377603E-001 -1.6972275965E+002 
2136468.085 +1.2748082723E-001 +1.6601388570E+002  +1.3108751282E-002 +5.9114173872E+001  +1.4296208093E-002 -7.6855473921E+001  +1.8051750791E-001 -1.5766217542E+002 
2261613.267 +1.3742222149E-001 +1.6654746191E+002  +2.3479066085E-002 +9.8028442818E+001  +2.5577127188E-002 -3.4367264180E+001  +1.1620872645E-001 +1.3550756997E+002 
2386758.448 +1.3910323250E-001 +1.6496968852E+002  +1.3974316482E-002 +7.8668070639E+001  +1.3452026229E-002 -3.4690084261E+001  +1.8099478441E-001 -1.7369467203E+002 
2511903.630 +1.3902446590E-001 +1.6275028531E+002  +2.4648593310E-002 +9.6177058806E+001  +2.3073963561E-002 -1.9541657639E+001  +1.6224261651E-001 +1.7327208071E+002 
2637048.811 +1.2632894198E-001 +1.6363847113E+002  +5.1053908723E-002 +7.3411996448E+001  +4.8887824831E-002 -4.3735926321E+001  +7.4140879014E-002 +1.2677030471E+002 
2762193.992 +1.2469815905E-001 +1.7630202096E+002  +5.3377263943E-002 +2.3633768210E+001  +5.2450237685E-002 -8.0250914290E+001  +9.7454005308E-002 +1.7947639834E+002 
2887339.174 +1.3909635081E-001 +1.7884423410E+002  +1.0510432072E-001 -3.0378781353E+000  +1.1852243674E-001 -1.0085829861E+002  +3.5753264733E-001 -1.4410063769E+001 
3012484.355 +1.3790110840E-001 +1.7218880094E+002  +2.9625451737E-002 +4.3590123974E-001  +3.3334641870E-002 -1.0681736242E+002  +1.9144729710E-001 -1.3666367222E+002 
3137629.537 +1.4894363927E-001 +1.7432430993E+002  +1.0720198342E-001 -6.3386798463E+001  +1.0220748723E-001 -1.5404097335E+002  +6.0050469172E-001 -9.3112821457E+001 
3262774.718 +1.3368948147E-001 +1.6584295219E+002  +5.6743218588E-002 +1.7816934263E+001  +5.8220021921E-002 -6.9605258287E+001  +1.0189303271E-001 -1.0444231372E+002 
3387919.900 +1.3457401550E-001 +1.6838533304E+002  +6.7976621922E-002 +2.2889129486E+001  +6.5973969829E-002 -6.1897076622E+001  +6.6582314076E-002 -1.2962477682E+000 
3513065.081 +1.3652565122E-001 +1.5849664812E+002  +6.5436830891E-002 +8.3518884587E+001  +6.3935900320E-002 +2.4589081729E+000  +3.2346849074E-001 +1.3931099793E+002 
3638210.263 +1.8504515479E-001 +1.4490702662E+002  +1.2008264911E-001 +1.3749535764E+002  +1.0233331958E-001 +5.7701238619E+001  +6.6264864466E-001 +1.3683339674E+002 
3763355.444 +1.6705544025E-001 +1.5079637734E+002  +7.2147307803E-002 +1.0533304720E+002  +6.7977119929E-002 +2.0478425303E+001  +3.9982995956E-001 +1.3805194786E+002 
3888500.626 +1.6261598794E-001 +1.5499148512E+002  +5.1834253363E-002 +7.6158260590E+001  +4.9790113531E-002 +6.2298942632E+000  +2.7525672443E-001 +1.5279990523E+002 
4013645.807 +1.9623965229E-001 +1.5090896936E+002  +1.0203599376E-001 +1.0164874178E+002  +9.3904806639E-002 +3.0398542225E+001  +4.7046924729E-001 +1.1061323292E+002 
4138790.989 +1.6311009430E-001 +1.5597521063E+002  +6.7341017625E-002 +5.6063016649E+001  +6.8469147223E-002 -9.0392132816E+000  +1.8378425466E-001 +1.2495956278E+002 
4263936.170 +1.7914588808E-001 +1.4533887661E+002  +1.0504649899E-001 +8.7225989344E+001  +1.0175971805E-001 +1.8730976801E+001  +3.8451845308E-001 +1.2293084932E+002 
4389081.352 +1.8855631042E-001 +1.3376080265E+002  +1.1894518409E-001 +8.5394874357E+001  +1.1121796963E-001 +2.6923169157E+001  +3.5373556666E-001 +1.3421353420E+002 
4514226.533 +2.1159344692E-001 +1.3655253516E+002  +1.5263631600E-001 +1.1452503016E+002  +1.4905214283E-001 +5.8188375079E+001  +8.1885495216E-001 +1.3695556707E+002 
4639371.715 +2.4653239519E-001 +1.3590799274E+002  +1.5154614225E-001 +9.5319071032E+001  +1.5908467694E-001 +5.2743882865E+001  +6.2107962400E-001 +1.1410763774E+002 
4764516.896 +3.4976400162E-001 +1.4202348956E+002  +3.1551179473E-001 +1.6835042162E+002  +3.0858955076E-001 +1.2381691412E+002  +1.8420493034E+000 +1.4712562250E+002 
4889662.078 +3.4405973409E-001 +3.9833288949E+001  +1.8092379030E+000 -7.4055636387E+000  +1.8663785618E+000 -5.2713161777E+001  +7.0128609881E+000 -5.8017858713E+001 
5014807.259 +3.4575249667E-001 +1.3281686818E+002  +2.5533195314E-001 +1.5380013142E+002  +2.5180648993E-001 +1.0786741816E+002  +1.5276113139E+000 +1.4923739774E+002 
5139952.441 +3.2114074342E-001 +1.3726655737E+002  +1.9374956829E-001 +1.0193057417E+002  +1.7598590986E-001 +5.7984697011E+001  +8.7393563225E-001 +1.0582587403E+002 
5265097.622 +2.7767852848E-001 +1.2487428519E+002  +3.5832777762E-001 +4.6566659381E+001  +3.6221713170E-001 +8.5408863417E+000  +1.4811188415E+000 +2.4016589866E+001 
5390242.804 +3.7777410045E-001 +1.1947202615E+002  +3.6550852572E-001 +9.6808199142E+001  +3.6203633939E-001 +6.2500020933E+001  +1.4290571196E+000 +1.0195884589E+002 
5515387.985 +3.6959014830E-001 +1.2628228045E+002  +2.9695971201E-001 +1.0787378771E+002  +3.0122960363E-001 +7.4129985310E+001  +1.5126161903E+000 +1.1796316124E+002 
5640533.166 +3.6204411705E-001 +1.3459861575E+002  +2.1340777474E-001 +8.2925039038E+001  +1.9954783640E-001 +4.8597516691E+001  +9.9613820744E-001 +9.5318310966E+001 
5765678.348 +4.7138053206E-001 +1.1725718719E+002  +4.0165965960E-001 +1.0493511957E+002  +3.9860574263E-001 +7.7885982336E+001  +1.8541769759E+000 +1.1203355813E+002 
5890823.529 +4.6550979207E-001 +1.2338804414E+002  +3.3906824415E-001 +7.0838475882E+001  +3.1670360182E-001 +4.6249682717E+001  +1.2804911142E+000 +6.1739697617E+001 
6015968.711 +5.3544401746E-001 +1.1346484220E+002  +3.4362316705E-001 +7.5433840851E+001  +3.4815794525E-001 +5.4397970062E+001  +1.2087763270E+000 +8.2433793311E+001 
6141113.892 +4.3441293802E-001 +9.4018429768E+001  +4.1946969852E-001 +4.8240556483E+001  +4.0552304495E-001 +2.9857152546E+001  +1.2441463561E+000 +6.3086751363E+001 
6266259.074 +5.3982002588E-001 +9.2276083499E+001  +4.9719059430E-001 +5.8093953018E+001  +4.9053869447E-001 +3.7829794564E+001  +1.8341971944E+000 +6.8773018426E+001 
6391404.255 +7.0139587496E-001 +8.5848728245E+001  +4.9722925422E-001 +4.2608950361E+001  +4.8169586401E-001 +2.4444757455E+001  +1.4201312578E+000 +3.7696131565E+001 
6516549.437 +9.9201565073E-001 +8.2490209653E+001  +5.2599733506E-001 +4.2923436573E+001  +5.0063164000E-001 +2.8867860181E+001  +1.1588213785E+000 +3.2687349929E+001 
6641694.618 +6.3607470990E-001 +5.5730453975E+001  +4.6948992283E-001 +1.2006306820E+001  +4.5195067802E-001 +9.9644291137E-001  +1.1510021344E+000 +1.0524092877E+001 
6766839.800 +1.0225780403E+000 +6.2287176465E+001  +5.0154416413E-001 +2.5931287926E+001  +4.9865752849E-001 +1.6019992077E+001  +1.3014114160E+000 +2.1618853823E+001 
6891984.981 +9.0925802561E-001 +3.7404363639E+001  +4.3846077550E-001 +4.4009377852E+000  +4.3122623572E-001 +2.9776691546E-001  +1.0104301136E+000 +2.1815279754E+000 
7017130.163 +7.7728712528E-001 +1.7266526493E+001  +3.8457725445E-001 +1.1592841226E+000  +3.8851307541E-001 -4.7791188029E+000  +8.6712929105E-001 +9.6279103261E+000 
7142275.344 +1.1062458092E+000 +1.2670432178E+001  +3.9934882133E-001 +5.9266399262E-001  +3.8569870033E-001 -5.0788736829E+000  +9.5722114027E-001 -1.7765977641E+001 
7267420.526 +1.0799060939E+000 +6.4216410530E+000  +3.4020754071E-001 +1.2950249194E+000  +3.3258450468E-001 +9.4398923018E-002  +8.2233146835E-001 -1.2460144960E+001 
7392565.707 +9.0332647657E-001 +3.0853693383E+000  +2.9768384726E-001 +2.8533172443E+000  +2.9593832899E-001 +3.9210097945E+000  +9.6922573624E-001 -1.4157264221E+001 
7517710.889 +7.7487447996E-001 +4.3042062320E+000  +2.8153888946E-001 +2.6138174100E+000  +2.7530237567E-001 +3.9576729123E+000  +8.6116770317E-001 -1.0404397855E+001 
7642856.070 +7.5806069292E-001 +1.8931600097E+000  +2.7063981164E-001 +1.6857276613E+000  +2.6647018236E-001 +7.4445624757E+000  +8.6259442490E-001 -7.4428994007E+000 
7768001.252 +6.0956848291E-001 +1.3731564938E+001  +2.4589783361E-001 -2.9266176331E-001  +2.4486865061E-001 +5.7514736906E+000  +7.0955086753E-001 -9.3995081466E+000 
7893146.433 +5.0576911323E-001 +1.2589542975E+001  +2.3510508899E-001 -2.5328055943E+000  +2.3094503066E-001 +4.6711415836E+000  +5.6285027530E-001 +1.0052670777E+001 
8018291.615 +6.3701979319E-001 +1.1501494463E+001  +2.2949454566E-001 +1.5597336429E+000  +2.3150625689E-001 +7.9722727302E+000  +6.2733573911E-001 +8.2112353812E+000 
8143436.796 +4.9841270120E-001 +1.2545388257E+001  +2.3128116637E-001 -1.5409952442E+000  +2.2580831111E-001 +5.3556403491E+000  +5.8650049368E-001 -1.4489997280E-001 
8268581.977 +5.0611489667E-001 +2.3991807048E+001  +2.1763392245E-001 -2.1184807447E+000  +2.2019030621E-001 +8.1812895258E+000  +5.0452224617E-001 -2.2248410912E+000 
8393727.159 +4.6612147802E-001 +1.0635067270E+001  +2.2148441251E-001 -2.4233091602E+000  +2.1708364986E-001 +6.8514569950E+000  +4.5364149542E-001 +2.6534728084E+000 
8518872.340 +4.3687519751E-001 +1.2875448206E+001  +2.1547350256E-001 -4.6518308148E+000  +2.1465916741E-001 +8.0109728186E+000  +4.7054680663E-001 -7.2695449960E-001 
8644017.522 +4.2777325947E-001 +1.6763433590E+001  +2.1956410720E-001 -4.3816139455E+000  +2.0890730647E-001 +8.4532154366E+000  +4.0492787480E-001 +3.9243424957E+000 
8769162.703 +3.9305557938E-001 +5.7665282972E+000  +2.0979796137E-001 -3.8355749301E+000  +2.1099391913E-001 +8.1383802032E+000  +4.6203120751E-001 +7.0877983796E+000 
8894307.885 +3.5150175542E-001 +1.2641429354E+001  +2.0899483718E-001 -5.4959032518E+000  +2.1137778200E-001 +8.7057897848E+000  +4.8058913782E-001 +4.8445794230E+000 
9019453.066 +3.8263368231E-001 +1.5467072685E+001  +2.1057731216E-001 -5.6457956708E+000  +2.0459942291E-001 +9.2903148482E+000  +3.7707500663E-001 +4.1106317440E+000 
9144598.248 +3.3486952455E-001 +1.3145421527E+001  +2.0662589253E-001 -5.8368717511E+000  +2.0255640776E-001 +8.4667544023E+000  +3.4561514805E-001 +4.8882833879E+000 
9269743.429 +3.5666892696E-001 +3.6471536252E+000  +2.1080885189E-001 -4.9026050033E+000  +2.0770073474E-001 +1.0027453168E+001  +4.0278339337E-001 +5.5821376208E+000 
9394888.611 +3.4138125530E-001 +1.3102573363E+001  +2.0557377986E-001 -4.7403665749E+000  +2.0813303111E-001 +9.6315788857E+000  +3.9071455125E-001 +5.1047861486E+000 
9520033.792 +2.9695865905E-001 +1.4078350884E+001  +2.0499760996E-001 -5.9319442549E+000  +2.0376838404E-001 +9.8457953980E+000  +3.4706135341E-001 -3.4782264319E-001 
9645178.974 +3.0623930883E-001 +5.2435864955E+000  +2.0323921741E-001 -5.4011585482E+000  +2.0282482709E-001 +1.0375379134E+001  +3.2730712505E-001 +8.1687058846E+000 
9770324.155 +3.3758708262E-001 +4.9223916758E+000  +2.0835476913E-001 -4.9531610518E+000  +2.0924465744E-001 +1.0115373940E+001  +3.4843629406E-001 -5.7655315149E+000 
9895469.337 +3.5721307581E-001 +3.8543625798E+000  +2.1091899504E-001 -5.1118837045E+000  +2.1063387831E-001 +1.0384370753E+001  +3.5348844899E-001 -5.8761586679E+000 
10020614.518 +3.4475644882E-001 +2.4328482468E+000  +2.1141721538E-001 -5.3225680305E+000  +2.0973379166E-001 +1.0255108827E+001  +3.2929511548E-001 -1.2973851065E+000 
10145759.700 +3.4546474846E-001 +9.9068859643E+000  +2.1276917589E-001 -3.8469082999E+000  +2.1309081717E-001 +1.1007749773E+001  +3.6426803082E-001 -1.4516627272E+000 
10270904.881 +3.8231672256E-001 +4.7041110496E+000  +2.1554339791E-001 -3.7713288111E+000  +2.1388065138E-001 +1.1532971463E+001  +3.4811139433E-001 -6.1102134807E+000 
10396050.063 +3.5895901913E-001 +1.1550635027E+001  +2.1227775269E-001 -2.7841805870E+000  +2.0917304571E-001 +1.2092981341E+001  +3.6740521722E-001 +7.5110655476E+000 
10521195.244 +3.6076787903E-001 +1.4338417969E+001  +2.1200933427E-001 -3.2425146170E+000  +2.1157285327E-001 +1.3490360155E+001  +3.6676924159E-001 +7.5204375147E+000 
10646340.426 +3.7386103564E-001 +1.0939162113E+001  +2.1590890666E-001 -2.4407118434E+000  +2.1277544581E-001 +1.2028673192E+001  +3.6887524973E-001 +5.1909539749E+000 
10771485.607 +3.3801688227E-001 +8.8851542632E+000  +2.1622939916E-001 -2.7419545616E+000  +2.1501712244E-001 +1.1344817711E+001  +3.5842712864E-001 +8.0268108347E+000 
10896630.788 +3.4442283901E-001 +1.4199905132E+001  +2.1445119784E-001 -2.3146696735E+000  +2.1525607502E-001 +1.1351278384E+001  +3.6581824028E-001 +9.9125860281E+000 
11021775.970 +3.7808193873E-001 +1.5034210130E+001  +2.1848795068E-001 -1.5494475434E+000  +2.1632366760E-001 +1.2863600604E+001  +3.8646041093E-001 +8.0399397048E+000 
11146921.151 +3.8391988207E-001 +1.4930344453E+001  +2.1744213606E-001 -1.5220850939E+000  +2.1799266604E-001 +1.2012919043E+001  +3.7966126146E-001 +6.3994561292E+000 
11272066.333 +4.0493925303E-001 +1.5522503644E+001  +2.2246192287E-001 -1.2458040129E+000  +2.1866524809E-001 +1.1151353183E+001  +3.8364532310E-001 +6.4618054298E+000 
11397211.514 +3.8979363384E-001 +8.9587992223E+000  +2.2352159231E-001 -1.6595957021E+000  +2.2392848481E-001 +1.1189261313E+001  +3.9402861480E-001 +7.3757149743E+000 
11522356.696 +4.1166363951E-001 +1.3765237292E+001  +2.2459255117E-001 -4.7592783985E-001  +2.2422815548E-001 +1.0744439929E+001  +4.0360948048E-001 +9.2907625476E+000 
11647501.877 +4.1562735245E-001 +1.1195169444E+001  +2.2701874148E-001 -2.4195975181E-001  +2.2521725788E-001 +1.0635981732E+001  +4.1799907586E-001 +8.7366800806E+000 
11772647.059 +4.2062977259E-001 +1.1204979292E+001  +2.2849041042E-001 -2.8363031497E-001  +2.2835133029E-001 +1.0383231751E+001  +4.2684247916E-001 +5.4590781155E+000 
11897792.240 +3.9207869777E-001 +1.1134889161E+001  +2.3350753073E-001 -5.8761797290E-001  +2.3107668031E-001 +9.4198432190E+000  +4.2128200271E-001 +8.6635428987E+000 
12022937.422 +4.4818236137E-001 +9.7931746715E+000  +2.3469926959E-001 +2.1351550583E-001  +2.3327500250E-001 +1.0044049689E+001  +4.3500336388E-001 +8.0871524551E+000 
12148082.603 +4.5572116967E-001 +9.3840349604E+000  +2.3733610902E-001 +1.1334901614E+000  +2.3484022860E-001 +9.9162691986E+000  +4.6691623759E-001 +5.0535515843E+000 
12273227.785 +4.4597292061E-001 +4.9625674630E+000  +2.3969755715E-001 +2.9949838059E-001  +2.3877363269E-001 +8.9456504747E+000  +4.5376076855E-001 +6.6506742773E+000 
12398372.966 +4.7018852426E-001 +8.9960278828E+000  +2.4324750077E-001 +6.5216169881E-001  +2.4072583852E-001 +8.4769727527E+000  +4.5456250689E-001 +4.6140907596E+000 
12523518.148 +4.4579994221E-001 +4.7984918483E+000  +2.4726441751E-001 +7.0584808611E-001  +2.4481040614E-001 +7.6971807378E+000  +4.9387029551E-001 +3.3732224858E+000 
12648663.329 +5.1873022327E-001 +5.4977885311E+000  +2.5025449649E-001 +1.6018473063E+000  +2.4786912899E-001 +8.4353729148E+000  +4.9673734019E-001 -1.0931331277E-002 
12773808.511 +4.8673701146E-001 +4.4258043007E+000  +2.5213468802E-001 +1.6064690548E+000  +2.4904340909E-001 +7.0906966263E+000  +5.2046666649E-001 +1.4287365459E+000 
12898953.692 +5.1692615157E-001 +6.3462843897E+000  +2.5318089123E-001 +8.8219763798E-001  +2.5012762324E-001 +7.1995848481E+000  +5.0639236572E-001 +4.8477915967E-001 
13024098.874 +5.2240175275E-001 +2.4203853072E+000  +2.5660977973E-001 +1.5438046172E+000  +2.5380341403E-001 +6.1539596255E+000  +5.1657364672E-001 +9.9836049902E-001 
13149244.055 +5.5151202512E-001 +3.1443874137E+000  +2.5902920452E-001 +1.7439448809E+000  +2.5692941975E-001 +6.4964727517E+000  +5.4656082423E-001 -8.9070464666E-001 
13274389.237 +5.6447244255E-001 +9.7604509588E-001  +2.6215293506E-001 +1.8716394531E+000  +2.5875832277E-001 +5.8883570405E+000  +5.7313505202E-001 -7.6566537267E-001 
13399534.418 +5.7200805309E-001 -2.1848756187E+000  +2.6574670749E-001 +2.1924995391E+000  +2.6208237437E-001 +5.6462026115E+000  +6.0244283709E-001 -2.9980370734E+000 
13524679.599 +6.1013196225E-001 -2.3747018029E+000  +2.6633344790E-001 +2.4650441939E+000  +2.6418554977E-001 +5.1370716251E+000  +5.9736070829E-001 -1.2598299156E+000 
13649824.781 +5.8910131353E-001 -9.0760123167E-001  +2.6892159550E-001 +1.8338114195E+000  +2.6783888822E-001 +3.8615635837E+000  +5.8729029852E-001 -4.4271783549E+000 
13774969.962 +6.1328820166E-001 -3.4238356280E+000  +2.7139048701E-001 +2.2335892129E+000  +2.6843804672E-001 +3.9881175840E+000  +6.4534259633E-001 -2.9146637718E+000 
13900115.144 +6.3779515794E-001 -3.7296158324E+000  +2.7266180671E-001 +1.4114819797E+000  +2.6822084304E-001 +3.3005961983E+000  +6.2599656942E-001 -2.4659528925E+000 
14025260.325 +6.5212461498E-001 -1.5911335095E+000  +2.7188473697E-001 +1.1934165609E+000  +2.6962056656E-001 +2.7532135565E+000  +6.2539624150E-001 -3.9451281823E+000 
14150405.507 +6.4352285299E-001 -2.3571018725E+000  +2.7440795021E-001 +1.2708617381E+000  +2.7306081714E-001 +2.4496090318E+000  +6.7399153883E-001 -5.0260596202E+000 
14275550.688 +6.7302325791E-001 -5.1648580701E+000  +2.7878644965E-001 +1.3126810568E+000  +2.7464722358E-001 +1.9696041548E+000  +6.8263636564E-001 -6.6678921322E+000 
14400695.870 +6.7737983613E-001 -6.2331109983E+000  +2.7977318034E-001 +1.1198903460E+000  +2.7530137499E-001 +1.2229736837E+000  +6.9403760408E-001 -5.0222395667E+000 
