!  2-Port S-parameters saved by WinCal
! VAR MeasName=S-Parameters (CALIBRATED_DATA) read from VNA (P5004A)
! VAR MeasDate=29/08/2024 10:23:35
! VAR NAME=S2_r9c1_SET2_9k-100M_2
! VAR FILENAME=S2_r9c1_SET2_9k-100M_2.S2P
! VAR DATE=29/08/2024 10:23:35
! VAR PHYS_PORTS=1,2
! VAR ObjTypeName=DATASET
! VAR IndexType=Frequency
!
# Hz S MA R 50
9000.000 +7.1835345874E-002 -1.7040981749E+002  +4.4037729982E-003 -9.0882005002E+001  +4.8552748956E-003 +9.1894199114E+001  +2.8142206339E-001 -1.4777900272E+002 
134145.181 +1.1098200128E-001 +1.6999058770E+002  +6.6874479599E-004 -6.2152059703E+001  +2.6994367391E-004 -3.5443281960E+001  +2.3948543801E-001 -1.7131769231E+002 
259290.363 +1.1362717795E-001 +1.7138078431E+002  +4.7227846491E-004 -1.4195149280E+001  +8.6005039447E-004 -1.4583594535E+002  +2.4979993274E-001 -1.6909498783E+002 
384435.544 +1.1365126117E-001 +1.7029183139E+002  +1.8551337700E-004 -1.3064317784E+002  +1.9471388690E-004 +1.5601367256E+002  +2.4498235324E-001 -1.6762766412E+002 
509580.726 +1.1392633478E-001 +1.7120691518E+002  +9.9278221328E-004 +1.6269081044E+002  +1.5986093202E-003 +9.2592208260E+001  +2.5390021361E-001 -1.6748528587E+002 
634725.907 +1.1727580099E-001 +1.7237261342E+002  +1.3695825462E-003 +7.6219488760E+001  +2.6260237763E-004 +1.5073911184E+002  +2.5137411209E-001 -1.6300258850E+002 
759871.089 +1.1899257205E-001 +1.7061242216E+002  +5.2914448588E-004 -1.1686074598E+002  +7.2442953524E-004 +8.0273758911E+001  +2.4555890080E-001 -1.6660408579E+002 
885016.270 +1.2117140069E-001 +1.6894067692E+002  +3.9303310269E-004 -1.0963195618E+002  +2.5825002411E-004 -6.1330918827E+001  +2.4202649879E-001 -1.6695302557E+002 
1010161.452 +1.1534997100E-001 +1.7178510616E+002  +2.2312153030E-003 -1.2471101230E+002  +6.0094600605E-004 -7.3371801994E+001  +2.0547525941E-001 -1.6564394406E+002 
1135306.633 +1.1635495318E-001 +1.6934607471E+002  +1.8688229874E-003 +9.9121328527E+001  +2.7936077016E-003 +1.3187189584E+002  +1.8021668876E-001 -1.6531006676E+002 
1260451.815 +1.1775041346E-001 +1.7106512050E+002  +1.2420367022E-003 -3.8058002154E+001  +1.7269763370E-003 +3.9305357543E+001  +2.2973436903E-001 -1.5955759147E+002 
1385596.996 +1.2151943872E-001 +1.7259953343E+002  +8.0499277538E-004 -1.3592662271E+002  +1.2398831834E-003 +1.4780310562E+002  +2.8932085395E-001 -1.5812695510E+002 
1510742.178 +1.2686178043E-001 +1.7188111317E+002  +6.5259195064E-004 -7.7929135878E+001  +6.3787861339E-004 +1.4718751320E+002  +2.5850656059E-001 -1.5850667932E+002 
1635887.359 +1.2848776206E-001 +1.7161786585E+002  +1.9471507970E-003 -4.3204017666E+001  +4.1283902138E-004 -1.7393322522E+002  +2.4368196131E-001 -1.5475419241E+002 
1761032.541 +1.2959939971E-001 +1.6993384711E+002  +1.2432538337E-003 +1.2384373066E+002  +2.1194416639E-003 +3.3208691180E+001  +2.0745926305E-001 -1.6723096607E+002 
1886177.722 +1.2851549149E-001 +1.6892253199E+002  +4.9937465780E-004 -4.6200621726E+001  +1.0940383345E-003 -6.9258300431E+001  +2.1466898327E-001 -1.5949015578E+002 
2011322.904 +1.2907817776E-001 +1.7035475245E+002  +1.2028221376E-003 +1.1262581309E+001  +3.5119677895E-003 -7.3545822491E+001  +1.8874461931E-001 -1.6299607172E+002 
2136468.085 +1.3043414463E-001 +1.6874274463E+002  +4.1856525399E-003 +8.0896136858E+001  +5.8907831760E-003 -6.2131223158E+001  +9.8559814262E-002 -1.7879255301E+002 
2261613.267 +1.3042095353E-001 +1.6595622285E+002  +5.5658616980E-003 +4.1115759403E+001  +5.1508897192E-003 -8.2819964315E+001  +8.1812182138E-002 -1.3090760043E+002 
2386758.448 +1.3850046901E-001 +1.6506810195E+002  +2.7010561816E-003 +8.3323024495E+001  +5.3093910841E-003 -1.4059212919E+002  +1.9274747919E-001 -1.7711446716E+002 
2511903.630 +1.4465521476E-001 +1.6387900681E+002  +1.6981192595E-003 +7.3758631481E+001  +3.6748739744E-003 -6.3734923722E+000  +1.9137265865E-001 -1.7504256505E+002 
2637048.811 +1.2317392809E-001 +1.5802164808E+002  +9.5578472672E-003 +6.5023696694E+001  +1.1647540114E-002 -5.1350551875E+001  +1.5652588071E-001 +1.5855246131E+002 
2762193.992 +1.1785305026E-001 +1.7120913085E+002  +8.6634648122E-003 -4.2730989511E+001  +1.8803249360E-002 -1.3437941068E+002  +1.4598949491E-001 -8.0047164094E+001 
2887339.174 +1.3336519433E-001 +1.7643381025E+002  +2.2927194382E-002 -1.2823417172E+001  +1.3681625283E-002 -1.3268134765E+002  +2.9657176307E-001 -2.5320093870E+001 
3012484.355 +1.0513571926E-001 +1.7058730226E+002  +1.0874303796E-001 -1.6983904015E+001  +1.8229511057E-001 -1.5634912378E+002  +3.2491113823E+000 -6.6104574031E+001 
3137629.537 +1.3233039834E-001 +1.6678365019E+002  +1.2322638163E-003 -2.2201416219E+001  +1.1889306363E-002 -1.5125892499E+002  +3.4558550946E-001 -8.6853313964E+001 
3262774.718 +1.2863773972E-001 +1.5864880399E+002  +4.2338656751E-003 -1.2871827449E+002  +2.5494599850E-002 +1.7671099873E+002  +5.0492664416E-001 -8.6669071178E+001 
3387919.900 +1.3742488441E-001 +1.6384849846E+002  +1.8265743750E-002 +6.2585132830E+001  +2.4337400389E-002 -6.5363193783E+001  +8.0326501290E-001 +9.3282229011E+001 
3513065.081 +1.5604571395E-001 +1.5284222018E+002  +2.1336446143E-002 +3.0247381411E+001  +2.6556171232E-002 +1.5123076852E+001  +3.8537059134E-001 +4.7694270556E+001 
3638210.263 +1.7607094693E-001 +1.4892610352E+002  +2.6449920045E-002 +1.1419205956E+002  +2.1898896477E-002 +4.2172213830E+001  +6.4342968220E-001 +1.3074036994E+002 
3763355.444 +1.6887872843E-001 +1.5170803684E+002  +1.1148682731E-001 -1.4358192842E+002  +1.2164324876E-001 +1.3327703652E+002  +4.2028918971E+000 +1.7080618774E+002 
3888500.626 +1.6468212170E-001 +1.5273278762E+002  +2.4421073095E-002 +6.1924342324E+001  +1.7272914326E-002 +1.7809609171E+001  +6.5349730345E-001 +7.4949267333E+001 
4013645.807 +1.5863004269E-001 +1.5080727958E+002  +9.4411960121E-003 +4.2487445096E+001  +9.9081972283E-003 +1.0616282462E+001  +2.9172184869E-001 +1.1943486340E+002 
4138790.989 +2.0350259408E-001 +1.4847974750E+002  +2.0482780491E-002 +6.5570299467E+001  +1.8555020132E-002 +2.4035675798E+001  +3.8677859062E-001 +1.1229437378E+002 
4263936.170 +1.9231830516E-001 +1.4477828802E+002  +3.6352927096E-002 +9.5847471853E+001  +6.6464204520E-003 +6.7178402883E+001  +6.8051030715E-001 +1.3400737707E+002 
4389081.352 +1.8631313165E-001 +1.4421675274E+002  +1.6955819218E-002 +5.5553507054E+001  +2.5822934532E-002 +3.9250066895E+001  +4.4808482257E-001 +1.0071343697E+002 
4514226.533 +2.2334701023E-001 +1.4027445009E+002  +4.8806516405E-002 +1.1348214286E+002  +2.8905447514E-002 +7.9467121211E+001  +1.0099826949E+000 +1.2914830240E+002 
4639371.715 +2.4820882698E-001 +1.2035833908E+002  +8.5309623525E-002 +1.1761894470E+002  +1.1613177239E-001 +6.9049983567E+001  +1.7078910602E+000 +1.1275047846E+002 
4764516.896 +3.4345085294E-001 +1.0424072863E+002  +3.1062085903E-001 +7.7787884174E+001  +2.7259413228E-001 +2.2121010701E+000  +3.8626305670E+000 +3.8099536600E+001 
4889662.078 +4.4423631684E-001 +1.2867097740E+002  +5.0490354316E-002 +4.4652311553E+001  +6.7684195812E-002 +2.1273896782E+001  +8.1845233796E-001 -2.2615262864E+001 
5014807.259 +3.8089283330E-001 +1.3053959182E+002  +1.5209081536E-001 +1.7057358169E+002  +9.5689459978E-002 +1.2486627466E+002  +3.0670716576E+000 +1.3995786504E+002 
5139952.441 +3.8908050830E-001 +1.2880188920E+002  +1.1448967392E-001 +1.0497750442E+002  +1.3123086058E-001 +4.3194471823E+001  +2.7117422099E+000 +7.5111895306E+001 
5265097.622 +3.0913746488E-001 +1.2519195481E+002  +1.0590134047E-001 +5.6128395040E+001  +5.5585697851E-002 +4.9958505762E+001  +1.7794085659E+000 +6.9086943021E+001 
5390242.804 +4.2805946832E-001 +1.3167794899E+002  +8.3988564201E-002 +7.2482128972E+001  +5.0045437848E-002 +3.2358275160E+001  +1.6300883863E+000 +4.3554356439E+001 
5515387.985 +3.6991834604E-001 +1.2929987035E+002  +6.8008398808E-002 +1.4236921870E+002  +4.5305640760E-002 +1.1229391346E+002  +2.4365742975E+000 +1.3717716035E+002 
5640533.166 +4.7755808889E-001 +1.3316253655E+002  +6.2339959922E-002 +1.1976283030E+002  +3.1541754210E-002 +1.0716221043E+002  +1.6632415006E+000 +1.0519995709E+002 
5765678.348 +4.5616805325E-001 +1.2981973792E+002  +7.5365603321E-002 +1.0413920372E+002  +5.2924234879E-002 +9.1537557887E+001  +2.9224040352E+000 +9.8085503296E+001 
5890823.529 +4.8501926769E-001 +1.2105788069E+002  +6.7255239494E-002 +8.9901125431E+001  +6.1211074114E-002 +5.5905133596E+001  +1.5945659677E+000 +8.4399752712E+001 
6015968.711 +7.0925775376E-001 +1.0237531785E+002  +9.1550106600E-002 +7.5056297254E+001  +8.0863761968E-002 +3.6466493946E+001  +2.0327474254E+000 +5.6706632576E+001 
6141113.892 +6.3551436400E-001 +1.1181070649E+002  +6.7434559320E-002 +6.1718449352E+001  +6.0355140155E-002 +2.2411487957E+001  +1.2152430834E+000 +4.0075178609E+001 
6266259.074 +7.1179881605E-001 +1.0834656870E+002  +7.3409616989E-002 +3.4877292438E+001  +5.3228546631E-002 +2.9458008274E+001  +1.5143745828E+000 +2.3030853118E+001 
6391404.255 +8.6622015534E-001 +1.0080545789E+002  +8.5379348711E-002 +4.6903298089E+001  +9.8753435739E-002 +2.6593049633E+001  +1.9072034947E+000 +2.8582388861E+001 
6516549.437 +1.3366360115E+000 +8.3685643051E+001  +9.6870533874E-002 +4.6783981203E+001  +1.1450402199E-001 +4.6726988227E+001  +1.3715836322E+000 +2.7553040389E+001 
6641694.618 +1.1831587997E+000 +7.8278480529E+001  +7.8098815428E-002 +2.5270378344E+001  +9.8046943304E-002 +1.8210901677E+001  +1.5835462116E+000 -3.3639349431E+000 
6766839.800 +1.2954007746E+000 +3.9903817775E+001  +8.2434398094E-002 +8.6113599890E-001  +1.0006697772E-001 +9.1173194388E-001  +1.4326680150E+000 +1.3191967861E+000 
6891984.981 +1.7095242493E+000 +3.4565760399E+001  +7.9267853509E-002 +2.8614502464E+000  +8.5554273486E-002 +6.7894076366E+000  +1.3438078007E+000 -5.5124321321E+000 
7017130.163 +1.4183441440E+000 +1.9047876306E+001  +8.1112967861E-002 -5.2178854270E+000  +8.1528023296E-002 +3.2409119212E-001  +1.1710959838E+000 -1.6390518115E+001 
7142275.344 +1.4367309260E+000 +9.1832618601E+000  +7.1831518105E-002 +2.6022729204E+000  +6.2434187307E-002 -1.6638919605E+000  +1.3901423430E+000 -6.7438090686E+000 
7267420.526 +1.3760230149E+000 +7.4151877551E-001  +5.3498223354E-002 -1.0791139247E+000  +6.3190724954E-002 +3.2461589192E+000  +1.1787529541E+000 -8.1074164680E+000 
7392565.707 +1.3160551393E+000 -5.5342936577E+000  +4.5289518008E-002 +2.1195217755E+000  +4.6241471829E-002 +1.5282994460E+000  +1.2945858692E+000 -1.0357220925E+001 
7517710.889 +1.0520938701E+000 -2.1312196695E-001  +4.1289613814E-002 +3.5841885246E+000  +4.0580602889E-002 +4.2049890012E+000  +1.1719666384E+000 -1.0238469014E+001 
7642856.070 +1.0672517233E+000 -2.4122230222E-001  +3.6573700363E-002 +9.4200866861E+000  +4.0327464928E-002 +1.3281860950E+001  +1.0392163139E+000 +2.1658518220E-001 
7768001.252 +8.1219608436E-001 +4.4664624701E+000  +4.2830501226E-002 +4.1521697216E+000  +3.5256746804E-002 +1.2987589568E+001  +1.0036058825E+000 -1.1327351278E+001 
7893146.433 +7.8296857696E-001 +9.3142183392E+000  +3.5634397725E-002 -9.5411111046E+000  +3.4999333314E-002 +1.1606464420E+001  +8.2912532738E-001 -3.2312142418E+000 
8018291.615 +8.2138341758E-001 +4.7137530544E+000  +3.8854036291E-002 -2.2717167845E+000  +3.9822499970E-002 +2.4950363502E+000  +8.5482606987E-001 -5.8118787476E+000 
8143436.796 +7.3527299631E-001 +7.5849629391E+000  +3.5617014778E-002 -6.4231558901E+000  +3.2215116428E-002 +1.1272112375E+001  +7.8336510613E-001 -4.8537823471E-001 
8268581.977 +7.4327546673E-001 +6.1527262209E+000  +3.6947782984E-002 +2.4932557093E+000  +3.5933648860E-002 +1.6699687440E+001  +7.3654507155E-001 -1.9526147352E-001 
8393727.159 +7.0216469575E-001 +1.0673197431E+001  +3.4637316993E-002 +4.9095114808E+000  +3.2844594896E-002 +4.1230291536E+000  +6.7831184833E-001 +4.0146851276E+000 
8518872.340 +6.4549956910E-001 +9.8541175497E+000  +2.8701464213E-002 +1.3607211979E+000  +3.1715924245E-002 +8.7018790204E+000  +7.5263013086E-001 +1.9332569024E+000 
8644017.522 +6.6794462030E-001 +1.0935848071E+001  +3.1315671569E-002 -7.0927743259E+000  +3.0077509399E-002 +7.2169987701E+000  +6.2657155049E-001 -5.2160633763E+000 
8769162.703 +6.0258081306E-001 +6.4645234803E+000  +3.4446868313E-002 +9.8766685463E-001  +2.9521123260E-002 +2.9522221091E+000  +6.5692144579E-001 -6.1439551264E+000 
8894307.885 +6.0052185894E-001 +1.5875224734E+001  +3.2612382904E-002 -3.1971645347E+000  +3.2578517067E-002 +1.1027763832E+001  +6.0918908628E-001 +2.9429057575E+000 
9019453.066 +5.9876781714E-001 +9.3856205376E+000  +3.1270823082E-002 -3.4822091767E+000  +3.0101029113E-002 +1.0635942008E+001  +5.8749806773E-001 -3.0622077015E+000 
9144598.248 +4.9158532457E-001 +8.6658675399E+000  +3.0539541905E-002 -8.6136528333E+000  +3.1534639292E-002 +1.6245783119E+001  +5.8454898571E-001 +6.6401690800E-001 
9269743.429 +5.4034753371E-001 +7.5004573393E+000  +3.3994615854E-002 -5.1088568863E+000  +3.1859211077E-002 +1.7720308413E+001  +6.0076341694E-001 -1.1179600578E+000 
9394888.611 +5.4887163688E-001 +1.6461952709E-001  +3.3639097380E-002 -2.4692569502E+000  +3.6825528827E-002 +1.6050845258E+001  +5.8036280102E-001 -9.1309002248E+000 
9520033.792 +5.0444152852E-001 +3.5945445522E+000  +3.1851069141E-002 -2.5633548723E+000  +3.2738810747E-002 +5.6020542864E+000  +5.7966742104E-001 -4.0784879554E+000 
9645178.974 +5.1612429766E-001 +7.4041266337E+000  +3.3226900003E-002 -3.0375080470E+000  +2.9141336739E-002 +7.2505914546E+000  +5.8258222186E-001 -3.1672400551E+000 
9770324.155 +5.0909121687E-001 +6.4674853268E+000  +3.1950374442E-002 -3.6994198928E+000  +3.3222351287E-002 +1.3342374310E+001  +4.7797126411E-001 -5.2526729853E+000 
9895469.337 +5.3019365070E-001 -2.9978914396E+000  +3.3512754137E-002 -5.2990190460E+000  +3.5890788702E-002 +1.0813518956E+001  +5.4959134687E-001 -5.8461026568E+000 
10020614.518 +5.4236668871E-001 +5.9512263756E+000  +3.3103795374E-002 +4.6718632933E-001  +3.4692297894E-002 +1.0940490070E+001  +5.5029895736E-001 -7.8190931632E+000 
10145759.700 +5.1692837380E-001 +1.2554801840E+000  +3.2447959338E-002 -6.0945871377E-001  +3.5090738061E-002 +1.6575554553E+001  +5.6342458505E-001 -4.7064463394E+000 
10270904.881 +5.0086118220E-001 +7.1580773955E+000  +3.3246076743E-002 +6.8713176648E-001  +3.5044552828E-002 +1.3009272198E+001  +5.5825095826E-001 -2.3118133749E+000 
10396050.063 +5.4444772975E-001 +6.7601987230E+000  +3.6451930819E-002 +1.1346575720E+000  +3.2029013226E-002 +1.7543714658E+001  +5.8881053163E-001 -9.7404486404E-001 
10521195.244 +5.2665544824E-001 +1.0215644999E+001  +3.1876613316E-002 +1.1174114653E+000  +3.5663294210E-002 +1.0440751258E+001  +5.3139623027E-001 -7.3506371667E-002 
10646340.426 +5.6100422147E-001 +5.2240969684E+000  +3.2820104697E-002 +3.2757385461E+000  +3.3622275108E-002 +1.3063599284E+001  +5.1262593040E-001 -8.7205119222E-002 
10771485.607 +5.2480260206E-001 +6.6755844451E+000  +3.6219331935E-002 +3.6463087770E-001  +3.5306711402E-002 +1.7937423710E+001  +5.7806049082E-001 +2.1045598471E+000 
10896630.788 +5.1806291720E-001 +1.0903758977E+001  +3.5278781465E-002 +2.6898113502E+000  +3.3503540573E-002 +1.8544681440E+001  +5.5570989556E-001 +1.3260757663E+000 
11021775.970 +5.3792805121E-001 +7.3085377111E+000  +3.2980913657E-002 -1.4494068473E+000  +3.1089312501E-002 +1.5840571130E+001  +5.7321763070E-001 +1.6952099366E+000 
11146921.151 +5.7416567706E-001 +1.0368426301E+001  +3.4937713751E-002 +1.3364291293E+000  +3.2975595500E-002 +1.4581562630E+001  +5.6860835225E-001 +3.3649509831E+000 
11272066.333 +5.5388470369E-001 +9.2524233404E+000  +3.6857271031E-002 +1.3463415577E+000  +3.3931057012E-002 +1.4155694443E+001  +6.0798287221E-001 +1.3919507428E+000 
11397211.514 +5.4834055465E-001 +8.4165419602E+000  +3.6171790540E-002 +1.2343268155E+000  +3.5811518303E-002 +1.2259996844E+001  +6.1256275597E-001 +8.4727782568E-001 
11522356.696 +6.0004188091E-001 +4.8898097875E+000  +3.8490922893E-002 -1.4556654618E+000  +3.6309409528E-002 +1.4927718001E+001  +6.5743384794E-001 +1.2817091796E+000 
11647501.877 +6.0164320395E-001 +7.0006335401E+000  +3.6085792941E-002 -1.5385702895E+000  +3.4071948539E-002 +1.3279065501E+001  +6.4766229929E-001 -6.6154916981E-001 
11772647.059 +6.4523221836E-001 +4.3169651767E+000  +3.7814279003E-002 +3.1973600510E+000  +3.6969918377E-002 +1.2505803004E+001  +6.4316041049E-001 +2.2660496827E+000 
11897792.240 +6.3487923828E-001 +4.0646071918E+000  +3.8364590611E-002 +4.3964734745E+000  +3.6082462374E-002 +1.4457608175E+001  +6.6038035157E-001 +3.4633484938E+000 
12022937.422 +6.5125197277E-001 +6.3302837897E+000  +3.6171589668E-002 +3.7497179565E+000  +3.6965085581E-002 +1.3796140384E+001  +6.4523418792E-001 +2.3667524546E+000 
12148082.603 +6.5851534246E-001 +4.2065334998E+000  +3.8331030151E-002 +2.9439676370E+000  +3.9483437959E-002 +1.4619376661E+001  +6.5479823935E-001 -1.3819862684E+000 
12273227.785 +6.4426918320E-001 +5.9848782544E+000  +3.8375168040E-002 +2.1165319756E+000  +3.7606520670E-002 +1.0391689340E+001  +6.8089865948E-001 +7.4198648186E-001 
12398372.966 +6.8455462136E-001 +3.0543247843E+000  +3.8959199695E-002 +4.8363150664E+000  +3.9079253773E-002 +1.2147246112E+001  +6.9802330214E-001 -5.9228706933E-001 
12523518.148 +6.7614604983E-001 +2.3859486563E+000  +3.9762657519E-002 +2.0525245195E+000  +3.9234012466E-002 +1.1936115779E+001  +6.8624816139E-001 +2.3207925935E+000 
12648663.329 +7.2191818711E-001 +6.7721022446E+000  +3.8694299610E-002 +2.5291578929E+000  +3.8739714581E-002 +7.5088632170E+000  +7.3398042015E-001 -6.5516228256E-001 
12773808.511 +7.4099502923E-001 +1.4530635705E+000  +4.0509854611E-002 +2.8269322366E+000  +4.1200767528E-002 +9.5048653447E+000  +7.6797015290E-001 -9.7595840453E-001 
12898953.692 +7.7225679361E-001 +2.3093868817E+000  +3.9576091302E-002 +2.9442269159E+000  +4.0802502450E-002 +1.1184078602E+001  +7.4280061020E-001 -8.3749165801E-001 
13024098.874 +7.4694545555E-001 +1.1311890004E+000  +3.9303405944E-002 +6.8434705951E+000  +4.1469521603E-002 +8.7810579201E+000  +7.8453574175E-001 -1.7386179793E-001 
13149244.055 +7.7495364681E-001 +1.6614176587E+000  +4.1433295665E-002 +3.7996254551E+000  +4.1354558089E-002 +6.8198291626E+000  +7.7836320783E-001 -2.6237404985E+000 
13274389.237 +7.8687647770E-001 +5.7429911738E-002  +4.2237935177E-002 +5.4191487934E+000  +4.1910012158E-002 +8.3521560973E+000  +8.0067886060E-001 -1.3585813387E+000 
13399534.418 +7.9201539506E-001 -3.6952844813E-001  +4.2235526878E-002 +4.2640147014E+000  +4.1524602783E-002 +6.8130755290E+000  +7.9575459982E-001 -2.6938915910E+000 
13524679.599 +8.1758262590E-001 -2.4810629113E+000  +4.3697453786E-002 +1.9576140707E+000  +4.0798771322E-002 +5.8104037223E+000  +8.1890807668E-001 -1.2808144589E+000 
13649824.781 +8.3468053129E-001 -1.8146110775E+000  +4.3348745097E-002 +5.6147427309E+000  +4.2090686616E-002 +4.7522976964E+000  +8.4000283159E-001 -2.6929183811E+000 
13774969.962 +8.4143148819E-001 -1.5921120047E+000  +4.3915392087E-002 +3.1134444058E+000  +4.2434492048E-002 +5.0924862501E+000  +8.6679137637E-001 -2.8225395761E+000 
13900115.144 +8.7660557571E-001 -3.1160879218E+000  +4.3229938416E-002 +3.1609466723E+000  +4.3420655910E-002 +5.6857307017E+000  +8.6241099178E-001 -3.8266899753E+000 
14025260.325 +8.8477250752E-001 -4.7823192861E+000  +4.4885364618E-002 +2.7798430778E+000  +4.3143456348E-002 +2.9198759266E+000  +9.1245300394E-001 -3.9503076496E+000 
14150405.507 +8.8217889746E-001 -3.4544909430E+000  +4.3196419687E-002 +2.2125528898E+000  +4.3499360163E-002 +2.8441622041E+000  +9.1295057200E-001 -3.4078622956E+000 
14275550.688 +9.2089515810E-001 -4.3528519533E+000  +4.2944159747E-002 +3.4426672060E+000  +4.5256668320E-002 +7.1061020823E+000  +9.4955152490E-001 -4.8637211705E+000 
14400695.870 +9.3998918226E-001 -5.8080572942E+000  +4.4649494291E-002 +2.5492503510E+000  +4.3077907180E-002 +3.4422350415E+000  +9.7060017924E-001 -4.5385732640E+000 
