!  2-Port S-parameters saved by WinCal
! VAR MeasName=S-Parameters (CALIBRATED_DATA) read from VNA (P5004A)
! VAR MeasDate=29/08/2024 11:45:38
! VAR NAME=S2_r9c4_SET1_9k-100M_2
! VAR FILENAME=S2_r9c4_SET1_9k-100M_2.S2P
! VAR DATE=29/08/2024 11:45:38
! VAR PHYS_PORTS=1,2
! VAR ObjTypeName=DATASET
! VAR IndexType=Frequency
!
# Hz S MA R 50
9000.000 +7.8677926822E-002 -1.7760354089E+002  +2.3110163375E-003 +2.3569815697E+001  +6.0838899738E-003 +1.4474678439E+002  +2.1677541742E-001 -1.4668547568E+002 
134145.181 +1.1090140416E-001 +1.6949913624E+002  +3.2852149538E-004 +8.8319900777E+001  +4.4379683091E-004 -1.0175488473E+002  +2.4060138227E-001 -1.7135563112E+002 
259290.363 +1.1215778879E-001 +1.6963318259E+002  +1.0567335060E-004 +7.8763654642E+001  +3.5348425541E-004 +4.9370214513E+000  +2.4551343430E-001 -1.6994720342E+002 
384435.544 +1.1455885019E-001 +1.6972914056E+002  +8.0460306738E-004 -2.9552553307E+001  +1.1360285939E-003 +1.1182429699E+002  +2.4600830959E-001 -1.6877201076E+002 
509580.726 +1.1471329296E-001 +1.7016762051E+002  +2.4501640775E-003 -4.6210728829E+001  +1.4141220404E-003 +1.3171968035E+002  +2.3867339689E-001 -1.6415098684E+002 
634725.907 +1.1668966869E-001 +1.7138116686E+002  +9.1840955581E-004 -1.1554697972E+002  +9.8914581661E-004 +1.4576090034E+001  +2.5887780646E-001 -1.6683948768E+002 
759871.089 +1.1992842011E-001 +1.7057058892E+002  +1.0049486267E-003 -7.3509614982E+001  +1.2293644114E-003 +9.7957673285E+001  +2.4763221651E-001 -1.6762373241E+002 
885016.270 +1.2010143747E-001 +1.6944767204E+002  +2.6951939916E-004 -2.4403889470E+001  +4.0164072977E-004 +8.1939930650E+001  +2.4140003996E-001 -1.6665982644E+002 
1010161.452 +1.1534729562E-001 +1.6988813450E+002  +1.4954538096E-003 +1.0329891760E+001  +1.7911667328E-003 +1.7707521989E+002  +2.2290658633E-001 -1.6953971761E+002 
1135306.633 +1.1637134896E-001 +1.6956066616E+002  +2.5750224836E-003 -3.4885467450E+001  +1.9509715953E-003 +1.3639960689E+002  +1.9819301208E-001 -1.6404023358E+002 
1260451.815 +1.2037870654E-001 +1.7037865150E+002  +1.7148120320E-003 -4.8781453383E+001  +2.2841060070E-003 -1.7546934955E+002  +2.2688902144E-001 -1.6156334003E+002 
1385596.996 +1.2325049880E-001 +1.7170443231E+002  +5.5393151989E-003 -7.8489342199E+001  +2.0521841107E-003 +1.1459394714E+002  +2.6708587798E-001 -1.5121181428E+002 
1510742.178 +1.2787571467E-001 +1.7178785170E+002  +1.7698104193E-003 -2.4030899576E+001  +1.1216666468E-003 +1.6402850458E+002  +2.4820074724E-001 -1.5959349259E+002 
1635887.359 +1.3089126588E-001 +1.7097996670E+002  +1.5851844716E-003 -2.6886900575E+001  +6.6131712788E-004 -1.6111083768E+002  +2.5706117199E-001 -1.5724470387E+002 
1761032.541 +1.2857949924E-001 +1.6994976859E+002  +3.0072368360E-003 +5.2913186735E+001  +1.9593108954E-003 -7.5859757103E+001  +1.9179115188E-001 -1.5962167119E+002 
1886177.722 +1.3235090418E-001 +1.6978727623E+002  +2.3782472848E-003 +6.0168138224E+001  +4.6408063891E-003 -1.2608684281E+002  +2.2290487456E-001 -1.5862056053E+002 
2011322.904 +1.2822123520E-001 +1.6999308219E+002  +4.0391738771E-003 +5.6654963056E+001  +5.6995116761E-003 -7.1395437164E+001  +2.0628079560E-001 -1.6340910040E+002 
2136468.085 +1.3162190808E-001 +1.6590561022E+002  +8.6705790473E-003 +8.0055293831E+001  +7.5636052972E-003 -6.2942013645E+001  +1.7309035909E-001 -1.6847588290E+002 
2261613.267 +1.3418501146E-001 +1.6381247547E+002  +1.3558555776E-002 +8.6767001859E+001  +1.3647088770E-002 -4.6981835109E+001  +1.6133604452E-001 -1.7353780402E+002 
2386758.448 +1.3479669336E-001 +1.6870921167E+002  +9.1778487060E-003 +8.9166785145E+001  +7.3360274463E-003 -3.7284563585E+001  +2.2847914971E-001 -1.7764235316E+002 
2511903.630 +1.4207549668E-001 +1.6576557106E+002  +1.1139746453E-002 +8.3380776786E+001  +1.0222336877E-002 -5.2389739193E+001  +2.1068739430E-001 -1.7396355952E+002 
2637048.811 +1.3164359423E-001 +1.6298994268E+002  +2.2258069612E-002 +6.6379612557E+001  +2.8822033059E-002 -3.7787181105E+001  +1.5805218601E-001 -1.7810812136E+002 
2762193.992 +1.5966701044E-001 -1.7534399099E+002  +3.1970830663E-001 -4.6465845267E+001  +2.7198716223E-001 -1.4828451929E+002  +1.3319100355E+000 -7.5893116443E+001 
2887339.174 +1.3237563501E-001 +1.6961450286E+002  +8.3239772140E-002 -4.0752378432E+001  +8.6477177316E-002 -1.4367066408E+002  +4.8900785992E-001 -9.3903271417E+001 
3012484.355 +1.3349220782E-001 +1.7291102981E+002  +4.7788368074E-002 +3.4124581645E+000  +4.8262341301E-002 -9.5213822700E+001  +1.1471221322E-001 -7.9193788877E+001 
3137629.537 +1.2468153233E-001 +1.6882958938E+002  +4.5235518544E-002 +2.4814820491E+001  +5.5842229577E-002 -7.5767656066E+001  +5.9779259014E-002 -1.2515986731E+002 
3262774.718 +1.2385560877E-001 +1.6694046872E+002  +4.4773246565E-002 +2.3749250224E+001  +4.6334172355E-002 -6.5986638804E+001  +8.8970709335E-002 -1.3894593133E+002 
3387919.900 +1.3572585589E-001 +1.6153337851E+002  +4.8658274476E-002 +6.2044726691E+001  +6.1235840973E-002 -1.8262146180E+001  +1.8819991088E-001 +1.2323664068E+002 
3513065.081 +1.5580326642E-001 +1.5709456282E+002  +4.4486619007E-002 +6.4177829176E+001  +4.7754222159E-002 -1.0888801482E+001  +1.8079477288E-001 +1.2987156319E+002 
3638210.263 +1.3309359518E-001 +1.4585277717E+002  +7.9252156923E-002 +1.0250622050E+002  +7.6375706814E-002 +1.3421763218E+001  +4.0501769683E-001 +1.4336933726E+002 
3763355.444 +1.4657399213E-001 +1.5436530639E+002  +1.0672380383E-001 +1.0881820461E+002  +8.7028337727E-002 +2.8246131727E+001  +7.2694801408E-001 +1.3349065395E+002 
3888500.626 +1.7805039333E-001 +1.3853644306E+002  +1.2149846508E-001 +8.0846003372E+001  +1.0220517981E-001 +1.0293107805E+001  +3.1563893723E-001 +8.7212547157E+001 
4013645.807 +1.2132230337E-001 +1.4480253412E+002  +1.5053475757E-001 +8.6818051258E+001  +1.5188171759E-001 +1.6024619822E+001  +6.5836899440E-001 +1.1518109325E+002 
4138790.989 +1.9890081627E-001 +1.5184917818E+002  +4.6763767506E-002 +8.7780868356E+001  +4.4776533498E-002 +2.8689814802E+001  +2.9873938596E-001 +1.5172314789E+002 
4263936.170 +2.0363981986E-001 +1.4508517231E+002  +9.1133488464E-002 +1.2889632900E+002  +8.2593874925E-002 +5.9571740592E+001  +6.7064228195E-001 +1.4493137970E+002 
4389081.352 +1.9577984209E-001 +1.4474788170E+002  +8.7588152774E-002 +7.9084427744E+001  +8.8854248331E-002 +1.5425141038E+001  +2.9481360506E-001 +1.1243793041E+002 
4514226.533 +2.6352574723E-001 +1.2876788830E+002  +1.6186667269E-001 +1.0265664313E+002  +1.4839195259E-001 +4.1467508000E+001  +4.7600557102E-001 +1.0968690081E+002 
4639371.715 +2.3806384647E-001 +1.3609535278E+002  +2.6723495877E-001 +1.1154153108E+002  +2.5557392460E-001 +5.4085449106E+001  +1.6295106034E+000 +1.0745565571E+002 
4764516.896 +4.8399318988E-001 +1.3695848461E+002  +1.1485530091E+000 +1.7356720185E+002  +1.0335951901E+000 +1.2469605482E+002  +5.1297072176E+000 +1.5008937272E+002 
4889662.078 +3.3841706359E-001 +1.1836232383E+002  +3.8557560895E-001 +1.1945894870E+002  +3.9728592977E-001 +7.5932879882E+001  +1.7040908792E+000 +1.1683271284E+002 
5014807.259 +4.0820274459E-001 +1.4291332343E+002  +5.2269573831E-001 +1.7718414615E+002  +4.6075002519E-001 +1.3787900454E+002  +3.3688050899E+000 +1.4910141967E+002 
5139952.441 +2.9870654520E-001 +1.2821532756E+002  +1.8795831484E-001 +8.6628167333E+001  +1.9105578176E-001 +5.1407684574E+001  +8.0443187687E-001 +1.0141330065E+002 
5265097.622 +3.8203930314E-001 +1.3362649562E+002  +2.7239265205E-001 +9.1029959074E+001  +2.7602235409E-001 +4.6534287445E+001  +1.4135277498E+000 +6.1690188472E+001 
5390242.804 +4.2019422461E-001 +1.2824460856E+002  +3.8366204556E-001 +1.1407203145E+002  +3.7099534376E-001 +7.6661117890E+001  +2.1341999262E+000 +1.0143411470E+002 
5515387.985 +3.8772079926E-001 +1.3545084234E+002  +1.6866167223E-001 +9.9638885918E+001  +1.5800231584E-001 +6.2234581677E+001  +9.5154192198E-001 +1.0377356204E+002 
5640533.166 +3.6163329480E-001 +1.2867922441E+002  +1.7518004483E-001 +1.0135035917E+002  +1.6664584251E-001 +7.0556832419E+001  +1.1510486503E+000 +1.2728672522E+002 
5765678.348 +4.1112011628E-001 +1.3056056271E+002  +3.3011668378E-001 +9.0563032816E+001  +2.9645723801E-001 +5.9669717946E+001  +2.2539106372E+000 +8.7643229813E+001 
5890823.529 +4.3481613020E-001 +1.2687564136E+002  +2.1243899181E-001 +8.8640273385E+001  +2.0571841703E-001 +5.9816438573E+001  +1.1501104921E+000 +1.0568488350E+002 
6015968.711 +5.4254258576E-001 +1.2597165636E+002  +3.3075339387E-001 +7.1307680103E+001  +3.2120016717E-001 +4.4713770910E+001  +1.9295755718E+000 +5.4217773681E+001 
6141113.892 +5.7331178581E-001 +1.1100445378E+002  +3.4672206615E-001 +7.4592274069E+001  +3.2993476574E-001 +5.1367681582E+001  +1.5238810459E+000 +7.7414968665E+001 
6266259.074 +7.2103644420E-001 +9.8201208513E+001  +3.7224734495E-001 +5.1018057636E+001  +3.7006489593E-001 +3.3550652054E+001  +1.1136704912E+000 +3.9668447646E+001 
6391404.255 +6.7458116269E-001 +9.2984045941E+001  +3.7253490391E-001 +4.7740194589E+001  +3.7638233859E-001 +3.1060524998E+001  +1.2830870805E+000 +4.5096097618E+001 
6516549.437 +6.8524416113E-001 +8.2207533451E+001  +3.7169980634E-001 +2.0043039371E+001  +3.6509058109E-001 +6.6020651300E+000  +1.3155446772E+000 +4.5028159377E+000 
6641694.618 +9.4533693466E-001 +6.2381534607E+001  +3.9691670782E-001 +2.6147326593E+001  +3.8943249160E-001 +1.2153484351E+001  +7.7566880436E-001 +2.0041668880E+001 
6766839.800 +9.4419643207E-001 +5.1689306115E+001  +4.0694161582E-001 +1.4878875645E+001  +4.3492780039E-001 +5.1069989691E+000  +1.2880905060E+000 +1.1728124434E+001 
6891984.981 +9.4975670953E-001 +3.4927525440E+001  +3.7669394945E-001 +7.4605334307E-001  +3.8496165551E-001 -2.5476861789E+000  +1.0598919025E+000 -6.2445808568E+000 
7017130.163 +1.2059915853E+000 +1.9881607238E+001  +3.8352764002E-001 +5.1419678487E+000  +3.6516241072E-001 -6.0950309465E-001  +9.6768980064E-001 -2.7545713484E+000 
7142275.344 +9.7143613446E-001 +8.3448895313E+000  +3.0683482809E-001 -3.5031779051E+000  +3.3351219869E-001 -9.3425213379E+000  +1.0477909213E+000 -1.3124650447E+001 
7267420.526 +9.7545403899E-001 -1.5709939807E+001  +2.8354243776E-001 -6.5380007121E+000  +3.0183610294E-001 -5.9333370368E+000  +1.0824029790E+000 -1.6267259775E+001 
7392565.707 +8.8780033985E-001 -2.1941141008E+000  +2.4382815626E-001 +3.3812812583E+000  +2.4767209562E-001 +4.4075780071E+000  +1.0508682166E+000 -9.0680621289E+000 
7517710.889 +9.1648618989E-001 +9.0931736005E+000  +2.2937223259E-001 +4.6175812544E+000  +2.2735363793E-001 +6.8501172877E+000  +8.9058677563E-001 -6.2381566840E+000 
7642856.070 +7.9755935304E-001 +1.8065192054E+000  +2.1647489603E-001 +2.6729169060E+000  +2.2598519195E-001 +4.3719745674E+000  +9.2174527869E-001 -9.8718054378E+000 
7768001.252 +7.4464864301E-001 +4.1406267495E+000  +2.1561384944E-001 -8.4417421444E-001  +2.1325728343E-001 +5.8086114140E+000  +6.9427837993E-001 -1.0357894873E+001 
7893146.433 +5.2288446909E-001 +8.3738373698E+000  +2.0280142333E-001 +1.5362946437E+000  +2.0078888100E-001 +4.9714441281E+000  +7.3735640113E-001 +2.2992828190E-001 
8018291.615 +4.1705083564E-001 +1.0042306730E+001  +1.9187004599E-001 -6.4587093449E+000  +1.9828302003E-001 +2.8850069991E+000  +5.5047236345E-001 -9.6495753585E-001 
8143436.796 +6.4673986315E-001 +1.0867993313E+001  +1.8576598063E-001 -1.6853106084E-001  +1.8688086733E-001 +8.2416860141E+000  +6.5847885014E-001 +1.3309624301E+001 
8268581.977 +5.5015722525E-001 +1.4540601891E+001  +1.8925359335E-001 -2.1319943925E+000  +1.8710673804E-001 +8.2584881532E+000  +6.2050517154E-001 +9.9263941557E-001 
8393727.159 +5.3152524333E-001 +7.9993622030E+000  +1.8375462160E-001 -4.8375212279E+000  +1.8149605655E-001 +7.8230480797E+000  +5.1134933072E-001 +8.3170416678E+000 
8518872.340 +4.6235250117E-001 +2.0397763017E+001  +1.7050571122E-001 -5.7857310271E+000  +1.7287468211E-001 +6.8478996851E+000  +4.3820933343E-001 +1.4501719227E+001 
8644017.522 +4.6931926764E-001 +1.2819329692E+001  +1.7371931343E-001 -2.5638416044E+000  +1.7183247945E-001 +7.8455352918E+000  +5.2918858433E-001 +7.8443179002E+000 
8769162.703 +4.6892840448E-001 +9.2094970875E+000  +1.7427778996E-001 -3.5953892205E+000  +1.7327753975E-001 +9.0429303153E+000  +4.6176459609E-001 +1.1902844009E+001 
8894307.885 +3.6535992960E-001 +5.2465079497E+000  +1.7485407779E-001 -5.7309526308E+000  +1.7259093748E-001 +7.6524754716E+000  +4.5146586378E-001 +7.8511292339E+000 
9019453.066 +3.4236160074E-001 +1.2046812303E+001  +1.6804775759E-001 -6.0585181130E+000  +1.7184916359E-001 +9.4521835619E+000  +4.3008174200E-001 +7.9802809310E+000 
9144598.248 +4.4751469181E-001 +1.2789360446E+001  +1.7190780637E-001 -3.8031577028E+000  +1.7518122791E-001 +1.0063006144E+001  +4.1185738316E-001 +6.1175311851E+000 
9269743.429 +3.9984009121E-001 +7.2967288271E+000  +1.7563490445E-001 -4.3475225274E+000  +1.7213995553E-001 +1.0037980577E+001  +3.9976963946E-001 -9.7976547753E-001 
9394888.611 +3.7612458028E-001 +1.8624852574E+001  +1.7078552123E-001 -4.5227018097E+000  +1.7069172137E-001 +1.0963824623E+001  +4.3508506162E-001 +1.4957045607E+000 
9520033.792 +4.1029799805E-001 +1.4757293358E+001  +1.6883017813E-001 -4.2630854083E+000  +1.7077750669E-001 +1.2542440783E+001  +4.0836638123E-001 +6.4930265850E+000 
9645178.974 +3.6245121198E-001 +1.0384887200E+001  +1.7177940105E-001 -5.8170747003E+000  +1.7217218707E-001 +1.0846209454E+001  +3.9455657178E-001 -2.4162429177E+000 
9770324.155 +3.8427228895E-001 +3.9282125121E+000  +1.7605939878E-001 -4.6805765307E+000  +1.7312726612E-001 +1.1193753157E+001  +4.1664749529E-001 -3.2083847241E+000 
9895469.337 +3.1309239904E-001 +3.6375128006E+000  +1.7244296641E-001 -4.6097011168E+000  +1.7311587295E-001 +1.0681172797E+001  +4.1114073786E-001 -8.2610516138E-001 
10020614.518 +3.6363590842E-001 +8.0067208141E-001  +1.7887318066E-001 -3.7250693186E+000  +1.7534706960E-001 +1.1768504824E+001  +4.0494403163E-001 -3.6036793458E+000 
10145759.700 +3.8186220151E-001 +1.5295194642E+001  +1.7651882701E-001 -4.0043484231E+000  +1.7317521891E-001 +1.2331070816E+001  +4.1628273088E-001 -1.7826996673E+000 
10270904.881 +3.6346413271E-001 +6.0601267859E+000  +1.7593385242E-001 -4.0151646414E+000  +1.7438994046E-001 +1.1038157058E+001  +4.0779051237E-001 +1.8313471571E+000 
10396050.063 +3.2871636024E-001 +9.2690503773E+000  +1.7703139833E-001 -3.4600950221E+000  +1.7367868882E-001 +1.1729742655E+001  +4.1939354280E-001 +3.2758144852E+000 
10521195.244 +3.7071594084E-001 +4.6380801807E+000  +1.7800246312E-001 -3.5227299077E+000  +1.7834349294E-001 +1.1771688487E+001  +4.2531439709E-001 +4.4694357232E+000 
10646340.426 +3.4288130190E-001 +1.3339950709E+001  +1.7750081459E-001 -2.3624080227E+000  +1.7471097066E-001 +1.2093981285E+001  +4.0058841307E-001 +5.5922491493E+000 
10771485.607 +3.7365240262E-001 +1.3221766044E+001  +1.7908781225E-001 -2.9555708358E+000  +1.7717767047E-001 +1.1703454969E+001  +4.1840905765E-001 +7.1502636711E+000 
10896630.788 +4.6554557040E-001 +1.0595199050E+001  +1.8125179283E-001 -9.4600304780E-001  +1.8198069782E-001 +1.3425864363E+001  +4.1903103067E-001 +3.8003752440E+000 
11021775.970 +4.0929075742E-001 +1.4336974907E+001  +1.8049710634E-001 -1.7400850378E+000  +1.7919811759E-001 +1.1348798399E+001  +3.9985122532E-001 +5.7846969073E+000 
11146921.151 +3.9940639778E-001 +1.2203194169E+001  +1.8380726584E-001 -1.5588017713E+000  +1.8219182548E-001 +1.2000653706E+001  +3.8565260432E-001 +6.7274153662E+000 
11272066.333 +4.3740173343E-001 +1.0940409591E+001  +1.8598675594E-001 -6.6469977623E-001  +1.8261636193E-001 +1.2162075315E+001  +4.5714083799E-001 +4.2178462930E+000 
11397211.514 +4.4323481370E-001 +8.6425019349E+000  +1.8816156521E-001 -6.3311190319E-001  +1.8573829799E-001 +1.1556716599E+001  +4.2684461079E-001 +5.9234368102E+000 
11522356.696 +4.4682128327E-001 +1.0544071465E+001  +1.8849976313E-001 -1.6264543475E-001  +1.8653089843E-001 +1.1753764257E+001  +4.4642083705E-001 +4.8922181752E+000 
11647501.877 +4.5070030369E-001 +1.2676537731E+001  +1.9040733153E-001 -4.7640763742E-001  +1.9027887084E-001 +1.0804541657E+001  +4.5337494132E-001 +1.0962888557E+000 
11772647.059 +4.5724750150E-001 +9.0420448909E+000  +1.9202837123E-001 -1.1022952518E-001  +1.9088884595E-001 +1.0575481083E+001  +4.6230510261E-001 +5.8492688873E+000 
11897792.240 +4.8947913510E-001 +7.1733886270E+000  +1.9452776005E-001 +1.0746043463E+000  +1.9372610374E-001 +1.0130880341E+001  +4.7684997926E-001 +5.3459542957E+000 
12022937.422 +4.5960675691E-001 +9.1488098425E+000  +1.9518571530E-001 +5.3621429243E-001  +1.9484152887E-001 +9.7860696634E+000  +4.8579398628E-001 +5.3677416737E+000 
12148082.603 +4.7047633424E-001 +4.9973972585E+000  +2.0163272704E-001 +7.5900158840E-001  +1.9664337517E-001 +9.9505687312E+000  +5.2022582144E-001 +2.8658817828E+000 
12273227.785 +5.0157219342E-001 +7.4437485546E+000  +1.9989284785E-001 +1.2768547507E+000  +1.9505348885E-001 +9.9268446038E+000  +5.2347243535E-001 +3.9010074948E+000 
12398372.966 +4.9747524951E-001 +5.9921195803E+000  +2.0367081166E-001 +1.0398190338E+000  +2.0083786815E-001 +8.6041401927E+000  +5.1186205598E-001 +2.9142865335E+000 
12523518.148 +5.2040474844E-001 +7.0372580507E+000  +2.0604871052E-001 +1.7812707280E+000  +2.0193172348E-001 +8.3556468999E+000  +5.4020681084E-001 -3.2892810217E-001 
12648663.329 +5.0828308109E-001 +5.6467178178E+000  +2.0769453033E-001 +1.4159452864E+000  +2.0551480076E-001 +7.8397931568E+000  +5.4420554991E-001 +1.2370763165E+000 
12773808.511 +5.4611368103E-001 +4.5746989557E+000  +2.0804279639E-001 +2.2156513384E+000  +2.0790018735E-001 +8.0704223081E+000  +5.6946504185E-001 +1.7815136286E+000 
12898953.692 +5.7170866817E-001 +4.4467617392E+000  +2.1193325333E-001 +2.2142918509E+000  +2.1201121218E-001 +7.0981657363E+000  +5.5971867439E-001 -1.8330001237E+000 
13024098.874 +5.6597615905E-001 +3.1425780585E+000  +2.1471289951E-001 +1.5595957919E+000  +2.1211339799E-001 +6.8738574102E+000  +5.7925512556E-001 -1.1997126683E+000 
13149244.055 +5.8990033418E-001 +2.9291416716E+000  +2.1598602349E-001 +2.0398100766E+000  +2.1319887214E-001 +6.1356241634E+000  +6.0451217367E-001 -7.0479690395E-001 
13274389.237 +6.0771260100E-001 +1.0650871089E+000  +2.1993028506E-001 +2.0888649510E+000  +2.1693180635E-001 +6.3396646570E+000  +5.9450025093E-001 -2.5567785757E+000 
13399534.418 +6.0999237642E-001 -1.1411833831E+000  +2.2052620539E-001 +2.1804314328E+000  +2.1646884867E-001 +5.7635380722E+000  +6.3180485848E-001 -1.0083769233E+000 
13524679.599 +6.1131753777E-001 -1.6663564537E-001  +2.2112448136E-001 +1.6204843356E+000  +2.1692983635E-001 +4.5128580238E+000  +6.2944890876E-001 -1.0667481813E-001 
13649824.781 +6.5233090078E-001 -1.4211481828E+000  +2.2301023141E-001 +2.1428226979E+000  +2.2104896311E-001 +4.8329209135E+000  +6.6517000713E-001 -4.1062992489E+000 
13774969.962 +6.5641075968E-001 -9.5292567666E-001  +2.2648533292E-001 +2.0944937034E+000  +2.2157742735E-001 +3.8475343090E+000  +6.7424758130E-001 -3.2139645372E+000 
13900115.144 +6.6752071084E-001 -2.3606558324E+000  +2.2683057747E-001 +1.8794974138E+000  +2.2365512733E-001 +3.5471593376E+000  +6.7937473787E-001 -3.0831917906E+000 
14025260.325 +6.8781965469E-001 -3.1321088389E+000  +2.2898834312E-001 +1.8941391905E+000  +2.2477540915E-001 +2.9295502885E+000  +6.9052939966E-001 -5.1868319010E+000 
14150405.507 +7.0640244304E-001 -6.2437026412E+000  +2.3101479417E-001 +1.4773619970E+000  +2.2837352908E-001 +2.6247031886E+000  +7.0840804952E-001 -4.2628604019E+000 
14275550.688 +7.0554655266E-001 -5.4463193660E+000  +2.3062454636E-001 +1.5504529368E+000  +2.2825335217E-001 +2.4631983532E+000  +7.6083838226E-001 -2.9041486820E+000 
14400695.870 +7.3009732964E-001 -4.1448156207E+000  +2.3041071405E-001 +1.4229449331E+000  +2.2786128861E-001 +1.8576229411E+000  +7.6895207174E-001 -4.4453218612E+000 
