!  2-Port S-parameters saved by WinCal
! VAR MeasName=S-Parameters (CALIBRATED_DATA) read from VNA (P5004A)
! VAR MeasDate=29/08/2024 14:17:46
! VAR NAME=S2_r9c6_RESET5_9k-100M_3
! VAR FILENAME=S2_r9c6_RESET5_9k-100M_3.S2P
! VAR DATE=29/08/2024 14:17:46
! VAR PHYS_PORTS=1,2
! VAR ObjTypeName=DATASET
! VAR IndexType=Frequency
!
# Hz S MA R 50
9000.000 +1.0017967086E-001 -1.7201491382E+002  +4.4432537684E-003 +6.1729286419E+001  +1.9560704348E-003 +1.5706706460E+000  +2.6215596402E-001 -1.4295311457E+002 
134145.181 +1.1098112604E-001 +1.6967477485E+002  +4.4573829042E-004 -1.3057561623E+000  +1.8349863136E-004 -1.3287974885E+002  +2.3992421685E-001 -1.7105391056E+002 
259290.363 +1.1180848124E-001 +1.6960766685E+002  +3.2128167915E-004 +1.0334007448E+002  +4.4749091074E-004 -1.6492896289E+002  +2.4712101154E-001 -1.7084974683E+002 
384435.544 +1.1379315217E-001 +1.6962654087E+002  +4.6764849595E-004 -5.4762165996E+001  +3.2489593923E-004 +4.5458994397E+001  +2.3916369882E-001 -1.6967061409E+002 
509580.726 +1.1415121432E-001 +1.6999047604E+002  +2.5465753383E-004 +1.2507950112E+002  +1.7632279389E-003 +1.1937192583E+002  +2.4195169999E-001 -1.6040582239E+002 
634725.907 +1.1667459282E-001 +1.7163818961E+002  +9.7675373339E-004 +1.4546080809E+002  +1.5568737816E-003 +3.1698652126E+001  +2.5908920186E-001 -1.6261685374E+002 
759871.089 +1.1911589924E-001 +1.7107912674E+002  +3.7280943812E-004 +5.3743072917E+001  +3.5794366388E-004 -1.4469031621E+002  +2.4871177407E-001 -1.6786007625E+002 
885016.270 +1.2045546167E-001 +1.6909302592E+002  +8.2604294188E-004 -1.7896246962E+002  +5.5348435613E-004 +7.3685346634E+001  +2.4931090229E-001 -1.6645339518E+002 
1010161.452 +1.1498602497E-001 +1.7000011549E+002  +7.4065481379E-004 +5.2625629581E+001  +9.8205413236E-004 -9.3322306415E+001  +2.0410087966E-001 -1.7054078137E+002 
1135306.633 +1.1861012253E-001 +1.6869787602E+002  +2.0605276579E-004 +4.2918875244E+001  +2.2285378385E-004 -6.0688567738E+001  +1.6134743537E-001 -1.6947538032E+002 
1260451.815 +1.1946513435E-001 +1.6972408661E+002  +1.7538796191E-003 -8.8785729469E+001  +7.2900433127E-004 +1.7101028890E+002  +2.0437903853E-001 -1.6324644991E+002 
1385596.996 +1.2524090390E-001 +1.7271044763E+002  +7.0267611861E-004 -1.4138159675E+001  +1.2088701831E-003 +4.2343138142E+001  +2.4961750220E-001 -1.5594427697E+002 
1510742.178 +1.2701507894E-001 +1.7308432796E+002  +7.5073939995E-004 +4.1696114074E+001  +3.0056745104E-004 -1.3610059827E+002  +2.7182940194E-001 -1.5620581607E+002 
1635887.359 +1.2628398835E-001 +1.7001963675E+002  +1.0034581356E-003 -3.5679707039E+001  +1.2777266540E-003 +9.8184705240E+001  +2.4332194319E-001 -1.5836855530E+002 
1761032.541 +1.2836399843E-001 +1.7029452948E+002  +8.6812695833E-004 +6.2094036613E+001  +1.1514097654E-003 -1.1647284279E+002  +2.3510167550E-001 -1.5871458967E+002 
1886177.722 +1.2973616480E-001 +1.6983967095E+002  +6.7438097407E-004 +1.4095747698E+002  +1.5562737381E-003 -5.9600215734E+001  +2.1243811628E-001 -1.5588027578E+002 
2011322.904 +1.3101288326E-001 +1.6617726842E+002  +2.2925027240E-003 -3.2207432019E+001  +1.9825784920E-004 -6.6640820494E+001  +1.9707557473E-001 -1.6927801504E+002 
2136468.085 +1.2555482954E-001 +1.6679011735E+002  +3.4787221821E-003 +1.6945750195E+002  +6.5764214665E-004 -7.6122778650E+001  +2.1131434911E-001 -1.7444918105E+002 
2261613.267 +1.2572143416E-001 +1.6658437280E+002  +1.0759455021E-002 +7.8587958291E+001  +1.1955463087E-002 -3.6230857255E+001  +6.6077872755E-002 +1.2408230408E+002 
2386758.448 +1.4500906834E-001 +1.6274930093E+002  +3.5012118314E-003 +1.7780672473E+002  +1.6828511911E-003 +1.4681734862E+002  +1.9960258451E-001 -1.7485413980E+002 
2511903.630 +1.3244562072E-001 +1.6244416426E+002  +1.5825544969E-003 -6.3966207035E+001  +3.3602115133E-003 -1.4938722717E+001  +1.7571058919E-001 +1.7776477270E+002 
2637048.811 +1.3185548493E-001 +1.6791493010E+002  +1.9140271313E-003 +6.2363653412E+001  +4.8684026773E-003 -1.1530860466E+000  +2.0970172577E-001 +1.7188120853E+002 
2762193.992 +9.2153303439E-002 +1.7658969440E+002  +5.5961767095E-002 +9.9113112768E+001  +5.2400105967E-002 -6.5105697603E+001  +6.9826828022E-001 +9.5111477855E+001 
2887339.174 +1.2154106971E-001 +1.7856273833E+002  +3.6745313332E-002 -1.3120896112E+002  +3.4772905618E-003 +1.6616706694E+002  +1.0240030697E+000 -1.0532130651E+002 
3012484.355 +1.2521750202E-001 +1.7815310726E+002  +7.3226983286E-003 -3.8811160159E+000  +1.1673071756E-002 -1.5277912533E+002  +2.3472771328E-001 -9.5408761751E+001 
3137629.537 +1.0919761507E-001 +1.7178002598E+002  +1.3588221802E-002 -3.2451447399E+001  +5.4167546295E-003 -3.0600284093E+000  +6.4553640777E-002 +8.2756293912E+001 
3262774.718 +9.2286287055E-002 +1.4341429974E+002  +1.7422945084E-002 -5.1412494500E+000  +3.8613823489E-002 -8.8375435526E+001  +2.3959337047E-001 -9.2233949952E+000 
3387919.900 +1.5304855675E-001 +1.5145628693E+002  +1.1711058145E-002 +4.3076936591E+001  +1.3935555284E-002 -5.0593906450E+001  +1.2658554132E-001 -9.4500310308E+000 
3513065.081 +1.4976849725E-001 +1.4956314927E+002  +8.5164826474E-003 +1.2941511990E+002  +1.7122517641E-002 +3.7239015747E+001  +4.8359318267E-001 +1.5149434055E+002 
3638210.263 +1.5819872035E-001 +1.4447037294E+002  +2.6164078390E-003 +1.0990600182E+002  +4.3985681910E-003 +6.2907636951E+001  +4.1860181655E-001 +1.5064823692E+002 
3763355.444 +1.4095493193E-001 +1.4561763978E+002  +3.9232365632E-002 +8.8642223728E+001  +4.0032442215E-002 -5.9786651100E+000  +1.1731404095E+000 +1.1609817187E+002 
3888500.626 +1.8014648804E-001 +1.5156955890E+002  +1.7762987587E-002 +7.1602094992E+001  +2.3343520104E-002 -1.3205097673E+001  +5.3559528039E-001 +9.9037122691E+001 
4013645.807 +1.2498484281E-001 +1.3888159625E+002  +1.2193632666E-002 -2.2918724291E+001  +8.5206719918E-003 +7.7336845456E+001  +5.6327403625E-001 +1.2359630729E+002 
4138790.989 +1.7195886695E-001 +1.3247992636E+002  +2.4711277268E-002 +1.2421583556E+002  +1.4045287366E-002 -3.7169133100E+001  +4.2130824831E-001 +1.3409984497E+002 
4263936.170 +1.9734172957E-001 +1.4316730050E+002  +1.3708509190E-002 +6.1391761229E+001  +3.4827769517E-003 +6.4578777632E+001  +2.7252259544E-001 +1.3783562813E+002 
4389081.352 +2.0928902185E-001 +1.3386029413E+002  +2.1022012217E-002 +8.7639231305E+001  +2.1027505502E-002 -1.2186803453E+001  +8.2158253277E-001 +1.2554060580E+002 
4514226.533 +2.3013636302E-001 +1.3353731204E+002  +1.1353756144E-002 +7.6723322311E+001  +3.1145549138E-002 +9.8647482027E+000  +3.6273024205E-001 +7.5914165358E+001 
4639371.715 +2.7498202005E-001 +1.2693839155E+002  +8.0196104534E-002 +6.9772163647E+001  +5.1559256828E-002 +3.3462698045E+001  +1.4108597559E+000 +5.0467008558E+001 
4764516.896 +3.3348599110E-001 +1.2690249653E+002  +9.6929698734E-002 -8.2101814414E+000  +1.0521179072E-001 -6.7365965034E+001  +3.7857939933E+000 -6.0662859106E+001 
4889662.078 +3.5776199026E-001 +1.2143242209E+002  +1.2164671098E-001 -7.3120566615E+001  +1.9684146329E-001 -1.0184549968E+002  +6.3184273226E+000 -7.4080409351E+001 
5014807.259 +3.7052871256E-001 +1.3306248234E+002  +5.8309313820E-002 +1.1642187206E+002  +4.8602719101E-002 +8.0714042868E+001  +3.6018172582E+000 +1.1583070529E+002 
5139952.441 +4.0390936340E-001 +1.2686086675E+002  +1.4484983119E-001 +8.5527056555E+001  +1.2714021774E-001 +4.0938552419E+001  +3.9487908888E+000 +4.9966783852E+001 
5265097.622 +3.5778297174E-001 +1.1829279728E+002  +4.8405147375E-002 +8.0437483587E+001  +4.8598684787E-002 +6.5752832446E+001  +1.4267818307E+000 +8.3274406679E+001 
5390242.804 +3.4439561329E-001 +1.2847825316E+002  +2.5257666115E-002 +8.7804152401E+001  +4.3296929202E-002 +4.8799451321E+001  +1.6439813430E+000 +8.8770309066E+001 
5515387.985 +4.5392170207E-001 +1.2982183046E+002  +7.4087354099E-002 +1.0838182410E+002  +6.4017051206E-002 +8.5094605695E+001  +2.7495630260E+000 +7.9032682580E+001 
5640533.166 +5.2447491751E-001 +1.1925198752E+002  +1.0884450357E-001 +8.4743542848E+001  +5.1233168746E-002 +1.0305149064E+002  +3.1184356478E+000 +8.2496150049E+001 
5765678.348 +4.6402855259E-001 +1.1853035463E+002  +1.3069429483E-001 +9.4041140425E+001  +8.1180170712E-002 +6.8696553260E+001  +3.7531515766E+000 +7.6457690155E+001 
5890823.529 +5.6951643966E-001 +1.2015486751E+002  +6.8723478519E-002 +5.3948373393E+001  +8.7465092722E-002 +4.4271991070E+001  +1.8672753603E+000 +5.0715300592E+001 
6015968.711 +6.5387923775E-001 +1.2236911765E+002  +4.5665250478E-002 +7.8825528381E+001  +9.4465087697E-002 +6.4269818270E+001  +2.6693082456E+000 +6.7868071565E+001 
6141113.892 +7.7337258294E-001 +1.0024556453E+002  +9.8619946418E-002 +5.9211723330E+001  +8.7850058535E-002 +4.4000139558E+001  +1.7602106198E+000 +4.5509333572E+001 
6266259.074 +6.6994036967E-001 +1.0589413348E+002  +5.3719639598E-002 +2.0831647665E+001  +8.2634038000E-002 +2.1968141465E+001  +1.8384153085E+000 +2.9045750993E+001 
6391404.255 +1.0430961935E+000 +8.8625949876E+001  +1.0764351972E-001 +4.0800914828E+001  +9.6988946920E-002 +3.9818543245E+001  +2.1116958420E+000 +1.7012572130E+001 
6516549.437 +1.1705901627E+000 +8.1441698656E+001  +8.6386707599E-002 +3.4790728186E+001  +7.2293612814E-002 +2.7696647887E+001  +1.4253421737E+000 +2.6899510607E+000 
6641694.618 +1.6436655829E+000 +5.8525275328E+001  +1.0493697778E-001 +1.0637734834E+001  +8.2609590864E-002 +1.1450370288E+001  +1.3939335059E+000 +6.9311798108E+000 
6766839.800 +1.8077953287E+000 +4.8912983837E+001  +9.1580215910E-002 +2.6256684939E+001  +9.2167014705E-002 +2.5620260087E+001  +1.4952805321E+000 -4.4513196235E+000 
6891984.981 +2.2176959127E+000 +3.2131135409E+001  +1.0104398763E-001 +1.0079339740E+000  +8.4061409646E-002 +6.2159894016E+000  +1.1703889422E+000 +4.3395036579E+000 
7017130.163 +2.3393717119E+000 +1.5364975126E+001  +8.2425502034E-002 -3.4023476461E+000  +7.2874580715E-002 +8.3710666161E+000  +1.2433142766E+000 -6.7022208436E+000 
7142275.344 +1.6012889116E+000 +1.8718557428E+001  +4.9713308734E-002 +1.5507337904E+001  +6.3440297798E-002 +1.7897176742E+001  +1.3447892345E+000 -8.3625027013E+000 
7267420.526 +1.4842327067E+000 +2.0585188089E-001  +5.1120366360E-002 -1.0487755242E+000  +4.0422916676E-002 -4.3693103824E+000  +1.3049329211E+000 -3.8894842095E+000 
7392565.707 +1.3784631156E+000 -1.1155638044E+000  +3.2315156001E-002 +2.0804152550E+001  +3.2541440837E-002 +7.0800118623E+000  +1.2155773293E+000 -2.7121111631E+000 
7517710.889 +1.2791208460E+000 -9.5014777347E-001  +2.8779257631E-002 +6.4062841742E+000  +2.9340894342E-002 +4.7122759706E+000  +1.1507020507E+000 -2.7766121491E+000 
7642856.070 +1.0345774835E+000 +2.9361421508E-001  +3.5068408192E-002 +8.5132420633E+000  +2.4817538634E-002 +9.3376996752E+000  +1.0623418858E+000 -1.0036621027E+001 
7768001.252 +8.9715159140E-001 +3.7525120744E+000  +3.4611150974E-002 +3.8610952734E+000  +2.6796477352E-002 -2.2636492857E+000  +9.5495015690E-001 -5.1718032486E+000 
7893146.433 +7.7965985008E-001 +1.2356415638E+000  +2.6655213681E-002 +4.5732791626E+000  +2.9891063764E-002 +1.8829448289E+001  +9.3038559244E-001 -3.0105070260E+000 
8018291.615 +8.0021484538E-001 +1.0581143422E+000  +2.2510072402E-002 -4.8590325898E+000  +2.5788045371E-002 +1.7585639632E+001  +8.8903313784E-001 -1.7478928542E+000 
8143436.796 +7.6759515175E-001 +6.1000873015E+000  +3.0234099993E-002 -1.5396074328E+000  +2.5764891522E-002 -3.2096173538E+000  +8.0562006983E-001 +3.2030511584E+000 
8268581.977 +6.4517601380E-001 +1.2650279985E+001  +2.2785377866E-002 +1.6763823771E+000  +2.3205209860E-002 +1.7826526596E+001  +7.4603918203E-001 +8.8955763837E-001 
8393727.159 +7.3035425220E-001 +9.2659414778E+000  +3.1129581063E-002 -2.1563439059E+000  +2.4875723393E-002 -1.5745013281E+000  +7.6345646633E-001 +3.7765585206E+000 
8518872.340 +6.9379101903E-001 +6.7614419345E+000  +2.6350594016E-002 +1.3467420875E+001  +2.6623247207E-002 +1.6749443456E+001  +7.6392601623E-001 +2.2827478203E+000 
8644017.522 +6.4160431316E-001 +3.6068762275E+000  +2.7866645299E-002 -3.1011828832E+000  +2.0329426270E-002 +3.5993133752E+000  +6.1131296210E-001 +2.1410627148E-001 
8769162.703 +6.1245872771E-001 +1.0314598694E+001  +2.5612740900E-002 -1.6704328056E+000  +2.2249572276E-002 +6.3611563961E+000  +5.9988723868E-001 +2.0640280378E+000 
8894307.885 +5.8050586651E-001 +4.8510735020E+000  +2.5350635611E-002 -6.1890123304E+000  +2.6588633545E-002 +1.1271670167E+001  +6.3983742432E-001 -3.0922209105E+000 
9019453.066 +5.3360281123E-001 +9.6737473117E+000  +2.1882460954E-002 +1.4827610076E+000  +2.8035976304E-002 +6.8066550029E+000  +5.7243053210E-001 -8.7296330726E-001 
9144598.248 +5.2168568048E-001 +9.8194781480E+000  +2.4240160678E-002 +4.7560667177E+000  +1.9015694556E-002 +4.2272572666E+000  +5.9541259306E-001 -2.6697853405E+000 
9269743.429 +5.5684018181E-001 +3.4070329029E+000  +2.5347308172E-002 -4.8793482949E-001  +2.1958104567E-002 +1.4527630609E+001  +5.1636684815E-001 +2.9412403255E-001 
9394888.611 +4.9871252662E-001 +4.2859827897E+000  +2.5628781318E-002 -2.7608925278E+000  +2.3376566382E-002 +1.5245546302E+001  +5.5149181494E-001 -5.1248968290E+000 
9520033.792 +5.2306875729E-001 +4.9287452403E+000  +2.5713961630E-002 -5.2341091694E-001  +2.2242769046E-002 +1.6255335273E+001  +5.5887969635E-001 +4.1602412457E+000 
9645178.974 +5.2142450983E-001 +4.8297278963E+000  +2.3220853379E-002 +1.8395420975E+000  +2.4280758294E-002 +2.0861803196E+001  +5.6338791845E-001 -4.8383152197E+000 
9770324.155 +5.2278602573E-001 +1.8108170283E+000  +2.6127197738E-002 -5.0329684028E+000  +2.2670366781E-002 +1.0235885899E+001  +6.2891137261E-001 -3.5943917832E+000 
9895469.337 +5.2581413002E-001 -1.0407205552E+000  +2.5795335561E-002 -3.2259713470E+000  +2.5980250262E-002 +1.4737766416E+001  +5.8610086047E-001 -1.9971118329E-001 
10020614.518 +4.9326774774E-001 +1.2918791955E+000  +2.8218226364E-002 -2.0001177438E-002  +2.6473762088E-002 +1.4847062872E+001  +5.4667564509E-001 -3.6189659866E+000 
10145759.700 +5.1980768051E-001 +7.4810004048E+000  +2.1068851258E-002 -4.9650450031E+000  +2.5694083328E-002 +1.3811635486E+001  +5.5807331839E-001 +1.9982406482E+000 
10270904.881 +5.0935988094E-001 +5.4498473731E+000  +2.4144042221E-002 -3.6879746888E+000  +2.4543002639E-002 +1.8349193531E+001  +5.8357171287E-001 -4.5236708967E+000 
10396050.063 +5.5709118505E-001 +6.2922625917E+000  +2.5293681679E-002 +7.2026031294E-001  +2.4700932828E-002 +1.0631646743E+001  +5.5382109804E-001 -3.4827380152E+000 
10521195.244 +5.3264642016E-001 +4.3294423043E+000  +2.3454761713E-002 +2.3560069729E+000  +2.5627873235E-002 +1.9172883254E+001  +5.4378075172E-001 +1.3140201091E+000 
10646340.426 +5.5459026666E-001 +9.2898953718E+000  +2.4577340404E-002 -3.2989181589E+000  +2.4780891256E-002 +1.7004743252E+001  +5.6074478202E-001 +1.3404078672E+000 
10771485.607 +5.5519642714E-001 +9.2122720456E+000  +2.2193289479E-002 +1.5426755306E+000  +2.6294734523E-002 +9.2905986548E+000  +5.6907809999E-001 +2.7037217306E+000 
10896630.788 +5.4891277550E-001 +8.5379575341E+000  +2.4173010979E-002 -3.7667413839E-001  +2.4560348290E-002 +1.7666673886E+001  +6.1785428297E-001 +6.7660436775E-001 
11021775.970 +5.6527747910E-001 +8.2424758300E+000  +2.7921691285E-002 -2.7817452275E+000  +2.2749608263E-002 +1.5469351290E+001  +6.0809409245E-001 +4.8646437968E+000 
11146921.151 +5.0352118851E-001 +6.8138812406E+000  +2.6307747178E-002 -5.1394978279E-001  +2.5110563207E-002 +1.0666546007E+001  +6.0598727068E-001 +3.2699989078E+000 
11272066.333 +6.0554339733E-001 +5.4089157948E+000  +2.6850666625E-002 +4.1376152512E-001  +2.6555207653E-002 +1.8311833286E+001  +6.1245780197E-001 +2.1998623446E+000 
11397211.514 +6.0653915302E-001 +4.9383445380E+000  +2.5373416901E-002 -1.8967212241E+000  +2.7012331336E-002 +1.1485749224E+001  +6.2183420472E-001 +5.4674683724E+000 
11522356.696 +6.0979745929E-001 +7.1763475512E+000  +2.4736150572E-002 -4.4818467097E+000  +2.4805062939E-002 +9.7170985594E+000  +6.1126513719E-001 -1.1768546948E+000 
11647501.877 +5.9763359617E-001 +8.5858625391E+000  +2.6142080614E-002 +3.3291738101E+000  +2.7284682241E-002 +9.2845002575E+000  +6.1057912246E-001 +1.5219587883E+000 
11772647.059 +6.2198365541E-001 +7.3165914975E+000  +2.7812768077E-002 +2.6715788065E+000  +2.6119478525E-002 +1.2980516206E+001  +6.4548000732E-001 +3.1851784963E+000 
11897792.240 +6.4208717559E-001 +6.4441066296E+000  +2.7963185892E-002 +3.8123834234E+000  +2.5346372167E-002 +1.1326795594E+001  +6.6197434643E-001 +3.9549832034E+000 
12022937.422 +6.4176769501E-001 +6.1929120677E+000  +2.8027867159E-002 +7.3213492899E+000  +2.9890742638E-002 +1.4873391686E+001  +6.8992144530E-001 +1.9472449393E+000 
12148082.603 +6.4589275568E-001 +5.0301784819E+000  +2.7690167395E-002 +3.3341569391E+000  +2.7059694322E-002 +9.6026322347E+000  +6.8379690630E-001 +1.5940114078E-001 
12273227.785 +6.8981918358E-001 +3.7378871527E+000  +2.7709294059E-002 +4.7448023383E+000  +3.0926050793E-002 +1.3525707200E+001  +7.1609932157E-001 +5.1429602983E-001 
12398372.966 +7.0818639284E-001 +4.0452734674E+000  +2.9979222049E-002 +4.3698947068E+000  +2.9829081969E-002 +1.3016264719E+001  +7.1630058698E-001 +3.1417523895E-001 
12523518.148 +7.2646739828E-001 +4.3499052834E+000  +3.0064221377E-002 +6.2416355764E+000  +3.0576909905E-002 +1.2551823248E+001  +7.0791826772E-001 -3.8582206126E+000 
12648663.329 +7.0885042979E-001 +3.1413352229E+000  +3.0197569832E-002 +3.1363231285E+000  +2.8632733455E-002 +1.0070591673E+001  +7.4571533810E-001 -3.8285011325E-001 
12773808.511 +7.4400022433E-001 +1.6070248357E+000  +3.1253551036E-002 +1.7704007088E+000  +2.9333277888E-002 +9.2664188389E+000  +7.4773843330E-001 -9.3383924375E-001 
12898953.692 +7.5083935842E-001 -8.7147043167E-001  +3.2734579526E-002 +5.0406927827E+000  +2.9063581857E-002 +9.0489749128E+000  +7.5690683954E-001 +3.9089901406E-001 
13024098.874 +7.8798736003E-001 +4.0919189670E-001  +3.0746076086E-002 +1.2173967104E+000  +3.0325924600E-002 +5.3054890984E+000  +7.6260069775E-001 -3.5647542186E-001 
13149244.055 +7.7596269410E-001 +1.0251406544E+000  +2.9155427000E-002 +4.9023006489E+000  +3.0205529669E-002 +9.3861475203E+000  +7.8280547853E-001 -1.4768467679E+000 
13274389.237 +7.9597307916E-001 -1.5192375083E+000  +3.1844780796E-002 +5.4577904344E+000  +3.0342298740E-002 +8.3474207036E+000  +7.9283819304E-001 -1.9744900154E+000 
13399534.418 +8.3680290598E-001 -1.5527375546E+000  +3.1313013360E-002 +4.7994841398E+000  +3.1093152531E-002 +5.7753842357E+000  +8.1502529224E-001 -3.0587385098E+000 
13524679.599 +8.5018227676E-001 -1.7042837641E+000  +3.0731704985E-002 +6.1814989648E+000  +3.0249335183E-002 +6.1890759116E+000  +8.5001286454E-001 -4.4967210982E+000 
13649824.781 +8.6582826718E-001 -3.7724981707E+000  +3.0560188323E-002 +2.2943993637E+000  +3.1441450087E-002 +3.5466920896E+000  +8.5267055584E-001 -2.6465236277E+000 
13774969.962 +9.0043283546E-001 -3.1232678131E+000  +3.2039997218E-002 +5.1190183412E-001  +3.0862283724E-002 +4.8457924618E+000  +8.6399461039E-001 -2.9924172405E+000 
13900115.144 +8.9342230651E-001 -1.9112910014E+000  +3.1361722579E-002 +2.1832871746E+000  +3.1485771575E-002 +5.8133156894E+000  +8.9578729449E-001 -3.2425702521E+000 
14025260.325 +8.7891115066E-001 -3.0899552002E+000  +3.2137585913E-002 +6.6983247436E-001  +3.1263295008E-002 +5.4023626016E+000  +9.1846317464E-001 -2.9444408577E+000 
14150405.507 +9.3035181027E-001 -5.0327198073E+000  +3.2330163596E-002 +4.4143763661E+000  +3.0934996578E-002 +4.1311055175E+000  +9.0856161283E-001 -4.9658432069E+000 
14275550.688 +9.5328231077E-001 -5.9570952435E+000  +3.3283952831E-002 +3.8870643396E+000  +3.1870087128E-002 +4.5148259223E+000  +9.5665284690E-001 -4.9194603391E+000 
14400695.870 +9.5534772807E-001 -6.9607419549E+000  +3.2587679444E-002 +5.2802923296E+000  +3.0438057826E-002 +1.0341727216E+000  +9.9124678909E-001 -4.9116607641E+000 
