!  2-Port S-parameters saved by WinCal
! VAR MeasName=S-Parameters (CALIBRATED_DATA) read from VNA (P5004A)
! VAR MeasDate=29/08/2024 14:24:46
! VAR NAME=S2_r9c6_RESET6_9k-100M_2
! VAR FILENAME=S2_r9c6_RESET6_9k-100M_2.S2P
! VAR DATE=29/08/2024 14:24:46
! VAR PHYS_PORTS=1,2
! VAR ObjTypeName=DATASET
! VAR IndexType=Frequency
!
# Hz S MA R 50
9000.000 +8.8135172475E-002 -1.6252817083E+002  +1.0542979340E-002 -1.7070561338E+002  +8.6258523617E-003 -5.0599495205E+001  +2.3200669893E-001 -1.5102231098E+002 
134145.181 +1.1142238573E-001 +1.6979197652E+002  +4.5026085855E-004 -2.9482248263E+001  +3.7663468501E-004 +1.7364066401E+002  +2.3727024811E-001 -1.7163176478E+002 
259290.363 +1.1349481848E-001 +1.6997832118E+002  +2.5601901006E-004 -4.0431640600E+000  +5.0351970831E-004 -7.1523267421E+001  +2.4063506599E-001 -1.6846305883E+002 
384435.544 +1.1438438034E-001 +1.7073312421E+002  +8.9204508695E-004 +1.4732064164E+002  +4.6625765372E-004 +7.5365207848E+001  +2.4964199346E-001 -1.6942965333E+002 
509580.726 +1.1571420249E-001 +1.7151659231E+002  +8.1014654016E-004 -1.5491448148E+002  +1.1515542427E-003 +7.1919580054E+001  +2.3166957551E-001 -1.6667124695E+002 
634725.907 +1.1688325444E-001 +1.7181288104E+002  +7.6068263536E-004 -1.0266441559E+002  +1.4881629388E-003 -1.3714685150E+001  +2.5615313532E-001 -1.6572191996E+002 
759871.089 +1.2033441793E-001 +1.7086408307E+002  +2.6693243918E-004 -1.2062983153E+002  +6.7664915082E-004 -1.0958869243E+002  +2.4014520513E-001 -1.6500399929E+002 
885016.270 +1.2154411847E-001 +1.6889034192E+002  +3.0038835572E-004 -7.1540613049E+001  +2.5828063030E-004 -2.3706815528E+001  +2.4783101049E-001 -1.6738100948E+002 
1010161.452 +1.1707725357E-001 +1.6988715086E+002  +4.6978477931E-004 +1.6395727971E+002  +1.0887516664E-003 -1.1806943203E+002  +2.0302541355E-001 -1.6684025133E+002 
1135306.633 +1.1434446180E-001 +1.6767594276E+002  +1.0243796094E-003 -7.5065067338E+001  +9.4184993882E-004 +1.4531442951E+002  +2.0217520222E-001 -1.6743268331E+002 
1260451.815 +1.1798710087E-001 +1.7219576823E+002  +9.5882618715E-004 +1.2755421004E+002  +9.1043882938E-004 +6.7260419457E+001  +2.4654368898E-001 -1.5781011196E+002 
1385596.996 +1.2539153429E-001 +1.7150137320E+002  +1.4881777666E-003 +1.3295504274E+002  +7.8914020338E-004 -5.5646374259E+001  +2.8539170092E-001 -1.5677098110E+002 
1510742.178 +1.2530038190E-001 +1.7163398534E+002  +6.2399146558E-004 +1.6885007365E+002  +3.1962211777E-004 -5.3350897159E+001  +2.5386875537E-001 -1.5814213388E+002 
1635887.359 +1.2899750411E-001 +1.7068569592E+002  +4.8473755643E-004 -1.2200648736E+002  +6.7406785069E-004 +1.6328010419E+002  +2.3423851685E-001 -1.5662925555E+002 
1761032.541 +1.2953694845E-001 +1.6810318399E+002  +7.1852008652E-005 -1.4961448477E+002  +3.1597166782E-003 -1.4676109841E+002  +2.2590426339E-001 -1.5289600964E+002 
1886177.722 +1.2913669874E-001 +1.6929811744E+002  +1.8448289561E-003 -3.5218139074E+001  +2.3434367864E-003 -1.6535265752E+002  +2.2841534201E-001 -1.5432709462E+002 
2011322.904 +1.3193584885E-001 +1.6912606622E+002  +1.9600295539E-003 +1.9752478636E+001  +1.1423577321E-003 +1.7487745113E+002  +2.0013605696E-001 -1.5140138532E+002 
2136468.085 +1.3298517067E-001 +1.6647369159E+002  +2.2632751536E-003 +1.1773351256E+002  +2.1177239809E-003 -7.3600396072E+001  +2.0708029314E-001 -1.6544012594E+002 
2261613.267 +1.2608145622E-001 +1.6492583644E+002  +3.7329832113E-003 +5.7679645138E+001  +2.5935387235E-003 +1.7017826025E+002  +1.7477324230E-001 -1.6278498833E+002 
2386758.448 +1.4070558642E-001 +1.6274401084E+002  +1.5462832989E-003 +1.0015163094E+002  +2.2877644798E-003 -9.8817598915E+001  +2.2251999823E-001 +1.7980296636E+002 
2511903.630 +1.3733329611E-001 +1.6350121321E+002  +2.7634628479E-003 +1.3590257011E+002  +2.3147868396E-003 -4.5354803697E+001  +2.6302995498E-001 +1.6976574337E+002 
2637048.811 +1.3451625017E-001 +1.6408750269E+002  +5.9109727188E-003 +8.7250093984E+001  +7.3307737967E-003 -1.1314240676E+002  +1.5548857735E-001 +1.4241031474E+002 
2762193.992 +1.1577773867E-001 +1.7918604195E+002  +2.1409173078E-002 -1.4852279104E+002  +2.9785909142E-002 -1.6813493518E+002  +7.1120217320E-001 -3.4020329671E+001 
2887339.174 +1.2305454166E-001 +1.7880419026E+002  +2.2638139017E-003 +7.6196589171E+001  +7.6970725242E-003 -1.1412960172E+002  +2.2073772790E-001 -1.1626625084E+002 
3012484.355 +1.2002048682E-001 +1.6461478909E+002  +1.1884344584E-002 +1.0787891846E+000  +1.1814700373E-002 +1.2292219005E+002  +4.3587898473E-001 -5.2002846787E+001 
3137629.537 +1.3221374620E-001 +1.6581275624E+002  +9.7627433470E-003 +1.3955418161E+002  +4.3309189614E-003 +1.2006251286E+002  +2.3210727545E-001 -6.0730348063E+001 
3262774.718 +1.0903523861E-001 +1.6833871472E+002  +1.0827413962E-002 -2.5926256205E+000  +1.3525247267E-002 -6.3496499291E+001  +5.3135369082E-002 +1.5676427932E+002 
3387919.900 +1.4215372170E-001 +1.3206567246E+002  +2.2399106492E-002 +1.6269843016E+001  +3.0884429803E-002 -3.3983238822E+001  +1.5204056426E-001 -5.9707084703E+001 
3513065.081 +1.4546768765E-001 +1.5448954373E+002  +5.9471809128E-003 +1.6627719080E+001  +1.5265781576E-003 -3.9489080358E+001  +5.8897832635E-001 +1.1168442280E+002 
3638210.263 +1.3370017221E-001 +1.4185458278E+002  +7.9643039511E-003 +5.8013804233E+001  +3.7666966686E-003 +3.9679298768E+001  +2.2118685920E-001 +1.5339378689E+002 
3763355.444 +1.8420364969E-001 +1.3930628036E+002  +2.7944722585E-002 +9.1659798948E+001  +2.4751632619E-002 +3.4714984809E+001  +4.3213335776E-001 +9.3297303008E+001 
3888500.626 +1.7768277920E-001 +1.5207470389E+002  +4.6972062903E-003 +7.8431462563E+001  +2.7394164059E-003 +1.6988111030E+002  +3.1076421859E-001 +1.1670988165E+002 
4013645.807 +1.7568359853E-001 +1.4544101109E+002  +4.6918430703E-003 +6.3265229378E+001  +1.2917271168E-002 +3.0311121255E+000  +1.7562933245E-001 +1.5149758618E+002 
4138790.989 +1.9872507865E-001 +1.3500591481E+002  +2.4047092781E-002 +9.2349358886E+001  +1.3387795051E-002 +7.9410350937E+001  +7.5518826912E-001 +1.4789044397E+002 
4263936.170 +2.3299918677E-001 +1.3881612790E+002  +9.4890081745E-003 +1.0644076912E+002  +8.3976549706E-003 -4.3419522575E+001  +3.9118144298E-001 +1.1414126030E+002 
4389081.352 +1.9358491646E-001 +1.2963729131E+002  +2.4127566355E-002 +5.8543638611E+001  +1.4194786165E-002 -2.1026945220E+001  +3.6042539825E-001 +1.2241402686E+002 
4514226.533 +1.9253148241E-001 +1.3411412801E+002  +1.6520395251E-002 +1.1775363142E+002  +2.4816216862E-002 +1.0815351929E+002  +1.3474672361E+000 +1.3630212146E+002 
4639371.715 +2.6590661175E-001 +1.2839730838E+002  +6.3086533784E-002 +7.9265467658E+001  +2.4620634088E-002 -2.8162241150E+001  +1.5134304580E+000 +4.3263521753E+001 
4764516.896 +2.8046817454E-001 +1.3527114991E+002  +3.2644761259E-002 -1.7735024972E+002  +4.1192499800E-002 +1.3404113052E+002  +1.8633017230E+000 +1.6338754039E+002 
4889662.078 +4.2651116546E-001 +1.2363736956E+002  +6.3000097471E-002 -1.2099095012E+002  +8.4019195650E-002 +1.3191727649E+002  +2.8130804135E+000 -1.7277623160E+002 
5014807.259 +3.8881937844E-001 +1.3214922281E+002  +2.4347934859E-002 -9.9945647735E+001  +9.2027897456E-002 -1.2458596718E+002  +5.0473517268E+000 -1.3839232896E+002 
5139952.441 +3.9018650212E-001 +1.3118737511E+002  +5.2203067866E-002 +1.3415760493E+002  +2.6976608781E-002 +8.8458909936E+001  +1.9205067516E+000 +1.0240006425E+002 
5265097.622 +4.5328775993E-001 +1.1345558289E+002  +9.3524898016E-002 +8.0618303028E+001  +5.3608823824E-002 +9.5009140719E+000  +1.5475352643E+000 +4.2465780076E+001 
5390242.804 +3.3048259583E-001 +1.3250811184E+002  +3.5839459185E-002 +1.1795884969E+002  +5.4980652176E-002 +4.4265819893E+001  +2.0162847549E+000 +1.0030062175E+002 
5515387.985 +4.6557872707E-001 +1.2542813711E+002  +4.1552683888E-002 +1.4460676118E+002  +3.9181163939E-002 +9.5446116761E+001  +2.0830465876E+000 +1.0408738348E+002 
5640533.166 +4.3682968461E-001 +1.1543016650E+002  +8.7652408604E-002 +6.7090448801E+001  +5.9736564376E-002 +7.3849396243E+001  +2.9633585818E+000 +8.7188702293E+001 
5765678.348 +5.5131755250E-001 +1.2614134377E+002  +8.5005562305E-002 +1.3943061596E+002  +1.1433557351E-001 +8.5401116357E+001  +3.6264071895E+000 +8.9453781090E+001 
5890823.529 +5.4609243283E-001 +1.2612826771E+002  +5.4060614442E-002 +8.0407527248E+001  +6.1294073222E-002 +7.9822621470E+001  +2.7220301993E+000 +8.4616663211E+001 
6015968.711 +6.5830174436E-001 +1.1638316088E+002  +3.9755653287E-002 +7.0476774788E+001  +4.0482278622E-002 +5.2038902114E+001  +1.8529081944E+000 +4.6880127303E+001 
6141113.892 +7.6841920384E-001 +1.1447097825E+002  +3.0363756194E-002 +7.1084539258E+001  +2.6139689465E-002 +8.1370262661E+001  +1.4946775852E+000 +3.8561846875E+001 
6266259.074 +8.6880936274E-001 +1.1261166716E+002  +3.0836585098E-002 +3.2395536787E+001  +5.1921616944E-002 +5.1401489063E+001  +1.1842058668E+000 +3.6827590130E+001 
6391404.255 +1.0200879360E+000 +9.5718290941E+001  +9.1644499303E-002 +2.5116321623E+001  +3.6090304979E-002 +4.8702469420E+001  +1.5353469722E+000 +2.0103300019E+001 
6516549.437 +1.3406037725E+000 +8.0648953356E+001  +4.3669764075E-002 +1.5562911269E+001  +4.6054050124E-002 -8.2693825230E+000  +1.7153581565E+000 -3.4621551491E+000 
6641694.618 +1.2442158701E+000 +5.0785328015E+001  +6.5760543062E-002 +4.8159428432E+000  +7.3069200778E-002 -8.4721559915E+000  +1.3550863238E+000 -3.1467981901E+000 
6766839.800 +1.6102995457E+000 +4.6344133237E+001  +7.3829843697E-002 +1.2972644544E+001  +4.4436454530E-002 +2.7688691449E+000  +1.1532650315E+000 -1.3106799349E+001 
6891984.981 +1.7196015398E+000 +1.9631546609E+001  +7.2559705308E-002 +1.0470636212E+001  +5.2935992985E-002 +4.8416120724E+000  +9.9592367969E-001 -6.8985834123E+000 
7017130.163 +1.7920757887E+000 +3.1788902933E+001  +5.8639997290E-002 -9.7336633370E+000  +5.1273495916E-002 -3.0979267187E+001  +1.5068094028E+000 -1.4063422474E+001 
7142275.344 +1.2937838125E+000 +1.1221470126E+001  +4.8741329727E-002 +1.0339027325E+001  +4.0759157012E-002 -1.7271231123E+001  +1.2835428589E+000 -6.6086773899E+000 
7267420.526 +1.3850021548E+000 +3.1281448470E-001  +2.6501977647E-002 +1.6219962752E+001  +3.4804993782E-002 +1.4491928418E+000  +1.2062742230E+000 -1.0503313203E+001 
7392565.707 +1.2288338452E+000 +1.9578190541E+000  +2.8901936673E-002 +9.0230062521E+000  +3.2076121385E-002 +8.7103056365E+000  +1.3496649419E+000 -9.1351822111E+000 
7517710.889 +1.0398659178E+000 +3.7447625501E+000  +1.8469568218E-002 +6.6842639083E+000  +2.9511243574E-002 +6.7206697288E+000  +1.2063808267E+000 -5.9523212602E+000 
7642856.070 +1.0031079935E+000 +9.7922313462E+000  +2.2980292943E-002 -1.7254245635E+000  +2.5970444388E-002 -1.2886155712E+000  +1.0161108567E+000 -4.8227321059E+000 
7768001.252 +9.2708216929E-001 +1.7923507906E+000  +2.8656920642E-002 +1.0950257919E+001  +1.7732438963E-002 +1.7156242114E-001  +9.6220658527E-001 -2.8976216592E+000 
7893146.433 +7.4946497876E-001 +7.3298146275E+000  +2.0837885779E-002 +1.4770730505E+001  +2.7478729869E-002 +1.6164643389E+000  +9.9489578280E-001 -1.6098842513E+000 
8018291.615 +8.3366844040E-001 +7.7219757886E+000  +2.8093791661E-002 -1.0826257692E+001  +2.1688144312E-002 +1.3647738795E+001  +8.1640529113E-001 -2.8717457383E+000 
8143436.796 +7.7010222699E-001 +6.4292308881E-001  +2.3560354962E-002 +2.6722044617E+000  +1.9537896441E-002 +8.8484938195E+000  +8.5810809438E-001 +7.6134369286E+000 
8268581.977 +7.4230353994E-001 +1.0493106068E+001  +2.2899110069E-002 +1.1131513507E+000  +2.0184142578E-002 +1.7745292999E+001  +8.0622564013E-001 -2.9244660956E+000 
8393727.159 +6.4151778422E-001 +7.1178937574E+000  +1.6955401903E-002 -8.1694725930E+000  +2.0511549538E-002 +3.0077847132E+001  +6.9727872600E-001 -4.6171063216E-002 
8518872.340 +6.8575297196E-001 +1.0198250526E+001  +2.0907195085E-002 -1.0127626118E+001  +1.7843909983E-002 +1.1721961653E+001  +7.0431792765E-001 +3.0752061991E+000 
8644017.522 +5.5836516690E-001 +1.1796669528E+001  +1.5998784466E-002 +4.7084244607E+000  +1.9839967057E-002 +1.6303760366E+001  +7.4562943390E-001 -3.8734014009E+000 
8769162.703 +6.2708772605E-001 +6.6034349952E+000  +1.8211952594E-002 +7.6767175831E-001  +2.3435582290E-002 +7.6779487702E+000  +6.1273433595E-001 +9.9346850598E-001 
8894307.885 +5.2997339557E-001 +7.1004548672E+000  +2.0497211389E-002 +6.2398124210E-001  +2.2632608006E-002 +5.7170745410E+000  +6.1482613377E-001 +1.9389356960E+000 
9019453.066 +5.8799330464E-001 +1.2627956766E+001  +2.5120161766E-002 -6.2738470935E+000  +1.9859975674E-002 +1.0669499373E+001  +6.6678000810E-001 -2.0357215300E+000 
9144598.248 +5.5063784555E-001 +6.5960896265E+000  +2.1740488624E-002 -1.1608187043E-001  +1.8513401306E-002 -7.2131890021E-001  +5.9850931082E-001 -4.4790753072E+000 
9269743.429 +6.0794194904E-001 +2.1821415037E+000  +2.3024367360E-002 -1.4446646745E+000  +1.7026034759E-002 +2.3187180185E+001  +6.0941450088E-001 -3.7902637359E-001 
9394888.611 +5.4042262764E-001 +6.7723468106E+000  +1.6701953107E-002 -8.0808240247E-001  +1.7359722594E-002 +2.4575074160E+001  +5.7927539246E-001 -1.0607141717E+000 
9520033.792 +5.1475550387E-001 +6.9196588698E+000  +1.8423096759E-002 +2.7285883712E+000  +2.3521683689E-002 +6.9768337658E+000  +5.5133726671E-001 -1.0333759543E+000 
9645178.974 +5.2412824916E-001 +2.8094171513E+000  +1.8731872348E-002 -1.0492329463E+001  +2.4534334452E-002 +1.3772507416E+001  +5.4861037998E-001 -8.6681629466E+000 
9770324.155 +5.1323829149E-001 +3.9049542787E+000  +2.0335008931E-002 -7.6361610325E+000  +1.9255146011E-002 +4.5763291008E+000  +5.6886473169E-001 -6.1290263326E+000 
9895469.337 +5.1357919575E-001 +3.1239372223E+000  +1.8708664331E-002 +7.4964087659E-001  +2.1582350012E-002 +1.2011091922E+001  +5.4984579380E-001 -7.4363254657E+000 
10020614.518 +4.9674811164E-001 +3.7865626197E+000  +2.0388092058E-002 +5.2973410986E+000  +1.9049340526E-002 +2.4288287471E+001  +6.0443544260E-001 -3.0416463391E+000 
10145759.700 +5.3900106470E-001 +3.5141264312E+000  +1.9174236666E-002 +2.6718320317E-001  +2.0471950514E-002 +6.1088362291E+000  +5.4404009119E-001 -3.8568856778E+000 
10270904.881 +5.3886773387E-001 +4.0794061987E+000  +1.8236408558E-002 +2.4376163640E+000  +2.0493641732E-002 +9.8952853070E+000  +5.7197073008E-001 -2.6032875782E+000 
10396050.063 +5.7431485089E-001 +9.0258299760E+000  +2.0358100742E-002 -2.5844160711E-002  +1.7426230990E-002 +8.6045985156E+000  +6.0382920826E-001 +1.2591062867E+000 
10521195.244 +5.7771636005E-001 +9.2679586774E+000  +2.0950556951E-002 -5.1991784444E+000  +2.1499151801E-002 +1.7833401205E+001  +5.3190611099E-001 +4.0570413277E-001 
10646340.426 +5.6443719525E-001 +7.3653572170E+000  +2.1147653208E-002 +1.6493544767E+000  +2.2451608366E-002 +2.0104716017E+001  +5.5305851841E-001 +5.2141782034E-001 
10771485.607 +5.5846717506E-001 +4.6260075908E+000  +1.9085743138E-002 -1.5489882917E+000  +2.3178272191E-002 +1.3711927298E+001  +5.9716070936E-001 -1.5171721041E+000 
10896630.788 +5.8718048147E-001 +7.1599666022E+000  +2.0656312969E-002 -5.1649326927E-001  +1.8482560783E-002 +9.0229207556E+000  +5.7919713267E-001 -1.5465898343E-001 
11021775.970 +5.7897174115E-001 +7.6644779618E+000  +1.9949137453E-002 -1.9435461887E-001  +2.1035267020E-002 +2.1561642581E+001  +6.0566235767E-001 +2.7643329686E+000 
11146921.151 +5.7562433502E-001 +7.6036771741E+000  +2.0883148316E-002 -8.7349698623E-001  +2.1681239829E-002 +1.4088952470E+001  +5.9631680450E-001 +2.3003040243E+000 
11272066.333 +6.0362514745E-001 +5.5543978889E+000  +1.9403030139E-002 +2.6205304995E+000  +2.1376205967E-002 +1.2495661137E+001  +6.2269294682E-001 +7.4623895957E-001 
11397211.514 +5.9368375210E-001 +7.0496470031E+000  +2.1994961494E-002 +2.9284994670E+000  +2.0563627462E-002 +1.1572012123E+001  +6.0970266900E-001 +1.1446879500E+000 
11522356.696 +5.8350635259E-001 +5.4963766545E+000  +2.1329417831E-002 +2.8247708913E+000  +2.2480158392E-002 +9.8110915925E+000  +6.1422446960E-001 +5.4640720771E-001 
11647501.877 +6.0519238897E-001 +6.4373707901E+000  +2.1720310270E-002 -3.3956084078E-001  +1.9637846456E-002 +1.1849954073E+001  +6.3708121723E-001 +3.8352877978E+000 
11772647.059 +6.2595020975E-001 +3.4660615574E+000  +2.2564948131E-002 +1.5650699640E+000  +2.2121148311E-002 +2.0679331660E+001  +6.4715263468E-001 +1.8974405537E-001 
11897792.240 +6.3139022039E-001 +6.8506983957E+000  +2.1057601674E-002 +5.3836509818E+000  +2.4029776038E-002 +1.3867579995E+001  +6.6809335140E-001 +2.4578342118E+000 
12022937.422 +6.7493276430E-001 +5.0128408138E+000  +2.1911707356E-002 -2.2075017343E-001  +2.1433798965E-002 +1.0986705404E+001  +6.6227208861E-001 +1.9267474085E+000 
12148082.603 +6.9235360521E-001 +6.4251555880E+000  +2.3214395972E-002 -4.4408574062E+000  +2.1087719310E-002 +1.2984124811E+001  +6.9433072125E-001 +1.4340269137E-001 
12273227.785 +7.0753792195E-001 +2.7029480522E+000  +2.5282152825E-002 +4.0665976523E+000  +2.3914926044E-002 +1.6176273632E+001  +6.8300574591E-001 +1.6005840329E+000 
12398372.966 +6.9266582137E-001 +2.9921630147E+000  +2.1687041298E-002 +6.5057722954E+000  +2.3592326038E-002 +1.4594612867E+001  +6.9258939482E-001 +2.3798276152E+000 
12523518.148 +7.2662979900E-001 +3.0052029474E+000  +2.3639182559E-002 +2.0729700297E+000  +2.3152129100E-002 +6.8773466429E+000  +7.1880135797E-001 -3.1099167226E-001 
12648663.329 +7.1599060136E-001 +1.4710492783E+000  +2.4676404896E-002 +2.8163008994E+000  +2.4386151103E-002 +1.2196027603E+001  +7.4650591923E-001 -5.2862472387E-001 
12773808.511 +6.8950374949E-001 +6.6422735101E-001  +2.4623105667E-002 +4.1988824082E+000  +2.3259658904E-002 +8.5618480204E+000  +7.5645349756E-001 -1.5083878342E+000 
12898953.692 +7.5576032936E-001 +1.8584225741E+000  +2.4962714366E-002 +1.6131270921E+000  +2.5156724914E-002 +6.7431758673E+000  +7.7724392367E-001 -1.3820124696E+000 
13024098.874 +7.7372098731E-001 +8.0409458742E-003  +2.5077064812E-002 +1.1611607207E+000  +2.4867499083E-002 +9.7018622374E+000  +7.9786886123E-001 -1.1452968955E+000 
13149244.055 +7.8011490471E-001 +3.0219518804E+000  +2.2527144782E-002 +4.0861387715E+000  +2.4390822217E-002 +8.0046838362E+000  +7.9002090139E-001 -1.3137905240E+000 
13274389.237 +8.1724575716E-001 -7.1221146196E-002  +2.4651526431E-002 +3.8916931082E+000  +2.5103406227E-002 +5.4123596909E+000  +8.3033934046E-001 -6.7140974130E-001 
13399534.418 +8.3430840661E-001 -2.2859833949E+000  +2.5340110388E-002 +3.9267973084E+000  +2.4622938967E-002 +6.6408283305E+000  +8.1783891442E-001 -2.9735443675E+000 
13524679.599 +8.2389575162E-001 -7.8539004083E-002  +2.4339831982E-002 +3.5924762178E+000  +2.4500252044E-002 +6.2389817738E+000  +8.6227049380E-001 -3.3238039048E+000 
13649824.781 +8.6552292455E-001 -2.1075905168E+000  +2.6255001004E-002 +3.7425150584E+000  +2.4093415393E-002 +6.9050023421E+000  +8.6132477721E-001 -2.2055199105E+000 
13774969.962 +8.6875115171E-001 -2.5183478620E+000  +2.5338746472E-002 +3.6401738874E+000  +2.5154764947E-002 +4.4039480646E+000  +8.8188126544E-001 -3.2355838762E+000 
13900115.144 +8.9016404133E-001 -3.6388711585E+000  +2.5753051183E-002 +3.2277176883E+000  +2.5350304324E-002 +7.2827065020E+000  +8.9808090682E-001 -1.8370936587E+000 
14025260.325 +9.2675793677E-001 -3.6554340802E+000  +2.6254425002E-002 +4.6084376027E+000  +2.4929640613E-002 +2.6840475013E+000  +9.0734920616E-001 -3.0073487420E+000 
14150405.507 +9.1535427169E-001 -3.9898903031E+000  +2.5511625404E-002 +9.9677367412E-001  +2.6539974380E-002 +3.9130207114E+000  +9.4724258867E-001 -3.5007414643E+000 
14275550.688 +9.3090050648E-001 -5.7867416708E+000  +2.5462790080E-002 -5.4539761606E-001  +2.6156447597E-002 +5.2370975218E+000  +9.4498073734E-001 -4.3472006090E+000 
14400695.870 +9.5569155822E-001 -5.8483770988E+000  +2.5687277287E-002 +8.2135303602E-001  +2.5922020358E-002 +4.0938716381E+000  +9.6998639171E-001 -3.8055224563E+000 
