!  2-Port S-parameters saved by WinCal
! VAR MeasName=S-Parameters (CALIBRATED_DATA) read from VNA (P5004A)
! VAR MeasDate=29/08/2024 09:58:52
! VAR NAME=S2_r9c1_pristine_9k-100M_3
! VAR FILENAME=S2_r9c1_pristine_9k-100M_3.S2P
! VAR DATE=29/08/2024 09:58:52
! VAR PHYS_PORTS=1,2
! VAR ObjTypeName=DATASET
! VAR IndexType=Frequency
!
# Hz S MA R 50
9000.000 +9.7487577952E-002 -1.6591633452E+002  +8.2782711543E-003 +6.6642708710E+001  +1.6581864306E-002 +4.6110006608E+001  +3.4682268194E-001 -1.1840699487E+002 
134145.181 +1.1127076731E-001 +1.6950691081E+002  +3.5998368817E-004 +1.0013649305E+002  +6.7996244220E-004 +1.3842931925E+002  +2.3772757538E-001 -1.7033641029E+002 
259290.363 +1.1162694001E-001 +1.6982540807E+002  +1.8918004625E-004 -1.5693785318E+002  +2.7198224284E-004 +1.4712080784E+002  +2.4444568485E-001 -1.7036376042E+002 
384435.544 +1.1353154660E-001 +1.6972161281E+002  +5.7164838646E-004 -2.3012106608E+001  +5.0286984274E-004 +7.6882416976E+001  +2.3928164869E-001 -1.6922360461E+002 
509580.726 +1.1499985141E-001 +1.7133329878E+002  +1.1340247884E-003 -5.8247032048E+001  +1.4502983757E-003 +1.4139074059E+002  +2.3931161394E-001 -1.6674475088E+002 
634725.907 +1.1498647829E-001 +1.7137724926E+002  +1.4173980902E-003 -7.8392975029E+001  +2.3936557448E-003 +8.3796589196E+001  +2.5319350059E-001 -1.6555252345E+002 
759871.089 +1.1900074079E-001 +1.7014435084E+002  +1.1479454662E-003 -6.7271395999E+001  +1.4732233302E-003 +7.7302979493E+001  +2.4915972949E-001 -1.6793506903E+002 
885016.270 +1.2026656686E-001 +1.6916866000E+002  +7.9842167009E-004 -6.3039423761E+000  +1.1703448359E-003 +1.4944736628E+002  +2.4095153247E-001 -1.6632216950E+002 
1010161.452 +1.1263307555E-001 +1.6834985077E+002  +1.7232150312E-003 -1.6584106184E+001  +1.2819729499E-003 -1.6388737171E+002  +2.0956707583E-001 -1.7174025382E+002 
1135306.633 +1.1676070234E-001 +1.6878811676E+002  +3.5280659845E-003 -1.9148725791E+001  +3.8332908239E-003 -1.4871221072E+002  +1.9061059385E-001 -1.6552505111E+002 
1260451.815 +1.1940147988E-001 +1.7020270334E+002  +1.6538474335E-003 -1.1891477971E+001  +4.1428689793E-003 +1.6804822459E+002  +1.8593559031E-001 -1.5496143819E+002 
1385596.996 +1.2709018280E-001 +1.7280396511E+002  +1.9924590129E-003 -7.2256707234E+001  +2.3960752497E-003 +1.4707025149E+002  +2.5479698684E-001 -1.6041112247E+002 
1510742.178 +1.2613193571E-001 +1.7251436073E+002  +2.3153029831E-003 -5.4402965350E+001  +2.2262428640E-003 +1.5749233225E+002  +2.4451805879E-001 -1.5808824995E+002 
1635887.359 +1.2803102779E-001 +1.7091827297E+002  +1.8405820780E-003 -1.3773171588E+001  +1.6154996495E-003 -1.3036835885E+002  +2.4698688839E-001 -1.6053687162E+002 
1761032.541 +1.3035661003E-001 +1.6956161662E+002  +3.6187992142E-003 +3.6319965886E-001  +2.2668416268E-003 -1.3893069106E+002  +2.3289761795E-001 -1.4936905594E+002 
1886177.722 +1.3050257774E-001 +1.6752190216E+002  +1.8523543734E-003 +5.9342641870E+001  +5.5153726876E-003 -6.3682503055E+001  +2.3159445472E-001 -1.6015482748E+002 
2011322.904 +1.3058434897E-001 +1.6754134527E+002  +5.7823894630E-003 +6.9462033079E+001  +1.0242296017E-002 -9.9250229704E+001  +2.1009036379E-001 -1.5086642129E+002 
2136468.085 +1.3020413097E-001 +1.6776920292E+002  +1.2369209914E-002 +8.5423555644E+001  +1.6803875941E-002 -5.2279646418E+001  +1.6738437136E-001 -1.7687786975E+002 
2261613.267 +1.3607166677E-001 +1.6558140456E+002  +1.0382462845E-002 +6.3967050482E+001  +1.0385918885E-002 -3.5601274434E+001  +2.0176811897E-001 -1.6650861048E+002 
2386758.448 +1.3650897391E-001 +1.6423816096E+002  +1.9519235450E-002 +1.1705861996E+002  +1.8554097360E-002 -1.7333324238E+001  +2.1394004498E-001 +1.6083774172E+002 
2511903.630 +1.2968517614E-001 +1.7012768699E+002  +2.2741336705E-002 +4.8849057508E+001  +2.4745400176E-002 -5.7223977787E+001  +1.6415745768E-001 -1.7276098450E+002 
2637048.811 +1.2616065431E-001 +1.6476747588E+002  +3.4751387050E-002 +6.2094348572E+001  +3.3680580601E-002 -5.6881972391E+001  +1.4220392384E-001 -1.7406935644E+002 
2762193.992 +1.2690463555E-001 +1.7701915528E+002  +5.3629510329E-002 +1.9903580363E+001  +5.9709922958E-002 -8.6995139226E+001  +8.3851652092E-002 -1.5077059395E+002 
2887339.174 +1.3664400511E-001 +1.7425055215E+002  +6.4355856903E-002 -5.1225464870E+000  +6.2965343461E-002 -1.0323205428E+002  +1.3717832403E-001 -7.3661066392E+001 
3012484.355 +1.3945564370E-001 +1.7144889672E+002  +1.9880659460E-002 +1.9775670381E+001  +2.3108310501E-002 -8.0004841958E+001  +2.1763762372E-001 -1.6141309423E+002 
3137629.537 +1.2158242837E-001 -1.7592074291E+002  +6.8493596730E-002 -1.6622195612E+001  +6.5156203563E-002 -1.1830981051E+002  +2.0866032882E-001 -1.1058053550E+002 
3262774.718 +1.1853370720E-001 +1.6718083456E+002  +9.7015680891E-002 +2.1160813134E+001  +1.2294608243E-001 -6.7963315114E+001  +2.6148125107E-001 -1.6638202855E+001 
3387919.900 +1.4888523635E-001 +1.6217029162E+002  +4.3152181461E-002 +5.9615983236E+001  +4.0901825107E-002 -2.6702383393E+001  +1.3464409213E-001 +1.6492786528E+002 
3513065.081 +1.5966756855E-001 +1.5868363412E+002  +4.1016576169E-002 +1.0321186848E+002  +3.6471380632E-002 +2.1358749764E+001  +3.4505219566E-001 +1.6162341588E+002 
3638210.263 +1.8353054454E-001 +1.5448343522E+002  +3.9724170640E-002 +1.2787351663E+002  +4.1808103232E-002 +4.5442720457E+001  +3.9745413730E-001 +1.6344642287E+002 
3763355.444 +1.5069027840E-001 +1.5713794874E+002  +7.0239675087E-002 +7.4542311453E+001  +5.8217564557E-002 -1.4644637716E+000  +2.5294136962E-001 +1.4125166439E+002 
3888500.626 +1.7977804615E-001 +1.5928913331E+002  +5.8629126283E-002 +6.9175994112E+001  +6.0175969460E-002 -5.0076198769E+000  +2.0901015750E-001 +1.1867691420E+002 
4013645.807 +1.5283512467E-001 +1.4629151697E+002  +9.6115709279E-002 +6.5376605294E+001  +9.9610272470E-002 -9.0193523282E+000  +1.4434904424E-001 +1.0812331278E+002 
4138790.989 +1.6682493499E-001 +1.5450819111E+002  +6.9418228136E-002 +6.2322600061E+001  +6.5587907488E-002 -7.0268790914E+000  +1.7467548727E-001 +1.4188117034E+002 
4263936.170 +1.9353798920E-001 +1.4875895242E+002  +8.3513977646E-002 +8.9150041401E+001  +7.6981760123E-002 +2.4970635489E+001  +3.4948744002E-001 +1.3670104859E+002 
4389081.352 +2.1794240615E-001 +1.3984418376E+002  +8.2653564145E-002 +9.8395948291E+001  +8.7586486962E-002 +3.7193488560E+001  +3.1277959658E-001 +1.5211477942E+002 
4514226.533 +2.0928519994E-001 +1.5276329830E+002  +7.9919947218E-002 +8.5689925493E+001  +7.5341216052E-002 +3.4872690651E+001  +4.2643297130E-001 +1.3981275311E+002 
4639371.715 +2.3197475125E-001 +1.3467814468E+002  +1.6039614838E-001 +9.8886339631E+001  +1.4719796824E-001 +4.6516098355E+001  +5.8855502934E-001 +1.1973878929E+002 
4764516.896 +3.3518153960E-001 +1.1456688141E+002  +4.9110001259E-001 +6.2602020340E+001  +4.6994901663E-001 +1.3598020736E+001  +1.5473849688E+000 +1.8057713075E+001 
4889662.078 +5.6859110318E-001 +1.1952186877E+002  +1.1336012485E+000 +1.4234163434E+002  +1.0354348448E+000 +9.8176927715E+001  +3.8499254523E+000 +1.2986702057E+002 
5014807.259 +4.0704193246E-001 +1.3187366975E+002  +3.5746812494E-001 +1.3189663072E+002  +3.5938144586E-001 +8.8926051079E+001  +1.4838152652E+000 +1.1616780368E+002 
5139952.441 +3.5936311336E-001 +1.3004203840E+002  +2.7869072708E-001 +1.0979703068E+002  +2.7466234996E-001 +7.4425560421E+001  +1.1635470472E+000 +1.1002630272E+002 
5265097.622 +4.0745352007E-001 +1.1692756362E+002  +6.8786005738E-001 +8.7373566418E+001  +7.0258578567E-001 +5.0951918483E+001  +3.0469849029E+000 +6.9571427681E+001 
5390242.804 +3.2161125658E-001 +1.3452444757E+002  +1.7233995574E-001 +1.0346693780E+002  +1.7638578647E-001 +6.9024015103E+001  +9.1138686194E-001 +1.3041916537E+002 
5515387.985 +4.5176309446E-001 +1.2883036518E+002  +3.7736276565E-001 +1.1853802414E+002  +3.6329956697E-001 +8.7604646488E+001  +1.7340574010E+000 +1.1568031697E+002 
5640533.166 +3.5554962579E-001 +1.2585251857E+002  +2.0431302604E-001 +8.6298338020E+001  +2.0283563736E-001 +5.8686620141E+001  +8.4061904550E-001 +1.2148181733E+002 
5765678.348 +4.6476889059E-001 +1.2583681883E+002  +3.3589642513E-001 +9.4569925973E+001  +3.2035525315E-001 +6.4025150144E+001  +1.4359074577E+000 +9.3879898536E+001 
5890823.529 +5.6100791039E-001 +1.2720071765E+002  +3.8475876842E-001 +1.0642882841E+002  +3.7705810374E-001 +8.3758555453E+001  +1.8428493877E+000 +1.0397020919E+002 
6015968.711 +5.3141610401E-001 +1.2138802891E+002  +3.6371464285E-001 +7.0757529526E+001  +3.5555032073E-001 +4.9601117890E+001  +1.4413410403E+000 +6.4960336256E+001 
6141113.892 +5.6683621765E-001 +1.0807688039E+002  +5.7483209905E-001 +6.8342378490E+001  +5.6392724440E-001 +4.5320790296E+001  +2.4730722947E+000 +6.1865195104E+001 
6266259.074 +6.8935882909E-001 +9.4295079893E+001  +5.2961619596E-001 +5.6779067416E+001  +5.1147509556E-001 +3.7985630728E+001  +1.4412840782E+000 +5.5050695678E+001 
6391404.255 +7.0349505206E-001 +1.0024759272E+002  +4.1117142825E-001 +5.3181400447E+001  +3.9626669564E-001 +3.8673265222E+001  +1.1109639214E+000 +5.1623891497E+001 
6516549.437 +8.7733241833E-001 +8.8295154492E+001  +4.8900097436E-001 +4.1859123669E+001  +4.7406130144E-001 +2.8654071905E+001  +1.2421494028E+000 +2.5222028158E+001 
6641694.618 +8.4663505550E-001 +6.2508808469E+001  +5.0749200185E-001 +2.3863808379E+001  +4.8443566288E-001 +1.3042268420E+001  +1.0494511122E+000 +2.1157161453E+001 
6766839.800 +9.2115841387E-001 +4.1857876648E+001  +5.4414454394E-001 +1.6873463724E+001  +5.2913398812E-001 +6.3643831567E+000  +1.1539941549E+000 +2.4153780341E+001 
6891984.981 +7.6200887947E-001 +3.0786336450E+001  +4.5466781458E-001 +3.2238875364E+000  +4.7116939325E-001 -5.2501592360E+000  +1.1410112399E+000 +1.1913446265E+000 
7017130.163 +8.8536564888E-001 +1.9265983265E+001  +4.3467313161E-001 +6.6081187439E-001  +4.3443820223E-001 -2.7377390875E+000  +9.3594475068E-001 -1.7623152763E+000 
7142275.344 +9.3844516471E-001 +1.6159597115E+001  +3.9245686711E-001 +2.2735592067E+000  +4.0384745090E-001 -3.6417955363E+000  +1.0920794349E+000 -4.4853004645E+000 
7267420.526 +1.0565587024E+000 +5.3853640191E+000  +3.7110161743E-001 +9.7638067348E-001  +3.6388540240E-001 -8.6736380624E-002  +1.0659602482E+000 -1.0612597806E+001 
7392565.707 +9.4937507305E-001 +6.8049256345E+000  +3.2270384745E-001 +4.3512495690E+000  +3.1020172633E-001 +4.8265138879E+000  +9.5559803362E-001 -9.7767094941E+000 
7517710.889 +9.2228598297E-001 +3.7029491792E-001  +2.9722151213E-001 +4.8069948455E+000  +3.0139247882E-001 +5.6202189301E+000  +9.1243972277E-001 -2.7869774373E+000 
7642856.070 +6.4446960613E-001 +3.4352975937E+000  +2.7852852483E-001 +1.1252939878E+000  +2.7573978911E-001 +5.1247944037E+000  +8.7930228367E-001 -5.5524269976E+000 
7768001.252 +6.5605508075E-001 +8.7980333490E+000  +2.6724045492E-001 +4.1274798616E-001  +2.6221620321E-001 +6.2189599531E+000  +6.3251464992E-001 -3.9848788821E+000 
7893146.433 +6.3452683377E-001 +5.9720831840E+000  +2.5750096746E-001 +9.0369503978E-001  +2.5930041405E-001 +6.1531495851E+000  +6.8401337649E-001 +1.8684048484E+000 
8018291.615 +5.0335177063E-001 +1.5199203602E+001  +2.4693816626E-001 -1.1643655942E+000  +2.4696072799E-001 +6.5659864136E+000  +5.6203978281E-001 -2.5443337746E+000 
8143436.796 +4.5922258176E-001 +1.3048696203E+001  +2.3730436894E-001 -3.3496079388E+000  +2.3606033539E-001 +6.2473082248E+000  +5.3667921061E-001 +4.5137476917E+000 
8268581.977 +4.4783522173E-001 +1.4648926696E+001  +2.2982226483E-001 -3.2069700270E+000  +2.2991554061E-001 +6.8786110006E+000  +5.1856507875E-001 +1.2181719828E+001 
8393727.159 +4.3768493296E-001 +1.3383012629E+001  +2.3084648105E-001 -3.4310262715E+000  +2.2635060565E-001 +5.8225862947E+000  +5.0272142728E-001 +8.5286235575E+000 
8518872.340 +4.6596096629E-001 +1.8214517350E+001  +2.2329983424E-001 -2.2982746528E+000  +2.2557644916E-001 +8.3998160836E+000  +4.6945438516E-001 +1.1029861082E+001 
8644017.522 +4.0368187899E-001 +1.9639027897E+001  +2.1929574508E-001 -4.4188176652E+000  +2.2107311408E-001 +8.1489663949E+000  +4.5200900634E-001 +1.5776192982E+001 
8769162.703 +4.2695212767E-001 +1.4025744252E+001  +2.2101175346E-001 -4.8746851354E+000  +2.2285605468E-001 +8.9174416051E+000  +4.1044405711E-001 +2.9412260889E+000 
8894307.885 +3.6743873882E-001 +8.9360921877E+000  +2.2175486516E-001 -4.9617605861E+000  +2.1778428019E-001 +1.0571498655E+001  +4.4301653233E-001 +4.1452989284E+000 
9019453.066 +3.7960995955E-001 +1.6095867534E+001  +2.1914869107E-001 -4.9827077106E+000  +2.1697408942E-001 +9.8065114017E+000  +4.1823798890E-001 +8.0807601046E+000 
9144598.248 +3.7941641680E-001 +1.5610560253E+001  +2.1783932090E-001 -4.0137045120E+000  +2.1745920685E-001 +9.6154630241E+000  +3.8042425647E-001 +1.0737372940E+001 
9269743.429 +3.2165598236E-001 +1.2282245798E+001  +2.2045785168E-001 -5.0093127270E+000  +2.2127038978E-001 +1.0099252886E+001  +4.2195033949E-001 -4.4497305261E-001 
9394888.611 +3.5220247953E-001 +1.3993613811E+001  +2.2049954340E-001 -4.7359039816E+000  +2.1769578366E-001 +1.1627937635E+001  +3.8946743828E-001 +2.0742233993E+000 
9520033.792 +3.4444888261E-001 +1.3028843846E+001  +2.1915442576E-001 -5.3476476582E+000  +2.1990945680E-001 +1.0124604362E+001  +3.2557155246E-001 -5.0213003595E-001 
9645178.974 +3.1569707940E-001 +9.2196742133E+000  +2.1974908244E-001 -5.2380161791E+000  +2.1511922674E-001 +1.0954969906E+001  +3.5136048569E-001 +1.3249814015E-001 
9770324.155 +2.8424169588E-001 -7.2293739372E+000  +2.2351108343E-001 -5.6241366195E+000  +2.2493059055E-001 +1.0145383829E+001  +3.5173889057E-001 +2.0679766028E+000 
9895469.337 +3.3471555191E-001 +1.3177704787E+001  +2.1754552936E-001 -4.5038889034E+000  +2.1767571279E-001 +1.1562482156E+001  +3.2151963072E-001 +4.4081245359E+000 
10020614.518 +3.8151613615E-001 +1.0310148777E+001  +2.2123953601E-001 -3.8050066518E+000  +2.1706825541E-001 +1.1804941481E+001  +3.5833058959E-001 +5.1281108735E+000 
10145759.700 +3.2078352483E-001 +1.3150746478E+001  +2.1858916620E-001 -4.1693279725E+000  +2.1962138110E-001 +1.1770184204E+001  +3.7840529625E-001 +5.4370474094E+000 
10270904.881 +3.3563399852E-001 +1.1565881688E+001  +2.2054923154E-001 -4.5338398596E+000  +2.1910015319E-001 +1.1434259797E+001  +3.4797993773E-001 +5.5137513560E+000 
10396050.063 +3.2705461043E-001 +9.8536273200E+000  +2.2341265665E-001 -3.3234508560E+000  +2.2207296817E-001 +1.1958655334E+001  +3.6518466272E-001 +6.9583909190E+000 
10521195.244 +3.5559199516E-001 +1.0608489558E+001  +2.2315216694E-001 -2.9928298670E+000  +2.2214966175E-001 +1.2255377744E+001  +3.4454243767E-001 +3.9625940506E+000 
10646340.426 +3.2734676380E-001 +1.7461461425E+001  +2.2404004037E-001 -3.6094140980E+000  +2.2241427974E-001 +1.1209894547E+001  +3.4853219115E-001 +3.1804347895E+000 
10771485.607 +3.5397393588E-001 +1.4304627610E+001  +2.2565381032E-001 -2.3967052137E+000  +2.2387363244E-001 +1.2297118185E+001  +3.8972949069E-001 +5.7409949593E+000 
10896630.788 +3.6245120712E-001 +1.5522119658E+001  +2.2897050342E-001 -1.9589632399E+000  +2.2590784622E-001 +1.1879494498E+001  +3.9706157306E-001 +5.0296090698E+000 
11021775.970 +3.6158552670E-001 +1.6170086011E+001  +2.2723656054E-001 -2.1861774573E+000  +2.2628852749E-001 +1.1555473236E+001  +3.5931004429E-001 +9.0858578908E+000 
11146921.151 +3.6121961295E-001 +1.4394116693E+001  +2.3126097620E-001 -1.5394226526E+000  +2.2887330947E-001 +1.2212753407E+001  +3.9527503375E-001 +1.0906292296E+001 
11272066.333 +3.5267451203E-001 +1.5397673028E+001  +2.3343838242E-001 -1.5702252610E+000  +2.3150211510E-001 +1.1134460846E+001  +3.8110840824E-001 +7.2944373273E+000 
11397211.514 +3.8476401979E-001 +8.4260915918E+000  +2.3730227822E-001 -1.0274230832E+000  +2.3421290182E-001 +1.1310405738E+001  +4.1871503434E-001 +8.4258710165E+000 
11522356.696 +4.0736262446E-001 +1.4467205202E+001  +2.3720207500E-001 -8.2541024176E-001  +2.3685285154E-001 +1.1460762181E+001  +4.2057091204E-001 +7.5752049845E+000 
11647501.877 +4.0801407119E-001 +1.0113650763E+001  +2.4331135163E-001 -1.0687469259E-001  +2.3848850240E-001 +1.1351261311E+001  +4.3828173110E-001 +3.3055999284E+000 
11772647.059 +3.8930422946E-001 +6.4852677997E+000  +2.4486092398E-001 -1.8368682832E-001  +2.4216363945E-001 +1.0350085911E+001  +4.4253319058E-001 +6.3285014654E+000 
11897792.240 +4.3040483935E-001 +9.6499671580E+000  +2.4732288719E-001 +3.6511658682E-001  +2.4331395686E-001 +1.0821592476E+001  +4.5208769758E-001 +7.3840655674E+000 
12022937.422 +4.2425388169E-001 +7.8106097903E+000  +2.4792996147E-001 +5.2258684134E-001  +2.4419069213E-001 +1.0201494246E+001  +4.4671338695E-001 +8.7326992937E+000 
12148082.603 +4.4584322350E-001 +6.1334159321E+000  +2.5305264697E-001 +3.4151465628E-001  +2.5039991686E-001 +9.8495454812E+000  +4.5733784236E-001 +3.2834532672E+000 
12273227.785 +4.3905437391E-001 +9.4234560637E+000  +2.5298832264E-001 +6.0769680507E-001  +2.5068624025E-001 +9.5246845742E+000  +4.7246059335E-001 +3.8793485077E+000 
12398372.966 +4.6585396997E-001 +5.7907193585E+000  +2.5755213171E-001 +1.1738031407E+000  +2.5295726097E-001 +9.0691389660E+000  +4.7492228711E-001 +3.6253932795E+000 
12523518.148 +4.6459176770E-001 +7.9649773446E+000  +2.6097218884E-001 +9.5625336949E-001  +2.5798089222E-001 +8.4244453512E+000  +4.7391799251E-001 -2.1023807848E-001 
12648663.329 +4.8264442651E-001 +6.4397384951E+000  +2.6121359244E-001 +1.4847447347E+000  +2.5947243972E-001 +8.0701382356E+000  +5.0627428194E-001 +3.3935503983E-001 
12773808.511 +4.9791168562E-001 +4.7468164142E+000  +2.6333442925E-001 +1.2071959443E+000  +2.6122095535E-001 +7.2827248110E+000  +4.8310562782E-001 +4.0346286604E+000 
12898953.692 +5.1873532099E-001 +4.4940623419E+000  +2.6639131424E-001 +1.5216858152E+000  +2.6522345165E-001 +7.4842728512E+000  +5.2584589626E-001 +1.6633005630E+000 
13024098.874 +5.2610548549E-001 +1.4660696597E+000  +2.7115841025E-001 +1.5963973064E+000  +2.6800888785E-001 +6.7393361487E+000  +5.2447509385E-001 +1.3720778702E+000 
13149244.055 +5.5280397263E-001 +6.0360379065E-001  +2.7326436437E-001 +2.0126518104E+000  +2.6998298733E-001 +6.5619684617E+000  +5.4284577004E-001 +7.4589492457E-001 
13274389.237 +5.3664347980E-001 +5.1063179949E-002  +2.7566652048E-001 +1.7453914217E+000  +2.7386924369E-001 +5.6401716917E+000  +5.6020504200E-001 -1.6535956454E+000 
13399534.418 +5.6363205488E-001 +7.4096344851E-001  +2.7919570764E-001 +1.8647860696E+000  +2.7620748578E-001 +5.2736230832E+000  +5.6390377704E-001 -1.7884270042E+000 
13524679.599 +5.7868771681E-001 -2.7546789991E+000  +2.8101796268E-001 +2.3412301705E+000  +2.7884825491E-001 +4.9514355944E+000  +5.8363239077E-001 -1.1924875809E+000 
13649824.781 +5.8118031989E-001 -6.5171425846E-001  +2.8254083158E-001 +1.9110676253E+000  +2.8068034733E-001 +4.3374863995E+000  +6.1372063654E-001 -1.5990477283E+000 
13774969.962 +6.1089206169E-001 -3.1609407589E+000  +2.8587504611E-001 +2.2093801457E+000  +2.8221768422E-001 +4.0251177291E+000  +6.2242302262E-001 -1.3295760313E+000 
13900115.144 +6.3355804398E-001 -9.5521724539E-001  +2.8580747033E-001 +1.8076280164E+000  +2.8390841654E-001 +3.6139110131E+000  +6.2435953408E-001 -4.9193448636E+000 
14025260.325 +6.5067223258E-001 -3.6588206172E+000  +2.9133091689E-001 +1.8662998423E+000  +2.8479521364E-001 +2.9071758327E+000  +6.3630294414E-001 -2.6844504197E+000 
14150405.507 +6.5264254432E-001 -2.8597466634E+000  +2.9024815136E-001 +1.5718827610E+000  +2.8562535376E-001 +2.1767198470E+000  +6.4146562729E-001 -4.5030327000E+000 
14275550.688 +6.5451454901E-001 -4.0503207022E+000  +2.9258786831E-001 +1.6496014543E+000  +2.8775593450E-001 +2.2510436293E+000  +6.8563750442E-001 -3.6664800520E+000 
14400695.870 +6.8118058208E-001 -4.9756415766E+000  +2.9508601928E-001 +1.1774674907E+000  +2.9124243349E-001 +2.0552311910E+000  +7.0127184295E-001 -5.3250673557E+000 
