!  2-Port S-parameters saved by WinCal
! VAR MeasName=S-Parameters (CALIBRATED_DATA) read from VNA (P5004A)
! VAR MeasDate=29/08/2024 13:54:06
! VAR NAME=S2_r9c6_SET1_9k-100M_3
! VAR FILENAME=S2_r9c6_SET1_9k-100M_3.S2P
! VAR DATE=29/08/2024 13:54:06
! VAR PHYS_PORTS=1,2
! VAR ObjTypeName=DATASET
! VAR IndexType=Frequency
!
# Hz S MA R 50
9000.000 +9.6543384390E-002 -1.7229322096E+002  +6.0392821571E-003 -1.5363974705E+002  +5.6395948186E-003 -7.9245954880E+001  +2.6517287792E-001 -1.4981621347E+002 
134145.181 +1.1116840553E-001 +1.6949273006E+002  +6.4384702521E-004 +7.2102944174E+001  +8.6759126506E-004 -5.3922767811E+000  +2.4138837133E-001 -1.7020894850E+002 
259290.363 +1.1197755896E-001 +1.6982212339E+002  +8.0893814690E-004 +1.4067997039E+002  +6.9013807420E-004 -8.0523560039E+001  +2.3718314119E-001 -1.6798146232E+002 
384435.544 +1.1364535817E-001 +1.6975126679E+002  +8.1146830087E-004 -8.5090562727E+001  +8.9394769791E-004 +1.1730528346E+002  +2.4618351152E-001 -1.6743729835E+002 
509580.726 +1.1411518594E-001 +1.7073916879E+002  +4.7044426046E-004 -4.4802167299E+001  +7.5326840955E-004 +1.5472965679E+002  +2.4653447464E-001 -1.6663346936E+002 
634725.907 +1.1709260825E-001 +1.7174189823E+002  +5.9675886272E-004 -4.7435387520E+001  +1.2957829115E-003 +9.0393463756E+001  +2.5022286514E-001 -1.6645920608E+002 
759871.089 +1.2068825257E-001 +1.7092224448E+002  +1.2487874345E-004 -1.2620346080E+002  +5.9257056064E-004 +2.3034221399E+001  +2.5817443835E-001 -1.6719444668E+002 
885016.270 +1.2128646972E-001 +1.6938614739E+002  +7.5133374936E-004 -8.8482577467E+001  +6.9166233558E-004 -1.0646534818E+002  +2.2879204806E-001 -1.6650722876E+002 
1010161.452 +1.1567636959E-001 +1.6922757614E+002  +5.7465668335E-004 -4.9943913022E+001  +1.5302540703E-003 +1.5342049068E+002  +1.9192057222E-001 -1.6762993955E+002 
1135306.633 +1.1727170832E-001 +1.6961004393E+002  +9.7705243568E-004 -3.2428958820E+001  +7.7091911280E-004 +3.6505192417E+001  +2.1511662744E-001 -1.6600075971E+002 
1260451.815 +1.0574216577E-001 +1.6960447853E+002  +3.9052488743E-004 -4.9858373628E+001  +1.6992158227E-003 -4.7542748644E+001  +2.1855322952E-001 -1.5609155660E+002 
1385596.996 +1.2309615477E-001 +1.7245866860E+002  +1.2016558406E-003 -1.2180587384E+002  +6.3743033780E-004 +1.6238660807E+002  +2.5538239045E-001 -1.5631984430E+002 
1510742.178 +1.2649919078E-001 +1.7222343828E+002  +8.3924285669E-004 -3.8583229762E+001  +9.1189882677E-004 -1.1033998680E+002  +2.5248759458E-001 -1.5615015830E+002 
1635887.359 +1.2773866521E-001 +1.7130027643E+002  +6.9840733519E-004 +9.1738456985E+001  +2.6974712143E-004 +7.8242998068E+001  +2.4995170997E-001 -1.5505697317E+002 
1761032.541 +1.2909667119E-001 +1.6939749014E+002  +1.0769351811E-003 +7.6283971025E+001  +1.0441488276E-003 -1.5148051087E+002  +2.3194443526E-001 -1.5741373864E+002 
1886177.722 +1.2811441895E-001 +1.7005367681E+002  +3.8106803809E-004 +8.3980968580E+000  +8.4874058322E-005 +5.2783812760E+001  +2.0453879102E-001 -1.5539940308E+002 
2011322.904 +1.2963757369E-001 +1.6695151233E+002  +1.5809416632E-003 +8.9385717727E+001  +2.1658018087E-003 +1.6430080182E+002  +1.7655707127E-001 -1.7273695389E+002 
2136468.085 +1.2902713490E-001 +1.6429936820E+002  +3.8489734688E-003 +6.4243471753E+001  +1.2448774328E-003 +2.6980959063E+001  +1.9627729027E-001 -1.7447098750E+002 
2261613.267 +1.3528932937E-001 +1.6441164433E+002  +3.0832135048E-003 +1.1489129460E+002  +3.7850752378E-003 -5.8397238444E+001  +1.0097078052E-001 -1.5656189946E+002 
2386758.448 +1.3786216880E-001 +1.6438034654E+002  +6.9953062395E-003 +4.7878339270E+000  +6.3654453439E-003 -4.1315338664E+001  +1.3040991035E-001 +1.2851794582E+002 
2511903.630 +1.3736539697E-001 +1.6353991678E+002  +6.9129273016E-003 +7.2577804773E+001  +5.2417879613E-003 -7.3055454287E+001  +1.0675013098E-001 +1.6174741827E+002 
2637048.811 +1.3591483975E-001 +1.6762265540E+002  +3.6353705036E-003 +7.9772996261E+001  +1.0825304135E-002 -6.0527954268E+001  +1.4360598902E-001 +1.6507287579E+002 
2762193.992 +1.2487727553E-001 +1.7141744228E+002  +1.4641795417E-002 +1.7313875704E+001  +6.2811916946E-003 +1.7190419135E+002  +1.5056853983E-001 -5.0285752500E+001 
2887339.174 +9.2958003634E-002 -1.7924749726E+002  +2.1249072074E-002 -3.9922430546E+000  +3.2489930823E-002 -9.5217106485E+001  +6.2166338050E-002 -1.1986565340E+002 
3012484.355 +1.2850629963E-001 +1.7791311112E+002  +1.3014045246E-003 -2.7563535675E+001  +4.9824749270E-003 +1.3383696579E+002  +2.9010023141E-001 -1.1239110716E+002 
3137629.537 +1.3450454200E-001 -1.7354638437E+002  +1.8442118055E-002 -5.4873154093E+001  +1.0208366867E-002 -1.3270741409E+002  +1.4018311669E-001 -7.0095715173E+001 
3262774.718 +1.1450804303E-001 +1.5915188102E+002  +1.9342076994E-002 +5.5281250623E+001  +1.0913001420E-002 -1.4538707771E+002  +7.6547582132E-002 +1.2048094899E+002 
3387919.900 +1.4498489543E-001 +1.4671379856E+002  +1.1528827103E-002 +8.3644875869E+001  +4.9390112807E-003 -6.3416936337E+001  +4.0445069133E-002 -1.3551402826E+002 
3513065.081 +1.4370667254E-001 +1.4704067895E+002  +2.1332536321E-002 +6.9757996942E+001  +1.8881008650E-002 -2.3350088021E+001  +6.4107818112E-001 +1.1499408575E+002 
3638210.263 +1.7573130628E-001 +1.5084741735E+002  +8.8027057488E-003 +1.6509906569E+002  +9.3858139130E-003 +1.1573888927E+001  +6.2957118221E-001 +1.5046069703E+002 
3763355.444 +1.7723943208E-001 +1.4908394403E+002  +1.6813531598E-002 +8.9414663922E+001  +1.9919510508E-002 +6.5867080850E+001  +7.4464106307E-001 +1.4056119647E+002 
3888500.626 +1.5733035654E-001 +1.3633419655E+002  +3.5412032487E-002 +1.0119111356E+002  +3.0539294168E-002 +2.0044189633E+001  +4.7182534877E-001 +1.1442703277E+002 
4013645.807 +1.7943813559E-001 +1.5553514426E+002  +7.1057273873E-003 +7.8114618654E+001  +2.3130786341E-002 +1.0660784619E+001  +4.5884936014E-001 +1.0925465202E+002 
4138790.989 +1.9352046229E-001 +1.3513422463E+002  +2.1267861812E-002 +5.5430814103E+001  +1.1246117942E-002 +4.8243726172E+001  +3.9439919734E-001 +1.1160538851E+002 
4263936.170 +1.8630497019E-001 +1.4838583436E+002  +1.6451212703E-002 +9.7414984201E+001  +1.2764708597E-002 +3.4210508413E+000  +6.6066603290E-001 +1.3486043875E+002 
4389081.352 +1.7960701779E-001 +1.4429245917E+002  +1.8195380847E-002 +8.7529188765E+001  +3.5319465534E-002 -6.4157839851E+000  +6.1653622793E-001 +9.1019507645E+001 
4514226.533 +2.2706879448E-001 +1.1755435138E+002  +4.3298744808E-002 +1.3919130461E+002  +7.1604730949E-002 +8.0046064629E+001  +1.4213727114E+000 +1.4062464173E+002 
4639371.715 +2.9097741404E-001 +1.3562855787E+002  +3.7317840032E-002 +8.5897071177E+001  +4.3564636988E-002 +3.7193219953E+001  +1.0374406579E+000 +6.0419416057E+001 
4764516.896 +3.5640158538E-001 +1.2361417410E+002  +1.7781423560E-001 -9.6094419137E+001  +3.9596201414E-001 -1.3179483819E+002  +7.9162481300E+000 -1.2598070619E+002 
4889662.078 +3.6002301564E-001 +1.3074615359E+002  +8.6416512610E-001 -1.3350541527E+001  +5.3031377041E-001 -8.2267649108E+001  +1.9439055615E+001 -6.3103163607E+001 
5014807.259 +3.6778441847E-001 +1.2103208445E+002  +1.3578282788E-001 -5.5297037928E+001  +2.9909520908E-001 -1.0360459531E+002  +5.1634974196E+000 -1.0257181465E+002 
5139952.441 +4.1137464974E-001 +1.2927992249E+002  +6.4502094590E-002 +7.1082823670E+001  +9.8031624568E-002 +2.2736017537E+000  +2.8584956207E+000 +6.6883901988E+000 
5265097.622 +3.7199019091E-001 +1.2254405836E+002  +1.0415318498E-001 +1.0134917972E+002  +5.5365811721E-002 +7.4916004525E+001  +2.7476102105E+000 +1.0418501793E+002 
5390242.804 +4.2179419066E-001 +1.3726479353E+002  +8.3736336624E-002 +1.7701510426E+002  +6.6892347225E-002 +1.2928820867E+002  +3.5209112612E+000 +1.3842097829E+002 
5515387.985 +4.0688650917E-001 +1.1885898786E+002  +6.7364807569E-002 +1.0928518980E+002  +2.8927188389E-002 +1.0243461677E+002  +1.2493838795E+000 +1.1302886714E+002 
5640533.166 +4.8351053133E-001 +1.3386641348E+002  +5.0457926595E-002 +1.0094558097E+002  +4.3258445917E-002 +6.7009611638E+001  +1.2635196865E+000 +7.8945492097E+001 
5765678.348 +4.9651733542E-001 +1.2353498662E+002  +6.3430748765E-002 +8.6789842809E+001  +5.6931836729E-002 +6.0719386393E+001  +2.1974641787E+000 +6.6361086325E+001 
5890823.529 +5.9179794296E-001 +1.2431626080E+002  +1.0371995186E-001 +5.0277527820E+001  +6.3943312143E-002 +2.8572167145E+001  +2.3963147986E+000 +1.8809837018E+001 
6015968.711 +6.8622610794E-001 +1.2269438984E+002  +6.1137820370E-002 +5.4455537748E+001  +5.9863878179E-002 +3.7928482322E+001  +1.6697636487E+000 +2.6500559864E+001 
6141113.892 +6.6282835441E-001 +1.1192291513E+002  +9.4893226824E-002 +6.1261012871E+001  +1.1138504778E-001 +2.1599564617E+001  +2.1982274310E+000 +4.6055097800E+001 
6266259.074 +6.8541150676E-001 +1.0485282947E+002  +6.2951127426E-002 +1.7005839441E+001  +5.8517026701E-002 +2.0831824630E+001  +1.4535763904E+000 +8.9263053415E+000 
6391404.255 +1.0565874645E+000 +9.2518333567E+001  +7.0816838703E-002 +3.3769437443E+001  +7.4011604673E-002 +4.4666468490E+001  +9.8848998090E-001 +8.3062790187E+000 
6516549.437 +1.1523644222E+000 +8.3525482521E+001  +1.1247147404E-001 +4.8897632467E+001  +8.3471007631E-002 +1.5580887138E+001  +1.7217188576E+000 +2.9148978587E+000 
6641694.618 +1.5898232194E+000 +5.4400316905E+001  +1.0641467354E-001 +9.5793104606E+000  +1.0692884925E-001 +1.4529567042E+001  +1.1719635242E+000 +2.6627257249E+000 
6766839.800 +1.9624538965E+000 +5.3937244928E+001  +1.0575051421E-001 +1.4096393503E+001  +9.8272646381E-002 +7.7966696599E+000  +1.2220533179E+000 -8.8877048413E+000 
6891984.981 +1.8543454443E+000 +4.5829458049E+001  +8.6041565907E-002 +6.5207118793E+000  +9.6529884310E-002 -1.5516595615E+000  +1.2957262643E+000 -3.4642600091E+000 
7017130.163 +1.6525483965E+000 +1.2364887358E+001  +8.2586594777E-002 +7.6736025387E-001  +6.6027569455E-002 +1.0919503172E+000  +1.2049274359E+000 -1.1316662946E+001 
7142275.344 +1.3653655682E+000 +1.9893791233E+001  +5.7875888008E-002 -4.3711652405E+000  +4.9669954442E-002 -1.1657519577E+001  +1.2148184137E+000 -8.3661292410E+000 
7267420.526 +1.3485254377E+000 +5.1712272801E+000  +4.9479875023E-002 -8.6075869688E-001  +4.7692902675E-002 -3.6354159492E+000  +1.3063267529E+000 -1.2667117651E+001 
7392565.707 +1.3230333029E+000 +2.5590162727E+000  +4.6596792827E-002 -3.5994304473E+000  +4.7083370893E-002 +2.2679421464E+001  +1.2744538898E+000 -5.8561190673E+000 
7517710.889 +1.0923625466E+000 -7.8826388519E-001  +4.3471279070E-002 +6.1481771769E+000  +3.4537288072E-002 +4.9524497094E+000  +1.1105138161E+000 -2.9141938984E+000 
7642856.070 +1.0270644067E+000 -4.3142403486E+000  +3.4067600597E-002 -1.1620835068E+000  +3.0478819608E-002 -2.8022409380E+000  +9.9812534167E-001 -7.1186096311E-001 
7768001.252 +9.0162860464E-001 +7.0129436334E+000  +3.2500676259E-002 +2.7675731065E+000  +3.0777069420E-002 -3.2995568764E+000  +9.6844400769E-001 +5.6547451549E-001 
7893146.433 +7.8299790431E-001 -1.6899818231E+000  +3.4683293958E-002 -6.9443887168E-001  +2.9173159080E-002 +7.4798233311E+000  +9.1011689803E-001 -4.9868288934E-002 
8018291.615 +8.1208747762E-001 +1.2089106482E+001  +2.8424887913E-002 -1.5021537290E+001  +3.1109765321E-002 +1.3222737668E+001  +8.2529785123E-001 -3.8421365881E-001 
8143436.796 +6.7560744413E-001 +1.0728938383E+001  +3.7613497425E-002 +3.3338360624E+000  +3.4508861397E-002 +1.0419541922E+001  +7.4875539222E-001 +9.0584656795E-001 
8268581.977 +7.4636977922E-001 +8.4893930004E+000  +3.7498076718E-002 -5.3646149721E+000  +3.3089530220E-002 +3.0022311016E+000  +7.0742168638E-001 +5.7496607756E+000 
8393727.159 +7.1070939283E-001 +8.1414269113E+000  +3.1914096083E-002 -8.7129677366E+000  +2.8659263103E-002 +3.8844904922E+000  +6.6603399580E-001 -3.5155944891E+000 
8518872.340 +6.9804640815E-001 +8.4538719123E+000  +2.8730727269E-002 -8.0562409049E-001  +2.8274893908E-002 +6.2632813771E+000  +6.7291629454E-001 -8.3609857859E-001 
8644017.522 +6.8764750834E-001 +7.0099420674E+000  +2.8911360559E-002 -4.5115301936E+000  +2.9404217064E-002 +6.3690755636E+000  +7.1396476152E-001 +3.1116322622E+000 
8769162.703 +6.5970403978E-001 +8.8210873855E+000  +2.7749498566E-002 -9.8730504013E+000  +3.0639118831E-002 +1.2686386633E+001  +6.4468848676E-001 +3.1004414638E+000 
8894307.885 +6.4713616925E-001 +6.4197446418E+000  +2.9628557923E-002 +3.7251026246E+000  +2.9915555980E-002 +1.2283537291E+001  +6.5941006339E-001 +1.4844937818E+000 
9019453.066 +5.2497117108E-001 +4.4758055998E+000  +2.6495097144E-002 -7.4763433472E-001  +3.3745665706E-002 +1.3786419118E+001  +6.3638774446E-001 +3.3602819420E+000 
9144598.248 +5.9145932482E-001 +9.0750142431E+000  +2.9724119065E-002 -7.1940914524E-001  +3.0460688737E-002 +1.7371165681E+001  +6.4766584593E-001 +6.6451044859E-001 
9269743.429 +5.3365330329E-001 +8.1634016892E+000  +3.1567216140E-002 -2.1265927135E+000  +2.5027773723E-002 +1.7174937531E+001  +5.6018978698E-001 +2.1475449163E+000 
9394888.611 +5.4956270731E-001 +1.0074188622E+001  +3.0476348471E-002 -2.7446267681E+000  +3.0085426355E-002 +1.0793450438E+001  +5.3504417563E-001 -4.2945406234E+000 
9520033.792 +4.9949453649E-001 +2.1506228121E+000  +2.7961067229E-002 -6.8210656985E+000  +2.7240408748E-002 +6.0765393390E+000  +5.4798114674E-001 -4.1162373926E+000 
9645178.974 +4.9151426079E-001 +6.9690704856E+000  +2.6544463383E-002 -5.5629280106E+000  +2.8874776072E-002 +1.4029210187E+001  +5.7795042678E-001 -2.9095059213E+000 
9770324.155 +5.2598167368E-001 +5.4534589716E+000  +3.0968529486E-002 -4.5587782538E+000  +2.7324057456E-002 +1.1690170004E+001  +6.0436843341E-001 -5.7167653906E+000 
9895469.337 +4.9019441435E-001 -9.7616441533E-001  +2.8717882628E-002 -5.6068455447E+000  +3.2641117050E-002 +1.3502057733E+001  +5.8234316396E-001 -3.8919927690E+000 
10020614.518 +5.1438583744E-001 +3.5593848672E+000  +3.0042433692E-002 -2.7768574247E+000  +3.2769604940E-002 +1.2881258440E+001  +5.7259709160E-001 -3.8976241599E+000 
10145759.700 +5.3718052097E-001 +6.0812627804E-001  +2.8923848822E-002 +7.0613434492E+000  +3.1410222875E-002 +1.6064868639E+001  +5.6551568050E-001 +1.2539792992E-001 
10270904.881 +5.2859742045E-001 +9.4402527820E+000  +3.0282500368E-002 -6.9869882890E+000  +2.9173685135E-002 +1.2633966118E+001  +5.6066803656E-001 -5.6796780620E+000 
10396050.063 +5.2914897355E-001 +6.6065317566E+000  +3.2186560450E-002 -7.9036567755E-001  +2.6442969447E-002 +1.0961270605E+001  +5.3552261911E-001 -2.0539968723E+000 
10521195.244 +5.4344552383E-001 +5.0889132961E+000  +3.3214568673E-002 -7.0805126361E+000  +3.0145613234E-002 +1.2405273826E+001  +5.8222062863E-001 -1.4941587018E+000 
10646340.426 +5.1129140442E-001 +8.5735633327E+000  +3.1087706173E-002 -5.7524227991E-001  +3.0541551342E-002 +1.4616763825E+001  +5.7285511105E-001 +2.0734852799E-001 
10771485.607 +5.5557127313E-001 +7.2049941548E+000  +2.9173109025E-002 +2.2014577804E+000  +3.2376962690E-002 +1.3260596601E+001  +5.9111762477E-001 +1.9305439086E+000 
10896630.788 +5.4326876323E-001 +9.7605937104E+000  +2.9372606624E-002 -8.6824988020E-002  +3.1538459955E-002 +7.9673018355E+000  +5.9902570928E-001 +3.9848072326E+000 
11021775.970 +5.6240805336E-001 +3.2492256762E+000  +2.9916582518E-002 -3.5880767481E-001  +3.0951958368E-002 +1.9167396104E+001  +6.1412248920E-001 +7.4528904055E-001 
11146921.151 +5.8740949457E-001 +1.0333809008E+001  +3.1736027511E-002 +4.1561372179E+000  +2.9116695869E-002 +8.8936675644E+000  +5.8051930178E-001 +4.0947177158E-001 
11272066.333 +5.6579863593E-001 +6.9256165595E+000  +3.0046678103E-002 -3.9485331369E+000  +3.2784175660E-002 +1.1923683959E+001  +6.0255473725E-001 +3.8164356662E+000 
11397211.514 +5.7264562586E-001 +6.7073086150E+000  +3.0539268419E-002 -1.7343454003E+000  +3.1708626743E-002 +1.3953561025E+001  +5.9186885578E-001 +1.5350288597E-001 
11522356.696 +5.8673173963E-001 +7.6855738732E+000  +3.2653361607E-002 +6.1138067955E-001  +3.0891901849E-002 +1.1461684698E+001  +6.2833165322E-001 +6.9020553074E-001 
11647501.877 +6.1514075196E-001 +6.9636878638E+000  +3.3491843939E-002 +1.8514451237E+000  +3.1596497055E-002 +1.1369497753E+001  +6.2521632370E-001 +1.3053911468E+000 
11772647.059 +6.4266122666E-001 +7.6882704564E+000  +3.0969212918E-002 -4.0543842376E+000  +3.2571295597E-002 +1.5325801429E+001  +6.2238807627E-001 +9.6376365668E-001 
11897792.240 +6.4454793294E-001 +5.8338405468E+000  +3.3869360771E-002 +2.2416218408E+000  +3.3325988111E-002 +1.2450005320E+001  +6.6843358415E-001 +8.8429017911E-001 
12022937.422 +6.5168105126E-001 +4.8531151554E+000  +3.4088951900E-002 +2.1077929836E+000  +3.3719548361E-002 +1.1256872542E+001  +6.5336120276E-001 -3.8775734155E-001 
12148082.603 +6.6659267228E-001 +3.1024619791E+000  +3.3906910199E-002 +1.5076602297E+000  +3.3705101870E-002 +1.1033922775E+001  +6.8185458909E-001 +1.5809778329E+000 
12273227.785 +6.5456456817E-001 +3.9280076085E+000  +3.3640679035E-002 +2.7019116863E+000  +3.3125271986E-002 +1.0331459336E+001  +7.2424987608E-001 +2.1287553422E+000 
12398372.966 +6.8693755179E-001 +4.1041674596E+000  +3.4340479150E-002 +7.3340297277E-001  +3.2769266406E-002 +9.6578681898E+000  +6.8712266357E-001 +1.6682762161E+000 
12523518.148 +7.1968934988E-001 +3.9696190849E+000  +3.4210900351E-002 +9.9532621719E-001  +3.6395173607E-002 +1.0047793586E+001  +7.1086664297E-001 -2.0744626640E+000 
12648663.329 +6.8280472947E-001 +3.6279695417E+000  +3.6967184056E-002 +2.9062361559E+000  +3.5741227810E-002 +5.8593955453E+000  +7.1965211421E-001 -1.5192001638E+000 
12773808.511 +7.2723560745E-001 +1.7208817617E+000  +3.4310527823E-002 +4.3907911866E+000  +3.5896718184E-002 +8.0433122499E+000  +7.5153985655E-001 -4.3206676335E-001 
12898953.692 +7.3333081363E-001 +2.4109203559E+000  +3.4885212743E-002 +9.9955907816E-001  +3.6786540204E-002 +9.9283111801E+000  +7.4940194139E-001 -2.2612322162E+000 
13024098.874 +7.5836900899E-001 -1.0816265510E-001  +3.7473827399E-002 +4.4980009298E+000  +3.6942422782E-002 +6.7268755083E+000  +7.5953141470E-001 -1.7559138230E+000 
13149244.055 +7.7936537851E-001 +2.8547265338E-001  +3.6097692383E-002 +1.4339499023E+000  +3.4853060304E-002 +5.7550476057E+000  +7.7700189336E-001 -1.9008815591E+000 
13274389.237 +7.7489129640E-001 -1.1969294089E+000  +3.7538730797E-002 +2.7241408103E+000  +3.8289177127E-002 +6.5757958687E+000  +8.0772779301E-001 -1.4808049607E+000 
13399534.418 +8.0172835407E-001 -1.5127243763E+000  +3.6870052624E-002 +4.0497534599E+000  +3.5129008585E-002 +6.4771415237E+000  +8.2358197205E-001 -9.8905340380E-001 
13524679.599 +8.2825056679E-001 -1.2376249611E+000  +3.7778646414E-002 -7.2692509177E-001  +3.7819279637E-002 +7.2169449175E+000  +8.4616846272E-001 -1.4049988991E+000 
13649824.781 +8.6423243293E-001 -3.4732211245E+000  +3.8285600013E-002 +2.5120960033E+000  +3.6478433720E-002 +9.8381052755E+000  +8.5137046982E-001 -2.8196045150E+000 
13774969.962 +8.6345304789E-001 -4.5768633191E+000  +3.9586570000E-002 +4.7160435676E-001  +3.7937700303E-002 +4.1460327519E+000  +8.6385406423E-001 -2.8188332454E+000 
13900115.144 +8.7572627253E-001 -2.3098597852E+000  +3.8334227128E-002 +5.0018632914E+000  +3.8197315673E-002 +5.0644774950E+000  +9.1368024029E-001 -2.6941718755E+000 
14025260.325 +8.7097624366E-001 -2.5893434022E+000  +3.8903220271E-002 +4.5621146885E+000  +3.7090345952E-002 +5.5197065954E+000  +9.2859065719E-001 -2.7632181464E+000 
14150405.507 +8.8169909050E-001 -3.8056301050E+000  +3.8828286072E-002 +1.1005340465E+000  +3.7096719334E-002 +1.6082762528E+000  +9.2169640926E-001 -4.1173393141E+000 
14275550.688 +9.2066833057E-001 -4.3821476581E+000  +3.7650498106E-002 +2.3413844486E+000  +3.7153623854E-002 +1.5412075637E+000  +9.2663495640E-001 -4.9164328397E+000 
14400695.870 +9.3733118260E-001 -4.9981715090E+000  +3.8667999890E-002 +1.1729981440E+000  +3.7814133160E-002 +1.6237770399E+000  +9.7706677651E-001 -3.7017983710E+000 
