!  2-Port S-parameters saved by WinCal
! VAR MeasName=S-Parameters (CALIBRATED_DATA) read from VNA (P5004A)
! VAR MeasDate=29/08/2024 13:35:02
! VAR NAME=S2_r9c6_pristine_9k-100M_1
! VAR FILENAME=S2_r9c6_pristine_9k-100M_1.S2P
! VAR DATE=29/08/2024 13:35:02
! VAR PHYS_PORTS=1,2
! VAR ObjTypeName=DATASET
! VAR IndexType=Frequency
!
# Hz S MA R 50
9000.000 +8.2731150631E-002 -1.7053807394E+002  +9.7478631240E-003 +7.7629725024E+001  +1.4250501966E-002 +1.7011097377E+002  +2.9325381984E-001 -1.3938648800E+002 
134145.181 +1.1069511660E-001 +1.6997340547E+002  +7.4919576420E-004 -1.7267061218E+001  +7.1853214637E-004 -1.6891014160E+002  +2.3975662620E-001 -1.6925834000E+002 
259290.363 +1.1213935910E-001 +1.6947556468E+002  +8.4858080011E-004 +1.1946551644E+002  +6.2579217529E-004 +1.1444567050E+002  +2.4470625824E-001 -1.6900193174E+002 
384435.544 +1.1505594268E-001 +1.7030137934E+002  +7.3068971161E-004 -9.5441421598E+001  +1.3175242951E-003 +1.0905363480E+002  +2.4666461780E-001 -1.6788347057E+002 
509580.726 +1.1156219020E-001 +1.7103122741E+002  +2.5204278857E-003 -3.2267324518E+001  +1.5413978417E-003 -1.7219307247E+002  +2.4326143212E-001 -1.6214126750E+002 
634725.907 +1.1730006611E-001 +1.7124003166E+002  +1.4914680593E-003 -7.1516458719E+001  +1.3869993114E-003 +1.4584352176E+002  +2.4478952332E-001 -1.6413164951E+002 
759871.089 +1.1990303900E-001 +1.7074277060E+002  +5.8225269630E-004 -5.2846713767E+001  +1.2834618807E-003 +1.4289148821E+002  +2.4652125452E-001 -1.6836419244E+002 
885016.270 +1.2045219395E-001 +1.6983335503E+002  +4.2619701296E-004 -3.2384335578E+001  +9.1233492402E-004 +1.4660947086E+002  +2.4306455807E-001 -1.6758450981E+002 
1010161.452 +1.1823360297E-001 +1.6827695836E+002  +2.0117319293E-003 +5.5403019204E+001  +1.6205581977E-003 -1.2065055301E+002  +2.2635343493E-001 -1.7050215407E+002 
1135306.633 +1.1971873486E-001 +1.6823525961E+002  +3.0977066248E-003 +2.7778270947E+001  +2.8022043291E-003 -1.2794201240E+002  +2.1777547970E-001 -1.6392683247E+002 
1260451.815 +1.2252821212E-001 +1.7075243791E+002  +1.9472052281E-003 +3.3698350117E+001  +4.9338383028E-003 -1.4167971277E+002  +2.1503620145E-001 -1.6002111107E+002 
1385596.996 +1.2889825391E-001 +1.7285800284E+002  +6.7313706484E-003 -3.9612836557E+001  +6.8779338224E-003 +1.6744831805E+002  +2.5700754994E-001 -1.4675194679E+002 
1510742.178 +1.2650856306E-001 +1.7083013162E+002  +3.4586570918E-003 -4.4419442521E+000  +4.0373467463E-003 -1.7717975846E+002  +2.5993888415E-001 -1.5873756386E+002 
1635887.359 +1.2989353447E-001 +1.7029545353E+002  +4.6807401062E-003 +2.6794229433E+001  +4.9829446416E-003 -1.1414727763E+002  +2.3095271217E-001 -1.5799074933E+002 
1761032.541 +1.3068064456E-001 +1.6968166867E+002  +5.1741332655E-003 +4.4095776650E+001  +6.4543265141E-003 -8.9538999678E+001  +2.3684473066E-001 -1.5906766134E+002 
1886177.722 +1.3114087940E-001 +1.6940466194E+002  +7.8663755932E-003 +7.0679544893E+001  +8.3474743704E-003 -6.6733627789E+001  +2.2670192953E-001 -1.6193520304E+002 
2011322.904 +1.3153747722E-001 +1.6786361016E+002  +1.9300445220E-002 +8.0100426676E+001  +1.9676972220E-002 -4.9487904127E+001  +1.7491743811E-001 -1.5912592845E+002 
2136468.085 +1.2464549111E-001 +1.6757902285E+002  +2.1031611341E-002 +8.8429148818E+001  +2.3787701320E-002 -3.5467686579E+001  +2.1245896602E-001 -1.6760106667E+002 
2261613.267 +1.2436398017E-001 +1.6777596185E+002  +2.9779643498E-002 +7.0347931148E+001  +2.8929251319E-002 -5.0126152786E+001  +1.9506559466E-001 -1.6035968359E+002 
2386758.448 +1.3563134298E-001 +1.6530190285E+002  +3.1292196700E-002 +9.2148514986E+001  +3.1809842888E-002 -2.8958772894E+001  +1.9279859687E-001 -1.7265001607E+002 
2511903.630 +1.3364561396E-001 +1.6892249107E+002  +3.5748931089E-002 +8.0454980711E+001  +3.7884775411E-002 -3.2842226583E+001  +1.8960034031E-001 -1.7493902684E+002 
2637048.811 +1.1454442294E-001 +1.6569230095E+002  +8.7023254871E-002 +5.8075638276E+001  +8.7041597269E-002 -5.2242590152E+001  +8.5559869692E-002 -1.1876068623E+002 
2762193.992 +1.3094483351E-001 +1.7800320095E+002  +8.4064173058E-002 +1.8610606528E+001  +7.7691353661E-002 -9.3087377407E+001  +2.1072758502E-001 -1.1168430021E+002 
2887339.174 +1.4857089117E-001 -1.7726156400E+002  +5.3146678723E-002 -1.0205902194E+001  +5.2496210471E-002 -1.1201299284E+002  +2.5988482126E-001 -1.3878703550E+002 
3012484.355 +1.5233943062E-001 -1.7690622069E+002  +7.6736284696E-002 -1.0510858510E+001  +7.8711718874E-002 -1.1170956961E+002  +2.7352682131E-001 -1.1757050790E+002 
3137629.537 +1.5035638974E-001 -1.7786011395E+002  +8.4021859253E-002 +4.8566071582E-002  +8.7845776053E-002 -9.7638397458E+001  +2.3777202910E-001 -1.0949290312E+002 
3262774.718 +1.3137614384E-001 +1.7485365561E+002  +9.1750122738E-002 +2.8728823131E+001  +8.4161377424E-002 -6.5391927777E+001  +1.6809304967E-001 -1.2048421157E+002 
3387919.900 +1.4922704198E-001 +1.6979732339E+002  +5.0109529650E-002 +5.4336103052E+001  +4.8232867178E-002 -3.4340364015E+001  +2.2783889947E-001 -1.6233451471E+002 
3513065.081 +9.6947559325E-002 +1.6326870748E+002  +2.1922247345E-001 +6.4618673073E+001  +2.1141333307E-001 -1.9988662798E+001  +3.1571694509E-001 +7.0157394091E+001 
3638210.263 +1.4521020061E-001 +1.2896169445E+002  +2.4534051357E-001 +9.7556175583E+001  +2.4066158036E-001 +1.5062451411E+001  +3.9158061313E-001 +1.0833974678E+002 
3763355.444 +1.6848405821E-001 +1.3058940027E+002  +2.3802334920E-001 +9.1614928798E+001  +2.2152863423E-001 +1.5637532992E+001  +2.7079242110E-001 +9.9141019358E+001 
3888500.626 +1.3533020019E-001 +1.4930772391E+002  +1.6340078276E-001 +7.6750378078E+001  +1.5602167927E-001 +4.3244361855E+000  +2.0597384706E-001 +1.3326560079E+002 
4013645.807 +1.9347394879E-001 +1.5176957501E+002  +1.3743646642E-001 +1.1442415757E+002  +1.3513440492E-001 +4.1621889912E+001  +4.1795641502E-001 +1.5043408558E+002 
4138790.989 +1.4562738353E-001 +1.5642099992E+002  +1.4482662971E-001 +6.5628147150E+001  +1.4810038447E-001 -1.1255143449E+000  +1.6196632254E-001 +1.4990148195E+002 
4263936.170 +1.3970869351E-001 +1.6094409274E+002  +1.7529299136E-001 +5.7046027152E+001  +1.7088231571E-001 -7.7862535939E+000  +1.3019013498E-001 +1.2263424211E+002 
4389081.352 +1.8790161285E-001 +1.4080333269E+002  +2.1427187305E-001 +1.0036609169E+002  +2.0843618144E-001 +3.8530860215E+001  +4.7131671007E-001 +1.4142573720E+002 
4514226.533 +1.6777588895E-001 +1.2535433886E+002  +3.3051620422E-001 +8.0805396864E+001  +3.1668679811E-001 +2.4680961276E+001  +4.8565794344E-001 +1.0418173680E+002 
4639371.715 +2.1451196820E-001 +1.0154211638E+002  +4.8241397116E-001 +9.1121491348E+001  +4.6448716483E-001 +3.7059334001E+001  +8.0992847773E-001 +1.1225145533E+002 
4764516.896 +2.0872412266E-001 +1.1903019983E+002  +3.5816851348E-001 +7.6643254744E+001  +3.4386102636E-001 +2.6522312336E+001  +4.0151075653E-001 +9.7355767305E+001 
4889662.078 +7.1927689910E-001 +1.5885740004E+002  +9.9602593352E-001 -1.7318420571E+002  +9.5912158872E-001 +1.3908146443E+002  +2.3217024548E+000 +1.7551193065E+002 
5014807.259 +5.1657264654E-001 +1.0944045188E+002  +9.3935068761E-001 +1.1652953370E+002  +9.1254469482E-001 +7.2440958115E+001  +1.9792786734E+000 +1.2190456765E+002 
5139952.441 +4.1294041684E-001 +1.3432708066E+002  +4.1639076283E-001 +1.3724982730E+002  +4.1276892204E-001 +9.4937980328E+001  +1.0306553930E+000 +1.5793952634E+002 
5265097.622 +3.1231877353E-001 +1.2976414537E+002  +3.5102805119E-001 +9.8591778343E+001  +3.3670008680E-001 +5.8859432625E+001  +6.6746472231E-001 +1.3760010652E+002 
5390242.804 +3.0276877633E-001 +1.3542051420E+002  +2.9598926315E-001 +9.2942739206E+001  +2.8953123761E-001 +5.5773648952E+001  +6.0153843984E-001 +1.4413899412E+002 
5515387.985 +3.5336352301E-001 +1.2786571878E+002  +4.1529007220E-001 +1.0319631167E+002  +4.0617035989E-001 +6.8893872239E+001  +9.2979786366E-001 +1.4194379289E+002 
5640533.166 +3.7750307670E-001 +1.3291641422E+002  +3.3921226055E-001 +1.0397001502E+002  +3.3468906618E-001 +7.3409191298E+001  +8.2888497850E-001 +1.5333726136E+002 
5765678.348 +3.1094222040E-001 +1.2366465654E+002  +4.7676608659E-001 +8.3223266157E+001  +4.6695374416E-001 +5.4385556506E+001  +9.5606233438E-001 +1.2969603130E+002 
5890823.529 +3.2831680893E-001 +1.1965644147E+002  +5.1400896345E-001 +7.2907993763E+001  +5.0647488124E-001 +4.7224571515E+001  +8.2654404938E-001 +1.1579861093E+002 
6015968.711 +3.5210024482E-001 +1.2198843372E+002  +5.1631465234E-001 +7.7945279333E+001  +5.0904200873E-001 +5.3919586425E+001  +1.0083198414E+000 +1.2788897956E+002 
6141113.892 +3.3267704038E-001 +1.1813047748E+002  +5.5808758898E-001 +6.6467371373E+001  +5.4874474039E-001 +4.4900778372E+001  +9.1812920554E-001 +1.1814399671E+002 
6266259.074 +4.4778387920E-001 +1.0209675938E+002  +7.2774355905E-001 +6.7434128018E+001  +7.1918832134E-001 +4.9349599825E+001  +1.0837801051E+000 +1.0983399110E+002 
6391404.255 +3.3259327831E-001 +1.1871377080E+002  +6.0594436791E-001 +5.0599600252E+001  +5.9920731765E-001 +3.4085967415E+001  +8.0350174968E-001 +1.0356445545E+002 
6516549.437 +3.0648251124E-001 +9.5959922870E+001  +7.6907932083E-001 +3.9696295077E+001  +7.6173925274E-001 +2.5737097375E+001  +8.1281242047E-001 +8.1174189490E+001 
6641694.618 +2.8399668279E-001 +9.1434945398E+001  +8.3150548065E-001 +3.1075278462E+001  +8.3202285640E-001 +1.9407631796E+001  +8.3013904006E-001 +6.3527705266E+001 
6766839.800 +2.2775969899E-001 +7.8886247454E+001  +8.4484897097E-001 +2.1623339262E+001  +8.4866417258E-001 +1.2490745513E+001  +5.9169744042E-001 +5.7929167853E+001 
6891984.981 +1.5708853039E-001 +5.3636423356E+001  +8.9559188465E-001 +1.0650975659E+001  +8.9359871663E-001 +3.4731916476E+000  +4.7649041944E-001 +2.1599699936E+001 
7017130.163 +7.9199582508E-002 +5.9655807169E+001  +8.9876836407E-001 +7.5601217633E+000  +9.0810008354E-001 +2.5601906901E+000  +5.4104915427E-001 +3.9386994259E+001 
7142275.344 +1.2774256820E-001 +2.9679488723E+001  +9.3335433897E-001 +3.7810351849E+000  +9.3049256309E-001 +4.1460418578E-001  +3.4479674593E-001 +7.5354917517E+000 
7267420.526 +1.3230480404E-001 -3.8356289635E+001  +9.5401583012E-001 -3.8690342118E-002  +9.5161424048E-001 -1.7010443052E+000  +1.4520983166E-001 +1.8662590448E+001 
7392565.707 +7.1342229976E-002 +1.1267222694E+002  +9.1741692424E-001 +3.4983258914E-001  +9.1866603721E-001 +9.6313428958E-001  +1.2425992633E-001 +2.3635391032E+001 
7517710.889 +6.4609329558E-002 +1.1034437119E+002  +9.0478199286E-001 -1.0479411165E+000  +8.9849617407E-001 +1.3077525585E+000  +7.0253942319E-002 +4.8946957194E+001 
7642856.070 +3.5175372588E-002 +9.2982186246E+001  +8.7978003309E-001 -2.2057666195E+000  +8.7983987844E-001 +1.9919228566E+000  +1.1757928936E-001 +1.1045781255E+002 
7768001.252 +1.2947765850E-001 +1.1450599684E+002  +8.2621523172E-001 -1.7403950888E+000  +8.3078608973E-001 +2.7000389287E+000  +1.8477377913E-001 +8.0037770993E+001 
7893146.433 +1.7550874074E-001 +1.0164155156E+002  +8.0351036731E-001 -2.3943252727E+000  +8.0074857626E-001 +3.1605269587E+000  +1.9593110909E-001 +1.1754687350E+002 
8018291.615 +2.5903404316E-001 +1.3662573491E+002  +7.6799720056E-001 -5.2601966589E+000  +7.6834016239E-001 +2.2452029412E+000  +1.8261543502E-001 +1.1632935878E+002 
8143436.796 +2.7250406177E-001 +1.1454407233E+002  +7.4977887786E-001 -4.0362632098E+000  +7.4487661132E-001 +4.6310851432E+000  +2.2872596320E-001 +1.1016378481E+002 
8268581.977 +2.7071717845E-001 +1.1891972312E+002  +7.3440063199E-001 -5.8753568072E+000  +7.3696194085E-001 +4.0449326354E+000  +2.5112970691E-001 +1.3567799882E+002 
8393727.159 +2.7967426524E-001 +1.3851472641E+002  +7.2769996144E-001 -6.5505321439E+000  +7.2396922577E-001 +4.4414470264E+000  +2.2636014260E-001 +1.1274630046E+002 
8518872.340 +2.2968983371E-001 +1.2810375016E+002  +7.2028063176E-001 -6.5714844092E+000  +7.2471164913E-001 +5.4448000740E+000  +2.4392202065E-001 +1.2353555341E+002 
8644017.522 +2.4637388284E-001 +1.3783017340E+002  +7.0851432121E-001 -7.2245356996E+000  +7.0342290792E-001 +5.2573175809E+000  +2.9850707840E-001 +1.1162207347E+002 
8769162.703 +2.5416575716E-001 +1.2761529899E+002  +7.0430048758E-001 -7.0541511517E+000  +6.9923003589E-001 +5.7144676450E+000  +2.5439830808E-001 +1.1919223725E+002 
8894307.885 +2.3656475757E-001 +1.3663768984E+002  +7.0500134137E-001 -8.1106166295E+000  +7.0415182436E-001 +5.5536945738E+000  +2.2102436009E-001 +1.3201585903E+002 
9019453.066 +2.6469458277E-001 +1.3309284814E+002  +6.9455840958E-001 -8.7482537323E+000  +6.8924404679E-001 +5.5954196860E+000  +2.9393279342E-001 +1.3483210560E+002 
9144598.248 +2.6593076476E-001 +1.5195210067E+002  +6.9961433733E-001 -9.4419444127E+000  +6.9400101846E-001 +5.5893838256E+000  +2.5372400935E-001 +1.2932979952E+002 
9269743.429 +2.4999915217E-001 +1.3901490708E+002  +6.8709938192E-001 -8.9500010276E+000  +6.8610939274E-001 +6.4723319690E+000  +2.5527333303E-001 +1.2851856003E+002 
9394888.611 +2.5920258672E-001 +1.3976224964E+002  +6.8761468288E-001 -9.3007740008E+000  +6.8138084554E-001 +6.5141161088E+000  +2.6058493947E-001 +1.3361056681E+002 
9520033.792 +2.1298488155E-001 +1.3665428069E+002  +6.9664831837E-001 -8.6970808228E+000  +6.9139299588E-001 +7.4480533926E+000  +2.4556012520E-001 +1.3209297026E+002 
9645178.974 +2.4203819538E-001 +1.4067538723E+002  +6.8556886228E-001 -9.0879064091E+000  +6.8167097299E-001 +6.6696589479E+000  +2.9063204151E-001 +1.3514450878E+002 
9770324.155 +2.3667130980E-001 +1.4267277576E+002  +6.8983972693E-001 -8.9836559697E+000  +6.8986614105E-001 +6.9430296514E+000  +2.4389626848E-001 +1.3422270670E+002 
9895469.337 +2.1766888248E-001 +1.4137718229E+002  +6.9080549009E-001 -9.0157979331E+000  +6.8849253942E-001 +6.9879720268E+000  +2.7792414372E-001 +1.3511974741E+002 
10020614.518 +2.4601617470E-001 +1.5065477576E+002  +6.9276700728E-001 -9.3495194097E+000  +6.8512563209E-001 +6.5727070781E+000  +2.7608631793E-001 +1.2886163136E+002 
10145759.700 +2.6392012364E-001 +1.4768824346E+002  +6.9626518090E-001 -9.7007557174E+000  +6.9231496542E-001 +6.1222078017E+000  +2.7471933871E-001 +1.4875607459E+002 
10270904.881 +2.3211872129E-001 +1.3971392231E+002  +6.9420191431E-001 -8.8658708361E+000  +6.8770492148E-001 +6.9462187241E+000  +2.7591647610E-001 +1.3407014947E+002 
10396050.063 +2.7662886297E-001 +1.3638213890E+002  +6.8810561224E-001 -8.7167899197E+000  +6.8393671349E-001 +6.9081707668E+000  +2.6667351866E-001 +1.3249117963E+002 
10521195.244 +2.4250012893E-001 +1.4167337385E+002  +6.9829146494E-001 -8.6425890327E+000  +6.9060335468E-001 +6.4274137209E+000  +2.9132053872E-001 +1.3569796814E+002 
10646340.426 +2.4480499963E-001 +1.3285956963E+002  +6.9365329546E-001 -7.5763769404E+000  +6.9108673399E-001 +7.1826002541E+000  +2.6996296636E-001 +1.2562485665E+002 
10771485.607 +2.5875827009E-001 +1.3640451571E+002  +6.9817720874E-001 -7.3745965658E+000  +6.9550153601E-001 +7.2511523038E+000  +2.3914151273E-001 +1.2483252595E+002 
10896630.788 +2.5695409281E-001 +1.3586489379E+002  +7.0254916101E-001 -7.3717350446E+000  +6.9809989750E-001 +6.7854654759E+000  +2.5839287179E-001 +1.2926798495E+002 
11021775.970 +2.5984636522E-001 +1.3296382460E+002  +7.0116348105E-001 -6.9958941983E+000  +6.9803113409E-001 +6.7983487466E+000  +2.7937718590E-001 +1.2455375430E+002 
11146921.151 +2.4000005909E-001 +1.3655233074E+002  +7.1462150491E-001 -6.7570134378E+000  +7.0714801959E-001 +6.5068104984E+000  +2.3993095083E-001 +1.2477993495E+002 
11272066.333 +2.6833079443E-001 +1.2963055771E+002  +7.1364412129E-001 -6.3489288153E+000  +7.0855120857E-001 +6.6096929354E+000  +2.4039916346E-001 +1.2483845255E+002 
11397211.514 +2.4120814183E-001 +1.2879124872E+002  +7.1551627587E-001 -5.8744890355E+000  +7.1255851763E-001 +6.4942529848E+000  +2.6414634445E-001 +1.2314266123E+002 
11522356.696 +2.2702574270E-001 +1.2526084227E+002  +7.2634139631E-001 -5.5994052143E+000  +7.2419205141E-001 +6.4223469301E+000  +2.3923574992E-001 +1.2808599778E+002 
11647501.877 +1.8803920617E-001 +1.3039074600E+002  +7.3800789116E-001 -5.2720839694E+000  +7.3184106461E-001 +6.0500619236E+000  +2.4378625549E-001 +1.2385895973E+002 
11772647.059 +2.0016415631E-001 +1.2931970959E+002  +7.4104414795E-001 -5.1584375450E+000  +7.3575878421E-001 +5.7547474996E+000  +2.4702201281E-001 +1.2385361949E+002 
11897792.240 +1.9731891848E-001 +1.2832335887E+002  +7.5061275070E-001 -4.8017479184E+000  +7.4515644043E-001 +5.4189494144E+000  +2.3190972307E-001 +1.2607544685E+002 
12022937.422 +2.1712481158E-001 +1.2454347833E+002  +7.5589978684E-001 -4.4624114991E+000  +7.4810769533E-001 +5.1629388255E+000  +2.0673211170E-001 +1.3000301560E+002 
12148082.603 +1.7204702496E-001 +1.2830825517E+002  +7.6926925748E-001 -4.2426760312E+000  +7.6507769067E-001 +4.8229609450E+000  +2.1559994055E-001 +1.3074803172E+002 
12273227.785 +1.9663917637E-001 +1.2416479832E+002  +7.6936659831E-001 -3.7054821407E+000  +7.6420949262E-001 +4.8842609658E+000  +1.9552364420E-001 +1.2142276826E+002 
12398372.966 +1.6528785337E-001 +1.2947939331E+002  +7.8360529949E-001 -3.4994355525E+000  +7.8052160285E-001 +4.4733805188E+000  +1.6982315711E-001 +1.2178815197E+002 
12523518.148 +1.5946105262E-001 +1.2640709852E+002  +7.9361871945E-001 -3.2150662737E+000  +7.8748950750E-001 +4.1293427689E+000  +1.6996289057E-001 +1.2652312144E+002 
12648663.329 +1.5107343361E-001 +1.2066291375E+002  +7.9956390746E-001 -2.7686418427E+000  +7.9387056645E-001 +4.0023862467E+000  +1.7559841937E-001 +1.2640492303E+002 
12773808.511 +1.4030405127E-001 +1.3328006156E+002  +8.1342103345E-001 -2.9806622388E+000  +8.0903725198E-001 +3.0158365326E+000  +1.5954088224E-001 +1.3245434623E+002 
12898953.692 +1.5198560338E-001 +1.2151276553E+002  +8.1373183375E-001 -2.6430162259E+000  +8.0844411412E-001 +2.7675255572E+000  +1.7018956514E-001 +1.3214027520E+002 
13024098.874 +1.1565198770E-001 +1.2213791849E+002  +8.2980158338E-001 -2.0114814866E+000  +8.2633487192E-001 +2.9657744021E+000  +1.3145556134E-001 +1.2367870927E+002 
13149244.055 +1.3177158621E-001 +1.2294298015E+002  +8.3420202539E-001 -2.2045436620E+000  +8.3268615628E-001 +2.3032759618E+000  +1.2796447605E-001 +1.3078037459E+002 
13274389.237 +1.1726785181E-001 +1.1411829367E+002  +8.4357536646E-001 -1.4901173413E+000  +8.4079984069E-001 +2.4773149503E+000  +1.0123674833E-001 +1.2763484230E+002 
13399534.418 +9.9763336622E-002 +1.2590548986E+002  +8.5646476685E-001 -1.7287859462E+000  +8.4755599966E-001 +1.1783478328E+000  +1.0697118071E-001 +1.2456979602E+002 
13524679.599 +1.0287681451E-001 +1.2450734481E+002  +8.8343571736E-001 -2.0604448846E+000  +8.6751596246E-001 +1.4670374791E+000  +8.2721221171E-002 +1.1967314223E+002 
13649824.781 +8.9002272132E-002 +1.2540260021E+002  +8.8204914134E-001 -8.8942083584E-001  +8.7364973273E-001 +9.6579091994E-001  +1.0183011145E-001 +1.2729580193E+002 
13774969.962 +7.9392653883E-002 +1.0858635631E+002  +8.8547796009E-001 -1.0333397180E+000  +8.7287260110E-001 +9.9972203438E-001  +8.0441504078E-002 +1.1920964454E+002 
13900115.144 +5.0509903751E-002 +1.2523224239E+002  +8.9863658384E-001 -1.0999276082E+000  +8.8859937750E-001 +1.0401743835E+000  +5.3316669230E-002 +1.0907883054E+002 
14025260.325 +4.9279965206E-002 +1.1548659936E+002  +9.0585578596E-001 -1.0684055197E+000  +9.0535365836E-001 -8.5426088726E-002  +5.9897054388E-002 +1.3585825843E+002 
14150405.507 +4.1194263093E-002 +8.8617097377E+001  +9.0877866376E-001 -8.1115740838E-001  +9.1950820560E-001 +1.9763863852E-001  +4.5540234705E-002 +1.2116443929E+002 
14275550.688 +3.8652052619E-002 +6.7504513229E+001  +9.1475473972E-001 -4.9375212264E-001  +9.1169637180E-001 +1.4347439953E-001  +3.7453932277E-002 +9.7398608799E+001 
14400695.870 +2.6393169699E-002 +6.5584528391E+001  +9.2336446026E-001 -8.5752041121E-001  +9.3026195078E-001 -5.0892725944E-001  +1.5410578254E-002 +9.7789457836E+001 
