!  2-Port S-parameters saved by WinCal
! VAR MeasName=S-Parameters (CALIBRATED_DATA) read from VNA (P5004A)
! VAR MeasDate=29/08/2024 14:28:43
! VAR NAME=S2_r9c7_pristine_9k-100M_2
! VAR FILENAME=S2_r9c7_pristine_9k-100M_2.S2P
! VAR DATE=29/08/2024 14:28:43
! VAR PHYS_PORTS=1,2
! VAR ObjTypeName=DATASET
! VAR IndexType=Frequency
!
# Hz S MA R 50
9000.000 +8.8636825648E-002 -1.6144315321E+002  +2.8023679736E-003 -1.1904678944E+002  +9.4173511104E-003 -1.0498818221E+002  +2.1710152470E-001 -1.4959788389E+002 
134145.181 +1.1109887977E-001 +1.6943695798E+002  +2.5656344383E-004 -7.7907506508E+001  +3.8496007539E-004 +1.5499138525E+002  +2.3807585043E-001 -1.7103324402E+002 
259290.363 +1.1178685512E-001 +1.6974002803E+002  +5.3960510374E-004 +1.4035243633E+001  +1.0658013665E-003 +1.7630648688E+002  +2.4413510416E-001 -1.6889392657E+002 
384435.544 +1.1304146078E-001 +1.7068814220E+002  +3.1255663951E-004 +8.2873965895E+001  +1.2368936540E-003 +1.1243376339E+002  +2.4411003867E-001 -1.7002476797E+002 
509580.726 +1.1279701317E-001 +1.7035982932E+002  +7.7339995884E-004 -8.2092404482E+001  +2.1098854526E-003 +1.0645936849E+002  +2.3464948322E-001 -1.6442473890E+002 
634725.907 +1.1775819798E-001 +1.7171353665E+002  +1.7756753116E-003 -2.7805588506E+001  +1.8361227031E-003 +1.3026413389E+002  +2.4195939181E-001 -1.6537052453E+002 
759871.089 +1.2078121092E-001 +1.7046070218E+002  +4.4711233799E-004 -4.7442005532E+001  +9.1286814103E-004 +7.3151948112E+001  +2.5184139539E-001 -1.6838447337E+002 
885016.270 +1.2214889031E-001 +1.6962183629E+002  +4.8932831785E-004 -4.7267302504E+001  +9.7964134226E-004 +1.7131090096E+002  +2.4408170396E-001 -1.6707249876E+002 
1010161.452 +1.1651584315E-001 +1.6950390596E+002  +2.2659731497E-003 +3.9944102693E+001  +2.7929899269E-003 -1.3351853139E+002  +2.1447700120E-001 -1.6954179013E+002 
1135306.633 +1.2045323777E-001 +1.6949195833E+002  +2.1906885748E-003 +1.6292499070E+001  +2.6969585129E-003 -1.3419876894E+002  +2.0762214735E-001 -1.6968786241E+002 
1260451.815 +1.1992459582E-001 +1.6955548893E+002  +3.7413384388E-003 +1.0081500675E+001  +4.0767423474E-003 -1.5906666460E+002  +2.3327151652E-001 -1.6376931026E+002 
1385596.996 +1.2743053543E-001 +1.7198462235E+002  +3.5926744392E-003 -4.2612471149E+001  +2.7886072037E-003 +1.7028270941E+002  +2.6932184606E-001 -1.5843583859E+002 
1510742.178 +1.2805960260E-001 +1.7177488760E+002  +2.1920498084E-003 -1.6286590467E+001  +3.2581980804E-003 -1.5550915060E+002  +2.5674931052E-001 -1.6284959549E+002 
1635887.359 +1.3070337651E-001 +1.7053853636E+002  +4.2597318142E-003 +3.7219220566E+001  +5.3146799453E-003 -1.3139151892E+002  +2.3421239845E-001 -1.5787228614E+002 
1761032.541 +1.3212895591E-001 +1.7066641493E+002  +4.6627040393E-003 +4.0037394438E+001  +4.5113695906E-003 -9.7129391221E+001  +2.3367555288E-001 -1.6051953702E+002 
1886177.722 +1.3078125870E-001 +1.6876606851E+002  +9.8908027203E-003 +7.9543880218E+001  +1.0391439205E-002 -6.7297320827E+001  +2.1760741674E-001 -1.6158193347E+002 
2011322.904 +1.3035863331E-001 +1.7022639755E+002  +1.2673819834E-002 +4.8457135655E+001  +1.4531888315E-002 -7.8809530120E+001  +2.2743459748E-001 -1.5703100581E+002 
2136468.085 +1.3098192025E-001 +1.7018926004E+002  +1.8377982720E-002 +7.5732060463E+001  +2.0089936647E-002 -5.7911556784E+001  +2.0379545247E-001 -1.6520738193E+002 
2261613.267 +1.3064109175E-001 +1.6578249971E+002  +2.2320085862E-002 +8.7824124563E+001  +2.0689631197E-002 -3.7181503232E+001  +2.2043887484E-001 -1.6493391731E+002 
2386758.448 +1.3980591634E-001 +1.6433010819E+002  +2.7512854348E-002 +1.1385518241E+002  +2.5001264343E-002 -7.8365864960E+000  +2.2080895582E-001 -1.7613017360E+002 
2511903.630 +1.3505309805E-001 +1.6142938548E+002  +4.3549017216E-002 +9.1145021334E+001  +4.1822695720E-002 -2.0948046333E+001  +1.7714683982E-001 -1.6771912862E+002 
2637048.811 +9.7918446218E-002 +1.7945507793E+002  +1.0834117547E-001 +5.6484702632E+001  +1.0884968837E-001 -5.8498732879E+001  +5.0022971312E-002 -1.7160535699E+002 
2762193.992 +1.0791970617E-001 +1.7169163108E+002  +7.5105521137E-002 +3.9366469864E+001  +7.2589494686E-002 -6.9383875158E+001  +1.8669604000E-001 -1.4015454963E+002 
2887339.174 +1.3272580944E-001 -1.7486957132E+002  +8.2568923433E-002 +1.4570177606E+001  +9.0080300124E-002 -9.1551464029E+001  +1.7091053165E-001 -1.2269138890E+002 
3012484.355 +1.5551019015E-001 +1.7980377768E+002  +5.7396373152E-002 -1.9143800298E+001  +5.5971695501E-002 -1.2306090133E+002  +3.1233728044E-001 -1.2912070603E+002 
3137629.537 +1.0777377678E-001 +1.6254107621E+002  +1.1751377029E-001 +6.1427862043E+001  +1.1385399478E-001 -3.4809757557E+001  +6.5016141559E-002 +1.7933327613E+002 
3262774.718 +1.3015063244E-001 -1.7753483039E+002  +1.0387808523E-001 +3.9153259776E+000  +1.0196802452E-001 -8.8282749242E+001  +2.7839504352E-001 -1.1099389895E+002 
3387919.900 +8.6310822595E-002 +1.7611236913E+002  +1.6008518735E-001 +3.4534456261E+001  +1.5869576831E-001 -5.2582708846E+001  +1.1662404137E-001 -7.8411383540E+001 
3513065.081 +9.5043670509E-002 +1.5432030715E+002  +1.7033163820E-001 +7.2300109362E+001  +1.7029385265E-001 -1.1565999540E+001  +1.8512589632E-001 +1.2035283058E+002 
3638210.263 +1.4447220040E-001 +1.4401525221E+002  +1.5555607480E-001 +8.9098041412E+001  +1.5782088430E-001 +5.6154344467E+000  +1.9475688884E-001 +1.3034685348E+002 
3763355.444 +1.4276478969E-001 +1.4452411555E+002  +1.6839908263E-001 +9.9727374886E+001  +1.7121971486E-001 +2.0762631310E+001  +3.6883784937E-001 +1.4004565711E+002 
3888500.626 +1.6256784353E-001 +1.4741521553E+002  +1.3777277387E-001 +1.0032468351E+002  +1.3154243498E-001 +2.4148939607E+001  +3.0867419118E-001 +1.5522414833E+002 
4013645.807 +1.5336304044E-001 +1.5938393156E+002  +1.3653950046E-001 +7.2260669285E+001  +1.3202287572E-001 -6.4085993225E-001  +1.9082481411E-001 +1.4302081021E+002 
4138790.989 +1.4239432162E-001 +1.5476719500E+002  +1.3724865706E-001 +6.5747125339E+001  +1.3683924440E-001 -2.3005084892E+000  +1.7702969606E-001 +1.6948192123E+002 
4263936.170 +1.3397914024E-001 +1.4468542483E+002  +1.7168742904E-001 +6.7868514134E+001  +1.7140086276E-001 +3.5646517758E+000  +1.7737014077E-001 +1.5870501065E+002 
4389081.352 +1.5561357544E-001 +1.4640536017E+002  +1.9194794955E-001 +8.1040313440E+001  +1.8877209984E-001 +2.0306474622E+001  +3.2784502120E-001 +1.4046502721E+002 
4514226.533 +1.3121689705E-001 +1.2841088850E+002  +3.1115036168E-001 +7.7096889178E+001  +3.2039906448E-001 +1.9017822677E+001  +4.9625572407E-001 +1.0959291140E+002 
4639371.715 +7.7710600206E-002 +5.6928179472E+001  +4.2530107867E-001 +5.4576776613E+001  +4.2005767822E-001 -2.0903043185E-001  +3.4290353034E-001 +7.8878969495E+001 
4764516.896 +2.8445617896E-001 +9.4868005692E+001  +5.6652511160E-001 +9.3225500247E+001  +5.5605729620E-001 +4.4601963305E+001  +9.1547334854E-001 +1.1362335285E+002 
4889662.078 +9.5242688076E-001 +1.2138442370E+002  +1.3860618484E+000 +1.4813407394E+002  +1.3514611422E+000 +1.0101644611E+002  +2.5342597030E+000 +1.4840821377E+002 
5014807.259 +3.4667797136E-001 +1.1818987789E+002  +5.7036538659E-001 +1.1183057972E+002  +5.6362257057E-001 +6.5015181831E+001  +1.2525039328E+000 +1.2756370477E+002 
5139952.441 +2.7787368522E-001 +1.3506463277E+002  +3.1502109792E-001 +1.0638946302E+002  +3.1373676299E-001 +6.3032922555E+001  +7.8587188464E-001 +1.4569874942E+002 
5265097.622 +2.3045360283E-001 +1.1915215679E+002  +3.4425952542E-001 +7.9049879445E+001  +3.3733359683E-001 +4.0816484090E+001  +4.9282395611E-001 +1.3925958837E+002 
5390242.804 +3.0897114224E-001 +1.3470136919E+002  +3.0112990150E-001 +9.5997053809E+001  +2.8786985455E-001 +5.9725536141E+001  +6.3772300059E-001 +1.4832836012E+002 
5515387.985 +3.3836759617E-001 +1.3988669117E+002  +2.5727357383E-001 +1.0177146354E+002  +2.5491006994E-001 +6.6960596082E+001  +6.7666611204E-001 +1.5857672463E+002 
5640533.166 +3.0693158184E-001 +1.3870593137E+002  +3.1532388290E-001 +8.1335723033E+001  +3.0935149031E-001 +5.0448241021E+001  +6.1696490878E-001 +1.3848594381E+002 
5765678.348 +3.4618212087E-001 +1.3494117280E+002  +3.5759327698E-001 +9.1664233061E+001  +3.4893096350E-001 +6.2968649121E+001  +8.4667837052E-001 +1.4547663525E+002 
5890823.529 +3.9356104497E-001 +1.2756814615E+002  +4.5150971417E-001 +9.0761483724E+001  +4.4354256633E-001 +6.3428433986E+001  +9.4641149696E-001 +1.3639562304E+002 
6015968.711 +3.9916512946E-001 +1.2182683647E+002  +5.4830705497E-001 +8.0463342706E+001  +5.4444839850E-001 +5.6411601459E+001  +1.0203318593E+000 +1.2096179283E+002 
6141113.892 +3.8546031857E-001 +1.2516296488E+002  +5.1859730061E-001 +7.5519141468E+001  +5.1035884599E-001 +5.5010326618E+001  +1.0247137147E+000 +1.2643751643E+002 
6266259.074 +3.5101696168E-001 +1.1131524950E+002  +6.0361515139E-001 +6.1952360173E+001  +5.9923201475E-001 +4.2883024396E+001  +8.9117216607E-001 +1.1693095686E+002 
6391404.255 +3.6847076024E-001 +9.4763776771E+001  +8.0720324207E-001 +5.0968515279E+001  +7.8857001320E-001 +3.5340854511E+001  +1.0185366045E+000 +8.9319110339E+001 
6516549.437 +3.3545778043E-001 +1.0996663111E+002  +6.8125767508E-001 +4.1469992192E+001  +6.7455157918E-001 +2.7072738315E+001  +6.7133507983E-001 +8.7206463053E+001 
6641694.618 +2.4860623866E-001 +8.3504729967E+001  +8.6682983083E-001 +3.0309814114E+001  +8.6949059333E-001 +1.8693364922E+001  +8.8309328117E-001 +6.7818955993E+001 
6766839.800 +1.5318671244E-001 +6.3487799981E+001  +8.7371181964E-001 +1.9175710630E+001  +8.7137193582E-001 +9.9557963537E+000  +6.0997855896E-001 +6.3040651594E+001 
6891984.981 +1.6770596182E-001 +4.9303991189E+001  +9.0656755924E-001 +1.3232613117E+001  +9.0199995375E-001 +5.4794007384E+000  +4.5207432177E-001 +4.3797200267E+001 
7017130.163 +5.0377844275E-002 +1.1893838890E+002  +8.6790415791E-001 +5.3018650099E+000  +8.6221621234E-001 +2.9645582362E-001  +3.7859005152E-001 +3.2179904045E+001 
7142275.344 +4.6137750082E-002 +1.4606044908E+002  +8.7058607828E-001 +1.3592085823E+000  +8.7226839587E-001 -1.9915128082E+000  +2.0822727595E-001 +3.3452521939E+000 
7267420.526 +4.4460503144E-002 +1.7814307463E+002  +9.2369170234E-001 +6.2845277195E-001  +9.3072196357E-001 -1.4055763750E+000  +3.4546874356E-001 +1.4310033894E+001 
7392565.707 +3.5933441153E-002 +1.2485800272E+002  +9.7178065958E-001 +2.4986326356E-001  +9.6654386062E-001 +1.1003177150E+000  +2.6490328446E-001 -2.5471463299E+001 
7517710.889 +1.4956401915E-001 +1.5143374424E+002  +9.0577034987E-001 -1.5955370328E+000  +9.0364368757E-001 +3.1856399534E-001  +6.9177613964E-002 +3.6257659316E+001 
7642856.070 +2.3052002406E-001 +1.2975344421E+002  +8.4571432482E-001 -2.0094091143E+000  +8.5120013174E-001 +1.6540648688E+000  +1.4319577113E-001 +9.1463225672E+001 
7768001.252 +1.4037736453E-001 +1.2762714927E+002  +8.4059111334E-001 -2.7259072098E+000  +8.3502309377E-001 +1.9210613065E+000  +2.1194691378E-001 +9.9788316437E+001 
7893146.433 +2.4470317299E-001 +1.2228441196E+002  +7.9496014737E-001 -3.5675716623E+000  +8.0193441288E-001 +2.7170314871E+000  +2.0674546017E-001 +1.1145080601E+002 
8018291.615 +2.7686462395E-001 +1.2399800068E+002  +7.8380430610E-001 -4.9643399121E+000  +7.8206087616E-001 +2.8545179600E+000  +1.7059932939E-001 +1.4942649939E+002 
8143436.796 +2.7524751456E-001 +1.2821203812E+002  +7.6778096665E-001 -5.2445740157E+000  +7.6823695531E-001 +3.4702359601E+000  +1.8008065858E-001 +1.3092071648E+002 
8268581.977 +2.2889799164E-001 +1.3232387850E+002  +7.5775708350E-001 -5.7732442438E+000  +7.5111126496E-001 +3.9228118028E+000  +2.3459213977E-001 +1.1998707421E+002 
8393727.159 +2.9036471113E-001 +1.1933854936E+002  +7.2820063584E-001 -5.4310116900E+000  +7.2478817119E-001 +5.1325656770E+000  +2.8844459205E-001 +1.1789020798E+002 
8518872.340 +2.6443833496E-001 +1.3490314425E+002  +7.3267540023E-001 -6.8930461049E+000  +7.2879505609E-001 +4.4971231263E+000  +2.4521891440E-001 +1.2042642275E+002 
8644017.522 +3.0546279795E-001 +1.2345959506E+002  +7.1408490099E-001 -6.1872818665E+000  +7.1261542269E-001 +6.0192379478E+000  +2.2627417647E-001 +1.1567386096E+002 
8769162.703 +2.5859344667E-001 +1.3367256530E+002  +7.1206025438E-001 -7.7992860703E+000  +7.1013813616E-001 +5.3851357610E+000  +2.9430930761E-001 +1.2696050796E+002 
8894307.885 +2.9122614130E-001 +1.3369877127E+002  +7.0250529199E-001 -7.4378989766E+000  +6.9519817268E-001 +6.1207478942E+000  +2.5987643764E-001 +1.1493413891E+002 
9019453.066 +2.5253199031E-001 +1.3233844050E+002  +6.9922164716E-001 -8.3455084535E+000  +6.9698797184E-001 +5.9560317868E+000  +3.3116791754E-001 +1.2835320254E+002 
9144598.248 +2.0667763086E-001 +1.3733948890E+002  +7.0613989256E-001 -7.8446170875E+000  +7.0017020864E-001 +6.7231658820E+000  +3.0305515732E-001 +1.2219363431E+002 
9269743.429 +2.3861583836E-001 +1.3898132411E+002  +7.0011256269E-001 -8.7254578960E+000  +6.9808085648E-001 +6.7228957894E+000  +2.6423283068E-001 +1.2701832288E+002 
9394888.611 +2.8308727566E-001 +1.3854019577E+002  +6.9882334770E-001 -9.0121919142E+000  +6.8993875081E-001 +6.2972473858E+000  +2.4475524799E-001 +1.3789945266E+002 
9520033.792 +2.4729852444E-001 +1.4603808855E+002  +7.0021797716E-001 -9.3117338842E+000  +6.9318393897E-001 +6.1953980778E+000  +2.7000053807E-001 +1.3297739091E+002 
9645178.974 +2.6755318798E-001 +1.5283180614E+002  +6.9929437899E-001 -1.0062023989E+001  +6.9696795414E-001 +5.5477378098E+000  +2.8669363750E-001 +1.3618564869E+002 
9770324.155 +2.4418338870E-001 +1.4418786065E+002  +6.9949420607E-001 -9.6506885938E+000  +6.9780919116E-001 +6.0947550758E+000  +3.0408667559E-001 +1.4161515890E+002 
9895469.337 +2.5665089949E-001 +1.4479322964E+002  +6.9855067285E-001 -9.5654576305E+000  +6.9494516235E-001 +6.4317400375E+000  +2.8852277887E-001 +1.3909755333E+002 
10020614.518 +2.1952154977E-001 +1.4314683934E+002  +7.0798646252E-001 -8.7877587690E+000  +7.0522483859E-001 +6.8584145358E+000  +2.5272294296E-001 +1.4535174259E+002 
10145759.700 +2.4117993607E-001 +1.4578057714E+002  +7.0713466833E-001 -8.7211240665E+000  +7.0429192784E-001 +6.9507165468E+000  +2.2214857078E-001 +1.3300195583E+002 
10270904.881 +2.5887491789E-001 +1.3989535223E+002  +6.9857586822E-001 -8.8639034140E+000  +6.9555683309E-001 +6.6244182515E+000  +2.8713911651E-001 +1.3535165324E+002 
10396050.063 +2.2631262206E-001 +1.3474374251E+002  +7.0356605621E-001 -8.1117784343E+000  +6.9734618073E-001 +7.2030561928E+000  +2.8241738276E-001 +1.3174665334E+002 
10521195.244 +2.4927438088E-001 +1.4321853407E+002  +7.0735178974E-001 -8.1499965835E+000  +7.0015256900E-001 +7.0923852176E+000  +2.5547982540E-001 +1.2729072711E+002 
10646340.426 +2.5276726971E-001 +1.3363698879E+002  +7.0472184242E-001 -7.7217607076E+000  +7.0178207113E-001 +7.0554510963E+000  +2.7402193245E-001 +1.3416520450E+002 
10771485.607 +2.5470363699E-001 +1.3526215437E+002  +7.0746871641E-001 -7.5345177944E+000  +7.0131155318E-001 +6.9791520287E+000  +2.7555702464E-001 +1.2678460360E+002 
10896630.788 +2.7727149756E-001 +1.3028162378E+002  +7.1208741770E-001 -7.4207152432E+000  +7.0779712178E-001 +6.9666544734E+000  +2.2552339810E-001 +1.3899252790E+002 
11021775.970 +2.4659687385E-001 +1.3404580673E+002  +7.1789505647E-001 -6.7721825818E+000  +7.1033020520E-001 +6.9297063660E+000  +2.4705291819E-001 +1.2571879073E+002 
11146921.151 +2.5212605043E-001 +1.3639342399E+002  +7.1983798115E-001 -6.7394123832E+000  +7.1401948407E-001 +6.5371890181E+000  +2.6444401232E-001 +1.2448388321E+002 
11272066.333 +2.3179201218E-001 +1.3432528885E+002  +7.2806038569E-001 -6.5831578053E+000  +7.2534577473E-001 +6.2908930032E+000  +2.7706417393E-001 +1.2955163070E+002 
11397211.514 +2.5762855242E-001 +1.2836382426E+002  +7.2703701235E-001 -5.8740227794E+000  +7.2067021109E-001 +6.4226913733E+000  +2.5845156340E-001 +1.2289225762E+002 
11522356.696 +2.4360788855E-001 +1.3055734568E+002  +7.3662856026E-001 -5.6244581000E+000  +7.3233071018E-001 +6.1935413387E+000  +2.1849566847E-001 +1.2448116246E+002 
11647501.877 +2.0889754849E-001 +1.3281260566E+002  +7.4843633622E-001 -5.1583381895E+000  +7.4285704757E-001 +5.8950321081E+000  +2.3155953551E-001 +1.2629856513E+002 
11772647.059 +2.2937496757E-001 +1.3483288252E+002  +7.5381329334E-001 -5.2183077130E+000  +7.4760750405E-001 +5.7301709175E+000  +2.1698009911E-001 +1.2434427973E+002 
11897792.240 +2.2324075485E-001 +1.2608011786E+002  +7.5089522967E-001 -4.7708193760E+000  +7.4960990009E-001 +5.4334378241E+000  +2.3895576633E-001 +1.2541912277E+002 
12022937.422 +2.0533590628E-001 +1.1948347229E+002  +7.6406294161E-001 -4.1091664351E+000  +7.5957948916E-001 +5.6441914829E+000  +2.2262915541E-001 +1.2559254346E+002 
12148082.603 +1.9426053055E-001 +1.3070148785E+002  +7.7381126570E-001 -4.2422245452E+000  +7.6927995209E-001 +4.7548762630E+000  +2.2763542341E-001 +1.2727480880E+002 
12273227.785 +1.9920943544E-001 +1.3070011723E+002  +7.8144577707E-001 -4.0538991995E+000  +7.7802061643E-001 +4.3872484248E+000  +2.0661541336E-001 +1.2649038237E+002 
12398372.966 +1.7639500795E-001 +1.3013225589E+002  +7.9617974303E-001 -3.7289350132E+000  +7.9017094858E-001 +3.9792283617E+000  +1.8527286836E-001 +1.3282995487E+002 
12523518.148 +1.6547004916E-001 +1.2614398458E+002  +7.9891219238E-001 -3.2432927380E+000  +7.9248286858E-001 +4.1619034372E+000  +1.9245415361E-001 +1.2779105248E+002 
12648663.329 +1.9341641134E-001 +1.3516412401E+002  +8.0085920130E-001 -3.4106109145E+000  +7.9322854751E-001 +3.4263237011E+000  +2.1313185968E-001 +1.1636549543E+002 
12773808.511 +1.5765859453E-001 +1.2860404993E+002  +8.1510382672E-001 -2.8645004248E+000  +8.0818861989E-001 +3.4750962176E+000  +1.8120014125E-001 +1.2234113373E+002 
12898953.692 +1.4071530471E-001 +1.2013425868E+002  +8.2796979832E-001 -2.1867763973E+000  +8.2345142196E-001 +3.5157388168E+000  +1.5157695849E-001 +1.2373113632E+002 
13024098.874 +1.4178891335E-001 +1.2380536434E+002  +8.3492526451E-001 -2.2709542821E+000  +8.2968133960E-001 +2.8271509961E+000  +1.5372298529E-001 +1.2689652007E+002 
13149244.055 +1.1863619765E-001 +1.2559772029E+002  +8.4986652018E-001 -2.0681937299E+000  +8.4454597545E-001 +2.2642066776E+000  +1.4759607632E-001 +1.3482622832E+002 
13274389.237 +1.2694530105E-001 +1.2952213434E+002  +8.5553779019E-001 -1.9691675673E+000  +8.4934781311E-001 +1.9820840896E+000  +1.2810128733E-001 +1.2779727896E+002 
13399534.418 +1.2135396992E-001 +1.2778021532E+002  +8.6522429851E-001 -1.7420361202E+000  +8.5948933382E-001 +1.8143488695E+000  +1.1021287411E-001 +1.3064944182E+002 
13524679.599 +1.0608230750E-001 +1.2758852265E+002  +8.7314053766E-001 -1.4457673020E+000  +8.6315231892E-001 +3.2284923997E-001  +9.9727937411E-002 +1.2095964079E+002 
13649824.781 +7.7835390696E-002 +1.2745342923E+002  +9.1071618032E-001 -1.2305999151E+000  +8.9637939317E-001 +1.8665694713E+000  +5.1036036511E-002 +1.3125388457E+002 
13774969.962 +8.8474582250E-002 +1.3376954756E+002  +9.0058163196E-001 -1.6152328218E+000  +8.8869482024E-001 +3.8577404771E-001  +8.9052317321E-002 +1.1864734535E+002 
13900115.144 +6.9127112590E-002 +1.1856103916E+002  +9.0059426633E-001 -1.2152540460E+000  +9.0524987172E-001 +3.6408497161E-001  +8.6560384949E-002 +1.2742538247E+002 
14025260.325 +6.0467334746E-002 +1.1308397154E+002  +9.1598235964E-001 -6.0928578412E-001  +9.1074314107E-001 +4.0957606340E-001  +6.5999206012E-002 +1.2003843944E+002 
14150405.507 +4.2770624746E-002 +9.6144184049E+001  +9.3672396855E-001 -2.4472317882E-001  +9.1903387489E-001 -3.2876407441E-001  +4.0716201318E-002 +1.1267927225E+002 
14275550.688 +1.4341044252E-002 +8.9667677995E+001  +9.4184225168E-001 -4.6433268251E-001  +9.3841024289E-001 -6.5670904085E-002  +2.7460184248E-002 +1.2845485751E+002 
14400695.870 +3.8344371569E-002 +1.1742133992E+002  +9.5546504925E-001 -1.5065963770E+000  +9.3626231630E-001 -5.8233673926E-002  +3.3568551636E-002 +9.4917608333E+001 
