!  2-Port S-parameters saved by WinCal
! VAR MeasName=S-Parameters (CALIBRATED_DATA) read from VNA (P5004A)
! VAR MeasDate=29/08/2024 10:11:26
! VAR NAME=S2_r9c1_SET1_9k-100M_2
! VAR FILENAME=S2_r9c1_SET1_9k-100M_2.S2P
! VAR DATE=29/08/2024 10:11:26
! VAR PHYS_PORTS=1,2
! VAR ObjTypeName=DATASET
! VAR IndexType=Frequency
!
# Hz S MA R 50
9000.000 +9.3495795872E-002 -1.6405082730E+002  +1.1592799888E-002 +2.8128919957E+001  +5.2317162024E-003 +8.6861625262E+001  +3.1121170608E-001 -1.5196621352E+002 
134145.181 +1.1142044566E-001 +1.6977910564E+002  +2.6218937988E-004 +1.3700416987E+002  +5.0648623026E-004 -1.6302434440E+002  +2.3744306511E-001 -1.7010819301E+002 
259290.363 +1.1180502993E-001 +1.6958262790E+002  +9.4093902075E-004 -9.9423267149E+001  +1.6634025143E-004 +4.9434380217E+001  +2.3977682206E-001 -1.6863560380E+002 
384435.544 +1.1332318163E-001 +1.6974741130E+002  +8.0236097368E-004 -6.4157276641E+001  +5.7864671693E-004 +1.2506991961E+002  +2.4891309329E-001 -1.7039173791E+002 
509580.726 +1.1432962096E-001 +1.7045340468E+002  +1.0449949863E-003 -9.2907430186E+001  +2.0019280835E-003 +1.7737509028E+002  +2.3661015819E-001 -1.6593925220E+002 
634725.907 +1.1668808238E-001 +1.7179254900E+002  +1.5343924763E-003 -1.4568273231E+002  +2.2793885294E-003 +9.2465871615E+001  +2.4116987092E-001 -1.6169668749E+002 
759871.089 +1.1912378860E-001 +1.7012027274E+002  +1.3230365745E-003 -6.5464225147E+001  +1.9096109427E-003 +1.0305915409E+002  +2.4526759583E-001 -1.6559521094E+002 
885016.270 +1.2156835814E-001 +1.6875258539E+002  +9.5876734517E-004 -6.8632278110E+001  +8.5672992836E-004 +1.6408424593E+002  +2.4762482188E-001 -1.6700257778E+002 
1010161.452 +1.1771580928E-001 +1.7131326612E+002  +2.8357730283E-003 +9.8707534190E+000  +7.4382152793E-004 +1.2555065009E+002  +2.0240610472E-001 -1.6528113416E+002 
1135306.633 +1.1415606815E-001 +1.7025120593E+002  +4.7359609189E-003 -2.2312358706E+001  +3.2617785195E-003 -1.7587755759E+002  +1.9523595247E-001 -1.6473892664E+002 
1260451.815 +1.2124780299E-001 +1.6912453247E+002  +1.0681188738E-003 +1.6652247487E+001  +2.4881794712E-003 +1.4766317653E+002  +2.0212401200E-001 -1.6214110728E+002 
1385596.996 +1.2752076098E-001 +1.7206240821E+002  +1.7520194855E-003 -7.8999505096E+001  +8.5084694796E-004 +9.7224863599E+001  +2.5904634005E-001 -1.5789563017E+002 
1510742.178 +1.2883134570E-001 +1.7201145282E+002  +4.7975697739E-004 -1.3735778112E+002  +9.0169930222E-004 -1.7246568478E+002  +2.5538351668E-001 -1.5856113106E+002 
1635887.359 +1.2878915488E-001 +1.7122225613E+002  +1.6168102872E-003 +1.4555729640E+001  +1.5917733350E-003 -1.5171365596E+002  +2.5278865621E-001 -1.4940281180E+002 
1761032.541 +1.3092026318E-001 +1.7013084646E+002  +1.5620359809E-003 -1.8074576288E+001  +2.5055687733E-003 -1.2029320925E+002  +2.4183045570E-001 -1.5746252225E+002 
1886177.722 +1.2932546242E-001 +1.6837324586E+002  +2.1432571756E-003 +3.3071399743E+001  +2.7143503670E-003 -4.8100255467E+001  +2.1448674459E-001 -1.6155461733E+002 
2011322.904 +1.3123001933E-001 +1.6823578097E+002  +3.8084210038E-003 +6.2342061003E+001  +7.2048769229E-003 -6.4921175300E+001  +2.0922289826E-001 -1.6380958114E+002 
2136468.085 +1.3189280207E-001 +1.6544708744E+002  +7.8448438300E-003 +6.2755728713E+001  +6.4316613198E-003 -6.6257106054E+001  +2.0803906191E-001 -1.5877385972E+002 
2261613.267 +1.2913592675E-001 +1.6658871863E+002  +8.3224921731E-003 +6.8651116299E+001  +1.1593491178E-002 -4.8588441548E+001  +1.9790574037E-001 -1.7125601510E+002 
2386758.448 +1.4060701067E-001 +1.6494983761E+002  +7.5418688107E-003 +7.6082502660E+001  +6.5272215832E-003 -2.5311016028E+001  +2.1489690703E-001 -1.7286644273E+002 
2511903.630 +1.2640852948E-001 +1.6507653207E+002  +2.3185214860E-002 +7.3732288340E+001  +3.2851483937E-002 -4.5239706964E+001  +1.3077116090E-001 +1.5853500793E+002 
2637048.811 +1.1836449191E-001 +1.6404007757E+002  +4.6352194322E-002 +3.8938729116E+001  +4.8625307761E-002 -7.0942594592E+001  +6.6468121740E-002 -1.0174298856E+002 
2762193.992 +1.3262056795E-001 +1.7551463884E+002  +5.8616027551E-002 -7.5335485231E+000  +4.9864842589E-002 -1.1882683801E+002  +1.6756125474E-001 -6.5948083663E+001 
2887339.174 +1.2947806124E-001 +1.7258310945E+002  +6.2039800623E-002 -4.4268165311E+001  +5.7296659057E-002 -1.5490123841E+002  +3.6302397269E-001 -9.5975925437E+001 
3012484.355 +1.2018675794E-001 +1.6785298997E+002  +4.4721995445E-002 -2.6450569374E+000  +3.2872774411E-002 -9.5281903364E+001  +1.4058304327E-001 -1.2374162112E+002 
3137629.537 +1.2971841679E-001 +1.7036275563E+002  +3.3996935345E-002 -2.1529201487E+001  +3.8732280917E-002 -1.0691851552E+002  +2.0299935870E-001 -1.1331744042E+002 
3262774.718 +1.2960393665E-001 +1.6178473128E+002  +4.8054223852E-002 +3.2585313230E+001  +4.1095329380E-002 -6.0845389759E+001  +7.0141928049E-002 -1.3920457206E+002 
3387919.900 +1.4550734607E-001 +1.5949225709E+002  +4.1236287846E-002 +2.8943534200E+001  +3.5337168457E-002 -4.7077768163E+001  +8.8542979626E-002 -1.4368779443E+002 
3513065.081 +1.2109215129E-001 +1.5693144938E+002  +1.6044144001E-001 +7.2566675478E+001  +1.4512266762E-001 -9.6152737037E-001  +8.6929631444E-001 +9.1334040210E+001 
3638210.263 +1.8244415295E-001 +1.5066167160E+002  +3.6023976407E-002 +1.1960762598E+002  +3.8647908111E-002 +4.8808787493E+001  +3.9478693983E-001 +1.5395272677E+002 
3763355.444 +1.7291327731E-001 +1.5283315170E+002  +1.1175417583E-001 +7.1782912748E+001  +9.2820561813E-002 -2.9903565257E+000  +6.4493859181E-001 +5.7027900347E+001 
3888500.626 +1.6299200989E-001 +1.4961084525E+002  +6.1365360124E-002 +8.0253459124E+001  +5.9633982645E-002 +1.1101201339E+001  +3.3257881069E-001 +1.3198226490E+002 
4013645.807 +1.7847859231E-001 +1.4724145852E+002  +6.1000918762E-002 +8.6533394938E+001  +6.7351542607E-002 +1.0347070068E+000  +2.4266043613E-001 +1.1760610120E+002 
4138790.989 +1.8427816232E-001 +1.4842604139E+002  +6.3196860856E-002 +8.8817936077E+001  +7.3764761673E-002 +1.8907408130E+001  +3.6859256295E-001 +1.2139461955E+002 
4263936.170 +1.9214525930E-001 +1.4413202452E+002  +6.5565773644E-002 +1.0220591491E+002  +5.5078657264E-002 +4.9266428782E+001  +4.6651118345E-001 +1.4903978825E+002 
4389081.352 +1.6235310872E-001 +1.4512224403E+002  +8.1196575107E-002 +7.6098567294E+001  +8.0691363600E-002 +1.1436614252E+001  +3.6478452838E-001 +1.2235057342E+002 
4514226.533 +2.4539442429E-001 +1.4092257009E+002  +1.4091397255E-001 +1.2010448417E+002  +1.2780331449E-001 +5.3123865559E+001  +9.0781141683E-001 +1.0805019946E+002 
4639371.715 +2.4131220131E-001 +1.2413520101E+002  +5.0303873242E-001 +1.0231977593E+002  +4.0421856233E-001 +4.9117037871E+001  +2.8223858491E+000 +9.3254516669E+001 
4764516.896 +3.3723064196E-001 +1.3615154448E+002  +3.5943366848E-001 -1.4620567828E+002  +3.7294652067E-001 +1.5935092979E+002  +2.2798731936E+000 +1.7899457551E+002 
4889662.078 +3.3265261735E-001 +1.2215683262E+002  +2.8565688416E-001 +1.3814390231E+002  +2.8231550449E-001 +9.0243287152E+001  +1.6233866506E+000 +1.3025076741E+002 
5014807.259 +4.2809003215E-001 +1.3420404977E+002  +4.0094303494E-001 +1.7228336102E+002  +4.5748390375E-001 +1.3789931718E+002  +2.6288983753E+000 +1.4768770847E+002 
5139952.441 +3.6656069939E-001 +1.3168807033E+002  +4.0960841200E-001 +1.5346899118E+002  +3.9344183545E-001 +1.0870413261E+002  +3.0293528918E+000 +1.3523068192E+002 
5265097.622 +3.0986237516E-001 +1.2815893075E+002  +2.5945292430E-001 +1.0495586205E+002  +2.3162949682E-001 +5.9335502309E+001  +1.6266491976E+000 +1.0525522163E+002 
5390242.804 +4.0534892417E-001 +1.2408800638E+002  +2.1635909588E-001 +1.0579354977E+002  +2.3413578193E-001 +6.7691337524E+001  +1.1471476834E+000 +1.0784939989E+002 
5515387.985 +3.6950476922E-001 +1.3282252393E+002  +2.2663355545E-001 +9.2878775481E+001  +2.1113465119E-001 +6.0663042327E+001  +1.5419799471E+000 +9.1869675239E+001 
5640533.166 +4.5889743181E-001 +1.3588638110E+002  +1.6343996279E-001 +1.2175368275E+002  +1.5353646485E-001 +9.2379285514E+001  +1.2630411967E+000 +1.2697865370E+002 
5765678.348 +4.1388566575E-001 +1.3068105431E+002  +1.8603613725E-001 +8.3945650451E+001  +1.6082414868E-001 +6.1054997859E+001  +1.1536343979E+000 +1.0051509661E+002 
5890823.529 +5.0265611503E-001 +1.1851957625E+002  +2.4834586625E-001 +8.1564599166E+001  +2.5446182341E-001 +6.3853858284E+001  +1.3303776657E+000 +9.2559308437E+001 
6015968.711 +5.9392180755E-001 +1.2848960803E+002  +2.1553633508E-001 +9.7820744376E+001  +2.2725490955E-001 +7.4836600305E+001  +1.4337630824E+000 +9.5471459706E+001 
6141113.892 +6.7834550215E-001 +1.1254057780E+002  +3.0401310571E-001 +7.7828660509E+001  +2.9254475601E-001 +5.5370329478E+001  +1.3169127532E+000 +7.0727553740E+001 
6266259.074 +5.4851782945E-001 +1.0197107320E+002  +3.7803788091E-001 +3.1784929944E+001  +3.8351563614E-001 +1.0167821551E+001  +2.1874942408E+000 +1.7098004698E+001 
6391404.255 +7.1408810941E-001 +9.0159557268E+001  +3.4323448606E-001 +3.6642229040E+001  +3.3670410281E-001 +2.1308727045E+001  +1.2205402291E+000 +2.5172353855E+001 
6516549.437 +7.2995320573E-001 +7.0435478143E+001  +3.4638488914E-001 +2.2816599048E+001  +3.3058657250E-001 +1.0560660738E+001  +9.6321225053E-001 +2.1129780006E+001 
6641694.618 +1.2305751879E+000 +6.3475518165E+001  +4.3808213162E-001 +3.0104362252E+001  +4.4041919598E-001 +1.8424744448E+001  +1.2677741800E+000 +1.8815857752E+001 
6766839.800 +1.1683835573E+000 +6.4397939742E+001  +3.7764906919E-001 +2.5545241872E+001  +3.6007496535E-001 +1.5432781653E+001  +1.1529006082E+000 +4.5276335932E+000 
6891984.981 +1.0300254433E+000 +3.9623541358E+001  +3.2630253968E-001 +9.4585609634E+000  +3.3350775931E-001 +1.7553573255E+000  +1.0962936669E+000 +5.0502042987E+000 
7017130.163 +1.3908527218E+000 +5.7033627000E+000  +3.8780983481E-001 -4.2236641666E+000  +3.7146622653E-001 -9.4440602081E+000  +1.1194254106E+000 +5.0027706925E-001 
7142275.344 +1.2431943727E+000 +1.8230481877E+001  +2.8163341780E-001 +9.1892247906E-001  +2.8879313575E-001 -6.5582934052E+000  +9.7971034198E-001 -1.0932833622E+001 
7267420.526 +1.0466219266E+000 -3.4897393389E+000  +2.5057051618E-001 -3.2568338400E+000  +2.5984532866E-001 -4.5041611955E-001  +1.0890409110E+000 -6.4433402518E+000 
7392565.707 +1.0913036988E+000 +7.0649305532E-001  +2.1896247749E-001 +4.8293629709E+000  +2.2875943718E-001 +6.3645247028E+000  +1.1568796058E+000 -1.3732141380E+001 
7517710.889 +8.7397552866E-001 -6.5626647224E+000  +2.0170281379E-001 +4.8213942464E+000  +2.0439159948E-001 +4.6999902568E+000  +1.0477630982E+000 -7.2181739725E+000 
7642856.070 +8.9359177524E-001 +6.1734593292E+000  +1.8762431636E-001 +2.9832466972E+000  +1.8596200040E-001 +8.9188641511E+000  +9.2672901962E-001 +5.7865817976E-001 
7768001.252 +7.6438663449E-001 +3.1442576407E+000  +1.7871120604E-001 -3.4104613560E-003  +1.8632042001E-001 +6.7311605910E+000  +8.4173791572E-001 -5.7885104300E+000 
7893146.433 +7.3791397641E-001 +4.2178465026E+000  +1.7377262949E-001 +5.6488236310E-001  +1.7323301896E-001 +8.3219740969E+000  +7.3643846641E-001 +5.5374890059E+000 
8018291.615 +6.4211405211E-001 +6.9483878381E+000  +1.6720836746E-001 -1.3595842036E-001  +1.6696667792E-001 +7.1093797010E+000  +6.1569932632E-001 +2.7799711677E-001 
8143436.796 +6.1985514815E-001 +1.0401682903E+001  +1.6672076243E-001 -9.2243840011E-001  +1.6202913708E-001 +7.8099766540E+000  +6.1694589911E-001 +8.8460084106E-001 
8268581.977 +6.3698276094E-001 +1.6936568556E+001  +1.5877837472E-001 -6.7267860370E-001  +1.5327717084E-001 +8.1818788191E+000  +6.0725870994E-001 +3.4685068077E+000 
8393727.159 +5.1052952813E-001 +1.4324157056E+001  +1.5573247982E-001 -4.4394148833E+000  +1.5145746069E-001 +8.9125814720E+000  +6.0467812520E-001 +5.1348158929E+000 
8518872.340 +4.8061648366E-001 +1.3669936902E+001  +1.5217761395E-001 -4.2405570997E+000  +1.5306287372E-001 +8.0437432841E+000  +5.3149006295E-001 +9.5429363222E+000 
8644017.522 +4.2480709119E-001 +9.9712075991E+000  +1.5314638947E-001 -4.8941928325E+000  +1.5230496085E-001 +1.0134295926E+001  +5.9160235479E-001 +3.2491969538E+000 
8769162.703 +4.0468265199E-001 +9.0806350645E+000  +1.5285564764E-001 -3.8561702293E+000  +1.5131290728E-001 +8.1150501129E+000  +5.2992459951E-001 +6.4133505358E+000 
8894307.885 +4.9685602164E-001 +1.4956337655E+001  +1.4660630936E-001 -2.9254610693E+000  +1.5105983122E-001 +8.6357949155E+000  +4.8081151326E-001 +1.7496907115E-001 
9019453.066 +4.2734527581E-001 +3.2767873135E+000  +1.5017665499E-001 -3.7010509686E+000  +1.5185385736E-001 +9.4717182468E+000  +4.5454957749E-001 -4.1540414581E+000 
9144598.248 +3.9329928422E-001 +1.0191723835E+001  +1.4915845637E-001 -4.2205725330E+000  +1.4808226984E-001 +8.9118233696E+000  +4.6086169532E-001 +3.0314528240E+000 
9269743.429 +4.3438533929E-001 +9.6730506678E+000  +1.4617818822E-001 -3.5069581225E+000  +1.4705928083E-001 +1.0569549799E+001  +4.7873339293E-001 +5.7132219565E+000 
9394888.611 +4.3197169525E-001 +8.4015965791E+000  +1.4848100178E-001 -3.9369054488E+000  +1.4865357598E-001 +1.1731902859E+001  +4.4632171778E-001 +1.3834951177E+000 
9520033.792 +4.1752814651E-001 +1.0221767363E+001  +1.4804731103E-001 -2.7924927913E+000  +1.4733644811E-001 +1.2016718873E+001  +4.4038326436E-001 +3.4268479528E-001 
9645178.974 +4.0965743663E-001 +4.0110671661E+000  +1.4841678996E-001 -2.8656708908E+000  +1.4871263073E-001 +1.2149714402E+001  +4.6274810095E-001 +3.6094611907E+000 
9770324.155 +3.9519433022E-001 +9.6833126189E+000  +1.4879926590E-001 -4.1978638100E+000  +1.4909938170E-001 +1.1996871512E+001  +4.0619108643E-001 -8.2313950434E+000 
9895469.337 +3.7582485404E-001 +3.8775505673E+000  +1.4974276332E-001 -4.8651916328E+000  +1.4910839766E-001 +1.2829644094E+001  +4.3292813419E-001 -2.8614804846E+000 
10020614.518 +4.2254008975E-001 +8.9807822295E+000  +1.5235745340E-001 -4.0377525777E+000  +1.5329857639E-001 +1.0995691359E+001  +4.4429092892E-001 -2.3364723198E+000 
10145759.700 +3.8683742459E-001 +9.3562307008E+000  +1.5264203062E-001 -3.2981971873E+000  +1.4966389377E-001 +1.2050308256E+001  +4.1182702251E-001 -2.0985455362E+000 
10270904.881 +4.0535110612E-001 +8.1774728815E+000  +1.5247598263E-001 -3.8701157632E+000  +1.4985056812E-001 +1.2102878842E+001  +4.3409326507E-001 -4.4925531890E+000 
10396050.063 +4.2145260342E-001 +3.3078280948E+000  +1.5199277750E-001 -2.3700945790E+000  +1.5453463368E-001 +1.2397973070E+001  +4.3098161195E-001 -2.3258896384E-002 
10521195.244 +3.8143001202E-001 +6.9034657125E+000  +1.5431809183E-001 -3.0009666681E+000  +1.5262750386E-001 +1.1575567619E+001  +4.2095214740E-001 +7.2881385245E+000 
10646340.426 +4.1370519814E-001 +1.6582058470E+001  +1.5290052702E-001 -2.5348953823E+000  +1.4983687805E-001 +1.1199661766E+001  +3.9513068280E-001 +1.9292807672E+000 
10771485.607 +4.4404492378E-001 +1.2297449377E+001  +1.5370280332E-001 -1.5979956810E+000  +1.5523949015E-001 +1.3078869415E+001  +4.6242964146E-001 +4.7080487832E+000 
10896630.788 +4.3435483527E-001 +1.1969014361E+001  +1.5617370817E-001 -2.4755533792E+000  +1.5629378215E-001 +1.1811123021E+001  +4.1987856807E-001 +1.8860973284E+000 
11021775.970 +4.3942103423E-001 +1.0754034535E+001  +1.5764227968E-001 -7.5122477402E-001  +1.5486608408E-001 +1.1003130620E+001  +4.5635829749E-001 +6.5017282007E+000 
11146921.151 +4.2695167147E-001 +1.3100589182E+001  +1.5882963752E-001 -1.4793253307E+000  +1.5399451437E-001 +1.2039257244E+001  +4.8078676499E-001 +3.4725730367E+000 
11272066.333 +4.4341668986E-001 +1.0514817885E+001  +1.6037957573E-001 +1.5841028786E-001  +1.5864742019E-001 +1.2733908686E+001  +4.8960203250E-001 +7.4695734844E+000 
11397211.514 +4.4080612660E-001 +7.3216712033E+000  +1.6146629245E-001 -4.4339316166E-001  +1.6049532246E-001 +1.1197240205E+001  +4.5457557995E-001 +5.1306142655E+000 
11522356.696 +4.4658393299E-001 +1.0104215346E+001  +1.6176955627E-001 -5.1123266654E-001  +1.6155922707E-001 +1.2698349667E+001  +5.0132989016E-001 +7.9587723640E+000 
11647501.877 +4.7992084281E-001 +9.1101601106E+000  +1.6371414367E-001 +4.2355790418E-001  +1.6382531382E-001 +1.2376356062E+001  +5.0348695045E-001 +5.5979593181E+000 
11772647.059 +4.8392873221E-001 +1.0837051161E+001  +1.6714072073E-001 +5.8161204383E-001  +1.6426291263E-001 +1.0744800919E+001  +4.8659035140E-001 +3.9432275395E+000 
11897792.240 +4.7010373896E-001 +8.7543842836E+000  +1.6687829569E-001 +1.0512405922E-001  +1.6735891129E-001 +1.0119515485E+001  +5.0283444100E-001 +3.4727361241E+000 
12022937.422 +5.1368367869E-001 +9.1507197351E+000  +1.7038939890E-001 +1.0160770435E+000  +1.6871722735E-001 +1.0606663327E+001  +5.0437988295E-001 +4.1316893639E+000 
12148082.603 +5.2263092707E-001 +6.4965417951E+000  +1.7234695492E-001 +9.4717151316E-001  +1.7003564530E-001 +1.1047755229E+001  +5.5149719212E-001 +4.5787798420E+000 
12273227.785 +5.3201265390E-001 +7.0063421286E+000  +1.7418404053E-001 +1.3910868523E+000  +1.7159638285E-001 +9.6222235836E+000  +5.2336628027E-001 +1.9944221747E+000 
12398372.966 +5.4929480709E-001 +4.3334392809E+000  +1.7505007960E-001 +1.1431272763E+000  +1.7560525957E-001 +9.9254694312E+000  +5.6244468066E-001 +2.1203566409E+000 
12523518.148 +5.7573075911E-001 +4.6152096197E+000  +1.7616909019E-001 +1.6336819174E+000  +1.7658238305E-001 +9.1385504575E+000  +5.4005968398E-001 +1.4252048771E+000 
12648663.329 +5.4672557423E-001 +4.7144143406E+000  +1.7919771221E-001 +1.7876584335E+000  +1.7980578668E-001 +8.7231632065E+000  +5.8108646523E-001 +1.4996404163E+000 
12773808.511 +5.6426658084E-001 +1.3468119468E+000  +1.8336036684E-001 +1.6737353365E+000  +1.7897551464E-001 +7.4657522958E+000  +5.6760202996E-001 +2.0666165351E+000 
12898953.692 +5.7425089382E-001 +3.2467575366E+000  +1.8271618247E-001 +1.9296545644E+000  +1.8256116984E-001 +7.0256294744E+000  +6.0852679734E-001 +8.2934689600E-001 
13024098.874 +6.0762901066E-001 +1.0827286908E+000  +1.8530049429E-001 +2.3237267543E+000  +1.8261557175E-001 +7.2827586049E+000  +6.2119237469E-001 +9.6418659238E-001 
13149244.055 +6.1065716539E-001 +2.6810778407E-001  +1.8760341876E-001 +2.3904036940E+000  +1.8553436860E-001 +7.2272962355E+000  +6.4813148640E-001 -1.2005359166E+000 
13274389.237 +6.2966171047E-001 +7.2663221931E-001  +1.8913731593E-001 +1.5017079385E+000  +1.8513918838E-001 +6.0845534185E+000  +6.2441192144E-001 -3.9557965846E-001 
13399534.418 +6.5930156574E-001 -8.6130321043E-001  +1.8993096479E-001 +2.5952505792E+000  +1.8972746409E-001 +5.2014458473E+000  +6.6249704534E-001 -2.5361553781E+000 
13524679.599 +6.6065354031E-001 -2.1927658310E+000  +1.9029596326E-001 +1.9558613130E+000  +1.9001205088E-001 +5.2587063800E+000  +6.6347514647E-001 -1.1496836406E+000 
13649824.781 +6.6848724789E-001 -1.8269353337E+000  +1.9467368790E-001 +1.5502943528E+000  +1.8968520121E-001 +4.4329197535E+000  +6.8856310164E-001 -2.4527966636E+000 
13774969.962 +6.9941049912E-001 -3.4796606575E+000  +1.9622828905E-001 +2.0803655832E+000  +1.9260382313E-001 +4.6715429781E+000  +7.0461340181E-001 -2.6354317871E+000 
13900115.144 +7.1878592384E-001 -5.1047552969E+000  +1.9877821679E-001 +2.2141400372E+000  +1.9568314219E-001 +3.3774627358E+000  +7.1144547520E-001 -3.3757829880E+000 
14025260.325 +7.4443428400E-001 -3.0154146200E+000  +1.9711179926E-001 +2.4829469351E+000  +1.9455307271E-001 +3.7797602222E+000  +7.5142169813E-001 -3.0580560270E+000 
14150405.507 +7.4233419392E-001 -5.0653822788E+000  +1.9907586876E-001 +1.9610341691E+000  +1.9624257014E-001 +3.1540308812E+000  +7.6084647472E-001 -2.1008171776E+000 
14275550.688 +7.7415224045E-001 -3.9883436513E+000  +1.9995749592E-001 +2.3562389999E+000  +1.9547689263E-001 +2.9161360321E+000  +7.8229112423E-001 -4.6871418198E+000 
14400695.870 +7.8474471804E-001 -4.9544385320E+000  +2.0002669248E-001 +1.6497428762E+000  +1.9831161037E-001 +2.2315613853E+000  +7.8059582066E-001 -4.7517822933E+000 
