!  2-Port S-parameters saved by WinCal
! VAR MeasName=S-Parameters (CALIBRATED_DATA) read from VNA (P5004A)
! VAR MeasDate=28/08/2024 16:54:05
! VAR NAME=S2_r9c9_SET1_9k-100M_2
! VAR FILENAME=S2_r9c9_SET1_9k-100M_2.S2P
! VAR DATE=28/08/2024 16:54:05
! VAR PHYS_PORTS=1,2
! VAR ObjTypeName=DATASET
! VAR IndexType=Frequency
!
# Hz S MA R 50
9000.000 +9.9697967345E-002 -1.6935376565E+002  +3.4587083944E-003 -8.4966851363E+001  +9.0253359646E-004 -8.8573243762E+001  +2.0600330267E-001 -1.4482063818E+002 
134145.181 +1.1182578678E-001 +1.6992543056E+002  +3.2792400527E-004 -8.4576546773E+001  +1.9722860128E-004 -6.1885920461E+001  +2.3841986979E-001 -1.7193406907E+002 
259290.363 +1.1083972853E-001 +1.7022962160E+002  +7.1508148804E-004 -1.2081284812E+002  +2.5927315683E-004 +1.7316615333E+002  +2.3340414631E-001 -1.6901696477E+002 
384435.544 +1.1303268831E-001 +1.6983010780E+002  +8.2380434129E-004 -7.1731548160E+001  +8.9565237237E-004 +1.2116702639E+002  +2.4635184968E-001 -1.6966123132E+002 
509580.726 +1.1359522398E-001 +1.6999953714E+002  +4.6470288456E-004 -3.3602057845E+001  +1.5100757629E-003 +8.6630145101E+001  +2.4345025540E-001 -1.6805194850E+002 
634725.907 +1.1512561037E-001 +1.7142424543E+002  +1.9452004495E-003 -4.0675659451E+001  +9.6521105095E-004 +1.5343517134E+002  +2.4272749685E-001 -1.6625703440E+002 
759871.089 +1.2079078454E-001 +1.7061908268E+002  +9.8971997160E-004 -8.3974586141E+001  +1.0517344931E-003 +9.4595001711E+001  +2.4867782086E-001 -1.6765746990E+002 
885016.270 +1.1976591948E-001 +1.6926361731E+002  +5.6417073794E-004 -6.9851584872E+001  +1.2300710007E-003 +1.3744611851E+002  +2.4234858536E-001 -1.6594677639E+002 
1010161.452 +1.1392275378E-001 +1.7107518238E+002  +1.5524648953E-003 +2.6002691552E+001  +2.3769446857E-003 +1.7745131316E+002  +2.2382141635E-001 -1.6767611265E+002 
1135306.633 +1.1776144236E-001 +1.6995873908E+002  +1.1198426278E-003 +1.9594190112E+001  +2.4944964637E-003 -1.3023720919E+002  +2.1992199655E-001 -1.6546556524E+002 
1260451.815 +1.2059561756E-001 +1.7053492433E+002  +6.2626884136E-003 -5.3259618245E+001  +9.4992111047E-003 +1.2302920196E+002  +2.2386062769E-001 -1.4797491234E+002 
1385596.996 +1.2259227980E-001 +1.7336041881E+002  +2.5625798142E-003 -8.6506766944E+001  +3.2448951924E-003 +1.5119388431E+002  +2.5518271344E-001 -1.5885731932E+002 
1510742.178 +1.2890996703E-001 +1.7077066567E+002  +5.0882599655E-004 -7.9531778805E+001  +1.4836898464E-003 +1.2310419358E+002  +2.5864517013E-001 -1.5989729034E+002 
1635887.359 +1.3102656940E-001 +1.7096959143E+002  +7.3771915287E-004 +3.8836065792E+001  +1.6745133578E-003 -1.3932108397E+002  +2.4125922948E-001 -1.6004993992E+002 
1761032.541 +1.2865679798E-001 +1.6929270246E+002  +2.0855514393E-003 +2.2180951083E+001  +2.4407211192E-003 -7.1312715422E+001  +2.3841308827E-001 -1.6273467957E+002 
1886177.722 +1.3019538627E-001 +1.6802483888E+002  +6.7615631847E-003 +4.5248264519E+001  +5.7112677851E-003 -6.9564006989E+001  +2.1588701214E-001 -1.5868011523E+002 
2011322.904 +1.2873408298E-001 +1.6797183870E+002  +1.1929361492E-002 +5.7560833174E+001  +1.6929482723E-002 -7.7731131333E+001  +1.5451298821E-001 -1.4481851814E+002 
2136468.085 +1.3325541751E-001 +1.6702871457E+002  +1.0034388482E-002 +7.2257177027E+001  +1.2147341621E-002 -4.5544940779E+001  +1.9340715704E-001 -1.6543608245E+002 
2261613.267 +1.3746800123E-001 +1.6916368085E+002  +1.3146826479E-002 +6.5112321976E+001  +1.4915781125E-002 -4.6054152667E+001  +1.9262259798E-001 -1.7596180490E+002 
2386758.448 +1.3235074641E-001 +1.6674847301E+002  +1.6145353155E-002 +7.9904844886E+001  +1.7887397893E-002 -4.2820398883E+001  +2.0053478302E-001 -1.7245511044E+002 
2511903.630 +1.3304438858E-001 +1.6929502866E+002  +1.9304728849E-002 +8.3392657107E+001  +2.0992961062E-002 -3.6623224045E+001  +2.2832152203E-001 +1.7809077868E+002 
2637048.811 +1.3572502423E-001 +1.6442962068E+002  +3.2133793772E-002 +8.5753667940E+001  +3.0774231569E-002 -3.5303058655E+001  +1.7521789583E-001 +1.7149653732E+002 
2762193.992 +1.2632751506E-001 +1.6629015527E+002  +7.3422218519E-002 +3.9714726396E+001  +7.3344180266E-002 -6.7984256827E+001  +9.4887454589E-002 -3.4857867850E+001 
2887339.174 +1.4654756730E-001 +1.7559820517E+002  +3.9206593777E-002 -7.0992751746E-001  +3.7085512567E-002 -1.1193265258E+002  +1.1892315030E-001 -1.2919146924E+002 
3012484.355 +1.2164826900E-001 +1.7184187874E+002  +6.6904986080E-002 +4.6529694313E+001  +7.4669578623E-002 -4.9791307921E+001  +1.3397358219E-001 +1.2346140587E+002 
3137629.537 +1.3179842739E-001 +1.7533555570E+002  +5.3257365386E-002 -9.5614046821E+000  +6.4661969968E-002 -9.7153333184E+001  +1.7420912188E-001 -1.1649845548E+002 
3262774.718 +1.4215636183E-001 +1.7965900530E+002  +6.6766183048E-002 -2.2403269975E+001  +6.6158552787E-002 -1.0941649895E+002  +2.0819943420E-001 -1.0166427582E+002 
3387919.900 +1.3920052701E-001 +1.6427291759E+002  +5.4272642569E-002 +3.8362008327E+001  +5.5132807000E-002 -5.1529208824E+001  +9.9524645820E-002 -1.6693961962E+002 
3513065.081 +1.3936992864E-001 +1.5376414896E+002  +8.1548312559E-002 +6.4124829409E+001  +8.8787875476E-002 -1.4985320626E+001  +1.4086908727E-001 +1.1060139733E+002 
3638210.263 +1.6648987059E-001 +1.5087742270E+002  +6.4756368863E-002 +9.7393599532E+001  +7.0199569661E-002 +2.4311908442E+001  +2.9554397160E-001 +1.4846418471E+002 
3763355.444 +1.5155606782E-001 +1.5491142482E+002  +8.5413614367E-002 +9.5129708942E+001  +8.6555937876E-002 +1.2669156882E+001  +3.8596585882E-001 +1.3204798147E+002 
3888500.626 +1.8464221220E-001 +1.5641606058E+002  +7.4496087334E-002 +1.0544947689E+002  +7.0838488147E-002 +3.4198964481E+001  +4.1185377284E-001 +1.3615847746E+002 
4013645.807 +1.6723651587E-001 +1.5598347840E+002  +8.6626356277E-002 +6.8180856531E+001  +8.2768639179E-002 -4.6426825084E-001  +2.2580797199E-001 +1.2101917894E+002 
4138790.989 +1.7585923776E-001 +1.5426151561E+002  +6.4359483707E-002 +9.9058506120E+001  +6.6314591840E-002 +3.2650954663E+001  +4.1883054013E-001 +1.5607027646E+002 
4263936.170 +1.7000115328E-001 +1.3795493133E+002  +1.2140130918E-001 +9.5774756610E+001  +1.0712340560E-001 +3.0496093904E+001  +4.0886926370E-001 +1.4205358861E+002 
4389081.352 +1.7275991213E-001 +1.5552411356E+002  +7.9097267904E-002 +7.6666689001E+001  +7.7735042577E-002 +1.6936906334E+001  +3.5946247318E-001 +1.4954102820E+002 
4514226.533 +1.8508308953E-001 +1.3602974918E+002  +1.9573183295E-001 +1.0029337298E+002  +1.7857546860E-001 +4.4725249891E+001  +7.3245671777E-001 +1.2755417426E+002 
4639371.715 +2.4692044680E-001 +1.3826623714E+002  +1.7352720149E-001 +1.0463090088E+002  +1.7980350366E-001 +5.1845028586E+001  +6.5885933712E-001 +1.1650970049E+002 
4764516.896 +2.4342056032E-001 +1.2140832886E+002  +3.3770567718E-001 +1.0612935295E+002  +3.2797253018E-001 +5.6488392356E+001  +1.2046446282E+000 +1.1757003284E+002 
4889662.078 +6.7769130495E-001 +8.0229368318E+001  +1.5959780591E+000 +8.3569091093E+001  +1.5353936808E+000 +4.0371555852E+001  +4.2864788585E+000 +6.6261208353E+001 
5014807.259 +4.3332225420E-001 +1.3612228057E+002  +4.0342735576E-001 +1.7503346244E+002  +3.8665478854E-001 +1.2732513116E+002  +1.5315690209E+000 +1.5655594703E+002 
5139952.441 +3.3539812216E-001 +1.3278952729E+002  +2.7438554884E-001 +1.1424721950E+002  +2.7436967349E-001 +7.2316525274E+001  +1.0983535293E+000 +1.1975873688E+002 
5265097.622 +4.3588228013E-001 +1.2475093651E+002  +4.3560371004E-001 +1.1369340494E+002  +4.0848321020E-001 +7.7289997956E+001  +1.4027031270E+000 +1.0784191336E+002 
5390242.804 +3.6399078788E-001 +1.3032173103E+002  +2.3923171250E-001 +1.0953970430E+002  +2.3294547863E-001 +7.3191294632E+001  +9.5181828279E-001 +1.2657555228E+002 
5515387.985 +3.7645670816E-001 +1.2859166216E+002  +2.3693985102E-001 +1.0318679531E+002  +2.2393861850E-001 +7.3358216356E+001  +9.0223689543E-001 +1.3080615609E+002 
5640533.166 +4.3551056802E-001 +1.3620651611E+002  +2.3107129466E-001 +1.0590249721E+002  +2.2548810576E-001 +7.6317952549E+001  +1.0471184563E+000 +1.1523721388E+002 
5765678.348 +4.3178658874E-001 +1.2848906458E+002  +3.1839467943E-001 +9.6210525264E+001  +3.1106763120E-001 +6.6978692044E+001  +1.3373241616E+000 +1.0684309757E+002 
5890823.529 +4.0972298047E-001 +1.2825972194E+002  +2.9388604577E-001 +8.1210325004E+001  +2.7843455531E-001 +5.6902584770E+001  +1.1442163527E+000 +1.0235882027E+002 
6015968.711 +4.7646989931E-001 +1.1418296097E+002  +3.3478518430E-001 +7.8275989680E+001  +3.2866872560E-001 +5.5610733698E+001  +1.0026503599E+000 +1.0415291014E+002 
6141113.892 +5.3924867775E-001 +1.0456560174E+002  +4.9241147555E-001 +6.7142408791E+001  +4.7345310921E-001 +4.5540933989E+001  +1.4077834205E+000 +7.5088308939E+001 
6266259.074 +5.5200123964E-001 +9.8570715383E+001  +4.9638745307E-001 +4.4034292000E+001  +5.0698585808E-001 +2.6011806549E+001  +1.3111132194E+000 +3.8196075241E+001 
6391404.255 +4.9538072726E-001 +8.5292566904E+001  +6.0579146811E-001 +3.4203076041E+001  +5.7677718591E-001 +1.9098167268E+001  +1.7276794164E+000 +4.1024960253E+001 
6516549.437 +8.7927495078E-001 +7.8717329997E+001  +6.7381104318E-001 +4.6916139088E+001  +6.4769993985E-001 +3.2916495744E+001  +1.5160193866E+000 +4.7834079387E+001 
6641694.618 +8.1589204480E-001 +7.9628120969E+001  +5.1300950376E-001 +3.2196353708E+001  +5.1886939118E-001 +2.2845055741E+001  +1.1745283589E+000 +2.7752029654E+001 
6766839.800 +7.0384618587E-001 +5.2545773823E+001  +5.1353881310E-001 +1.2336251352E+001  +5.0887396631E-001 +5.0779146379E+000  +1.0062843577E+000 +8.8589875486E+000 
6891984.981 +9.4480311696E-001 +3.2501357462E+001  +5.8034329668E-001 +9.6372479939E+000  +5.5601726410E-001 +3.8136831234E+000  +1.0369689590E+000 +1.5383530910E+001 
7017130.163 +6.0089227432E-001 +1.9903075471E+001  +4.5264913751E-001 -2.3992711533E+000  +4.4843040705E-001 -8.3227321084E+000  +9.0257735679E-001 -5.5484280851E+000 
7142275.344 +7.8046968535E-001 +1.3348449115E+001  +4.3808177436E-001 +1.5103764379E+000  +4.4100093181E-001 -3.2161163680E+000  +8.3986475658E-001 -3.0247421928E+000 
7267420.526 +9.3720978787E-001 -4.9299235730E-001  +4.1455488847E-001 -2.3075775092E-001  +4.2325506518E-001 -2.1875828875E+000  +8.1565847604E-001 -5.7908615279E+000 
7392565.707 +8.7534278723E-001 -7.1753970927E+000  +3.8187485152E-001 +2.5100296936E+000  +3.7188022185E-001 +3.1255243720E+000  +9.0723088416E-001 -4.3896846035E+000 
7517710.889 +7.1310369473E-001 -3.3739959847E+000  +3.3585170192E-001 -7.4083586336E-003  +3.4101135849E-001 +2.9582795125E+000  +7.5521478675E-001 -4.2989212072E+000 
7642856.070 +6.2719535475E-001 +7.5632973794E+000  +3.1248568220E-001 +2.0653558651E+000  +3.1672352031E-001 +6.7885579268E+000  +7.1259358729E-001 +6.7169483838E-001 
7768001.252 +5.7988031146E-001 +1.2067571638E+001  +3.0669542979E-001 +1.0995471015E+000  +3.0536270830E-001 +7.2631822009E+000  +7.7231767990E-001 -5.7810723836E+000 
7893146.433 +5.5485510538E-001 +1.5063957538E+001  +2.9847087357E-001 -7.5222567340E-002  +2.9225099479E-001 +7.1118405234E+000  +6.6005652234E-001 -3.1229786099E+000 
8018291.615 +4.7224011617E-001 +6.2852762985E+000  +2.8413588888E-001 -3.1090935601E+000  +2.7602156469E-001 +6.1437557937E+000  +5.9659737186E-001 +8.7921757148E+000 
8143436.796 +4.6675383033E-001 +1.3394453772E+001  +2.7760313777E-001 -2.4194475988E+000  +2.7392547785E-001 +5.6814873537E+000  +4.6675128054E-001 +1.1720343200E+001 
8268581.977 +4.3798277823E-001 +1.3637946665E+001  +2.7623443975E-001 -2.8358280862E+000  +2.6685470204E-001 +6.9466104410E+000  +4.9727505911E-001 +1.1444185474E+001 
8393727.159 +3.9629178690E-001 +2.0590842000E+001  +2.7007157950E-001 -3.6142168426E+000  +2.6610689492E-001 +6.2537925422E+000  +4.0746992091E-001 +5.2267267530E+000 
8518872.340 +3.9642645318E-001 +2.4715484616E+001  +2.5713053853E-001 -4.5714898364E+000  +2.5499705872E-001 +8.4723245290E+000  +4.4640474081E-001 +1.3341267274E+001 
8644017.522 +4.1186551678E-001 +1.3907881063E+001  +2.6498204158E-001 -4.4911964886E+000  +2.6252377057E-001 +7.6449726888E+000  +3.7704477762E-001 +1.4637756454E+001 
8769162.703 +3.1530574642E-001 +2.2023311197E+001  +2.5645546136E-001 -6.1461997974E+000  +2.5509168291E-001 +8.5095180416E+000  +4.2954661229E-001 +1.3197740744E+001 
8894307.885 +3.8210593549E-001 +2.6766590233E+001  +2.5123885516E-001 -5.1234611421E+000  +2.4974949741E-001 +8.9420946946E+000  +4.1028059980E-001 +1.1530964510E+001 
9019453.066 +3.4713492325E-001 +8.7540099132E+000  +2.5692403623E-001 -5.1791876383E+000  +2.5280726071E-001 +8.9846655062E+000  +3.6291717659E-001 +3.3515194510E+000 
9144598.248 +3.4318225425E-001 +1.8465561120E+001  +2.5130197750E-001 -5.0189623635E+000  +2.4818995739E-001 +9.9593049548E+000  +3.7449617544E-001 +1.4898901419E+001 
9269743.429 +3.0770780238E-001 +1.6055292694E+001  +2.5588518877E-001 -6.2262579510E+000  +2.5366976301E-001 +9.1937239619E+000  +3.2307162254E-001 -3.0601209646E+000 
9394888.611 +2.7472522713E-001 +1.5237133673E+001  +2.5482932414E-001 -6.2867630314E+000  +2.5032985284E-001 +9.0705205644E+000  +3.2404675896E-001 +9.1090472620E+000 
9520033.792 +2.6345504682E-001 +1.1958981195E+001  +2.5573540609E-001 -5.8109159738E+000  +2.4827417145E-001 +9.5145229596E+000  +3.2016475558E-001 +2.8365457668E+000 
9645178.974 +2.5569253264E-001 +6.9665229605E+000  +2.5436278128E-001 -5.8566868655E+000  +2.4941082290E-001 +1.0668862805E+001  +3.4525163948E-001 +6.8276805384E+000 
9770324.155 +2.4798439827E-001 +6.2222396372E+000  +2.5665905785E-001 -5.6568479799E+000  +2.5336337352E-001 +9.4160918730E+000  +3.2733819249E-001 -1.4694137936E-001 
9895469.337 +2.4733990245E-001 +1.6590026592E+001  +2.5123943399E-001 -5.7185819909E+000  +2.4987362006E-001 +1.0492999858E+001  +2.9985319272E-001 +1.8403164159E+000 
10020614.518 +2.9333699317E-001 +1.4662852962E+001  +2.5541454607E-001 -5.2842306353E+000  +2.5459526121E-001 +1.0417512591E+001  +2.8575716830E-001 -2.3680805291E+000 
10145759.700 +2.9379973798E-001 +1.4750065258E+001  +2.5605404327E-001 -4.5558778572E+000  +2.5366667030E-001 +1.1329385187E+001  +3.2196282688E-001 +8.5722851130E+000 
10270904.881 +2.9465681031E-001 +1.9253386956E+001  +2.5496864746E-001 -4.1477929565E+000  +2.5395521624E-001 +1.0902733960E+001  +2.8474108462E-001 +8.0973668295E+000 
10396050.063 +2.3728684247E-001 +2.1763251778E+001  +2.5410405083E-001 -5.2068295454E+000  +2.5042082099E-001 +1.0550056221E+001  +3.0981996431E-001 +1.1774229230E+001 
10521195.244 +3.1005298812E-001 +1.6562087423E+001  +2.5749250520E-001 -3.8945255834E+000  +2.5787790881E-001 +1.1707861516E+001  +3.3672631560E-001 +8.0596619607E+000 
10646340.426 +3.0925932316E-001 +2.3053851866E+001  +2.5965078327E-001 -3.3019115060E+000  +2.5380355943E-001 +1.1201330614E+001  +3.2133734421E-001 +1.7682362004E+001 
10771485.607 +2.9646567395E-001 +1.6362410507E+001  +2.5822110616E-001 -3.0876966028E+000  +2.5777025811E-001 +1.1235323955E+001  +3.5987803799E-001 +1.5605056174E+001 
10896630.788 +3.0527573845E-001 +2.3580164380E+001  +2.5702542407E-001 -3.3656367310E+000  +2.5701750354E-001 +1.1295885837E+001  +3.3556729618E-001 +1.5186171446E+001 
11021775.970 +3.5615326396E-001 +1.6215997494E+001  +2.6421730790E-001 -2.6057081803E+000  +2.6128863000E-001 +1.1637406358E+001  +3.2413972762E-001 +1.6343484061E+001 
11146921.151 +3.3660846114E-001 +2.1259873788E+001  +2.6554822784E-001 -2.2775799355E+000  +2.6516435207E-001 +1.0627428825E+001  +3.3424680134E-001 +1.1817887898E+001 
11272066.333 +3.4292294188E-001 +1.5896613138E+001  +2.6723888164E-001 -1.9439972495E+000  +2.6770477356E-001 +1.1459767047E+001  +3.5421546955E-001 +1.5387085256E+001 
11397211.514 +3.4399867817E-001 +1.5327550819E+001  +2.7016516079E-001 -1.9120843051E+000  +2.6601073643E-001 +1.0646305507E+001  +3.4322027406E-001 +1.3872302789E+001 
11522356.696 +3.3735230798E-001 +1.8758358420E+001  +2.7430476988E-001 -2.0569516178E+000  +2.7289950403E-001 +1.0083275940E+001  +3.2165607563E-001 +8.3943053668E+000 
11647501.877 +3.7963806164E-001 +1.1494800468E+001  +2.7589324906E-001 -7.2994754196E-001  +2.7354869632E-001 +1.0384823304E+001  +3.7916936617E-001 +1.5573736283E+001 
11772647.059 +3.6873134236E-001 +1.4514958542E+001  +2.7607123956E-001 -4.2063547897E-001  +2.7368317043E-001 +1.0422355038E+001  +4.1182989209E-001 +1.3099146354E+001 
11897792.240 +3.7307054739E-001 +1.2984658236E+001  +2.8290471541E-001 -2.5366907787E-001  +2.7984090290E-001 +1.0240848970E+001  +4.2642773317E-001 +8.8928957482E+000 
12022937.422 +3.7434374217E-001 +1.4328552333E+001  +2.8421232846E-001 -3.7407267092E-001  +2.8472764920E-001 +9.6232903349E+000  +4.0966906281E-001 +5.2203233893E+000 
12148082.603 +4.0130068981E-001 +9.3237053029E+000  +2.9276793911E-001 +3.3994201816E-001  +2.8943921266E-001 +8.9695502553E+000  +3.9519420160E-001 +7.2575785042E+000 
12273227.785 +4.0646296564E-001 +6.8672614959E+000  +2.9193701830E-001 +4.1891684367E-001  +2.9281516759E-001 +8.9359751642E+000  +4.2076770365E-001 +6.3106535048E+000 
12398372.966 +4.1119185785E-001 +1.1469114658E+001  +2.9415483217E-001 +3.3559925428E-001  +2.8838031893E-001 +8.2031601422E+000  +4.3355569591E-001 +9.6318640423E+000 
12523518.148 +4.2757206495E-001 +7.9111972151E+000  +2.9901897205E-001 +1.1601469909E+000  +2.9282669735E-001 +8.3657365489E+000  +4.3922426034E-001 +6.4061584634E+000 
12648663.329 +4.3019196758E-001 +7.6752830827E+000  +2.9975852198E-001 +6.9967034155E-001  +2.9674837108E-001 +7.4699013787E+000  +4.4483311478E-001 +7.7311262275E+000 
12773808.511 +4.5578229258E-001 +7.1575791490E+000  +3.0343172903E-001 +1.0319376271E+000  +3.0147306603E-001 +7.1008814842E+000  +4.2866128522E-001 +4.5427726655E+000 
12898953.692 +4.4934880527E-001 +4.6559983610E+000  +3.0776171145E-001 +1.2185573436E+000  +3.0330151543E-001 +7.0065770559E+000  +4.7376123135E-001 +3.8287381973E+000 
13024098.874 +4.7442886590E-001 +5.4348128355E+000  +3.1099065678E-001 +1.2272848350E+000  +3.0764158053E-001 +6.4804290236E+000  +4.6140622942E-001 +1.5119098727E+000 
13149244.055 +4.8779420803E-001 +2.5200449601E-002  +3.1562705492E-001 +1.7402218866E+000  +3.1275868154E-001 +5.8305963343E+000  +4.9046127114E-001 +1.6891597107E+000 
13274389.237 +4.9954968539E-001 +3.2044591983E+000  +3.1936244768E-001 +1.4838629055E+000  +3.1501901215E-001 +5.3807121878E+000  +4.8018289351E-001 -6.0466878881E-001 
13399534.418 +5.0598892065E-001 +9.4122521314E-001  +3.2005330683E-001 +1.4981365014E+000  +3.1491116000E-001 +5.1923917404E+000  +5.1278491208E-001 +3.0183924621E+000 
13524679.599 +5.1204636941E-001 +9.3282950501E-001  +3.2203344235E-001 +1.5573264129E+000  +3.1897291833E-001 +4.3087521366E+000  +5.1887042453E-001 +1.0305865209E+000 
13649824.781 +5.3559841211E-001 -1.4885132348E+000  +3.2674582467E-001 +1.8804887681E+000  +3.2560068728E-001 +4.4630811799E+000  +5.5407949760E-001 -4.2721783682E-001 
13774969.962 +5.6665091451E-001 -7.5610648454E-001  +3.2821453021E-001 +2.0222787397E+000  +3.2433825499E-001 +4.0740721951E+000  +5.5191031334E-001 -9.5623753672E-001 
13900115.144 +5.5659235783E-001 -1.9988940501E+000  +3.3111903287E-001 +1.4916589732E+000  +3.2670948750E-001 +3.2728646050E+000  +5.6375300352E-001 +3.6419406902E-002 
14025260.325 +5.7289652597E-001 -3.8746726852E+000  +3.3382119741E-001 +1.3622245153E+000  +3.3042684326E-001 +2.6527181064E+000  +5.7661115968E-001 -2.3232898272E+000 
14150405.507 +5.9931641430E-001 -2.3111462088E+000  +3.3538632915E-001 +1.6788579622E+000  +3.3132044840E-001 +2.9259825936E+000  +6.1766357288E-001 -2.7973464316E+000 
14275550.688 +5.9729217281E-001 -4.9771345568E+000  +3.4089544776E-001 +1.2596194288E+000  +3.3398726010E-001 +2.0481961436E+000  +6.3662246774E-001 -4.1820345132E+000 
14400695.870 +6.3645516120E-001 -4.2527750622E+000  +3.3835646207E-001 +1.1477568151E+000  +3.3537132126E-001 +1.6184465175E+000  +6.1681974583E-001 -3.4462644031E+000 
