!  2-Port S-parameters saved by WinCal
! VAR MeasName=S-Parameters (CALIBRATED_DATA) read from VNA (P5004A)
! VAR MeasDate=29/08/2024 10:11:35
! VAR NAME=S2_r9c1_SET1_9k-100M_3
! VAR FILENAME=S2_r9c1_SET1_9k-100M_3.S2P
! VAR DATE=29/08/2024 10:11:35
! VAR PHYS_PORTS=1,2
! VAR ObjTypeName=DATASET
! VAR IndexType=Frequency
!
# Hz S MA R 50
9000.000 +9.7035781593E-002 -1.6868640335E+002  +7.3468908491E-003 +1.7241012067E+002  +1.3766539270E-002 +1.0258279058E+001  +2.7720184514E-001 -1.4973943365E+002 
134145.181 +1.1061599492E-001 +1.6960602472E+002  +2.7487970115E-004 +9.0116768932E+001  +2.2365605656E-004 -1.7164323732E+002  +2.4162507107E-001 -1.7071139735E+002 
259290.363 +1.1297950127E-001 +1.6963496714E+002  +3.1018376646E-004 -6.6208841888E+001  +6.6613432619E-004 -1.7272787976E+002  +2.4414230931E-001 -1.7080004057E+002 
384435.544 +1.1344442549E-001 +1.7056916837E+002  +8.5593357019E-004 -1.0192965106E+002  +2.0334647958E-003 +1.0859072362E+002  +2.4566253555E-001 -1.6828658559E+002 
509580.726 +1.1473048701E-001 +1.7118540161E+002  +3.4644496018E-004 -9.4419585295E+001  +2.2065009024E-003 +3.2462606943E+001  +2.6349731394E-001 -1.6782614605E+002 
634725.907 +1.1630599251E-001 +1.7143616901E+002  +8.3172092218E-004 -1.0758992926E+002  +1.4741130684E-003 +9.5253044712E+001  +2.4695221151E-001 -1.6719000860E+002 
759871.089 +1.2016905771E-001 +1.6996399949E+002  +6.0388231398E-004 -7.5295418207E+001  +7.6108894913E-004 +2.1847862430E+001  +2.5039478869E-001 -1.6618975978E+002 
885016.270 +1.1964142806E-001 +1.6825625966E+002  +4.4619619844E-004 -7.0500741748E+001  +5.8907432957E-004 +6.3200969620E+001  +2.4501704401E-001 -1.6667313118E+002 
1010161.452 +1.1921750891E-001 +1.6979528008E+002  +1.8120826695E-003 +5.7449355052E+000  +1.2345331732E-003 -1.4916354122E+002  +2.1397397112E-001 -1.7036690679E+002 
1135306.633 +1.1808064527E-001 +1.6822266068E+002  +2.1183428245E-003 -3.7984063799E+001  +9.9883900697E-004 -1.4650565127E+002  +1.9103991032E-001 -1.6927688773E+002 
1260451.815 +1.1687799504E-001 +1.6954452657E+002  +4.4261254903E-003 -4.3911808189E+001  +2.5920634061E-003 -1.7818723566E+002  +1.9856874242E-001 -1.5617470952E+002 
1385596.996 +1.2329523855E-001 +1.7184079289E+002  +1.6128782328E-003 -1.1631030129E+002  +1.2254376536E-003 +1.0690223804E+002  +2.5699662631E-001 -1.5728297552E+002 
1510742.178 +1.2842952908E-001 +1.7196898183E+002  +1.8027126794E-003 -1.0060212678E+002  +3.2236131720E-003 +1.3334077334E+002  +2.6331639526E-001 -1.5727550167E+002 
1635887.359 +1.2886062007E-001 +1.7125632718E+002  +2.5094115440E-003 -8.4077168688E+001  +1.1252481805E-003 -9.8319136198E+001  +2.4128112617E-001 -1.5716723708E+002 
1761032.541 +1.2904062326E-001 +1.6995463575E+002  +2.4778947553E-003 +1.4643901411E+001  +3.1781898894E-003 -1.0245907054E+002  +2.3285551823E-001 -1.5930126010E+002 
1886177.722 +1.3308972913E-001 +1.6786603140E+002  +2.4141615156E-003 +9.7909554906E+001  +1.0501494659E-003 -5.5642188444E+001  +2.2237341427E-001 -1.6893508596E+002 
2011322.904 +1.3292720326E-001 +1.6917831159E+002  +3.9254471451E-003 +6.8787937471E+001  +5.0730024182E-003 -8.6379158556E+001  +1.9382612739E-001 -1.6206885843E+002 
2136468.085 +1.3172165874E-001 +1.6792933087E+002  +1.1068093974E-002 +6.4541824221E+001  +1.3829326457E-002 -5.2270120547E+001  +1.3689682477E-001 -1.7776233567E+002 
2261613.267 +1.3145673693E-001 +1.6670851034E+002  +9.6475120236E-003 +4.7822259546E+001  +8.9348224157E-003 -5.9954118036E+001  +1.9471581059E-001 -1.6448043331E+002 
2386758.448 +1.3507180567E-001 +1.6528363175E+002  +6.1327323050E-003 +7.1739462534E+001  +6.7220493940E-003 -6.5955770680E+001  +2.2204306102E-001 -1.6645610598E+002 
2511903.630 +1.4050890367E-001 +1.6314017379E+002  +1.5315788779E-002 +9.5998014386E+001  +1.4300938661E-002 -1.3375965197E+001  +2.1478117158E-001 +1.7296908944E+002 
2637048.811 +1.2950416206E-001 +1.5736471868E+002  +3.7263187887E-002 +5.7864199154E+001  +3.4076074843E-002 -5.6341024850E+001  +1.1822568760E-001 -1.4405145470E+002 
2762193.992 +1.2182303652E-001 +1.7580475364E+002  +4.4161309109E-002 -3.7748101713E+000  +6.0131209298E-002 -1.2843222067E+002  +1.7060236912E-001 -9.5064784306E+001 
2887339.174 +1.4457535652E-001 +1.6719939178E+002  +9.1970838303E-002 -1.3868379711E+002  +8.7013258087E-002 +1.1854455543E+002  +1.0433916493E+000 -1.4172996988E+002 
3012484.355 +1.2829130867E-001 +1.6972155471E+002  +3.9365001738E-002 -1.3908221548E+001  +3.9093602024E-002 -1.0540608761E+002  +1.8550125839E-001 -8.5949961794E+001 
3137629.537 +1.3335899894E-001 +1.7659707171E+002  +5.9276239061E-002 +1.1506018045E+001  +4.6912774630E-002 -8.1155370142E+001  +7.8313687193E-002 +6.2083336909E+001 
3262774.718 +1.3926984023E-001 +1.6787027745E+002  +4.1439287802E-002 +2.6065451106E+001  +3.9855431682E-002 -8.0529086125E+001  +5.8192801101E-002 -8.5737190125E+001 
3387919.900 +1.3511121877E-001 +1.6117976135E+002  +5.0601522127E-002 +7.6305549690E+001  +5.6552004802E-002 -1.3582302447E+000  +3.2627217286E-001 +1.3181697190E+002 
3513065.081 +1.4005354191E-001 +1.5533679400E+002  +7.4556076110E-002 +6.7272072252E+001  +6.1473301472E-002 -2.2924077482E+001  +2.4070730317E-001 +9.0164617121E+001 
3638210.263 +1.5411166405E-001 +1.5195267658E+002  +5.7532149698E-002 +9.1612386786E+001  +6.1653690777E-002 -1.3091594937E+001  +2.4499671070E-001 +1.2372560357E+002 
3763355.444 +1.5284416059E-001 +1.4760700932E+002  +7.8845305299E-002 +9.6976229606E+001  +8.3108733642E-002 +2.4771575155E+001  +4.8766335639E-001 +1.2552911653E+002 
3888500.626 +1.5520480465E-001 +1.5800378948E+002  +6.2888049676E-002 +6.2604455481E+001  +5.5806361325E-002 -6.7682215995E+000  +2.7489121852E-001 +1.1363734465E+002 
4013645.807 +1.6199412617E-001 +1.4689815948E+002  +9.3634440517E-002 +7.7071427804E+001  +9.8697450001E-002 +1.7153137461E+001  +5.1039159973E-001 +1.0619090604E+002 
4138790.989 +1.8408889668E-001 +1.4788289407E+002  +8.2460499143E-002 +8.2932940600E+001  +8.1622705827E-002 +1.1851011987E+001  +3.7594902139E-001 +1.0183076961E+002 
4263936.170 +1.8411263618E-001 +1.4379124119E+002  +8.2485630465E-002 +9.7269348604E+001  +8.3042062569E-002 +3.3027614336E+001  +4.8911716544E-001 +1.2937934268E+002 
4389081.352 +1.6097680674E-001 +1.4043590894E+002  +8.9224251769E-002 +9.1356346365E+001  +8.6080889001E-002 +3.0019473261E+001  +4.6307145526E-001 +1.3371941661E+002 
4514226.533 +1.9517979388E-001 +1.3246963422E+002  +1.8674783598E-001 +9.5645812199E+001  +2.2118761102E-001 +3.8339562745E+001  +1.1162284754E+000 +1.0084236857E+002 
4639371.715 +2.7519836657E-001 +1.3656923939E+002  +2.1609602594E-001 +1.0798702383E+002  +1.9192275807E-001 +6.1026736562E+001  +1.2902157243E+000 +1.0022019512E+002 
4764516.896 +3.9900362636E-001 +1.4565990892E+002  +7.6382038533E-001 +1.6318623242E+002  +6.8103614982E-001 +1.1586370774E+002  +5.3722227992E+000 +1.2181461471E+002 
4889662.078 +5.5420512160E-001 +1.1293069333E+002  +1.0867341147E+000 +1.0904112798E+002  +9.9373341479E-001 +6.0925968694E+001  +4.6388598510E+000 +7.4894973739E+001 
5014807.259 +3.5608659165E-001 +1.3264516937E+002  +3.0211728962E-001 +1.0952225966E+002  +3.0892772784E-001 +6.4643663957E+001  +1.7953599834E+000 +8.4864886124E+001 
5139952.441 +6.7035845603E-001 +1.1443875792E+002  +1.1920606939E+000 +1.0151193062E+002  +1.1135401051E+000 +6.5534929815E+001  +4.8852295413E+000 +6.6593039313E+001 
5265097.622 +3.4093172071E-001 +1.3449246624E+002  +2.1529061810E-001 +8.8481649043E+001  +2.1177525390E-001 +5.2112389770E+001  +1.2680372030E+000 +7.9898976852E+001 
5390242.804 +3.5434732905E-001 +1.3299126216E+002  +1.6319960694E-001 +9.2069758904E+001  +1.5663179872E-001 +5.0966915223E+001  +9.4227973257E-001 +9.3305200609E+001 
5515387.985 +4.0038509221E-001 +1.2084688191E+002  +2.2315930424E-001 +9.2817967457E+001  +2.1501198548E-001 +6.0060534971E+001  +1.0343800746E+000 +9.8382076976E+001 
5640533.166 +4.1870417528E-001 +1.2633315109E+002  +2.0076028353E-001 +1.0239173811E+002  +1.9805659059E-001 +5.9747103923E+001  +1.1912520595E+000 +1.0585574912E+002 
5765678.348 +4.7123460327E-001 +1.3165044564E+002  +2.2410024455E-001 +1.1417088754E+002  +2.3215702311E-001 +8.5697643857E+001  +1.7814778907E+000 +1.1397542955E+002 
5890823.529 +4.6874213655E-001 +1.2422533467E+002  +2.8188386865E-001 +6.6687138691E+001  +2.6060858345E-001 +4.1936828805E+001  +1.6600181631E+000 +5.8625824699E+001 
6015968.711 +5.1582296033E-001 +1.1877062709E+002  +2.6654199093E-001 +7.2338722168E+001  +2.4447790134E-001 +4.0974608102E+001  +1.3996181271E+000 +6.1531649297E+001 
6141113.892 +4.8929089043E-001 +1.0814072306E+002  +2.7991179905E-001 +3.6657019700E+001  +2.5716981333E-001 +1.9750900862E+001  +1.2490304698E+000 +2.3604491637E+001 
6266259.074 +6.3596045979E-001 +1.0381500752E+002  +3.1859856638E-001 +4.3224169957E+001  +3.2776790684E-001 +2.6289661404E+001  +1.7024983661E+000 +2.9588288370E+001 
6391404.255 +1.0066295825E+000 +9.3844590059E+001  +3.5380385396E-001 +4.8356540097E+001  +3.4258598648E-001 +3.2569677333E+001  +8.7694280402E-001 +1.9787784345E+001 
6516549.437 +9.3898857246E-001 +8.0467161727E+001  +3.8771107938E-001 +3.4172258435E+001  +3.5685605429E-001 +2.0462071760E+001  +1.2486855722E+000 +1.4434968930E+001 
6641694.618 +9.2332460731E-001 +6.6136067146E+001  +3.5506491023E-001 +2.6308058783E+001  +3.5761193733E-001 +1.1567168743E+001  +1.1465668197E+000 +1.3443892218E+001 
6766839.800 +1.3390992132E+000 +3.3976075822E+001  +4.6082528161E-001 +9.4865545235E+000  +4.3796526468E-001 +3.4957373226E+000  +1.1775897166E+000 +8.9409582669E+000 
6891984.981 +1.3432026597E+000 +3.6708369270E+001  +3.8776792955E-001 +1.2006093779E+001  +3.8079695444E-001 +5.1119674272E+000  +1.0371937421E+000 +2.2316194063E+000 
7017130.163 +8.8654178344E-001 +2.1580395116E+001  +2.9654789400E-001 -2.2401034994E+000  +2.8468676462E-001 -5.6167189732E+000  +9.4084057927E-001 -6.0538433501E+000 
7142275.344 +1.0783221009E+000 -7.4774913160E+000  +3.0670434094E-001 -7.5437864540E+000  +2.7980671802E-001 -1.0352974050E+001  +1.1775846201E+000 -9.8831950373E+000 
7267420.526 +1.1481272138E+000 +1.4631851452E+001  +2.5367798530E-001 +1.8216293936E+000  +2.5678982643E-001 +5.2401941893E+000  +1.0862691385E+000 -9.7922608480E+000 
7392565.707 +9.7795665740E-001 -3.9509657723E+000  +2.1454142497E-001 +4.8999176531E+000  +2.1263343281E-001 +3.6102393852E+000  +1.0548044950E+000 -8.0950049541E+000 
7517710.889 +1.0446553455E+000 +5.4825406266E-001  +2.0690845350E-001 +3.2693744207E+000  +2.0915604584E-001 +7.0092299847E+000  +1.0111978030E+000 -7.3453237291E+000 
7642856.070 +7.8609429695E-001 +8.0782049679E-001  +1.9889139773E-001 +3.2936077960E+000  +1.9277030936E-001 +8.8777895342E+000  +9.0953390682E-001 -3.6079910637E+000 
7768001.252 +8.4398066907E-001 +1.0669846125E+001  +1.8221732918E-001 +2.5481153063E+000  +1.7951234363E-001 +6.3107774383E+000  +8.0549930589E-001 -4.0703915425E+000 
7893146.433 +6.4456433927E-001 +3.4039869175E+000  +1.7315696382E-001 -9.1542505129E-001  +1.6954366679E-001 +5.2947089092E+000  +7.5079715288E-001 +1.1968317958E+000 
8018291.615 +6.2326943469E-001 +9.6038571862E-001  +1.6906833768E-001 -2.4179882349E+000  +1.6861699001E-001 +7.1198080440E+000  +6.6856044380E-001 +2.1624768175E+000 
8143436.796 +5.4376770833E-001 +4.4035044019E+000  +1.6253710058E-001 -4.4432337610E+000  +1.6071465171E-001 +5.0501016078E+000  +6.1450349727E-001 +8.5408933639E+000 
8268581.977 +5.3398579877E-001 +1.6555181587E+001  +1.5399878437E-001 -1.2616619241E+000  +1.5269187650E-001 +9.4001233947E+000  +6.9429212617E-001 +3.3150385522E-001 
8393727.159 +5.2594837569E-001 +1.9852224463E+001  +1.5389205237E-001 -1.9565379010E+000  +1.5424803908E-001 +9.8561263589E+000  +6.0773915520E-001 +5.5360521759E+000 
8518872.340 +4.5300727688E-001 +2.0285346171E+001  +1.5198179915E-001 -5.1399987862E+000  +1.5052439540E-001 +6.8698275002E+000  +5.5105178426E-001 +4.0829367536E+000 
8644017.522 +4.2037659714E-001 +1.8804841879E+001  +1.4954361596E-001 -2.9901227580E+000  +1.4899792737E-001 +7.5941103630E+000  +5.5519274477E-001 +2.4983320672E+000 
8769162.703 +4.5821083894E-001 +1.3436444465E+001  +1.4914908396E-001 -3.4857530688E+000  +1.5494684332E-001 +8.2254100249E+000  +5.3943946228E-001 -4.3526204155E+000 
8894307.885 +5.1018277962E-001 +9.4622900194E+000  +1.5551307833E-001 -2.2699102985E+000  +1.5352191021E-001 +1.1001245187E+001  +5.4964827623E-001 -3.1444505874E+000 
9019453.066 +3.9408304354E-001 +5.1293939100E+000  +1.4699692355E-001 -4.7027676258E+000  +1.4817815888E-001 +9.9042900534E+000  +4.7628746717E-001 +5.0086220632E+000 
9144598.248 +4.2832626713E-001 +1.0426065601E+001  +1.4938730328E-001 -4.1034777147E+000  +1.4696350163E-001 +9.3579656698E+000  +4.5629262078E-001 +7.4572481967E+000 
9269743.429 +4.2944218520E-001 +7.5839068222E+000  +1.5093174476E-001 -4.5753639142E+000  +1.4692707059E-001 +1.0272388721E+001  +4.8375815066E-001 +7.2960181311E+000 
9394888.611 +4.0211880828E-001 +1.3148219188E+001  +1.4935492064E-001 -4.5518231734E+000  +1.4917221708E-001 +9.5857285476E+000  +4.4668280500E-001 -7.2883535881E+000 
9520033.792 +4.1414301777E-001 +3.0414898659E+000  +1.4803131245E-001 -5.0632960050E+000  +1.4761666943E-001 +1.1983149143E+001  +4.3472073380E-001 -2.9420429731E-001 
9645178.974 +3.9823453942E-001 +2.3747259463E-001  +1.5222359701E-001 -4.0190182966E+000  +1.5086070724E-001 +1.0015794215E+001  +4.2901743131E-001 +9.8105867675E-001 
9770324.155 +3.9407931230E-001 +1.4334031113E+001  +1.4796413401E-001 -3.3398227852E+000  +1.4707606970E-001 +1.1605237672E+001  +4.0415932945E-001 -7.7994111807E+000 
9895469.337 +3.3423826313E-001 -2.9770768643E+000  +1.5356317295E-001 -5.5643516283E+000  +1.5117325646E-001 +1.0751684675E+001  +4.0787447017E-001 -3.6596336914E-001 
10020614.518 +4.2143550275E-001 +4.8285965688E+000  +1.5156279340E-001 -4.6117288748E+000  +1.5350433492E-001 +1.1974077543E+001  +3.9622150566E-001 -1.4064899945E+000 
10145759.700 +4.1461100540E-001 -2.8473309678E-001  +1.5332107335E-001 -3.2408161043E+000  +1.4941490409E-001 +1.2259296122E+001  +4.3172754050E-001 -1.7735317586E-001 
10270904.881 +4.2038203242E-001 +2.7965118060E+000  +1.5050861521E-001 -2.6650217829E+000  +1.5293234819E-001 +1.2638740854E+001  +4.3851597712E-001 +5.4628428300E+000 
10396050.063 +4.1988332813E-001 +1.0473564659E+001  +1.5246251980E-001 -2.2196019387E+000  +1.5391771559E-001 +1.3317664984E+001  +4.5496991178E-001 +1.8775476202E-001 
10521195.244 +4.2450425854E-001 +9.7583048976E+000  +1.5379320634E-001 -3.1475252196E+000  +1.5104551329E-001 +1.2540947232E+001  +4.3056991448E-001 +3.8912714518E+000 
10646340.426 +4.5567648172E-001 +7.7768363946E+000  +1.5784489604E-001 -2.5874644738E+000  +1.5279981552E-001 +1.3041440662E+001  +4.4502601154E-001 -7.7585715324E-001 
10771485.607 +4.1669389877E-001 +1.3100614038E+001  +1.5434085658E-001 -1.8797185277E+000  +1.5224015456E-001 +1.2386787089E+001  +4.4592146353E-001 +2.8518898236E+000 
10896630.788 +4.4321616250E-001 +1.2877502311E+001  +1.5525446570E-001 -1.6572026820E+000  +1.5397075696E-001 +1.3657259261E+001  +4.6834532357E-001 +5.7482263427E+000 
11021775.970 +4.7699694073E-001 +1.0595318879E+001  +1.5732308428E-001 -8.9305655233E-001  +1.5884943556E-001 +1.2866790385E+001  +4.6537100275E-001 +4.6715948886E+000 
11146921.151 +4.3524004807E-001 +9.6832377328E+000  +1.5901012235E-001 -1.9394192133E+000  +1.5870350562E-001 +1.1871210615E+001  +4.4425399940E-001 +6.0909542499E+000 
11272066.333 +4.3851233116E-001 +6.0014969627E+000  +1.6077568891E-001 -4.8266786383E-001  +1.5923828410E-001 +1.2542150317E+001  +4.8021005125E-001 +6.7882027362E+000 
11397211.514 +4.5886032806E-001 +8.1422517847E+000  +1.6066529081E-001 -9.8650849986E-001  +1.6133652106E-001 +1.1867545012E+001  +4.7847972610E-001 +6.5636480242E+000 
11522356.696 +4.5223164865E-001 +9.5121323911E+000  +1.6336394137E-001 +1.5189202234E-001  +1.6012492441E-001 +1.1782594359E+001  +5.0235886155E-001 +6.0293029308E+000 
11647501.877 +4.9160339144E-001 +6.9983415464E+000  +1.6565926788E-001 +9.5994408914E-001  +1.6750962558E-001 +1.1125502682E+001  +4.7708615146E-001 +3.8639421060E+000 
11772647.059 +4.8136886995E-001 +6.8385231964E+000  +1.6905389141E-001 +1.4571270167E+000  +1.6592709473E-001 +1.1601499081E+001  +5.0780109559E-001 +1.5715776826E+000 
11897792.240 +4.9087546343E-001 +7.9116153444E+000  +1.6934704863E-001 +1.0009118804E+000  +1.6669150004E-001 +1.0558261262E+001  +5.2351529418E-001 +4.0399112982E+000 
12022937.422 +5.1228131171E-001 +8.2619065397E+000  +1.7074288097E-001 +8.4285388033E-001  +1.7016491942E-001 +1.0835777857E+001  +5.1927350246E-001 +4.4371674898E+000 
12148082.603 +5.1314416865E-001 +7.1796334291E+000  +1.7340305968E-001 +8.5918216342E-001  +1.7155647325E-001 +9.8425307309E+000  +5.2675661319E-001 +6.0487897083E-001 
12273227.785 +5.2040316261E-001 +5.1809435981E+000  +1.7425980495E-001 +1.5885691985E+000  +1.7264712228E-001 +1.0016434602E+001  +5.4094605288E-001 +3.2373104106E+000 
12398372.966 +5.3654196346E-001 +4.4165810641E+000  +1.7570543086E-001 +1.0565830471E+000  +1.7530128269E-001 +9.3587659257E+000  +5.4161611157E-001 +2.7205350564E+000 
12523518.148 +5.5095882556E-001 +4.6753289435E+000  +1.8001652646E-001 +2.6466660797E+000  +1.7777376736E-001 +8.3960017135E+000  +5.6919253353E-001 +6.2054811767E-001 
12648663.329 +5.6679637922E-001 +3.3342772637E+000  +1.7844643662E-001 +2.0988160778E+000  +1.7897327359E-001 +8.2837104263E+000  +5.8303099687E-001 +1.9141131143E+000 
12773808.511 +5.7182530194E-001 +3.7576528328E+000  +1.8130486595E-001 +2.1275831999E+000  +1.8037477454E-001 +7.8703166057E+000  +5.7732178389E-001 -1.0570341471E+000 
12898953.692 +5.8269561283E-001 +2.5894409080E+000  +1.8236196728E-001 +1.4996008474E+000  +1.8253510071E-001 +7.0962757577E+000  +5.7240459750E-001 +1.9491843630E-001 
13024098.874 +5.7795361427E-001 +1.6084687828E+000  +1.8542298434E-001 +1.7537749937E+000  +1.8301017152E-001 +6.5768905506E+000  +6.1656017893E-001 -1.9078761375E+000 
13149244.055 +6.3152392328E-001 +8.3059027066E-001  +1.8816188727E-001 +2.4114786392E+000  +1.8562853278E-001 +7.3673232549E+000  +6.2669662509E-001 +2.0854332349E-001 
13274389.237 +6.1811408547E-001 +9.9080480645E-001  +1.8839478508E-001 +2.5357661275E+000  +1.8664271264E-001 +6.5907118623E+000  +6.5021453190E-001 -1.6626321292E+000 
13399534.418 +6.6499385243E-001 +1.5986482276E+000  +1.8977713466E-001 +2.8791172698E+000  +1.8739617297E-001 +6.1132589241E+000  +6.5850563502E-001 -1.3512574908E+000 
13524679.599 +6.5410463314E-001 -8.0485025149E-001  +1.9332268728E-001 +2.5089820447E+000  +1.9064435068E-001 +4.8024453946E+000  +6.9025343690E-001 -2.5211110311E+000 
13649824.781 +6.9168855875E-001 -1.4696555568E+000  +1.9441672001E-001 +2.1217845102E+000  +1.9141384112E-001 +4.9236344561E+000  +6.8437966321E-001 -1.2543464196E+000 
13774969.962 +7.0095005026E-001 -2.1252849017E+000  +1.9489885044E-001 +2.1585057037E+000  +1.9311442642E-001 +5.1808361929E+000  +7.2202045155E-001 -2.6027175112E+000 
13900115.144 +7.1902179816E-001 -9.2851998009E-001  +1.9558933453E-001 +2.0435754049E+000  +1.9309971976E-001 +3.8203410448E+000  +7.2867530718E-001 -3.9638373203E+000 
14025260.325 +7.2202218443E-001 -4.5371153488E+000  +2.0002255025E-001 +2.2668166772E+000  +1.9667799616E-001 +3.5804516212E+000  +7.5681359346E-001 -3.7460925641E+000 
14150405.507 +7.5169799113E-001 -3.7953357827E+000  +1.9968385675E-001 +2.3400546145E+000  +1.9739880555E-001 +3.4902008433E+000  +7.6265850464E-001 -4.8722673260E+000 
14275550.688 +7.4005100518E-001 -5.3236494181E+000  +2.0130330379E-001 +1.2512056192E+000  +1.9848061059E-001 +2.2641131622E+000  +7.7662234166E-001 -3.4117325685E+000 
14400695.870 +7.7373969660E-001 -8.0935175981E+000  +2.0340811324E-001 +1.3809032224E+000  +1.9808174401E-001 +2.1558505861E+000  +7.8822697025E-001 -4.9410867487E+000 
