!  2-Port S-parameters saved by WinCal
! VAR MeasName=S-Parameters (CALIBRATED_DATA) read from VNA (P5004A)
! VAR MeasDate=29/08/2024 11:39:03
! VAR NAME=S2_r9c4_pristine_9k-100M_2
! VAR FILENAME=S2_r9c4_pristine_9k-100M_2.S2P
! VAR DATE=29/08/2024 11:39:03
! VAR PHYS_PORTS=1,2
! VAR ObjTypeName=DATASET
! VAR IndexType=Frequency
!
# Hz S MA R 50
9000.000 +8.0687446681E-002 -1.7301882547E+002  +6.2993066969E-003 -1.6880935907E+002  +5.1720818091E-003 -1.3990270497E+002  +2.2672608557E-001 -1.4187710144E+002 
134145.181 +1.1123637349E-001 +1.6949040412E+002  +2.7967250285E-004 +7.0898177416E+001  +2.3974535651E-004 +6.6359312127E+001  +2.4204024590E-001 -1.7117616787E+002 
259290.363 +1.1279273433E-001 +1.6978681639E+002  +5.2565423799E-004 -1.0657188202E+002  +3.7797508122E-004 -1.6565174093E+002  +2.3891915946E-001 -1.6973646517E+002 
384435.544 +1.1510723073E-001 +1.7015414742E+002  +2.3929565831E-004 -6.2744414588E+001  +3.0305211730E-004 +7.9546804193E+001  +2.4501050256E-001 -1.7115700657E+002 
509580.726 +1.1471524475E-001 +1.6988113641E+002  +7.2362541603E-004 -9.9460054081E+001  +1.5865974636E-003 +1.2385452346E+002  +2.6441972486E-001 -1.6786857166E+002 
634725.907 +1.1802940736E-001 +1.7219926657E+002  +1.5325300907E-003 -1.2292093708E+002  +1.5107709325E-003 +5.0344706755E+001  +2.5010536081E-001 -1.6347764363E+002 
759871.089 +1.1989876440E-001 +1.7105863898E+002  +1.0091057338E-003 -6.5118741800E+001  +7.9384459907E-004 +1.0450978269E+002  +2.4898719487E-001 -1.6826193753E+002 
885016.270 +1.2097213684E-001 +1.6924218195E+002  +5.0561406440E-004 -1.9496017553E+001  +1.1293414309E-003 +1.6843423511E+002  +2.3827420750E-001 -1.6744559828E+002 
1010161.452 +1.1761365207E-001 +1.6896949488E+002  +2.2203919532E-003 +2.1633522738E+001  +2.2889116135E-003 -1.4976273375E+002  +2.1060515580E-001 -1.7027747831E+002 
1135306.633 +1.2013796625E-001 +1.6922669291E+002  +1.9822023848E-003 +4.4317863358E+001  +3.3846483353E-003 -1.0003819393E+002  +2.0875024942E-001 -1.7048412405E+002 
1260451.815 +1.1832719942E-001 +1.7053352017E+002  +3.2990019817E-003 -1.6008191366E+001  +4.0335538134E-003 -1.7234548211E+002  +2.3134950776E-001 -1.6247712115E+002 
1385596.996 +1.2577995001E-001 +1.7304021719E+002  +5.5743350219E-003 -6.2018079848E+001  +5.5335731056E-003 +1.6029883923E+002  +2.3670217962E-001 -1.5362541825E+002 
1510742.178 +1.2562911992E-001 +1.7097732734E+002  +3.0411081127E-003 -2.6837499492E+001  +3.3082959783E-003 -1.6782907674E+002  +2.5092662474E-001 -1.5889540294E+002 
1635887.359 +1.2924900898E-001 +1.7054280598E+002  +1.6815112602E-003 +1.5512884773E+001  +2.2884831558E-003 -1.5729372802E+002  +2.6085142918E-001 -1.5745611687E+002 
1761032.541 +1.3010559293E-001 +1.6877046126E+002  +3.4816820586E-003 +5.5611548228E+001  +3.6703193735E-003 -1.0154947693E+002  +2.3783546792E-001 -1.6309320486E+002 
1886177.722 +1.2719708636E-001 +1.6963977939E+002  +8.3412303297E-003 +4.9545621716E+001  +9.1460626486E-003 -8.8866122109E+001  +2.0731012756E-001 -1.6324746801E+002 
2011322.904 +1.2990718610E-001 +1.6970648315E+002  +9.2319684769E-003 +6.3378269750E+001  +1.1699039286E-002 -6.4040054466E+001  +2.0964776641E-001 -1.6273667031E+002 
2136468.085 +1.3341576046E-001 +1.6915718460E+002  +1.2425451144E-002 +6.4059621972E+001  +1.5719606920E-002 -7.2224734540E+001  +1.9127908331E-001 -1.5989886986E+002 
2261613.267 +1.3464251005E-001 +1.6589343474E+002  +1.9783102466E-002 +8.4035847555E+001  +2.2187185102E-002 -4.2975044320E+001  +1.7390592220E-001 -1.6751728729E+002 
2386758.448 +1.3946964558E-001 +1.6651370513E+002  +1.7535136799E-002 +9.5422507843E+001  +1.7471037740E-002 -2.5915908110E+001  +2.1200436812E-001 -1.7501931171E+002 
2511903.630 +1.3529797501E-001 +1.6563958280E+002  +2.8818856990E-002 +8.1460022077E+001  +3.0293491787E-002 -3.8305701942E+001  +1.7991733795E-001 -1.7384876007E+002 
2637048.811 +1.1831974722E-001 +1.5803410015E+002  +6.4792849252E-002 +1.1035590111E+002  +6.6966342172E-002 +5.9653039382E+000  +2.6813100994E-001 +1.5888048273E+002 
2762193.992 +1.3592051268E-001 -1.7667390020E+002  +1.1223030671E-001 -2.2254261801E+001  +9.8586895236E-002 -1.2852388331E+002  +3.4682914499E-001 -1.0519096520E+002 
2887339.174 +1.1666258158E-001 -1.7947129310E+002  +8.9753312546E-002 +3.0006388268E+001  +9.4703043891E-002 -7.7198919305E+001  +6.7268503589E-002 -1.2732603994E+002 
3012484.355 +1.5621040256E-001 +1.7424699377E+002  +6.4034404415E-002 -2.8174957232E+001  +5.4264335809E-002 -1.3151380754E+002  +3.4917222433E-001 -1.1046367093E+002 
3137629.537 +1.4211971961E-001 +1.7364285284E+002  +4.2585884991E-002 +3.0885334724E+001  +4.2831776225E-002 -6.5375429901E+001  +1.8354180004E-001 -1.6063804078E+002 
3262774.718 +1.3930605021E-001 +1.7317625021E+002  +8.8598579541E-002 +8.3201346126E+000  +9.0774096170E-002 -8.4751320309E+001  +2.2999403369E-001 -8.9401051342E+001 
3387919.900 +1.3093873024E-001 +1.6321407186E+002  +7.4093931677E-002 +4.4699272256E+001  +7.8107108032E-002 -4.6891114273E+001  +1.2258485947E-001 -1.4390598109E+002 
3513065.081 +1.1672047733E-001 +1.6306554020E+002  +1.0531562103E-001 +2.9880276998E+001  +1.0512767466E-001 -5.4957266545E+001  +1.2801487523E-001 -1.0163210227E+002 
3638210.263 +1.4848517125E-001 +1.4539050073E+002  +1.7070280753E-001 +6.2001283016E+001  +1.5405100908E-001 -2.1160469547E+001  +2.0369311139E-001 +8.8338766528E+000 
3763355.444 +1.9104828920E-001 +1.4932026171E+002  +8.0897885196E-002 +9.4288776038E+001  +7.8973894436E-002 +2.0075357527E+001  +1.8020873438E-001 +1.6536453875E+002 
3888500.626 +1.9492558388E-001 +1.4537094000E+002  +1.2250586245E-001 +1.0936276994E+002  +1.1779792113E-001 +3.2019944104E+001  +3.2359330990E-001 +1.3659557418E+002 
4013645.807 +1.3712009698E-001 +1.5373993480E+002  +1.0897581182E-001 +7.4669471495E+001  +1.0997018922E-001 +7.2948453365E+000  +2.7337247238E-001 +1.5267648675E+002 
4138790.989 +1.7011118155E-001 +1.5483492794E+002  +9.6767218694E-002 +6.2816345909E+001  +8.9701333431E-002 -3.5491606782E+000  +1.4479300820E-001 +1.7156537029E+002 
4263936.170 +1.4646983646E-001 +1.6275378857E+002  +1.3761547415E-001 +5.6755872191E+001  +1.3706306011E-001 -1.0753087031E+001  +2.0557027151E-001 +1.1808394133E+002 
4389081.352 +1.9516444507E-001 +1.3456998209E+002  +1.8727700417E-001 +9.5837010771E+001  +1.8511577024E-001 +3.5990461700E+001  +4.2669944441E-001 +1.3059510203E+002 
4514226.533 +2.1086242917E-001 +1.3617089898E+002  +2.0693839916E-001 +9.8856713304E+001  +2.0359150563E-001 +4.0354683412E+001  +5.1374404010E-001 +1.2710816734E+002 
4639371.715 +2.5303451727E-001 +1.3298657144E+002  +2.4015151261E-001 +1.0958836002E+002  +2.4039100473E-001 +5.5972403411E+001  +6.3881217338E-001 +1.3086465598E+002 
4764516.896 +2.6655835315E-001 +1.4081622005E+002  +1.8474270333E-001 +1.0209449466E+002  +1.8016848689E-001 +5.1466709168E+001  +4.5898228907E-001 +1.2828110323E+002 
4889662.078 +4.6387780566E-001 +1.0867022941E+002  +8.6104001351E-001 +9.4241903692E+001  +8.4763123841E-001 +4.7275953909E+001  +2.0679367852E+000 +7.0631544083E+001 
5014807.259 +3.4877967831E-001 +1.3988776670E+002  +4.8824441694E-001 +1.2894917261E+002  +4.7149954942E-001 +8.0613422613E+001  +2.0207687593E+000 +1.2113885720E+002 
5139952.441 +3.1540036797E-001 +1.2667298599E+002  +3.8359825532E-001 +1.0249731555E+002  +3.8759494420E-001 +5.9909425323E+001  +1.0643071753E+000 +1.1374917706E+002 
5265097.622 +3.0623065500E-001 +1.2789404678E+002  +3.5123595817E-001 +9.9436718807E+001  +3.4041979538E-001 +5.9930955435E+001  +9.7714025345E-001 +1.2082812981E+002 
5390242.804 +3.3871334927E-001 +1.3266850024E+002  +3.4684607862E-001 +1.0352867458E+002  +3.3161438289E-001 +6.6349949711E+001  +1.0623982081E+000 +1.2254491552E+002 
5515387.985 +3.5458920711E-001 +1.2776383950E+002  +2.6537936735E-001 +1.0922074331E+002  +2.5786141949E-001 +7.6676459456E+001  +8.6453491071E-001 +1.5072403789E+002 
5640533.166 +3.9387950755E-001 +1.2611551513E+002  +3.6034156263E-001 +9.3538767363E+001  +3.5845549216E-001 +6.1850559773E+001  +8.8937345928E-001 +1.1652720813E+002 
5765678.348 +3.8674592156E-001 +1.2997028452E+002  +3.2756121251E-001 +9.4806909400E+001  +3.4194248685E-001 +6.6093064809E+001  +1.0382453950E+000 +1.2592731971E+002 
5890823.529 +3.7153862760E-001 +1.1473632835E+002  +4.6656997569E-001 +7.4136832495E+001  +4.6682198670E-001 +4.9792915556E+001  +1.1095745906E+000 +1.0183416060E+002 
6015968.711 +4.4254642900E-001 +1.2104062562E+002  +4.2565498458E-001 +7.9095873629E+001  +4.0642338506E-001 +5.4083798696E+001  +9.9710086829E-001 +1.0513411866E+002 
6141113.892 +4.0587943520E-001 +1.1516568599E+002  +5.3450914365E-001 +6.5309419687E+001  +5.2462367877E-001 +4.3765631675E+001  +1.3582380963E+000 +8.7330867617E+001 
6266259.074 +6.1001847109E-001 +1.0159037258E+002  +6.5271262508E-001 +6.9297593314E+001  +6.3962971074E-001 +5.1052356833E+001  +1.2651557195E+000 +8.4124686535E+001 
6391404.255 +4.4164308967E-001 +9.6628011881E+001  +6.3184409419E-001 +4.5652240073E+001  +6.0898040759E-001 +3.1580800518E+001  +1.2160512520E+000 +6.6705089026E+001 
6516549.437 +3.5431451381E-001 +8.8319686738E+001  +5.7890498787E-001 +2.7612782301E+001  +5.5958945436E-001 +1.4739060450E+001  +8.0984036671E-001 +4.8297911298E+001 
6641694.618 +4.9977322216E-001 +6.4045689897E+001  +6.9726336652E-001 +2.1825682912E+001  +6.6710277100E-001 +9.6969821396E+000  +8.3107634361E-001 +2.5777900605E+001 
6766839.800 +4.8115994342E-001 +5.0209931414E+001  +6.7409274784E-001 +1.4846102143E+001  +6.7000692731E-001 +3.9384252062E+000  +7.4579475335E-001 +2.3965237239E+001 
6891984.981 +5.8720882821E-001 +5.2417640953E+001  +6.5047955669E-001 +1.3968068790E+001  +6.4240095007E-001 +7.7501137224E+000  +6.2916986894E-001 +1.8317423276E+001 
7017130.163 +5.8553439427E-001 +1.7127067236E+001  +7.0997247964E-001 +4.1481499070E+000  +6.9893994116E-001 -1.5425271974E+000  +7.7118028045E-001 +9.8380102636E+000 
7142275.344 +4.1970821009E-001 +8.7050333764E+000  +5.9246467609E-001 -1.6220250397E+000  +6.0330959177E-001 -4.7679340577E+000  +5.4746458312E-001 +4.5417310171E-001 
7267420.526 +5.0308132173E-001 +1.2870709943E+001  +5.8107276531E-001 +7.5183565486E-001  +5.8943582996E-001 -5.8089090504E-001  +6.5698544556E-001 -6.6237367285E+000 
7392565.707 +5.2080860550E-001 -3.0815516432E+000  +5.6198366143E-001 +1.9722392951E+000  +5.6139402277E-001 +1.9288745978E+000  +6.6495106707E-001 -1.0078267694E+001 
7517710.889 +4.4438717974E-001 +6.3810076800E+000  +5.2590761552E-001 +4.5943531539E-001  +5.2266948313E-001 +3.7887465640E+000  +4.9747034609E-001 -1.0107528737E+001 
7642856.070 +4.7090933485E-001 +1.5067031651E+001  +4.9520238626E-001 +8.3743169641E-001  +4.9214981369E-001 +4.2206163473E+000  +4.8873934663E-001 +4.2160119054E+000 
7768001.252 +3.9267807631E-001 +1.1081107613E+001  +4.7897884319E-001 -1.2258012093E+000  +4.7716273859E-001 +3.9984533595E+000  +4.1729073180E-001 +8.8621262321E+000 
7893146.433 +4.1234046455E-001 +2.6545492619E+001  +4.5828627229E-001 -1.5642504401E+000  +4.5768966773E-001 +5.5824066380E+000  +3.1613071142E-001 +6.1473789021E+000 
8018291.615 +3.1141788343E-001 +2.2745776039E+001  +4.4783319242E-001 -2.6394060434E+000  +4.4812847714E-001 +6.1800456482E+000  +3.0937485626E-001 +9.9956260216E+000 
8143436.796 +2.6946616775E-001 +3.1649380768E+001  +4.2930781208E-001 -3.5264318026E+000  +4.2717041860E-001 +5.4782011223E+000  +2.6835136403E-001 +2.4277170848E+001 
8268581.977 +2.6376391136E-001 +3.8241815092E+001  +4.2553870678E-001 -4.0672778695E+000  +4.1416497829E-001 +6.5589609626E+000  +3.5274599599E-001 +1.4321459868E+001 
8393727.159 +2.8124824995E-001 +3.5045166930E+001  +4.1375505641E-001 -5.1738296162E+000  +4.1406702865E-001 +6.6619818006E+000  +2.5662679506E-001 +3.3721543289E+001 
8518872.340 +1.9727121124E-001 +4.0466949212E+001  +4.1354596516E-001 -5.4030465758E+000  +4.1200484896E-001 +6.8038048462E+000  +2.9227352191E-001 +2.0362607219E+001 
8644017.522 +2.1196137326E-001 +4.4795293479E+001  +4.0548526123E-001 -5.8787436156E+000  +3.9940352279E-001 +6.9156756452E+000  +2.7080343218E-001 +2.4748682562E+001 
8769162.703 +2.2548130766E-001 +3.5740353018E+001  +4.0168959606E-001 -5.8392003764E+000  +4.0442620945E-001 +7.7948103388E+000  +2.3022040440E-001 +2.5710299613E+001 
8894307.885 +1.9250352154E-001 +4.4276305119E+001  +3.9331419702E-001 -6.4657960196E+000  +3.9460009803E-001 +7.3482299724E+000  +2.2598346029E-001 +3.2855774581E+001 
9019453.066 +2.0701156791E-001 +3.0246959520E+001  +4.0501099911E-001 -5.9530723756E+000  +3.9696784973E-001 +8.6576378345E+000  +2.1986754767E-001 +2.5764411506E+001 
9144598.248 +2.0746835049E-001 +5.6263679221E+001  +3.9421109524E-001 -6.2436477992E+000  +3.8590573148E-001 +8.4237650531E+000  +2.3223612781E-001 +2.6560452632E+001 
9269743.429 +1.7303054910E-001 +3.0306812225E+001  +3.9960586757E-001 -6.3351468491E+000  +3.9606941154E-001 +8.7587516830E+000  +2.1730574613E-001 +3.2642786473E+001 
9394888.611 +1.7382057708E-001 +4.3335908982E+001  +3.9249580472E-001 -6.8121772962E+000  +3.9040226921E-001 +8.9940154169E+000  +1.8584411682E-001 +3.2872083854E+001 
9520033.792 +1.6557335086E-001 +4.8746187432E+001  +3.9390048055E-001 -6.6664628231E+000  +3.9204933314E-001 +8.3382159715E+000  +1.7569984150E-001 +1.7395997521E+001 
9645178.974 +1.6302491800E-001 +4.1380411463E+001  +3.9823079618E-001 -6.8178090439E+000  +3.9059868734E-001 +9.3196173425E+000  +1.4977138948E-001 +2.0026085740E+001 
9770324.155 +1.3180439869E-001 +1.8148705998E+001  +4.0815853504E-001 -7.0859278119E+000  +4.0194505606E-001 +8.9146046812E+000  +1.4124268738E-001 +8.8809616830E+000 
9895469.337 +9.6538654209E-002 +2.6197426882E+001  +4.0254590455E-001 -6.9648467442E+000  +3.9908032139E-001 +9.0113202718E+000  +1.9686393637E-001 +1.6703407758E+001 
10020614.518 +1.6742283962E-001 +2.9532715096E+001  +3.9994971473E-001 -6.3649525350E+000  +3.9589081011E-001 +1.0150570199E+001  +1.6254193662E-001 +2.7345465048E+001 
10145759.700 +1.6290680429E-001 +4.7005153152E+001  +4.0016399872E-001 -5.7365080320E+000  +3.9708215318E-001 +9.6215632246E+000  +1.3946656657E-001 +1.2153249784E+001 
10270904.881 +1.4591036363E-001 +4.0648736777E+001  +4.0134860408E-001 -6.0748208013E+000  +3.9957470094E-001 +1.0337854707E+001  +1.8168306083E-001 +2.3179198136E+001 
10396050.063 +1.5927785215E-001 +3.8024650564E+001  +4.0408670888E-001 -5.7036137162E+000  +4.0141687375E-001 +9.8264202782E+000  +1.6399689949E-001 +2.8909912580E+001 
10521195.244 +1.7897754923E-001 +4.9203880495E+001  +3.9901579987E-001 -5.4573914830E+000  +3.9542769067E-001 +9.9863006372E+000  +1.7381271219E-001 +3.3828830769E+001 
10646340.426 +1.7173221021E-001 +4.1020993186E+001  +4.0741930833E-001 -5.0250032617E+000  +4.0430185182E-001 +1.0140651243E+001  +1.7865623801E-001 +2.5474473871E+001 
10771485.607 +1.7774595880E-001 +3.3024789612E+001  +4.1034498045E-001 -4.6289379609E+000  +4.0475839532E-001 +9.5520225166E+000  +1.6932951980E-001 +3.3998892443E+001 
10896630.788 +1.6766205430E-001 +3.2277364558E+001  +4.1207243262E-001 -4.3544614965E+000  +4.1002181091E-001 +9.9305788518E+000  +2.1790960802E-001 +2.9545545130E+001 
11021775.970 +1.9898758550E-001 +3.6100016081E+001  +4.1694532909E-001 -4.1657081276E+000  +4.1179918347E-001 +9.9295012468E+000  +1.6990935662E-001 +2.2053838503E+001 
11146921.151 +1.9029412160E-001 +2.7812701733E+001  +4.1998008601E-001 -3.6910254062E+000  +4.1560238561E-001 +9.3800738628E+000  +2.0389784108E-001 +3.2205730780E+001 
11272066.333 +2.0764024076E-001 +2.9430695398E+001  +4.2152407036E-001 -3.2996768482E+000  +4.1777476682E-001 +9.8828601811E+000  +2.1463095759E-001 +2.7284076320E+001 
11397211.514 +2.1224479853E-001 +3.3220730240E+001  +4.2271332628E-001 -3.1047643886E+000  +4.2103297154E-001 +9.2853841002E+000  +2.0748043786E-001 +2.2233694262E+001 
11522356.696 +2.3074229379E-001 +3.0486780595E+001  +4.2528497403E-001 -2.1744795143E+000  +4.2244258752E-001 +9.4611021602E+000  +2.3969963892E-001 +3.1869321654E+001 
11647501.877 +2.1196518924E-001 +3.3739997981E+001  +4.2930775279E-001 -2.4529863392E+000  +4.2480328787E-001 +9.1073426137E+000  +2.4420743958E-001 +2.7327772591E+001 
11772647.059 +2.2074653695E-001 +2.8537369212E+001  +4.3639531447E-001 -2.4323466363E+000  +4.3092959534E-001 +8.9420413956E+000  +2.2617327905E-001 +2.6932418285E+001 
11897792.240 +2.2640754394E-001 +2.3208405154E+001  +4.4062291439E-001 -2.0353418871E+000  +4.3801529637E-001 +8.1554407138E+000  +2.3854312803E-001 +2.5127169964E+001 
12022937.422 +2.4890778203E-001 +2.4110235297E+001  +4.4483722941E-001 -1.4238235388E+000  +4.4133116262E-001 +8.0517663069E+000  +2.2007412653E-001 +2.2802476660E+001 
12148082.603 +2.1828341171E-001 +2.7092472675E+001  +4.4687567206E-001 -1.4706732115E+000  +4.4312190900E-001 +7.6235765464E+000  +2.6308828972E-001 +2.3222788969E+001 
12273227.785 +2.2775485987E-001 +2.6276928902E+001  +4.5115998822E-001 -1.5908792212E+000  +4.4869875982E-001 +6.9429406034E+000  +2.3331976989E-001 +1.8482111537E+001 
12398372.966 +2.4394164744E-001 +1.7355404928E+001  +4.6027711705E-001 -9.1821342958E-001  +4.5700878795E-001 +6.9029080998E+000  +2.3803669894E-001 +1.5981347167E+001 
12523518.148 +2.6363918009E-001 +1.5895093759E+001  +4.6728261359E-001 -6.5344297684E-001  +4.6160821431E-001 +6.5550214895E+000  +2.6823784726E-001 +1.1985741734E+001 
12648663.329 +2.5987117036E-001 +1.9584997725E+001  +4.6827609330E-001 -5.4939049022E-001  +4.6371551111E-001 +6.1422906076E+000  +2.6325401093E-001 +1.0074341094E+001 
12773808.511 +2.8560754268E-001 +2.0097839077E+001  +4.7080886940E-001 -1.7321621245E-001  +4.6714062658E-001 +6.0194145867E+000  +2.8689252473E-001 +1.0339861227E+001 
12898953.692 +2.8705135818E-001 +9.0628402032E+000  +4.8135974993E-001 +6.0473311028E-002  +4.7590951801E-001 +5.3546359128E+000  +2.7431618528E-001 +8.5712974200E+000 
13024098.874 +2.8254476681E-001 +1.0799295510E+001  +4.8362186270E-001 +1.3021059564E-001  +4.7898845112E-001 +5.1226751786E+000  +3.1642776298E-001 +8.4151419966E+000 
13149244.055 +3.0959807549E-001 +6.5263301076E+000  +4.8785866722E-001 +2.7928521844E-001  +4.8530075709E-001 +4.7667933422E+000  +3.0404599743E-001 +8.3545949419E+000 
13274389.237 +3.3267605975E-001 +5.8864057374E+000  +4.9354960306E-001 +5.0709027733E-001  +4.8964100428E-001 +4.3008640742E+000  +3.0799513454E-001 +8.5306688397E+000 
13399534.418 +3.1706771162E-001 +4.5489084420E+000  +4.9912301028E-001 +5.3095471905E-001  +4.9724294148E-001 +3.8029324447E+000  +3.2898733035E-001 +3.0228677554E+000 
13524679.599 +3.3910819337E-001 +2.3031563474E+000  +5.0574852062E-001 +4.0327265303E-001  +5.0036868796E-001 +3.2575112642E+000  +3.2375509493E-001 +2.5754902646E+000 
13649824.781 +3.3692744667E-001 +2.7157349669E+000  +5.0974230797E-001 +4.5764617053E-001  +5.0558794392E-001 +2.8259271199E+000  +3.3347298366E-001 +1.1293397738E+000 
13774969.962 +3.5528188556E-001 +8.6351268304E-001  +5.1228539356E-001 +5.5049734818E-001  +5.0748476028E-001 +2.7328901906E+000  +3.6503439908E-001 +2.4981808513E+000 
13900115.144 +3.7424493506E-001 -5.1548276350E-001  +5.1888858640E-001 +5.5055156581E-001  +5.1353244378E-001 +2.3037960596E+000  +3.7482771864E-001 -1.7285527729E+000 
14025260.325 +3.8660259413E-001 -4.9496375866E+000  +5.2453914652E-001 +5.6677172085E-001  +5.1809632794E-001 +2.1777564835E+000  +3.9707491130E-001 +7.3642898689E-003 
14150405.507 +3.8938137371E-001 -1.2380012582E+000  +5.2504428803E-001 +4.7004769852E-001  +5.1993090954E-001 +1.6899710123E+000  +4.0780306223E-001 -1.6121147230E+000 
14275550.688 +4.2022867532E-001 -4.5679677270E+000  +5.3303729435E-001 +5.7722367880E-001  +5.2579137713E-001 +1.3756637567E+000  +4.1469676024E-001 -4.1939474692E+000 
14400695.870 +4.3002604942E-001 -5.7101167344E+000  +5.3677150370E-001 +6.4547322921E-001  +5.3100682868E-001 +1.2503552800E+000  +4.4166543158E-001 -4.9427941785E+000 
