!  2-Port S-parameters saved by WinCal
! VAR MeasName=S-Parameters (CALIBRATED_DATA) read from VNA (P5004A)
! VAR MeasDate=29/08/2024 10:20:52
! VAR NAME=S2_r9c1_RESET5_9k-100M_2
! VAR FILENAME=S2_r9c1_RESET5_9k-100M_2.S2P
! VAR DATE=29/08/2024 10:20:52
! VAR PHYS_PORTS=1,2
! VAR ObjTypeName=DATASET
! VAR IndexType=Frequency
!
# Hz S MA R 50
9000.000 +9.7020080138E-002 -1.6919008154E+002  +7.8766651053E-003 -1.2748290594E+001  +1.1494244520E-002 +9.6772436970E+001  +2.5452758198E-001 -1.5053373549E+002 
134145.181 +1.1100268240E-001 +1.6977023304E+002  +3.0749175971E-004 -1.5988054111E+002  +5.7987915646E-004 -8.7010442950E+001  +2.4667926140E-001 -1.6980503730E+002 
259290.363 +1.1226274210E-001 +1.7006834044E+002  +7.9149565979E-004 +1.6173680235E+001  +7.6188166609E-004 -8.7070902517E+001  +2.4078514396E-001 -1.6808463538E+002 
384435.544 +1.1536900150E-001 +1.7001548348E+002  +1.3704121280E-004 +1.4509303897E+001  +1.3188970860E-004 -9.8155412487E+001  +2.4335629789E-001 -1.7017766617E+002 
509580.726 +1.1432105439E-001 +1.7156785858E+002  +4.3709751692E-004 +1.3320045915E+002  +1.1133815831E-003 +1.0233052348E+002  +2.4710743506E-001 -1.6551051312E+002 
634725.907 +1.1586642219E-001 +1.7126701898E+002  +8.0102349530E-004 -1.6182739608E+002  +2.1980949321E-004 -5.7780064664E+001  +2.4398390409E-001 -1.6452748917E+002 
759871.089 +1.2086057088E-001 +1.7118970034E+002  +3.1993662514E-004 -9.0294013201E+001  +6.7325129628E-004 -1.5036345173E+002  +2.5043819965E-001 -1.6616351975E+002 
885016.270 +1.2140145779E-001 +1.6911650666E+002  +1.1064051479E-004 -1.3409154120E+002  +1.8628163483E-004 +4.4494571019E+001  +2.4300848278E-001 -1.6811474276E+002 
1010161.452 +1.1214474778E-001 +1.6844292397E+002  +7.8378078587E-004 +1.4328143801E+002  +7.9457540778E-004 +1.6237104816E+002  +2.2902801972E-001 -1.6648292177E+002 
1135306.633 +1.1550227853E-001 +1.6763404759E+002  +1.2309444089E-003 -4.2134893619E+001  +1.4925122951E-003 +1.5767658644E+002  +1.4031946066E-001 -1.6381383345E+002 
1260451.815 +1.2242272492E-001 +1.7080933700E+002  +7.4836390122E-004 +1.6573443131E+001  +1.0493485167E-003 +3.5215136223E+001  +2.2215265051E-001 -1.6666088794E+002 
1385596.996 +1.2694520754E-001 +1.7191410633E+002  +5.8151424766E-004 -1.2826516801E+002  +7.5445176446E-004 -1.2834381303E+002  +2.6668863146E-001 -1.5891037111E+002 
1510742.178 +1.2656878193E-001 +1.7140721418E+002  +7.5760776646E-004 -1.0178618615E+002  +6.4345787371E-004 -1.2471284865E+002  +2.6984193920E-001 -1.5582033083E+002 
1635887.359 +1.2803706466E-001 +1.7153464394E+002  +1.1673936509E-003 +1.2788704216E+002  +1.6484820436E-003 -5.9189078727E+001  +2.3268913911E-001 -1.5577842736E+002 
1761032.541 +1.2903693829E-001 +1.7046090514E+002  +1.1122124762E-003 -7.4984541526E+001  +5.2987047633E-004 -4.7430286150E+001  +2.1479389152E-001 -1.6108236851E+002 
1886177.722 +1.2408477273E-001 +1.6929866141E+002  +1.0374894279E-003 +4.6160158205E+001  +3.5330239282E-003 -5.0758104549E+001  +2.0637961757E-001 -1.6232305274E+002 
2011322.904 +1.2890413630E-001 +1.6872954298E+002  +2.2811912479E-003 +1.4312817313E+002  +1.8033514632E-003 -4.7098945234E+001  +2.0923240899E-001 -1.6955897274E+002 
2136468.085 +1.3327786172E-001 +1.6715668316E+002  +6.0727010895E-004 +1.2102742556E+002  +2.4188592719E-003 -4.3088610221E+001  +1.8089524380E-001 -1.7233639242E+002 
2261613.267 +1.3084526223E-001 +1.6439832729E+002  +1.7333598309E-003 +1.0726052595E+002  +4.2128895959E-003 -7.7882610556E+001  +2.0253297632E-001 +1.7776322319E+002 
2386758.448 +1.3910980953E-001 +1.6516539391E+002  +2.3020707137E-003 +1.2902361829E+002  +2.1655159489E-003 +2.2785392731E+001  +2.0803709031E-001 +1.6509529593E+002 
2511903.630 +1.4101979821E-001 +1.6351732505E+002  +1.4169899420E-003 +1.3987329488E+002  +4.4718911100E-003 +9.7704357201E+001  +1.9167003724E-001 +1.7067080816E+002 
2637048.811 +1.2419916164E-001 +1.6340929174E+002  +1.1121459788E-002 +4.9313200284E+001  +2.0514942285E-002 +3.0876300679E+001  +1.4677138661E-001 +1.0152076071E+002 
2762193.992 +7.5543644250E-002 -1.6443223212E+002  +4.0140340916E-003 -5.1237515214E+001  +1.6034719714E-002 -1.5755183506E+002  +2.1881812333E-001 -2.1593374223E+001 
2887339.174 +1.1388029308E-001 +1.7665079235E+002  +1.7072903341E-002 +1.2404731496E+001  +3.2341860624E-003 -2.2656922986E+001  +1.2191100848E+000 +1.5054909260E+002 
3012484.355 +1.3123012975E-001 +1.7639855904E+002  +2.4568060127E-002 -1.6766441115E+002  +1.0979733954E-002 -1.0648832528E+002  +7.8510086240E-001 +3.1915661298E+001 
3137629.537 +1.1584509471E-001 +1.7891041112E+002  +6.2180032615E-003 -3.6586512579E+001  +1.5042301555E-002 +1.4636867530E+002  +4.3358458235E-001 -8.0463587256E+001 
3262774.718 +1.0979645060E-001 +1.5912645828E+002  +1.5454443049E-002 +7.5123385706E+001  +8.1975327268E-003 +1.5208556676E+001  +6.2929412745E-002 -3.7492276387E+001 
3387919.900 +8.9527057572E-002 +1.5614925949E+002  +3.1187301821E-002 -1.6498592081E+002  +2.4927955135E-002 -9.1107925228E+001  +9.8783881780E-001 -8.1104898550E+001 
3513065.081 +1.5656984217E-001 +1.5070368392E+002  +1.2896050294E-002 +1.5975155145E+002  +7.8906838572E-003 -4.2071666380E+001  +3.8577246543E-001 +1.0514837856E+002 
3638210.263 +1.6136122905E-001 +1.4390548162E+002  +8.3521754837E-003 +5.2140717631E+001  +6.7788021137E-003 +7.3534868084E+001  +8.0118655966E-001 +1.3406333441E+002 
3763355.444 +1.8241883678E-001 +1.4415518525E+002  +2.7511731006E-002 +1.1047929476E+002  +2.7424549232E-002 +7.4562976112E+001  +7.7429588438E-001 +8.9860868642E+001 
3888500.626 +1.5031939792E-001 +1.5018568159E+002  +7.6737797784E-003 +5.4319162679E+001  +8.7246488991E-003 +4.3395716934E+001  +2.2064244841E-001 +1.5291357664E+002 
4013645.807 +1.9788454238E-001 +1.5052281908E+002  +1.3496902105E-002 +1.9360651720E+001  +1.1710092884E-002 +8.9539849067E+001  +6.1594711473E-001 +1.3528208689E+002 
4138790.989 +1.7714012716E-001 +1.4888307916E+002  +4.4111248792E-003 +8.5732565804E+001  +1.5942441978E-003 +1.7258775088E+001  +6.5427649890E-001 +1.2924497692E+002 
4263936.170 +1.9477725371E-001 +1.4300052039E+002  +1.5743221509E-002 +5.3727077935E+000  +3.2306207427E-003 +4.7244128724E+001  +4.2678244948E-001 +2.1075108777E+001 
4389081.352 +2.3341937944E-001 +1.4572107781E+002  +1.7887417359E-002 +6.8535423568E+001  +1.6135898078E-002 +1.1252484435E+002  +1.0015723577E+000 +9.5593669990E+001 
4514226.533 +2.4133798157E-001 +1.4211787974E+002  +7.8169928415E-003 +6.7412094044E+001  +1.8984253797E-002 +9.1624160160E+001  +5.2136305374E-001 +1.1946826766E+002 
4639371.715 +3.0237173335E-001 +1.3155626551E+002  +3.6370288883E-002 -1.6723064790E+002  +1.5269666314E-002 +4.1738565921E+001  +2.7710828099E+000 -1.6826695253E+002 
4764516.896 +3.8807906498E-001 +1.2558870756E+002  +2.6067945121E-001 +1.2001190253E+002  +5.4857919755E-002 +2.4492262302E+001  +8.8986188297E+000 +1.2907144883E+002 
4889662.078 +6.0655282366E-001 +1.1211872034E+002  +1.1603065622E-001 +1.3992095556E+001  +1.2255366954E-001 -1.5889413790E+001  +2.4712999599E+000 -7.4055926567E+001 
5014807.259 +4.1454080070E-001 +1.3734274373E+002  +1.3621791914E-001 -6.4867290789E+001  +9.1787856219E-002 -1.6986509110E+002  +7.7343675238E+000 -1.4810872913E+002 
5139952.441 +4.3107441490E-001 +1.3084085750E+002  +2.2971792907E-002 +4.4856587416E+001  +3.3655991380E-002 +1.2838472618E+002  +2.4548315391E+000 +6.6925897858E+001 
5265097.622 +4.2945041703E-001 +1.2760451508E+002  +2.3319832257E-002 +7.9738553852E+001  +3.2232324652E-002 +7.9292816105E+001  +1.3403922805E+000 +1.0895218724E+002 
5390242.804 +4.4602957380E-001 +1.2777627361E+002  +8.4582850225E-002 +8.3826802197E+001  +8.7743724895E-002 +7.4112456144E+001  +5.8500699090E+000 +7.1054193515E+001 
5515387.985 +4.3705682184E-001 +1.3776162268E+002  +1.4797404079E-002 -1.2949853679E+002  +1.2824058468E-002 +5.7393804250E+001  +2.3266446387E+000 +3.2465251622E+001 
5640533.166 +4.4366494029E-001 +1.1660818286E+002  +2.7150603089E-002 +7.8024481007E+001  +5.7691325089E-002 +6.8657066477E+001  +2.0169772909E+000 +8.0150191346E+001 
5765678.348 +4.9148628895E-001 +1.2915490609E+002  +4.6276019919E-002 +1.0418481542E+002  +3.5888774208E-002 +9.9903645536E+001  +2.9780925568E+000 +9.2205322034E+001 
5890823.529 +5.8116244330E-001 +1.1271859932E+002  +5.6387107821E-002 +6.4065716681E+001  +3.0160687110E-002 +3.5317256395E+001  +1.9419933310E+000 +2.7926053464E+001 
6015968.711 +5.8444005554E-001 +1.0714690291E+002  +1.1414642421E-002 +1.0562657682E+001  +2.8037449481E-002 +4.9220315291E+001  +1.4252142560E+000 +4.6097783402E+001 
6141113.892 +6.0902344478E-001 +1.0465669253E+002  +2.3595852550E-002 -1.3903904441E+001  +2.1253636392E-002 -2.4210597629E+001  +1.7113295545E+000 +1.5493299992E+001 
6266259.074 +8.7025467744E-001 +1.1590455456E+002  +3.1856715098E-002 +4.0854412160E+001  +2.1989600254E-002 +2.4171226151E+001  +1.4884097538E+000 +3.3808372936E+001 
6391404.255 +9.0807372473E-001 +9.0347388335E+001  +2.9271372774E-002 +3.5890726624E+001  +6.2079662371E-002 -5.5557174452E+001  +2.0800496788E+000 +1.0106021563E+001 
6516549.437 +9.7538491394E-001 +8.1884308160E+001  +1.4622670084E-002 +5.9777519521E+001  +3.0134987053E-002 +4.2896426092E+001  +1.5208380890E+000 +1.4286977411E+001 
6641694.618 +1.5482155785E+000 +8.4932489232E+001  +5.2987638590E-002 +3.3236438003E+001  +4.1333581952E-002 +4.3813275996E+001  +1.8221514316E+000 -1.0183138215E+000 
6766839.800 +1.5283777252E+000 +6.3839806337E+001  +1.2687752698E-002 +8.3972042290E+001  +3.4904465717E-002 -2.5403845205E+000  +1.2570258406E+000 +2.9692023468E+000 
6891984.981 +1.5467992076E+000 +3.9939486792E+001  +2.1804088300E-002 -4.6095832244E+001  +2.6844906184E-002 +9.0309819654E-001  +1.4699780308E+000 -9.5057770241E+000 
7017130.163 +2.1169619956E+000 +2.3347374128E+001  +3.9209108522E-002 -2.9093104895E+001  +2.1578547072E-002 -4.8988409524E+001  +1.4003921222E+000 -1.4422600412E+001 
7142275.344 +1.4862086689E+000 +3.6679194707E+000  +8.5620580682E-003 -3.9012141135E+001  +3.0902435928E-002 +2.1778169105E+001  +1.2651397920E+000 -1.0456721337E+001 
7267420.526 +1.7074321342E+000 +6.5879162480E+000  +8.0505697405E-003 +1.3045013713E+001  +2.4686114197E-002 -1.8100583515E+001  +1.4861512644E+000 -1.3635399153E+001 
7392565.707 +1.2622554521E+000 +3.4607244814E+000  +1.8025240780E-002 +8.8353341740E+000  +9.0407603397E-003 +1.4773253477E+001  +1.1905574022E+000 -6.2883668088E+000 
7517710.889 +1.1091406337E+000 +1.9849731782E+000  +1.6489507880E-002 +1.6522979009E+001  +8.4035739334E-003 -2.9417048882E+001  +1.2651092259E+000 -6.8813981956E+000 
7642856.070 +1.0435096360E+000 +8.6271176527E-001  +1.6892015193E-002 +1.5649380609E+001  +5.9551811367E-003 -3.7395262691E+001  +1.0994965680E+000 -7.0490202435E+000 
7768001.252 +8.7689778593E-001 +7.1044657158E+000  +1.5745017339E-002 -2.1911357834E+001  +1.3667313752E-002 +3.7782525256E+001  +9.6999826762E-001 -2.7357450816E+000 
7893146.433 +9.5164801690E-001 +7.7182732261E+000  +1.2264245418E-002 +8.0629053379E+000  +1.4354349469E-002 -6.9177777258E+000  +9.2015338222E-001 -3.0257972279E+000 
8018291.615 +9.5871975411E-001 +5.0061454765E+000  +6.7205314824E-003 -3.5855944833E+001  +1.0922151115E-002 +2.9308063741E+001  +7.8218039179E-001 -3.0720514198E+000 
8143436.796 +7.9443238730E-001 +9.2475821570E+000  +1.2831951281E-002 -1.0415840683E+001  +1.0437179795E-002 +8.2312110632E+000  +7.0759545102E-001 -3.0512301211E+000 
8268581.977 +6.9424409343E-001 +5.8909131818E+000  +9.8563655402E-003 -2.4646207457E-001  +1.9060638834E-002 +5.0890521217E+000  +7.9950550460E-001 -2.8505827904E+000 
8393727.159 +7.3436966933E-001 +7.3302266405E+000  +1.4412377508E-002 -5.2231467945E+000  +6.3493035217E-003 +4.4376435124E+001  +7.2786474077E-001 +2.6400344473E+000 
8518872.340 +6.0666547302E-001 +1.0059911802E+001  +1.1586325966E-002 +1.3672871393E+001  +7.1782110665E-003 -6.6006618209E+000  +7.7986536159E-001 -1.8630908337E+000 
8644017.522 +6.2611136471E-001 +7.6603078661E+000  +1.2309312303E-002 -4.8032876394E+000  +1.2723347604E-002 +2.2203338033E+001  +7.6183150614E-001 -4.7957837413E-001 
8769162.703 +6.5179510733E-001 +3.5353322687E+000  +7.9598842696E-003 -6.3619347018E+000  +1.4168216626E-002 +1.7570294666E+001  +6.6530965933E-001 +6.3529705603E-002 
8894307.885 +5.7442118022E-001 +2.7924119180E+000  +1.0483845507E-002 +4.2097612390E+000  +1.0561324768E-002 -1.0421148282E+001  +6.0297929410E-001 +4.7514962765E-001 
9019453.066 +6.3633714249E-001 +9.2453360625E+000  +1.3641124618E-002 -2.7130261492E+001  +1.2887449004E-002 +1.0305984154E+001  +6.5993507170E-001 -5.7484601680E-001 
9144598.248 +6.0300747635E-001 +8.1653416131E+000  +1.1952363626E-002 +1.0432201215E+001  +1.0715235810E-002 +1.2424376672E+001  +5.7071827158E-001 +5.6267379033E-001 
9269743.429 +6.0272595975E-001 +6.1050392170E+000  +1.0147327124E-002 -1.2550195546E+001  +7.6218824946E-003 +2.4541194174E+001  +5.8098108613E-001 -2.5525378786E+000 
9394888.611 +5.7534417125E-001 +6.6649030288E+000  +1.0041559471E-002 +7.2863501832E+000  +9.6194619250E-003 +1.0871501658E-001  +5.9282508087E-001 +6.1472153388E-001 
9520033.792 +6.2853053449E-001 +3.3638519989E+000  +9.8182316061E-003 +9.8166980359E+000  +1.1370296403E-002 +2.3589269659E+000  +6.2896428776E-001 -2.7423589378E+000 
9645178.974 +5.1466224416E-001 +5.7554708936E-001  +9.6115543396E-003 -1.8281642245E+001  +9.8814353239E-003 +2.2695143355E+001  +6.0812142788E-001 -7.2329086867E+000 
9770324.155 +5.4601619571E-001 +6.6494982781E+000  +1.0625168353E-002 +7.3969400012E+000  +9.1173506901E-003 +3.5860071768E+001  +5.4048374896E-001 -5.1766693620E+000 
9895469.337 +5.5664519031E-001 +2.7885681215E+000  +9.7853891021E-003 -1.8506714334E+000  +9.0108122306E-003 +1.8719906511E+001  +5.5103489665E-001 -3.3324477788E+000 
10020614.518 +4.9336209280E-001 +5.7470354438E+000  +9.8169230662E-003 -4.4225725956E+000  +9.6191103406E-003 +2.3819554163E+001  +5.6332737132E-001 -4.5738435462E+000 
10145759.700 +5.2281807590E-001 +5.7410928508E+000  +1.1381122605E-002 +7.3693117758E+000  +1.0459039347E-002 +8.1315608772E-001  +5.7016195735E-001 -6.9167815623E+000 
10270904.881 +5.5702486730E-001 +5.7549348339E+000  +1.1271095903E-002 +6.3130617257E+000  +7.6025821356E-003 +4.7204790676E+001  +5.7765185569E-001 -4.8608625900E+000 
10396050.063 +6.1149953259E-001 +6.7187697463E+000  +1.0314933911E-002 -2.7922836480E+000  +8.8759010284E-003 +1.4356792767E+001  +5.4598589444E-001 -3.3773429708E+000 
10521195.244 +5.3603633743E-001 +4.6318436132E+000  +7.3087413472E-003 +2.2149779285E+001  +8.8412651470E-003 +4.3365486438E+000  +5.6980539023E-001 +2.0037008248E+000 
10646340.426 +5.7758027510E-001 +8.3395939092E+000  +7.8283758044E-003 +2.4140112258E+000  +1.0759297497E-002 +1.8796047810E+001  +5.6805439476E-001 -2.3944700445E+000 
10771485.607 +5.8361829431E-001 +5.8170969363E+000  +9.3529665872E-003 +6.2912582361E-001  +8.9921592520E-003 +1.2167893613E+001  +6.0111420774E-001 +1.4456285859E+000 
10896630.788 +5.8153250575E-001 +6.9239838365E+000  +8.5822432338E-003 -1.9156113562E-001  +9.0560526149E-003 +1.7893846944E+001  +6.0875983574E-001 -4.0029355927E-001 
11021775.970 +5.9201361237E-001 +4.1118621837E+000  +1.0317842892E-002 -1.6662405579E+000  +1.0220726982E-002 +1.4085332484E+000  +5.9130249503E-001 -1.1412774636E-001 
11146921.151 +5.9198897851E-001 +7.3181903905E+000  +1.1824897263E-002 +7.8494911509E+000  +1.0076494174E-002 +2.1435094313E+001  +6.1710218768E-001 +2.3647373784E+000 
11272066.333 +6.4216798290E-001 +7.2057004425E+000  +7.9613556361E-003 +3.5906079479E+000  +1.1495232887E-002 +1.3869405774E+001  +6.2197261515E-001 +1.1404074653E+000 
11397211.514 +5.9635596842E-001 +6.5779480124E+000  +7.5494339861E-003 +6.7226395440E+000  +9.8944015922E-003 +1.9990067424E+001  +6.6860374934E-001 +5.7022383313E-001 
11522356.696 +6.2495576919E-001 +8.7289303885E+000  +8.3524161126E-003 +6.6375921963E+000  +1.2389968199E-002 +2.0084199807E+001  +6.2823781635E-001 +2.2414716682E+000 
11647501.877 +6.0180537913E-001 +6.1889215995E+000  +1.0093036561E-002 +3.5454062305E+000  +9.8345656907E-003 +1.1820192513E+001  +6.5286625071E-001 +3.7300160926E-001 
11772647.059 +6.3114100455E-001 +6.4851030332E+000  +8.2879490432E-003 +7.6481197723E+000  +1.0343916423E-002 +1.5840653744E+001  +6.6201873187E-001 +3.0392592605E-001 
11897792.240 +6.4664306488E-001 +4.8682386508E+000  +1.0484772626E-002 +1.3649918992E+001  +9.1968247713E-003 +1.5524115345E+001  +6.8431142392E-001 +1.8060823005E-002 
12022937.422 +6.6383414693E-001 +7.0275202373E+000  +9.7803867916E-003 +1.4989132740E+001  +9.8155298767E-003 +1.2124194452E+001  +6.9272119451E-001 -3.5581792915E-001 
12148082.603 +6.8559956443E-001 +5.1372689680E+000  +1.1418111491E-002 +6.5161482701E-001  +9.1116547650E-003 +1.7129191766E+001  +6.9350995394E-001 +1.9195201913E-001 
12273227.785 +6.9901262317E-001 +5.6239390264E+000  +1.1036490213E-002 +2.0845543812E+000  +1.0734175954E-002 +2.0337995179E+001  +7.1354134763E-001 +7.7010033845E-001 
12398372.966 +7.0864863697E-001 +2.9459762570E+000  +1.0734978456E-002 +3.0331118326E+000  +1.2428423889E-002 +8.2763526569E+000  +7.0815068395E-001 +9.5200622725E-001 
12523518.148 +7.0317551131E-001 +2.0263817612E+000  +1.2230019718E-002 -8.5282860674E-001  +9.6145185537E-003 +2.0101882161E+001  +7.2826187905E-001 +1.6293162264E+000 
12648663.329 +7.1823580917E-001 +3.9201428769E+000  +1.0702516606E-002 +8.5363145765E+000  +1.0531185263E-002 +1.2015589152E+001  +7.6969201833E-001 -8.6607480817E-001 
12773808.511 +7.6113297450E-001 +1.4224875541E+000  +1.0656601441E-002 +3.8588631542E+000  +1.2197301784E-002 +1.9955006302E+001  +7.6809623199E-001 -4.5391310505E-001 
12898953.692 +7.6338043560E-001 +1.8332733350E+000  +1.0395795263E-002 +8.1798713438E+000  +1.0723840935E-002 +1.6708030697E+001  +7.7453504863E-001 -7.8987926804E-001 
13024098.874 +7.7315499699E-001 +2.0171342051E-001  +1.0633139514E-002 +1.6548844962E+001  +1.0289805287E-002 +1.0062441173E+001  +7.9555237449E-001 -1.4034683005E+000 
13149244.055 +7.7663930931E-001 -8.7960885344E-001  +1.1234313721E-002 +5.4118772781E+000  +9.6735911017E-003 +1.4333942675E+001  +8.2852555423E-001 -6.5891372084E-001 
13274389.237 +8.0168958392E-001 -2.0166699158E-001  +1.2292755061E-002 +1.3104579260E+000  +1.1543191325E-002 +1.2797251378E+001  +8.3255159605E-001 -3.9354339596E+000 
13399534.418 +8.2890391486E-001 -2.3272207614E+000  +1.1422898751E-002 +9.7222297032E+000  +1.0922875609E-002 +1.5936517047E+001  +8.4062360832E-001 -3.6300358367E+000 
13524679.599 +8.4928343988E-001 -1.9989469895E-001  +1.1603593371E-002 +6.4727895757E+000  +1.2076223280E-002 +8.6029503094E+000  +8.6084018079E-001 -1.8199898440E+000 
13649824.781 +8.6098456022E-001 -1.2396730922E+000  +1.1768459143E-002 +3.6469184070E+000  +1.2361470887E-002 +8.0784348281E+000  +8.8939482814E-001 -3.1935203072E+000 
13774969.962 +8.7816463347E-001 -3.1220183677E+000  +1.2650769265E-002 +6.6366325070E+000  +1.2535218787E-002 +8.5575422191E+000  +8.7369847465E-001 -3.5029746098E+000 
13900115.144 +8.9681963143E-001 -2.5634556699E+000  +1.3192678484E-002 +1.2337083599E+001  +1.1018505617E-002 +7.9928475506E+000  +9.2001016943E-001 -3.6785667044E+000 
14025260.325 +9.2959849759E-001 -2.7690870308E+000  +1.2961527135E-002 +4.4087894342E+000  +1.0123587906E-002 +1.1129878329E+001  +9.2508553178E-001 -3.5596716185E+000 
14150405.507 +9.4091894744E-001 -3.8170158180E+000  +1.2166494663E-002 -3.9482657079E-001  +1.3476348446E-002 +1.3564540562E+000  +9.4393585401E-001 -5.6916767049E+000 
14275550.688 +9.5447856376E-001 -4.8284555748E+000  +1.2366337457E-002 +2.0632902736E+000  +1.1863582241E-002 +5.0839273754E+000  +9.6555327676E-001 -4.7370594805E+000 
14400695.870 +9.9314960337E-001 -5.2683792945E+000  +1.1950643179E-002 +1.1623491174E+001  +1.1864068772E-002 +5.9815366348E+000  +9.6061090827E-001 -4.0913585381E+000 
