!  2-Port S-parameters saved by WinCal
! VAR MeasName=S-Parameters (CALIBRATED_DATA) read from VNA (P5004A)
! VAR MeasDate=29/08/2024 12:34:53
! VAR NAME=S2_r9c5_RESET4_9k-100M_2
! VAR FILENAME=S2_r9c5_RESET4_9k-100M_2.S2P
! VAR DATE=29/08/2024 12:34:53
! VAR PHYS_PORTS=1,2
! VAR ObjTypeName=DATASET
! VAR IndexType=Frequency
!
# Hz S MA R 50
9000.000 +9.4276056923E-002 -1.7430502951E+002  +5.5119942347E-003 -1.0224497948E+002  +5.6058464552E-003 +1.5742346091E+002  +2.8184196180E-001 -1.5277733860E+002 
134145.181 +1.1098759639E-001 +1.6985311484E+002  +4.7974412131E-004 -6.5238757974E+001  +3.7722368803E-004 -7.4505503366E+001  +2.4085630793E-001 -1.7130025592E+002 
259290.363 +1.1109688578E-001 +1.7012555083E+002  +2.4999556334E-004 -4.9181645427E+000  +4.1221697167E-004 -1.6451312738E+002  +2.4151935591E-001 -1.6816705669E+002 
384435.544 +1.1385808134E-001 +1.7049723653E+002  +2.7036208413E-004 -1.3075594584E+002  +4.9398201345E-004 -1.4375829805E+001  +2.3988748260E-001 -1.6868032692E+002 
509580.726 +1.1579275788E-001 +1.7311322217E+002  +3.9669567307E-004 -5.5417061934E+001  +1.3815877077E-003 -5.3038274561E+001  +2.4700380623E-001 -1.6208837907E+002 
634725.907 +1.1835306055E-001 +1.7167731293E+002  +8.3456024355E-004 -1.1025543383E+002  +9.6624853667E-004 +7.6971952057E+001  +2.5672832150E-001 -1.6628986525E+002 
759871.089 +1.1968440283E-001 +1.7033799904E+002  +6.9895849791E-004 -1.4920853859E+002  +5.9415194556E-004 -1.6653365645E+002  +2.5066964517E-001 -1.6628296875E+002 
885016.270 +1.2092138463E-001 +1.6878351571E+002  +3.9551898111E-004 +1.3982191561E+002  +3.4220875396E-004 +5.5420439697E+001  +2.4604391679E-001 -1.6604813368E+002 
1010161.452 +1.1695603211E-001 +1.7058797480E+002  +5.6287733287E-004 +5.2723795006E+001  +2.0021419478E-003 -1.7418237529E+002  +2.0258923072E-001 -1.6545750510E+002 
1135306.633 +1.1421072370E-001 +1.6915294090E+002  +8.9110331651E-004 -9.3741497272E+001  +2.8992823050E-003 +1.1372524097E+002  +2.2025274868E-001 -1.6222685720E+002 
1260451.815 +1.2141043506E-001 +1.7244254370E+002  +1.3849866617E-003 -1.0558480484E+002  +4.5498303917E-004 +9.4729390367E+001  +2.2458870581E-001 -1.5230698556E+002 
1385596.996 +1.2547059087E-001 +1.7282789924E+002  +5.6878609544E-004 -1.3663282719E+002  +1.0783206318E-003 -8.8565564982E+001  +2.5953017306E-001 -1.6055814111E+002 
1510742.178 +1.2381033199E-001 +1.7184395519E+002  +9.1828433440E-004 -4.6994017585E+001  +3.6935016916E-004 -5.5211267162E+000  +2.5122566155E-001 -1.5722356721E+002 
1635887.359 +1.2475930253E-001 +1.7030961025E+002  +9.5719550699E-004 -1.3714963563E+002  +5.2265067049E-004 +6.1762962032E+001  +2.5271364308E-001 -1.5951711519E+002 
1761032.541 +1.3178229286E-001 +1.7059994488E+002  +9.8532460333E-004 -8.3546877908E+001  +1.9340274701E-003 +7.3311088039E+001  +2.4380747624E-001 -1.5789747334E+002 
1886177.722 +1.2739812601E-001 +1.6960809295E+002  +1.8613183869E-003 -3.9812641587E+001  +2.2613682218E-003 +1.5028937155E+002  +9.5817842202E-002 -1.6206697776E+002 
2011322.904 +1.3262716373E-001 +1.6845108903E+002  +1.5679864048E-003 -1.5271744911E+002  +1.2904816407E-003 +3.9561177419E+000  +1.9636779369E-001 -1.7365078695E+002 
2136468.085 +1.3164873705E-001 +1.6754709307E+002  +1.3025422418E-003 -1.4047238946E+002  +2.6144387224E-003 -1.5216009565E+002  +1.3885639358E-001 +1.5965458675E+002 
2261613.267 +1.3314283157E-001 +1.6666835277E+002  +1.9107812029E-003 -1.7438595139E+001  +1.4641189414E-003 -2.6248133520E+001  +2.2495167916E-001 -1.7230017683E+002 
2386758.448 +1.2668530593E-001 +1.6146315706E+002  +2.1290491307E-003 +6.9322880323E+001  +3.5495198529E-003 +2.9138941284E+001  +2.0107931542E-001 -1.7658383606E+002 
2511903.630 +1.4111030685E-001 +1.5973674241E+002  +2.2487224316E-003 +3.3782947744E+001  +5.5950687702E-003 +7.3013448264E+000  +5.2642389883E-002 +1.5758964315E+002 
2637048.811 +1.3315677040E-001 +1.6152291234E+002  +1.7314365196E-002 +8.0811527750E+001  +6.3501913602E-003 -1.7750793316E+002  +5.7018380300E-001 +1.3979620244E+002 
2762193.992 +1.3225030952E-001 +1.6576791878E+002  +1.5149757208E-002 -1.1865093333E+002  +1.2364430834E-002 -1.0946442932E+002  +5.3508724151E-001 -6.5381778556E+001 
2887339.174 +1.0546214417E-001 +1.7143207663E+002  +7.3036761930E-003 -4.5459801815E+001  +3.9899247884E-003 -3.0519054201E+001  +3.5481179750E-001 -1.1286376688E+002 
3012484.355 +1.2335497107E-001 +1.6849922146E+002  +6.1711693853E-002 +1.5380519941E+001  +1.8569487621E-002 -6.2118628265E+001  +1.3760978048E+000 +6.0961835501E+001 
3137629.537 +1.0709637223E-001 +1.5835863527E+002  +1.4130328185E-002 +1.5038933580E+002  +1.2243995350E-002 -6.2684506915E+001  +2.3202883400E-001 +1.8873426047E+001 
3262774.718 +8.8608983746E-002 +1.5893302840E+002  +4.7831188498E-003 -1.7392241587E+002  +3.0384215135E-003 -1.1851459841E+002  +2.9215858653E-001 -9.0416831103E+001 
3387919.900 +1.4292929523E-001 +1.5360133895E+002  +1.6875097871E-002 +1.0621239340E+002  +1.1746100433E-002 -1.2440828850E+002  +1.9682532183E-001 +4.3428793911E+001 
3513065.081 +1.7553829787E-001 +1.4889183951E+002  +5.3260191420E-003 +3.4707229567E+000  +9.5660330884E-003 -9.1618499111E+001  +8.3744583879E-001 +9.7260758776E+001 
3638210.263 +1.6150019622E-001 +1.5253725038E+002  +2.0164248435E-002 -1.0292437840E+002  +1.9739771095E-002 +8.4998174824E+001  +7.2484191549E-001 +1.6257256209E+002 
3763355.444 +1.8853403901E-001 +1.3866357892E+002  +1.1808622041E-002 +1.7463165445E+002  +8.8674713808E-003 +6.3842839165E+001  +3.9821581167E-001 +6.8810574625E+001 
3888500.626 +1.5552856581E-001 +1.4559704094E+002  +1.4503270874E-002 +5.9759105837E+001  +3.2259248182E-003 -1.1709994079E+002  +2.5152655619E-001 +1.0424491934E+002 
4013645.807 +1.9056542065E-001 +1.4752769216E+002  +6.7400126094E-003 -1.3523396829E+002  +7.3478140132E-003 +1.0163355172E+001  +1.1449667225E+000 +1.5124424194E+002 
4138790.989 +1.9344740094E-001 +1.4702605420E+002  +9.1011397070E-003 +1.5841985518E+002  +1.6166123737E-002 +5.4774258124E+001  +4.7224002566E-001 +1.1295037487E+002 
4263936.170 +1.9178322905E-001 +1.3111378662E+002  +2.1361197691E-002 -1.7098292834E+002  +1.1010676470E-002 +1.0718031823E+002  +5.4184494096E-001 +1.3979814892E+002 
4389081.352 +2.2703397463E-001 +1.3716380695E+002  +9.7746168539E-003 +5.8361185729E+001  +1.5858836253E-002 -2.7582455225E+000  +1.2903636488E+000 +1.0972495546E+002 
4514226.533 +2.3594935004E-001 +1.3506562654E+002  +1.5578979891E-002 +1.5819515526E+002  +2.6205207648E-002 -5.6169076816E+001  +4.7965505076E+000 +6.9033201381E+001 
4639371.715 +3.5355007552E-001 +6.3279246787E+001  +1.2539112490E-001 +1.5519700985E+002  +2.2641853911E-002 -1.5580575425E+002  +2.0308375282E+000 +1.0676811257E+002 
4764516.896 +3.7652661616E-001 +1.0533471767E+002  +1.0496428905E-002 -1.1965700176E+002  +9.7838018241E-003 -3.0504815879E+001  +1.9890823130E+000 -3.7084466408E+001 
4889662.078 +4.5932010680E-001 +1.2807098604E+002  +1.3591635643E-001 -6.8623647563E+001  +9.5055020190E-002 -3.7396934485E+001  +4.3507726567E+000 -7.8874147604E+001 
5014807.259 +4.2816257352E-001 +1.3316374188E+002  +4.1405012509E-002 -1.5937545176E+002  +3.6719355832E-002 +1.5823242723E+002  +2.6650782271E+000 +1.7654778316E+002 
5139952.441 +4.7643698821E-001 +1.2667965603E+002  +1.6272879225E-001 -1.1109333122E+002  +2.7997332449E-001 -1.2874126450E+002  +1.1105680384E+001 +1.6172086744E+002 
5265097.622 +4.7960062491E-001 +1.3070729689E+002  +1.1375928159E-001 +4.4099607549E+001  +8.1744079724E-003 -3.5759408551E+001  +1.2457692317E+001 +1.6808336583E+002 
5390242.804 +4.2728068336E-001 +1.2760407957E+002  +2.6334274932E-002 +1.7757155378E+002  +2.5228775115E-002 +3.2018662003E+001  +1.9341390174E+000 +6.3844143026E+001 
5515387.985 +4.4221739876E-001 +1.3489542121E+002  +3.2254788084E-002 +1.1485066990E+002  +1.9495041656E-002 -2.4010506938E+001  +4.9639389700E+000 +1.1417158888E+002 
5640533.166 +5.4929399365E-001 +1.1849437791E+002  +1.5200563007E-002 +9.7157652674E+001  +1.6796678672E-002 +1.6263165249E+002  +2.0025715656E+000 +6.5180960946E+001 
5765678.348 +5.0344584588E-001 +1.2825901561E+002  +1.4525057435E-002 +9.1346977900E+001  +4.7989078450E-003 +3.4310879193E+001  +1.3312191438E+000 +1.0143931844E+002 
5890823.529 +5.0125843463E-001 +1.2459231122E+002  +1.4367836424E-002 +9.2755455597E+001  +2.3511004497E-002 +1.3703029727E+002  +1.4946735397E+000 +3.8300795964E+001 
6015968.711 +6.4278944704E-001 +1.1579689135E+002  +3.5829915778E-002 +6.3095454118E+001  +1.2368345829E-002 +4.0547309776E+001  +2.0674401917E+000 +3.0871552025E+001 
6141113.892 +9.1449456959E-001 +1.1662228474E+002  +4.1933633914E-002 +4.8472010309E+001  +2.4903680999E-002 +8.1724465092E+001  +1.6591973106E+000 +3.6509506702E+001 
6266259.074 +9.4006598160E-001 +9.8956524091E+001  +3.1407337015E-002 +9.8024303197E+001  +7.0133846435E-003 -7.4818891786E+001  +1.5505787188E+000 +3.9425170000E+001 
6391404.255 +9.5485354048E-001 +9.3541350075E+001  +2.0636539561E-002 +1.3274771414E+002  +1.1212258549E-002 +1.5042702735E+001  +1.7308019215E+000 +2.3065069142E+001 
6516549.437 +1.2315391351E+000 +9.5608393396E+001  +9.5475816358E-003 +1.0750397079E+002  +4.0606262488E-002 +2.0224109199E+001  +1.1039191945E+000 +6.8997873445E+000 
6641694.618 +1.6579301928E+000 +7.6467445686E+001  +2.0426518596E-002 +2.7168950721E+001  +1.3803743780E-002 -9.1618200190E+000  +1.6280994377E+000 -2.0564461928E+000 
6766839.800 +1.0721222259E+000 +4.5594037755E+001  +2.5075088452E-002 +2.4668674924E+000  +2.4492288388E-002 -5.7222682009E+001  +1.3568976391E+000 -3.6265703334E+000 
6891984.981 +1.9892370280E+000 +2.0817323020E+001  +5.4195052318E-002 +3.8331211967E+001  +3.3649720125E-002 -3.7851605149E+001  +1.2118423442E+000 -8.0721587541E+000 
7017130.163 +1.5526091849E+000 +2.2331003502E+001  +3.2871377068E-002 -7.6480808539E+000  +3.1256210888E-002 -1.2752769857E+000  +1.2596211896E+000 -7.1552839207E+000 
7142275.344 +1.4842645484E+000 +1.3100375303E+001  +1.4943117393E-002 +6.4600732167E+001  +3.2786023166E-002 +4.0517223505E+001  +1.3191097626E+000 -1.1715127357E+001 
7267420.526 +1.5135115499E+000 +2.2566276235E+000  +2.0714636439E-002 -1.5143979294E+001  +1.7456829133E-002 +4.3618395026E+001  +1.2747236291E+000 -2.2258612912E+001 
7392565.707 +1.2434675644E+000 +1.9426803826E-001  +1.0981845270E-002 +8.1459389278E+001  +1.3315587717E-002 +3.4660159804E+001  +1.2972729221E+000 -2.8139791393E+000 
7517710.889 +1.1659393760E+000 +1.4963717068E+000  +1.1811307420E-002 +3.5137930213E+001  +1.1688346073E-002 +2.8045574871E+001  +1.2450920509E+000 -9.9162645689E+000 
7642856.070 +1.0645021205E+000 -5.9807699195E+000  +9.2901400576E-003 -1.4220609558E+001  +1.0328864982E-002 +2.6307264467E+000  +1.0448650186E+000 -1.9594445823E+000 
7768001.252 +9.7873248837E-001 -4.2168789289E+000  +1.3702983271E-002 +1.6141774149E+001  +3.1305376185E-003 +4.8848736146E+001  +9.4112853357E-001 -3.3131347936E+000 
7893146.433 +7.8103689469E-001 +4.8146313838E+000  +1.1136471752E-002 -5.6948598843E+000  +9.7109267748E-003 +1.2203045016E+001  +9.1402464439E-001 -1.0096569719E+000 
8018291.615 +8.2768366266E-001 +1.4942386906E+001  +7.6925493022E-003 -7.5671717365E+000  +1.2865365517E-002 +1.4173102019E+001  +8.6828528118E-001 -3.3756777091E+000 
8143436.796 +8.0624210107E-001 +6.4489343801E+000  +6.2822319761E-003 +3.4552628358E+000  +1.2375468239E-002 +2.2016116687E+001  +8.4968360361E-001 -1.1820013707E+000 
8268581.977 +7.2909165897E-001 +1.1254328878E+001  +9.0893513110E-003 -2.1947628658E+001  +3.5657703036E-003 +4.4648577739E+001  +7.5823800933E-001 -3.7353003223E+000 
8393727.159 +7.2325229664E-001 +1.0032546752E+001  +3.1551330317E-003 -3.2908664744E+000  +1.2091449387E-002 +8.0910411793E+000  +6.5285621433E-001 -6.1249858855E+000 
8518872.340 +6.8711398786E-001 +3.8111896999E+000  +8.3285854264E-003 +5.9062593941E+001  +6.6669453225E-003 +5.0943432247E+001  +7.9679024927E-001 +2.3466323580E-001 
8644017.522 +6.7772017747E-001 +9.9662828840E+000  +1.0137364533E-002 +2.0825680497E+001  +5.0111955627E-003 +4.0238974216E+001  +6.6913014537E-001 +8.3708439047E-002 
8769162.703 +6.3555966823E-001 +2.9227919876E+000  +5.5116727963E-003 +3.3917458241E+001  +6.2709911911E-003 -3.1101550776E+001  +6.6681167932E-001 +7.6515979820E-001 
8894307.885 +6.2155416286E-001 +6.9933739162E+000  +5.9536548388E-003 -1.6893074367E+001  +5.8062266650E-003 +1.0047074899E+001  +6.0630292360E-001 -1.4475249764E+000 
9019453.066 +6.0779238425E-001 -2.6824203093E+000  +7.5785172306E-003 -3.7450652742E+001  +7.8985438895E-003 +3.6097755096E+001  +5.8657209638E-001 -2.5661650709E+000 
9144598.248 +4.9597929001E-001 +7.2042242448E+000  +8.2370660328E-003 +4.7178130438E+000  +9.8646837797E-003 +1.3671748993E+001  +6.3762029026E-001 -2.1502919531E-001 
9269743.429 +5.4901649614E-001 +6.1384159611E+000  +5.8420043515E-003 +1.0449845753E+001  +5.7068995731E-003 +1.7417314931E+001  +5.8761964055E-001 -4.8312266139E+000 
9394888.611 +6.0142932907E-001 +5.7190027718E+000  +1.0516099486E-002 +1.2811876955E+000  +7.9403617369E-003 +1.5449321958E+001  +6.1506938854E-001 -6.3282299723E+000 
9520033.792 +5.2206987683E-001 +5.7916980735E+000  +8.7940858347E-003 -1.6430635700E+001  +9.3967975747E-003 +7.1765829542E+000  +5.6055405813E-001 -2.8773524252E+000 
9645178.974 +5.2887003340E-001 -1.4594738335E-001  +8.0525692999E-003 -9.1939344276E+000  +5.4448514062E-003 +2.2247872724E+001  +5.9993497192E-001 -2.4430707753E+000 
9770324.155 +5.5851934759E-001 +1.2318832735E+000  +6.3840437387E-003 -1.2405859019E+001  +8.4842736663E-003 +3.2327893141E+001  +5.6470349754E-001 -6.7900178323E+000 
9895469.337 +5.4453270569E-001 -1.5723431561E+000  +8.8314814734E-003 -8.2174253651E+000  +7.1553871619E-003 +3.0762206045E+001  +6.1293469612E-001 -4.3373329662E+000 
10020614.518 +5.0986857076E-001 +1.8323716765E+000  +6.7912766609E-003 -2.2319881360E+000  +5.6801836048E-003 +6.8171417387E-001  +5.5778061281E-001 -4.4685362874E+000 
10145759.700 +5.5632495195E-001 +5.2391087068E+000  +6.8230911798E-003 -1.2915189708E+001  +7.9961182328E-003 +4.4885996867E+001  +5.9668847503E-001 -4.5467767848E+000 
10270904.881 +5.2326953522E-001 +4.4180922715E+000  +7.9373945634E-003 +1.6616424251E+001  +9.5003264871E-003 +2.3247073211E+001  +5.7844986931E-001 -1.3663521414E+000 
10396050.063 +5.5428372855E-001 +6.7305284575E+000  +7.3627580459E-003 +4.6545333453E+000  +9.0216964872E-003 +1.8761266225E+001  +5.5990727920E-001 -3.1900843302E+000 
10521195.244 +5.5731041556E-001 +9.2475874859E+000  +8.2946779353E-003 +1.9985849403E+001  +7.2922626048E-003 +3.9164669284E+001  +5.8259721030E-001 +1.2096346934E+000 
10646340.426 +5.7681013972E-001 +4.2592261649E+000  +5.2290658032E-003 -9.7248245430E+000  +5.2383582654E-003 +3.2558969968E+001  +5.9220083670E-001 +1.9298531116E+000 
10771485.607 +5.5164215474E-001 +7.9347631510E+000  +8.0577506327E-003 +8.0411371280E+000  +9.8975448895E-003 +1.7595970561E+001  +6.1498405835E-001 -9.2284951340E-002 
10896630.788 +5.9332380771E-001 +1.0301164085E+001  +7.2167438043E-003 +7.4648217732E-001  +6.4426926917E-003 +6.8923726127E+000  +6.0441506087E-001 +1.0571591045E+000 
11021775.970 +5.9805266666E-001 +5.1115605723E+000  +6.9333884360E-003 +1.1372655876E+001  +8.3444423332E-003 +2.1321244983E+001  +5.9318502998E-001 +8.4308265036E-001 
11146921.151 +6.0525694460E-001 +7.1886021254E+000  +7.7393137005E-003 +5.8454238657E+000  +7.9427554986E-003 +1.5001901239E+001  +6.2880112924E-001 +1.0626487475E+000 
11272066.333 +6.0644280883E-001 +6.7493077150E+000  +7.7224921259E-003 +8.6125571153E-001  +6.6148252258E-003 +4.0724762164E+000  +6.3172525783E-001 +3.6069845963E+000 
11397211.514 +5.8884863827E-001 +7.5004230296E+000  +7.1905936991E-003 +3.5527563310E+000  +7.5806347941E-003 +1.8314498746E+001  +6.5869256043E-001 +1.9093828620E-001 
11522356.696 +6.3083539575E-001 +5.5542175036E+000  +8.3092205638E-003 -1.4981113939E+001  +7.5576279184E-003 +2.6351848761E+001  +6.4199229712E-001 +6.6806206958E+000 
11647501.877 +6.2889096296E-001 +5.2486438115E+000  +9.4707544413E-003 +3.4779321198E+000  +8.7165551161E-003 +1.3117012941E+001  +6.7872987879E-001 +3.1941768378E+000 
11772647.059 +6.2503372621E-001 +4.8142664269E+000  +9.8963447325E-003 +3.8947733921E+000  +8.7062718864E-003 +1.3789851701E+001  +6.6605748831E-001 -3.6225576147E-001 
11897792.240 +6.6835230634E-001 +6.9375575709E+000  +8.2078573679E-003 -1.3809607796E+000  +8.2040284880E-003 +2.2122007737E+001  +6.8053676771E-001 +1.3087269114E+000 
12022937.422 +6.9149248082E-001 +3.9842859269E+000  +8.7925161527E-003 +4.0544230230E+000  +7.3589052043E-003 +2.2832872624E+001  +6.7937927305E-001 -4.8881819314E-001 
12148082.603 +7.1215151769E-001 +7.4435674853E+000  +7.6242592348E-003 +3.6168869274E+000  +8.9999852315E-003 +1.7501101766E+001  +6.9414041088E-001 +2.9858205863E+000 
12273227.785 +6.8424392907E-001 +2.7412485559E+000  +7.7241597511E-003 +6.9103751030E+000  +7.7289933754E-003 +1.5950518334E+001  +7.1686046332E-001 +7.5053096086E-001 
12398372.966 +7.0397650243E-001 +1.3463976765E+000  +1.1055968750E-002 +1.1781680903E+001  +9.9339309069E-003 +7.1030363698E+000  +7.3506560600E-001 +2.2659860704E-001 
12523518.148 +7.2551488297E-001 +1.7874727683E+000  +1.0658760805E-002 +1.3875231333E+001  +7.3037289662E-003 +8.4907101356E+000  +7.3718121188E-001 +3.5863578765E-002 
12648663.329 +7.3844458077E-001 +2.7911263664E+000  +9.1928174764E-003 +2.0636654351E+001  +1.1173917203E-002 +6.2042909993E+000  +7.5152296857E-001 +5.0056259073E-001 
12773808.511 +7.6908079513E-001 +2.0558956292E+000  +9.3899640286E-003 +1.4290158887E+001  +9.0060751850E-003 +1.1389621140E+001  +7.8612112491E-001 -1.3887325466E+000 
12898953.692 +7.9139210855E-001 -1.5461847541E-001  +9.2139033564E-003 +9.1294932874E+000  +8.8210589783E-003 +2.0440654057E+001  +7.9435431101E-001 -4.8316471888E-001 
13024098.874 +8.0670860481E-001 +1.9323549150E+000  +8.5296092203E-003 +1.5508427526E+001  +9.0417115948E-003 +9.1493206323E+000  +8.2099757719E-001 -6.5596088651E-001 
13149244.055 +7.8581935866E-001 +1.0621060454E+000  +9.0950161423E-003 +6.8307757249E+000  +1.0024054916E-002 +3.0399207553E+001  +8.3772198905E-001 -3.2500188801E+000 
13274389.237 +8.3054625452E-001 -8.0752004286E-001  +9.8017118630E-003 +1.1221683026E+001  +1.1594905814E-002 +1.5774487941E+001  +8.0920225942E-001 -2.0166026524E+000 
13399534.418 +8.2910371915E-001 +9.2822110229E-003  +8.8531195340E-003 +6.0379403175E+000  +1.1200975230E-002 +1.9504571170E+001  +8.3406786132E-001 -2.4851350754E+000 
13524679.599 +8.6915407396E-001 -1.1677781979E+000  +8.4677428498E-003 +1.1892929308E+001  +9.7725424707E-003 +5.4019398640E+000  +8.4652339297E-001 -3.1320730222E+000 
13649824.781 +8.8001809905E-001 -1.6071240035E+000  +9.1008534536E-003 +1.4204659024E+001  +1.0323905724E-002 +1.4006072149E+001  +8.6829028619E-001 -2.1325981194E+000 
13774969.962 +9.0088658965E-001 -2.1280548969E+000  +9.9384299361E-003 +7.0290427754E+000  +8.0182934169E-003 +1.8965618796E+001  +8.9999973338E-001 -3.5531957670E+000 
13900115.144 +9.1443012576E-001 -2.7063866325E+000  +9.5001931542E-003 +1.3284095707E+001  +1.0369892252E-002 +5.6817771026E+000  +9.1482615601E-001 -3.6567340093E+000 
14025260.325 +9.2502828270E-001 -4.4332611621E+000  +9.3803067719E-003 +1.7502147931E+001  +1.0232047836E-002 +1.3856320886E+001  +9.3348229802E-001 -3.4297683457E+000 
14150405.507 +9.3167444125E-001 -5.4434438529E+000  +1.0962367554E-002 +6.6879709882E+000  +7.8118774051E-003 +1.5203854440E+001  +9.6225293468E-001 -5.1679625152E+000 
14275550.688 +9.5138797364E-001 -5.7223394635E+000  +9.9442646705E-003 +5.6247511078E+000  +9.7832614782E-003 +1.3514441157E+001  +9.7801102851E-001 -3.6362014780E+000 
14400695.870 +9.8934182099E-001 -5.1766396217E+000  +9.2026881664E-003 +6.7446919159E+000  +1.0295903359E-002 +4.4161706277E+000  +9.6754463431E-001 -5.0902667346E+000 
