!  2-Port S-parameters saved by WinCal
! VAR MeasName=S-Parameters (CALIBRATED_DATA) read from VNA (P5004A)
! VAR MeasDate=29/08/2024 10:18:17
! VAR NAME=S2_r9c1_RESET4_9k-100M_3
! VAR FILENAME=S2_r9c1_RESET4_9k-100M_3.S2P
! VAR DATE=29/08/2024 10:18:17
! VAR PHYS_PORTS=1,2
! VAR ObjTypeName=DATASET
! VAR IndexType=Frequency
!
# Hz S MA R 50
9000.000 +9.0032084954E-002 -1.6200465536E+002  +6.5240040716E-003 +1.0071391186E+002  +6.2016729731E-003 +8.4936219951E+001  +2.3099882223E-001 -1.4149403769E+002 
134145.181 +1.1153075889E-001 +1.6978449892E+002  +1.1551282464E-004 +1.2027620530E+002  +3.7396574205E-004 -1.2976827624E+002  +2.3914274671E-001 -1.7141046964E+002 
259290.363 +1.1225906231E-001 +1.6968351706E+002  +7.5423644259E-005 -1.6831837560E+002  +7.4801354876E-004 +1.0120623969E+002  +2.4059145372E-001 -1.6863923941E+002 
384435.544 +1.1443838940E-001 +1.7019434966E+002  +1.1425020310E-003 -6.2399891281E+001  +9.2801263928E-004 +1.7757168294E+002  +2.4550668114E-001 -1.6894631061E+002 
509580.726 +1.1440293031E-001 +1.6957856708E+002  +1.0806222167E-003 -1.4910701627E+002  +2.4769421669E-004 -9.7975866940E+001  +2.3638517124E-001 -1.6662325150E+002 
634725.907 +1.1753877339E-001 +1.7347316717E+002  +8.6536232679E-004 -3.1553793575E+001  +1.0738230412E-003 -1.0265308691E+002  +2.5251434050E-001 -1.6665945172E+002 
759871.089 +1.1902232384E-001 +1.7108159149E+002  +1.7142821121E-004 -1.3199016206E+002  +5.5838578286E-004 -4.6286303718E+001  +2.4636076491E-001 -1.6654697309E+002 
885016.270 +1.2051578750E-001 +1.6944938215E+002  +2.9469274081E-004 +5.5982677759E+001  +2.6636980781E-004 +8.0324501554E+001  +2.4782851829E-001 -1.6616148568E+002 
1010161.452 +1.1848485101E-001 +1.7022512137E+002  +6.1050719236E-004 -1.2844294905E+002  +9.0928108083E-004 +1.8442635778E+001  +2.1718359296E-001 -1.6812397108E+002 
1135306.633 +1.2065679452E-001 +1.7082943651E+002  +1.5692055192E-003 -6.5031907364E+001  +5.8499589646E-004 +5.2242744926E+001  +2.0203742848E-001 -1.6588777673E+002 
1260451.815 +1.1619838724E-001 +1.7370236748E+002  +2.3910625119E-003 -2.3478818648E+001  +1.6877358811E-003 +1.5240398762E+002  +2.1532108586E-001 -1.5990065485E+002 
1385596.996 +1.2862125722E-001 +1.7202651147E+002  +1.1870614455E-003 -1.3269765985E+002  +9.7118524036E-004 +2.4148193492E+001  +2.7357308967E-001 -1.5893882633E+002 
1510742.178 +1.2894806840E-001 +1.7204917309E+002  +1.3693449946E-004 +2.1501126223E+001  +2.5954039155E-004 +1.7837940988E+002  +2.6282450286E-001 -1.6053694710E+002 
1635887.359 +1.2932593259E-001 +1.7045413881E+002  +7.1907000741E-004 -4.6180613150E+001  +3.6008406986E-004 -1.6192052868E+002  +2.4231111624E-001 -1.6137409982E+002 
1761032.541 +1.2944894088E-001 +1.7127745167E+002  +9.7003975589E-004 -1.2423019154E+002  +4.4989524349E-004 -1.4252493154E+002  +2.3287412354E-001 -1.5766085860E+002 
1886177.722 +1.2820101950E-001 +1.6805231323E+002  +1.6309380367E-003 +1.5445804452E+002  +1.5340640124E-003 -9.4563253397E+000  +2.0964894470E-001 -1.6519241757E+002 
2011322.904 +1.2773153433E-001 +1.6709327455E+002  +2.9740411940E-003 +6.0451522298E+001  +2.4653413450E-003 -8.5459460427E+001  +1.9381133610E-001 -1.6682288562E+002 
2136468.085 +1.2916928405E-001 +1.6678902909E+002  +2.3019066790E-003 +1.5854073386E+002  +2.8019266330E-003 -1.4542668581E+001  +1.9668067328E-001 -1.7462293427E+002 
2261613.267 +1.3248692566E-001 +1.6521127420E+002  +3.9530499137E-003 +6.9290525178E+001  +4.9471714370E-003 -5.9210386849E+001  +1.2423907303E-001 -1.7507685956E+002 
2386758.448 +1.3669356943E-001 +1.6417264316E+002  +2.8246965969E-003 +1.4830438672E+002  +2.3193937083E-003 -1.1917577697E+001  +2.0473184993E-001 -1.7680231442E+002 
2511903.630 +1.3399285591E-001 +1.6346962959E+002  +2.9389617172E-003 +4.4136681810E+001  +5.0788315561E-003 -7.8770634585E+001  +2.0462619635E-001 +1.7929634134E+002 
2637048.811 +1.1296758639E-001 +1.6986336736E+002  +6.8160476331E-003 +7.8289989455E+001  +9.5861580134E-003 -1.3348918511E+001  +3.6060839044E-001 +1.5402531253E+002 
2762193.992 +1.3284122831E-001 +1.7885858642E+002  +2.4172648796E-002 +1.8510342071E+001  +2.1575932248E-002 -1.5969540266E+002  +4.6312862330E-001 +8.7828459291E+001 
2887339.174 +1.0379638036E-001 +1.7652205591E+002  +2.0440458991E-002 +2.9891941553E+001  +7.0054759651E-003 -1.1251388635E+002  +3.0044554135E-001 -1.0973547102E+002 
3012484.355 +1.2844091500E-001 +1.6869910165E+002  +1.8350230358E-002 +7.8808844864E+001  +5.7821099691E-003 -8.5002529913E+001  +2.4055811322E-001 -3.3822550788E+001 
3137629.537 +1.2332235309E-001 +1.5933337387E+002  +7.4780949343E-003 -1.9550357493E+001  +3.9019859542E-003 -6.8957112475E+001  +4.2377182639E-002 -1.2132093679E+002 
3262774.718 +1.2238451801E-001 +1.5416267085E+002  +1.8336355945E-002 +1.3146319166E+001  +1.0700514562E-002 -1.0252993655E+002  +1.8813217391E-001 -7.7615539968E+001 
3387919.900 +1.3480927451E-001 +1.4292784370E+002  +2.1001249769E-002 +8.9276412547E+001  +3.5712094228E-002 +2.8761835047E+001  +2.5196789773E-001 +2.8585963168E+001 
3513065.081 +1.3967734150E-001 +1.4840548166E+002  +1.3886847568E-002 +6.0351948103E+001  +8.6296901670E-003 +1.0212452091E+001  +3.3483541972E-001 +1.3358946955E+002 
3638210.263 +1.7437203928E-001 +1.3651226976E+002  +1.5315236442E-002 +1.3001195615E+002  +1.4052455361E-002 +7.1779382708E-001  +4.4929079340E-001 +1.0866492197E+002 
3763355.444 +1.6237772931E-001 +1.4820015080E+002  +2.9653931264E-002 +4.1634277851E+001  +3.6783576067E-002 -1.6182524639E+001  +4.2829138710E-001 +8.8891144963E+001 
3888500.626 +1.6395832093E-001 +1.4569485022E+002  +2.8019191275E-002 +9.9348319935E+001  +2.6533186280E-002 +3.8594473146E+001  +7.7755293444E-001 +1.1732839890E+002 
4013645.807 +1.7756505071E-001 +1.4973721287E+002  +8.3314569436E-003 +7.5912839878E+001  +1.6369554075E-002 +2.7786375847E+001  +3.4903979675E-001 +1.3698213608E+002 
4138790.989 +1.8984665691E-001 +1.4608153900E+002  +2.9798884554E-002 +8.0791507184E+001  +1.1634365100E-002 +6.3566691540E+001  +4.5467337973E-001 +9.5610371989E+001 
4263936.170 +1.9824631469E-001 +1.4366398930E+002  +2.9527495343E-002 +1.1601494144E+002  +2.7420225917E-003 -1.5231595619E+002  +9.6951431138E-001 +9.4360234437E+001 
4389081.352 +2.2253698709E-001 +1.3855218391E+002  +2.4461764278E-002 +9.0036719481E+001  +1.3885137354E-002 +4.7369552704E+001  +6.3532624202E-001 +9.9371989868E+001 
4514226.533 +2.0704457225E-001 +1.3362183172E+002  +2.4392937712E-002 +1.0970510316E+002  +2.5946249375E-002 +4.0866765686E+001  +9.5607159384E-001 +1.0918175947E+002 
4639371.715 +2.8832097678E-001 +1.3343352710E+002  +1.4457636707E-001 -8.1371330766E+001  +1.2172240609E-001 -1.2923972588E+002  +4.7709651326E+000 -1.2271446441E+002 
4764516.896 +3.6521742421E-001 +1.2049850935E+002  +9.8901155412E-002 +8.1364645409E+001  +1.0495156784E-001 -1.7681040016E+001  +2.5208575462E+000 +5.1542446428E+001 
4889662.078 +4.0911705059E-001 +1.3488407371E+002  +5.8187132896E-002 -5.1989599812E+001  +5.4456376330E-002 -5.8839050634E+001  +2.4295723341E+000 -9.8765639000E+001 
5014807.259 +4.5965979419E-001 +1.3330560518E+002  +2.0357651154E-001 -1.3257892138E+002  +1.4627532411E-001 +1.6381471547E+002  +6.8424813591E+000 +1.6354923309E+002 
5139952.441 +3.6305797294E-001 +1.2866290390E+002  +8.1047170275E-002 +5.8527171718E+001  +1.0425486822E-001 +3.5784058071E+000  +2.8931196266E+000 +9.3930436342E+000 
5265097.622 +3.7926893173E-001 +1.2714750753E+002  +9.5339116584E-002 +1.3350924406E+002  +1.0506721578E-001 +1.0156194195E+002  +2.7148403706E+000 +9.0490246162E+001 
5390242.804 +3.5919411809E-001 +1.2268727072E+002  +4.4869886741E-002 +1.1291388143E+002  +5.2202527008E-002 +7.2156476407E+001  +1.8572922720E+000 +1.0739559320E+002 
5515387.985 +3.9162807981E-001 +1.3103459505E+002  +4.6097805141E-002 +8.5587689551E+001  +4.4404193459E-002 +4.9708613350E+001  +1.4564109796E+000 +8.6137828818E+001 
5640533.166 +4.2082839191E-001 +1.1990662690E+002  +2.6785899090E-002 +8.1493804498E+001  +6.5110685528E-002 +6.5144905972E+001  +2.0668443642E+000 +1.0346050913E+002 
5765678.348 +5.1124413977E-001 +1.2044603565E+002  +8.6142372732E-002 +9.8688059552E+001  +9.6789134212E-002 +5.1051129372E+001  +3.5958618284E+000 +7.1440351366E+001 
5890823.529 +5.4266812318E-001 +1.2289022880E+002  +1.2762557644E-001 +1.1297196252E+002  +8.2533829310E-002 +5.0452059270E+001  +4.0700281331E+000 +8.4780848214E+001 
6015968.711 +4.7817246274E-001 +1.1916963700E+002  +5.8987802461E-002 +8.1570271817E+001  +6.3291162685E-002 +3.7083546721E+001  +2.5207601919E+000 +7.1426665774E+001 
6141113.892 +7.5435110460E-001 +1.1640878247E+002  +3.7596034718E-002 +6.8109144345E+001  +4.3851428683E-002 +6.6446295633E+001  +1.2855512020E+000 +5.3922884713E+001 
6266259.074 +7.9350822124E-001 +1.0843196556E+002  +6.0855122077E-002 +4.1432346117E+001  +3.5384670335E-002 +3.5056946946E+001  +1.0887146348E+000 +3.8171941576E+001 
6391404.255 +1.2312655676E+000 +8.6168455490E+001  +8.6142442093E-002 +4.6397353704E+001  +8.4290946369E-002 +2.2508450215E+001  +1.6631249712E+000 +2.0796457020E+001 
6516549.437 +1.0619987077E+000 +8.1384490459E+001  +7.5794307192E-002 +2.1506051199E+001  +7.8495369497E-002 +2.1493908176E+001  +1.3661150978E+000 +9.8608347963E+000 
6641694.618 +1.8112425883E+000 +8.1356062370E+001  +7.0472055727E-002 +2.0149756202E+001  +9.6908107827E-002 +3.3516146204E+001  +1.5931312740E+000 +2.5252347175E+000 
6766839.800 +1.6781667104E+000 +5.9008853075E+001  +6.3142103618E-002 +1.1323696192E+001  +4.4766327095E-002 +7.9315706120E+000  +1.1595433533E+000 -1.8962521322E+000 
6891984.981 +1.6538922883E+000 +5.2558139174E+001  +7.0342457814E-002 +9.9571237835E+000  +7.5793952234E-002 +1.8842121826E+001  +1.3808708191E+000 -3.3668169510E-002 
7017130.163 +1.6801380710E+000 +3.2240403804E+001  +4.5859768153E-002 +1.4078559717E+001  +8.3455240439E-002 +8.4129216635E+000  +1.2112746442E+000 -6.4931416436E+000 
7142275.344 +1.6695820354E+000 +1.3850046337E+001  +5.0388271922E-002 -8.6724866535E+000  +6.3363973829E-002 -1.0131715232E+001  +1.1698624404E+000 -1.1376826282E+001 
7267420.526 +1.2622606445E+000 -6.0103562503E+000  +3.8369568824E-002 -8.9963599216E+000  +3.8654081224E-002 -2.2328177001E+000  +1.3211180410E+000 -7.3043040754E+000 
7392565.707 +1.2781405882E+000 -3.5797987785E+000  +3.6418247275E-002 -1.6803334851E+000  +2.0783598137E-002 +1.0588550286E+001  +1.3775993854E+000 -8.9015616326E+000 
7517710.889 +1.1986388131E+000 -1.2159283906E+000  +2.7900927881E-002 +8.2645600155E+000  +3.5617565792E-002 +1.1051347300E+001  +1.0625643996E+000 -4.8252491405E+000 
7642856.070 +9.9890509218E-001 +5.0447939261E+000  +3.7369375212E-002 +1.1114354055E+000  +2.3810305318E-002 +2.4284431596E+001  +1.1389597187E+000 -7.1842987913E+000 
7768001.252 +9.9634348257E-001 +8.6695852108E+000  +2.8991128948E-002 -4.9242965205E-001  +2.5588544411E-002 +1.6412004065E+001  +1.0655525057E+000 +7.4975035873E-001 
7893146.433 +9.1738733473E-001 +7.2271920172E+000  +2.5425867717E-002 -5.1195914565E+000  +2.6985532477E-002 +1.5193406809E+000  +9.9230193890E-001 -4.7282234617E+000 
8018291.615 +7.5586017585E-001 +7.1635763688E+000  +2.9641091161E-002 -3.6029292984E+000  +2.4935550284E-002 +1.3032746476E+001  +9.0778121244E-001 -1.8626706445E-001 
8143436.796 +7.4848099455E-001 +1.1076496322E+001  +2.0953328601E-002 -1.1950362859E+001  +2.4526963981E-002 +3.4686339032E+000  +7.2622957016E-001 -4.9864468015E+000 
8268581.977 +6.2489164612E-001 +1.0174934448E+001  +3.1005423271E-002 -5.1309524469E+000  +2.4656092879E-002 +3.7339726014E+000  +7.7630241726E-001 -2.3926249881E+000 
8393727.159 +7.2799179386E-001 +5.1418577243E+000  +2.6138178235E-002 +9.5604132959E+000  +2.0198008856E-002 +9.5695570254E-001  +6.8420948806E-001 +9.9686149953E-001 
8518872.340 +6.7552968810E-001 +8.8857265595E+000  +2.0362291358E-002 -2.6102949714E+000  +2.8060303275E-002 +3.1771686927E+000  +7.3026296595E-001 +6.8065530767E-001 
8644017.522 +6.0372865091E-001 +8.2002217049E+000  +1.9813650297E-002 +1.8456525275E+000  +2.5275361412E-002 +9.3206855730E+000  +6.3478517197E-001 +2.7583236833E+000 
8769162.703 +5.8807998876E-001 +1.2699005889E+001  +2.2247036686E-002 +4.3879515376E+000  +2.3872666404E-002 +1.5444858457E+001  +6.5626530625E-001 +4.5780332783E+000 
8894307.885 +5.6180317009E-001 +7.0830058895E+000  +2.4006487843E-002 -6.9872194827E+000  +2.3216591518E-002 +5.3625327946E+000  +6.0777966585E-001 +3.5000508330E+000 
9019453.066 +5.6460439882E-001 +9.3915483290E+000  +2.3924709519E-002 -2.8707058687E+000  +1.7654986787E-002 +7.8690343483E+000  +6.0871814585E-001 -4.3060358511E+000 
9144598.248 +5.7009388690E-001 +7.4455057104E+000  +2.3069716507E-002 -4.2934751076E+000  +2.6668031857E-002 +2.3235871288E+001  +6.4361212811E-001 -1.0747655077E+000 
9269743.429 +5.6774996536E-001 +8.8512812708E+000  +2.1425031139E-002 +6.9602529367E+000  +2.3977262232E-002 +1.9517115274E+000  +5.8491532300E-001 -1.6894403879E+000 
9394888.611 +5.3073063763E-001 +5.2202998553E+000  +2.0230631443E-002 -4.2805813783E+000  +2.3054353607E-002 +1.1958451188E+001  +6.4620828229E-001 -1.9318369923E+000 
9520033.792 +5.3049984681E-001 +8.9841398023E+000  +2.2121724283E-002 +1.5893938803E+000  +2.2861567969E-002 +8.5239289997E+000  +5.8137598639E-001 +4.1552251062E-001 
9645178.974 +5.3755695494E-001 +3.4882663098E+000  +2.3571492030E-002 -6.0846407660E+000  +2.2077983738E-002 +1.0133656529E+001  +5.9086982393E-001 -5.6734477009E+000 
9770324.155 +5.0045637002E-001 +1.7990370390E+000  +2.3709310847E-002 -1.2082416191E+001  +2.0650402780E-002 +1.9160999128E+001  +5.6506645828E-001 -1.0582112166E+001 
9895469.337 +5.2766963500E-001 +2.8298343158E+000  +2.1600158599E-002 +8.1140751800E-001  +2.4331422727E-002 +1.7549036025E+001  +5.3220005752E-001 -4.9831411776E+000 
10020614.518 +5.2706752725E-001 +5.3668101204E+000  +2.1260860271E-002 -9.1435734566E-001  +2.4220400746E-002 +7.3926360356E+000  +5.3928115087E-001 -6.3355800311E+000 
10145759.700 +5.6006585789E-001 +3.6221056166E+000  +2.5440468681E-002 +3.9808194919E+000  +2.5275638618E-002 +1.2623660080E+001  +5.7110964121E-001 -3.8275365710E+000 
10270904.881 +5.1766198018E-001 +4.0091453830E+000  +2.2423666318E-002 -2.0949256662E+000  +2.0996726878E-002 +1.1926881061E+001  +5.7631726935E-001 -1.2120333969E+000 
10396050.063 +5.4895019796E-001 +4.8455654178E+000  +2.2724376044E-002 +8.5568882418E+000  +2.1830764418E-002 +1.3686359612E+001  +5.3281797722E-001 +3.3876309225E+000 
10521195.244 +5.4481344988E-001 +7.9385409973E+000  +2.3576451466E-002 +4.0136002837E+000  +2.5387990864E-002 +1.2429451542E+001  +6.0311699012E-001 -5.0926723736E+000 
10646340.426 +5.8142937035E-001 +1.0738023131E+001  +2.2878671351E-002 +3.2302930945E+000  +2.3612098745E-002 +1.6570197762E+001  +6.1102210036E-001 +1.8080577564E+000 
10771485.607 +5.4156949144E-001 +1.0077169268E+001  +2.5487193886E-002 +7.5818976829E-001  +2.4229968799E-002 +1.4007488145E+001  +5.8747626034E-001 +1.2283890424E+000 
10896630.788 +5.8212741656E-001 +7.4942375311E+000  +2.5992456579E-002 +1.1652652805E+000  +2.4698973032E-002 +1.5611547032E+001  +6.0012446466E-001 +3.7453434690E+000 
11021775.970 +5.9013645366E-001 +3.6378364381E+000  +2.4133634304E-002 -3.9892415913E+000  +2.2184147703E-002 +1.5075934139E+001  +6.2349824511E-001 +1.4725814154E+000 
11146921.151 +5.4801472448E-001 +8.7246985500E+000  +2.3821893963E-002 +1.5322341430E+000  +2.5136626664E-002 +1.9536667458E+001  +5.9310221984E-001 -1.7134161009E+000 
11272066.333 +5.8144018798E-001 +9.0627864321E+000  +2.1715341489E-002 +6.9722850979E-001  +2.5683346708E-002 +1.3738244144E+001  +5.8398297629E-001 +3.6606042916E+000 
11397211.514 +6.1558923704E-001 +1.0235272273E+001  +2.1953610793E-002 +1.8206573564E+000  +2.6068106332E-002 +1.7234334518E+001  +6.3353198313E-001 +4.2280788793E+000 
11522356.696 +5.9337758464E-001 +6.1045950732E+000  +2.6566823830E-002 +3.2598631425E+000  +2.4730914775E-002 +1.5435618485E+001  +6.4501324502E-001 +1.9509039096E+000 
11647501.877 +6.3411585446E-001 +8.0792324847E+000  +2.3251805507E-002 +2.6589698675E+000  +2.3589007689E-002 +8.6586792417E+000  +6.4905727921E-001 +2.0134718186E+000 
11772647.059 +6.1308603406E-001 +5.6698039206E+000  +2.4663385441E-002 +1.7898562752E+000  +2.5115111302E-002 +1.4928465911E+001  +6.6562909474E-001 +1.8782792707E+000 
11897792.240 +6.5674084242E-001 +4.9258909297E+000  +2.5275294565E-002 +5.7950618277E+000  +2.4283689707E-002 +1.3504773054E+001  +6.5515601411E-001 +1.0973701982E+000 
12022937.422 +6.2717124083E-001 +4.4702661398E+000  +2.6613085099E-002 +1.6465278785E+000  +2.3879130233E-002 +1.9006642968E+001  +6.6385359453E-001 +1.7046823464E+000 
12148082.603 +6.5763183827E-001 +5.3879309629E+000  +2.7550473449E-002 +2.3120403848E+000  +2.4416159172E-002 +1.4934219941E+001  +6.7295536004E-001 -2.2289466971E-001 
12273227.785 +6.8647655351E-001 +4.9356073247E+000  +2.6637077322E-002 +5.9569331011E+000  +2.8483361625E-002 +1.0279236569E+001  +6.9181693318E-001 +1.9177697517E+000 
12398372.966 +6.9674734287E-001 +5.0274067554E+000  +2.7078808065E-002 +5.6583065297E+000  +2.6179036587E-002 +9.6951329376E+000  +7.0313044860E-001 +6.8425231827E-002 
12523518.148 +7.1411591609E-001 +3.4224692975E+000  +2.7037581476E-002 +2.0166087625E+000  +2.6503287669E-002 +9.1094469494E+000  +7.0455194536E-001 +1.3791431540E+000 
12648663.329 +7.1808068071E-001 +3.9248333072E+000  +2.6084443576E-002 +5.7487848314E+000  +2.8848277051E-002 +8.6082066042E+000  +7.2435186546E-001 +4.6875386522E-001 
12773808.511 +7.5259297182E-001 +1.0486807128E+000  +2.7034562721E-002 +9.0939939197E+000  +2.6741686095E-002 +1.0006291588E+001  +7.7031587884E-001 +1.6971024217E+000 
12898953.692 +7.4812282166E-001 +7.8505352925E-001  +2.8143373409E-002 +3.4427302907E+000  +2.5927624953E-002 +1.1264692853E+001  +7.4841097007E-001 +4.2789590152E-002 
13024098.874 +7.5486332491E-001 +1.4355764095E+000  +2.8704652869E-002 +2.8486614303E+000  +2.7207717559E-002 +1.1281124016E+001  +7.7914900434E-001 +4.5611727129E-002 
13149244.055 +7.7104575715E-001 +3.2896197779E-001  +2.8615039713E-002 +7.0031241024E+000  +2.7896466648E-002 +9.0647273568E+000  +8.1231645236E-001 -2.8644204871E+000 
13274389.237 +8.1970882226E-001 -5.9677412700E-001  +2.9097702082E-002 +3.3721154388E+000  +2.8017897395E-002 +9.0605061846E+000  +7.9909077110E-001 -2.8964084231E+000 
13399534.418 +7.9897324254E-001 -7.3657913104E-001  +2.9713629258E-002 +3.2808682224E+000  +2.9577841311E-002 +7.5314604992E+000  +8.1265867210E-001 -1.6978941098E+000 
13524679.599 +8.2665781789E-001 -1.7672485734E+000  +3.0167293330E-002 +4.7459551321E+000  +2.8948225016E-002 +4.6066162941E+000  +8.5648297461E-001 -2.5576906150E+000 
13649824.781 +8.3681378039E-001 -2.9724272232E+000  +3.0055874926E-002 +2.8694761095E+000  +2.8258902151E-002 +6.9143647984E+000  +8.3364640377E-001 -3.4387069661E+000 
13774969.962 +8.6685376728E-001 -2.8100694030E+000  +2.9633233011E-002 +4.1659943003E+000  +2.8994283248E-002 +8.4486510722E+000  +8.8492078021E-001 -2.5515353734E+000 
13900115.144 +8.8078713530E-001 -3.9861138992E+000  +2.9668217069E-002 +2.9408562841E+000  +2.9348901282E-002 +4.1114229243E+000  +8.9193335896E-001 -2.9446019720E+000 
14025260.325 +9.0260697371E-001 -4.3678910052E+000  +3.0424772823E-002 +4.8869219572E+000  +3.0326912336E-002 +6.8780182708E+000  +9.1707663480E-001 -3.4320479752E+000 
14150405.507 +9.2465427262E-001 -4.7616566114E+000  +2.9022361395E-002 +5.5437020655E+000  +3.0542887774E-002 +4.9357733766E+000  +9.3796177979E-001 -4.3154895331E+000 
14275550.688 +9.4426188509E-001 -5.5765150310E+000  +3.2034506446E-002 +4.7346410680E+000  +2.9195847655E-002 +2.7966512568E+000  +9.4365886854E-001 -4.4506050556E+000 
14400695.870 +9.5057373368E-001 -4.8392128770E+000  +2.9881217658E-002 +4.9573467671E+000  +3.0938336230E-002 +7.0902948619E-001  +9.6376368170E-001 -3.8430546697E+000 
