!  2-Port S-parameters saved by WinCal
! VAR MeasName=S-Parameters (CALIBRATED_DATA) read from VNA (P5004A)
! VAR MeasDate=29/08/2024 10:50:25
! VAR NAME=S2_r9c2_RESET5_9k-100M_2
! VAR FILENAME=S2_r9c2_RESET5_9k-100M_2.S2P
! VAR DATE=29/08/2024 10:50:25
! VAR PHYS_PORTS=1,2
! VAR ObjTypeName=DATASET
! VAR IndexType=Frequency
!
# Hz S MA R 50
9000.000 +6.5676601915E-002 -1.3780127669E+002  +9.5037326609E-003 +4.9139639064E+001  +3.3514242520E-002 -1.1300645318E+002  +2.1378406815E-001 -1.4307533296E+002 
134145.181 +1.1107005819E-001 +1.6963759449E+002  +5.6081801312E-004 -1.3136457296E+002  +5.4671332131E-004 -1.1646620028E+002  +2.3878025549E-001 -1.7083038167E+002 
259290.363 +1.1051944350E-001 +1.6913612965E+002  +3.1469643702E-004 +7.3992371688E+000  +4.6664903678E-004 +8.9053701098E+001  +2.4310778433E-001 -1.6884241456E+002 
384435.544 +1.1271053611E-001 +1.7081067375E+002  +1.0327398417E-003 -1.0013389313E+002  +6.1147449529E-004 +1.1111399832E+002  +2.3655746987E-001 -1.6803497703E+002 
509580.726 +1.1066308119E-001 +1.7044606610E+002  +5.3090285381E-004 +1.5756838849E+002  +9.1875901115E-004 -4.3952893952E+001  +2.4593965774E-001 -1.6575219340E+002 
634725.907 +1.1524009017E-001 +1.7273379955E+002  +1.5113268056E-003 -1.1147420897E+002  +4.1852902784E-004 -8.8159861982E+001  +2.4729218163E-001 -1.6591320728E+002 
759871.089 +1.1957706160E-001 +1.7064536987E+002  +2.2319355022E-004 -1.7298956246E+002  +1.3719930642E-003 +1.0579427180E+002  +2.5487813466E-001 -1.6654629480E+002 
885016.270 +1.1889501473E-001 +1.6927240274E+002  +4.6693546940E-004 -9.5051432311E+000  +4.3704895948E-004 -4.8358053903E+001  +2.4372612353E-001 -1.6682550514E+002 
1010161.452 +1.1827068171E-001 +1.6951851084E+002  +4.5532225231E-004 -1.3930692084E+002  +1.4594152109E-003 -4.0047136183E+001  +2.0505639651E-001 -1.6702401535E+002 
1135306.633 +1.1258591071E-001 +1.6949160529E+002  +7.4131395077E-004 -4.5981785299E+000  +3.9860134490E-003 +1.1736572378E+002  +1.8889316577E-001 -1.5996143447E+002 
1260451.815 +1.1977754710E-001 +1.6987140133E+002  +8.1018484007E-004 +5.5063748124E+001  +2.1975779659E-003 +1.4773691704E+000  +2.3495247038E-001 -1.5566943863E+002 
1385596.996 +1.2283388315E-001 +1.7378962526E+002  +2.2431054313E-003 -1.2199542358E+001  +4.9689763983E-004 -4.2486373728E+001  +2.7067183929E-001 -1.5974548547E+002 
1510742.178 +1.2863929660E-001 +1.7291241846E+002  +1.7744036541E-003 -6.4143684613E+001  +7.6409340747E-004 -1.7328457713E+002  +2.5210580562E-001 -1.5768995029E+002 
1635887.359 +1.2858808228E-001 +1.7251255391E+002  +1.7405580948E-003 -7.1697762609E+001  +4.5756408685E-004 -1.2141684519E+002  +2.5849519003E-001 -1.5907703606E+002 
1761032.541 +1.2746815104E-001 +1.7017055278E+002  +4.8693653549E-004 +1.1598964680E+002  +8.6957414108E-004 +6.3772473604E+001  +2.3220292049E-001 -1.6156476631E+002 
1886177.722 +1.2860665994E-001 +1.6969924615E+002  +1.7382639626E-003 +3.8677834403E+001  +1.6266861824E-004 -1.1816608252E+002  +2.0716673045E-001 -1.6120225941E+002 
2011322.904 +1.3186628354E-001 +1.6609377491E+002  +2.3493895529E-003 +8.7333412483E+001  +1.5651937442E-003 -5.7617560373E+001  +2.0372433702E-001 -1.6556640331E+002 
2136468.085 +1.2567496497E-001 +1.6590931430E+002  +3.8081333502E-003 +6.6022986477E+001  +5.5400790643E-003 -1.0219616896E+002  +1.9907981198E-001 -1.6876308743E+002 
2261613.267 +1.3037444853E-001 +1.6366321405E+002  +5.7532104813E-003 +6.1278265476E+001  +6.9227347659E-003 -4.2072163116E+001  +1.1312398596E-001 -1.7718123952E+002 
2386758.448 +1.3769378866E-001 +1.6097492259E+002  +4.1134047770E-003 +7.3810395940E+001  +3.9642674852E-003 -9.5165180179E+001  +1.7411614645E-001 -1.6789383154E+002 
2511903.630 +1.2895521784E-001 +1.6270532390E+002  +8.0282845794E-003 +6.8420993191E+001  +5.3601931541E-003 -8.4796773869E+001  +1.8688548518E-001 -1.5808970730E+002 
2637048.811 +1.2279711455E-001 +1.5835112264E+002  +2.0653286732E-002 +6.3976291241E+001  +1.9757678956E-002 -4.9726615289E+001  +1.2233291908E-001 +1.0185201635E+002 
2762193.992 +1.0569247762E-001 +1.6874002630E+002  +2.5163283887E-002 +5.9660142817E+001  +2.8362545729E-002 -3.4544754816E+001  +3.5008297573E-001 +1.2984186116E+002 
2887339.174 +1.2228695569E-001 +1.7072188147E+002  +1.9377933791E-002 -3.2975788784E+001  +9.6246344886E-003 -1.0892077820E+002  +1.7655808977E-001 -8.4619340949E+001 
3012484.355 +1.1305912982E-001 +1.7248487906E+002  +2.0966569364E-002 +1.4844628070E+001  +3.4632819183E-002 -1.1070633937E+002  +1.5976611331E-001 +4.9974228477E+000 
3137629.537 +1.1524349810E-001 +1.6560869227E+002  +2.4379639652E-002 +1.1210131499E+001  +2.5417536140E-002 -9.0727770925E+001  +1.0742242820E-001 -6.8578321953E+001 
3262774.718 +1.0845363303E-001 +1.6233541939E+002  +5.1362589575E-002 +3.8620730085E+001  +2.4822913700E-002 -4.9397270467E+001  +4.3660990297E-001 +7.2906382207E+001 
3387919.900 +1.1826563613E-001 +1.4047922260E+002  +7.3960014042E-002 +4.6029007387E+001  +6.0002387503E-002 -2.8723635647E+001  +9.0343764275E-001 +2.7420276622E+001 
3513065.081 +1.4579982468E-001 +1.4853823658E+002  +1.3647537171E-002 +7.7585321499E+001  +1.3525696429E-002 -1.6363329945E+001  +2.2598875797E-001 +1.5845539765E+002 
3638210.263 +1.8239625246E-001 +1.3959224729E+002  +3.1025748247E-002 +9.1840031993E+001  +2.5027392662E-002 +4.5682220620E+001  +4.4586600344E-001 +1.1993027876E+002 
3763355.444 +1.7040479045E-001 +1.3855792319E+002  +4.8317156335E-002 +1.0289449053E+002  +5.7796957205E-002 +3.8651007085E+001  +6.5455976079E-001 +1.1403845932E+002 
3888500.626 +1.7479972290E-001 +1.4182505694E+002  +2.4296412310E-002 +9.5370614900E+001  +1.5397370842E-002 -9.6646890756E+000  +3.5237170800E-001 +1.3478615898E+002 
4013645.807 +1.8125267821E-001 +1.4609955799E+002  +2.0242445035E-002 +4.2657155155E+001  +2.1968083983E-002 +1.5045330523E+001  +2.5812663095E-001 +1.3399712789E+002 
4138790.989 +1.6036267017E-001 +1.5032120852E+002  +2.0351876450E-002 +1.2893593364E+002  +1.9351789849E-002 +2.0103659951E+001  +5.3175146310E-001 +1.5088778541E+002 
4263936.170 +2.2015158897E-001 +1.4795893179E+002  +3.3249072507E-002 +1.0022618024E+002  +2.0759686095E-002 +5.9407679410E+001  +6.4847472775E-001 +1.1334886487E+002 
4389081.352 +1.9890916066E-001 +1.4191532381E+002  +1.9620730553E-002 +1.3709371172E+002  +3.7779433377E-002 +4.3865437426E+001  +8.1848064796E-001 +1.4025674274E+002 
4514226.533 +2.4461204482E-001 +1.4129302350E+002  +4.5640924170E-002 +1.2699897883E+002  +4.6384784663E-002 +8.4923562809E+001  +8.6685438316E-001 +1.2186743984E+002 
4639371.715 +2.9607372216E-001 +1.0825552852E+002  +6.6545129210E-002 +1.4019212870E+002  +5.8207317467E-002 +8.6857209075E+001  +9.8731869854E-001 +1.4644026311E+002 
4764516.896 +2.7832626203E-001 +1.3345409848E+002  +8.6372265196E-002 +1.3026624295E+002  +1.1621601683E-001 +8.2144757586E+001  +1.7608022637E+000 +1.2080222512E+002 
4889662.078 +4.1458061004E-001 +1.3150408786E+002  +1.1284900302E-001 -6.5935748380E+001  +1.2748765033E-001 -1.0985378918E+002  +2.5570290069E+000 -1.3006721249E+002 
5014807.259 +3.3494203458E-001 +1.1163030026E+002  +2.3759989316E-001 -1.7751762917E+002  +4.5651414544E-001 +1.3506826134E+002  +6.5106631192E+000 +1.7021848755E+002 
5139952.441 +3.5183141169E-001 +1.2589611931E+002  +1.2030949394E-001 +1.5888717135E+002  +8.8207858690E-002 +1.0190295694E+002  +2.9111182655E+000 +1.4423459305E+002 
5265097.622 +3.7754503186E-001 +1.3352721268E+002  +9.6224895068E-002 +1.2778349068E+002  +6.7444834495E-002 +9.3476082800E+001  +2.1628534148E+000 +1.2220719610E+002 
5390242.804 +3.5225236767E-001 +1.3617776458E+002  +9.1025296249E-002 +1.1861299824E+002  +7.3673069752E-002 +9.2080625353E+001  +2.4964415452E+000 +1.2017081890E+002 
5515387.985 +4.0910081529E-001 +1.3082712950E+002  +7.3981108038E-002 +1.1131422950E+002  +8.6019112007E-002 +9.8478173214E+001  +2.6993658198E+000 +1.0265166033E+002 
5640533.166 +5.0606706499E-001 +1.3079976392E+002  +1.2565961030E-001 +1.0096233621E+002  +1.3613031096E-001 +7.1024833041E+001  +2.9718402386E+000 +7.3611723081E+001 
5765678.348 +4.7782522359E-001 +1.2623267279E+002  +9.7491698205E-002 +9.0511406019E+001  +8.9382518834E-002 +8.6915365373E+001  +1.8090828651E+000 +8.9829751207E+001 
5890823.529 +6.7992247395E-001 +1.2245263138E+002  +1.2656665301E-001 +1.0305133401E+002  +1.5054833106E-001 +6.6456051831E+001  +2.4442550393E+000 +6.4541897847E+001 
6015968.711 +6.2757417678E-001 +1.1190719482E+002  +9.0353869078E-002 +7.0641348026E+001  +9.3196907323E-002 +4.8755659174E+001  +1.4581406120E+000 +4.8055419796E+001 
6141113.892 +6.1432477126E-001 +1.1730000167E+002  +9.0067881763E-002 +4.3615963552E+001  +1.0296072737E-001 +3.5792681458E+001  +1.8944585515E+000 +3.4470010419E+001 
6266259.074 +6.7358097304E-001 +1.0516942475E+002  +8.8686903830E-002 +4.2571837354E+001  +9.1250112073E-002 +2.7948019865E+001  +1.0926320804E+000 +4.3160917319E+001 
6391404.255 +1.0864916727E+000 +8.6914012893E+001  +1.5255691898E-001 +5.6685974635E+001  +1.1838043169E-001 +3.2502067142E+001  +1.4661289347E+000 +2.3951268591E+001 
6516549.437 +1.2291534369E+000 +8.5365365798E+001  +1.2510037026E-001 +2.9243349296E+001  +1.4083139547E-001 +2.4064472727E+001  +1.5443166871E+000 -4.3579869559E+000 
6641694.618 +1.2078062980E+000 +6.8156257790E+001  +1.2615269132E-001 +2.0931190590E+001  +1.3056750029E-001 +1.4564645361E+001  +1.3185439190E+000 -1.3583157438E+000 
6766839.800 +1.6262147619E+000 +5.2582449026E+001  +1.4473633102E-001 +3.2037517277E+001  +1.4965009615E-001 +1.5153581162E+001  +1.1372064818E+000 +1.0542045354E+001 
6891984.981 +1.7115799478E+000 +3.7511230057E+001  +1.2885833743E-001 +9.3752618310E-001  +1.2865567463E-001 -3.7010027804E+000  +1.1178148378E+000 -2.1311018648E+000 
7017130.163 +1.4694677669E+000 +2.3597400081E+001  +1.1460268989E-001 -1.0055234210E+000  +1.0680288375E-001 -2.8982877844E-001  +1.2960396795E+000 -1.1314621650E+001 
7142275.344 +1.6587264685E+000 +5.6153063930E+000  +1.0081482393E-001 -2.9899233774E+000  +8.8269814190E-002 -8.6172386408E+000  +1.1538264820E+000 -1.5753191609E+001 
7267420.526 +1.3238219391E+000 +1.0652404610E+001  +8.3763534686E-002 -1.3347113164E+000  +7.3324775435E-002 +4.4183617947E+000  +1.2743756478E+000 -1.2123890308E+001 
7392565.707 +1.4442089312E+000 +1.5494331868E+000  +5.2740087643E-002 +1.0417846262E+001  +6.9765060583E-002 +1.3573742756E+001  +1.2501405008E+000 -1.7545386645E+000 
7517710.889 +1.1042762907E+000 +1.1882237249E+000  +5.4371889067E-002 +3.7607337361E+000  +7.2680838695E-002 +7.2605974806E+000  +1.0617969763E+000 -8.3232654036E+000 
7642856.070 +1.0888454328E+000 -2.5801218751E+000  +5.8670966875E-002 +1.4893768761E+000  +5.2647512820E-002 +4.2643343156E+000  +1.0629441523E+000 +1.5115701337E+000 
7768001.252 +8.3127855794E-001 +4.4715509353E+000  +5.2422361174E-002 -1.4160372495E+000  +5.2754650528E-002 +6.9365053111E+000  +9.1215617466E-001 -3.6706988937E+000 
7893146.433 +8.2461942334E-001 -4.4053164752E+000  +5.0083032250E-002 +1.1828021059E+000  +5.4730048458E-002 +5.3270779562E+000  +8.3065190393E-001 +4.7072672399E+000 
8018291.615 +7.3743491577E-001 +6.7912095908E+000  +5.5514357708E-002 -7.9987697866E+000  +5.0508210878E-002 +5.3995900537E+000  +8.1407310237E-001 -1.6455192095E+000 
8143436.796 +7.0040795456E-001 +9.6126350210E+000  +4.7542746727E-002 -5.2104384299E+000  +4.4920346598E-002 +4.0279341169E+000  +6.5058108322E-001 -2.6201942579E+000 
8268581.977 +7.4250319779E-001 +5.1782813404E+000  +5.1149053606E-002 -1.8987249674E+000  +4.5227774125E-002 +3.9932928031E+000  +7.1033570031E-001 +5.4570391505E+000 
8393727.159 +6.6403892514E-001 +1.1197169492E+001  +4.3593534418E-002 -5.9561657303E-001  +4.7824928815E-002 +1.4186108584E+001  +6.7713190394E-001 +2.3725299517E+000 
8518872.340 +6.5392172149E-001 +8.4101070942E+000  +4.9003624424E-002 -4.2557764982E+000  +4.8205359636E-002 +1.5722072445E+001  +6.8660309030E-001 +2.2434529796E+000 
8644017.522 +5.7541191675E-001 +7.3339491246E+000  +4.4234873793E-002 -6.2153880419E+000  +4.6896925900E-002 +9.2406679555E+000  +6.5448191655E-001 +2.6391168089E-001 
8769162.703 +5.8695040762E-001 +1.0647196604E+001  +4.6646019969E-002 -3.3194804511E+000  +4.6692971947E-002 +1.2356677618E+001  +5.8036683272E-001 +3.1666470074E-001 
8894307.885 +5.5623866780E-001 +7.3230173773E+000  +4.3867275751E-002 -3.8852583390E+000  +4.1691175297E-002 +1.5435882180E+001  +6.2716910506E-001 +7.2216142057E+000 
9019453.066 +5.2725102031E-001 +1.9814714530E+000  +4.4669902191E-002 -5.3003352860E+000  +4.4293845267E-002 +1.0076141835E+001  +5.7251298218E-001 -3.6244600715E+000 
9144598.248 +5.2587554743E-001 +7.0354202502E+000  +4.5517729041E-002 -6.5787102514E+000  +4.4227658768E-002 +4.9785344072E+000  +5.4796884482E-001 +3.3906048898E+000 
9269743.429 +5.7950589513E-001 +1.1848828802E+001  +4.6469839995E-002 -1.7177615726E+000  +4.2905958894E-002 +8.6351748567E+000  +5.8237193356E-001 -8.1428876466E-001 
9394888.611 +5.1640547124E-001 +2.0968287995E+000  +4.8958250383E-002 -3.7827174497E+000  +4.5845840472E-002 +1.0398734872E+001  +5.5852333114E-001 -1.1509605357E+000 
9520033.792 +5.0116710565E-001 +6.2413157052E+000  +4.4735855674E-002 -6.0606257913E-001  +4.4271951533E-002 +1.1114952702E+001  +5.0271948652E-001 -6.7305038701E+000 
9645178.974 +5.0127309401E-001 +2.1647779004E+000  +4.4522906786E-002 -6.0568453626E-001  +4.1676443264E-002 +7.9842973662E+000  +5.5403822587E-001 -3.5853325170E-001 
9770324.155 +5.1264252529E-001 +3.8038613989E+000  +4.5567705624E-002 -1.9648542593E+000  +4.3529735737E-002 +1.0616735016E+001  +5.2964596090E-001 -8.1275051256E+000 
9895469.337 +5.3112705539E-001 +2.4241417439E+000  +4.7296098801E-002 -3.3712510745E+000  +4.5171754614E-002 +1.4916216826E+001  +5.2766150815E-001 -5.2819741820E+000 
10020614.518 +5.0721853418E-001 +5.1392728059E+000  +4.7847441544E-002 -7.7041758958E+000  +4.7254023817E-002 +1.1875074944E+001  +5.3883213699E-001 -5.7233713726E+000 
10145759.700 +5.1072502127E-001 +1.2447526456E+000  +4.6154553481E-002 -2.3605709818E+000  +4.5932423477E-002 +1.5763026004E+001  +5.1222001206E-001 -8.0528762188E-001 
10270904.881 +5.0118462050E-001 +4.2344660302E+000  +4.3049280508E-002 +4.0398088372E-001  +4.5458829406E-002 +1.1252718288E+001  +5.3272182794E-001 +6.3051964382E-001 
10396050.063 +4.8762761163E-001 +8.6380794422E+000  +4.5256814743E-002 +3.3261217764E-001  +4.6044600408E-002 +1.4695498577E+001  +5.4349875200E-001 -3.8186205178E+000 
10521195.244 +5.1962878430E-001 +9.9056782473E+000  +4.5502946382E-002 -5.2758257229E+000  +4.4621417025E-002 +1.0911337597E+001  +5.0932838603E-001 +1.5578371806E+000 
10646340.426 +4.9067963541E-001 +1.2102856515E+001  +4.6671935065E-002 -3.6831802310E+000  +4.4611792825E-002 +1.3166205299E+001  +5.5105598506E-001 +6.2134056726E+000 
10771485.607 +5.2063624894E-001 +4.4261798668E+000  +4.6149125756E-002 -1.7621813221E+000  +4.6623494596E-002 +1.1890369745E+001  +5.2200157499E-001 +3.2185375925E-001 
10896630.788 +5.3959769563E-001 +1.0896259907E+001  +4.5023033682E-002 -4.0314264007E+000  +4.4274950506E-002 +1.5189492650E+001  +5.3778907429E-001 +2.2000080761E+000 
11021775.970 +5.4321295948E-001 +8.4001496108E+000  +4.5942960791E-002 +2.5523459006E+000  +4.8487227254E-002 +1.3731693441E+001  +5.7216673640E-001 +1.1725026629E+000 
11146921.151 +5.6753901852E-001 +8.2287560540E+000  +4.8578759088E-002 -2.4356015160E+000  +4.8571938990E-002 +1.3324908570E+001  +5.5693097280E-001 -9.1260425264E-001 
11272066.333 +5.5255591441E-001 +8.6647580723E+000  +4.7164207205E-002 +2.3880846381E+000  +4.9349849040E-002 +1.2915614945E+001  +5.8790543986E-001 +2.8393209583E+000 
11397211.514 +5.5058849906E-001 +5.8542222727E+000  +4.8274034538E-002 -2.1733477887E+000  +4.8127363561E-002 +9.3946306658E+000  +5.5437783357E-001 +4.1558195426E-001 
11522356.696 +5.7327120356E-001 +8.4394737314E+000  +5.1577021383E-002 +1.8369755168E+000  +4.8488640030E-002 +1.0985510285E+001  +6.0772055724E-001 +3.8129627657E+000 
11647501.877 +5.9972474947E-001 +7.8557788208E+000  +5.0965923683E-002 -5.5978881564E-001  +4.7697071271E-002 +1.1475673056E+001  +6.1878134358E-001 -8.6251069336E-001 
11772647.059 +6.0039293932E-001 +7.3422435261E+000  +4.8991302901E-002 +1.4694330748E+000  +4.9245265640E-002 +1.1788881124E+001  +6.1886732184E-001 +3.0314013918E+000 
11897792.240 +6.2363731496E-001 +5.2250640207E+000  +4.9733192500E-002 -4.2899429213E-001  +5.0587589974E-002 +1.2563243942E+001  +6.3886934418E-001 +6.5714830169E-001 
12022937.422 +6.1045010846E-001 +7.9728717801E+000  +5.0869180883E-002 +1.7254962593E+000  +5.0956844871E-002 +1.3478710711E+001  +6.5881950948E-001 -9.7466011635E-001 
12148082.603 +6.5280740973E-001 +5.0238414373E+000  +5.2755961897E-002 +5.1397133626E+000  +5.0191612642E-002 +1.2521272399E+001  +6.6610456522E-001 +3.0866783867E-001 
12273227.785 +6.5295062079E-001 +3.0265233604E+000  +5.1769348759E-002 +2.9873495996E+000  +5.1759385173E-002 +1.1264993820E+001  +6.6209548687E-001 +4.7392328561E-001 
12398372.966 +6.5841192478E-001 +5.4901970812E+000  +5.2561953779E-002 +1.0523963810E+000  +5.1776265134E-002 +1.0595984095E+001  +6.8139229136E-001 -5.0364090305E-001 
12523518.148 +6.7891471555E-001 +4.7581860383E+000  +5.2114457901E-002 +7.2056336391E-001  +5.2153437052E-002 +8.9821531408E+000  +7.0816706035E-001 +1.1045619567E+000 
12648663.329 +6.8730796396E-001 +5.0110364492E+000  +5.4218921270E-002 +1.4790195421E+000  +5.4410961834E-002 +8.3175035729E+000  +6.8486125434E-001 +3.2618194158E-001 
12773808.511 +7.1457952776E-001 +2.2778585268E+000  +5.2360416771E-002 +1.3829907808E+000  +5.4708037469E-002 +9.1137170706E+000  +6.9167562252E-001 -1.0630571353E+000 
12898953.692 +7.0829532967E-001 +1.9713063571E+000  +5.6521229309E-002 +4.8069414265E-001  +5.4005088241E-002 +8.5145009328E+000  +7.2548622865E-001 -6.9450297123E-001 
13024098.874 +7.4382502206E-001 +1.0273542209E+000  +5.5843278100E-002 +2.7010299871E+000  +5.6332388734E-002 +8.3458735113E+000  +7.4762887669E-001 +4.1128133732E-001 
13149244.055 +7.4376890215E-001 -2.4224013838E-001  +5.7268795745E-002 +1.6890397892E+000  +5.6028603290E-002 +8.3161843909E+000  +7.6284024799E-001 -1.5827083338E+000 
13274389.237 +7.5663521855E-001 -2.0530505117E-001  +5.5682643835E-002 +2.6859372927E+000  +5.4352400871E-002 +7.5087826249E+000  +7.6856500860E-001 -2.1200594343E+000 
13399534.418 +7.9060464990E-001 -1.6040741643E-001  +5.5482445945E-002 +3.4041251602E+000  +5.6163579996E-002 +8.1071152232E+000  +7.8781494159E-001 -2.6764815126E+000 
13524679.599 +8.0103795923E-001 -1.7585934336E+000  +5.9239424051E-002 +3.8688486640E+000  +5.6516649723E-002 +5.8174824514E+000  +8.3095633699E-001 -2.7753377536E+000 
13649824.781 +8.0720027010E-001 -1.9045622663E+000  +5.8940377010E-002 +3.1628873797E+000  +5.7118400288E-002 +6.3640896049E+000  +8.2177560122E-001 -2.4050688246E+000 
13774969.962 +8.0814591237E-001 -1.6948530068E+000  +5.7212864000E-002 +2.9171434761E+000  +5.7149754208E-002 +4.0719222461E+000  +8.4733368383E-001 -1.3987863575E+000 
13900115.144 +8.6322881292E-001 -3.7987968862E+000  +5.8843310831E-002 +2.5228502618E+000  +5.8687682766E-002 +3.4865562403E+000  +8.4244219930E-001 -3.1190032992E+000 
14025260.325 +8.7591670669E-001 -2.6009325802E+000  +5.9678005627E-002 +2.6269431521E+000  +5.8469411816E-002 +3.3237968604E+000  +8.8531911295E-001 -4.2177339301E+000 
14150405.507 +9.0694396963E-001 -4.1617267162E+000  +5.9884234800E-002 +2.5828723982E+000  +5.9353332099E-002 +4.7474154715E+000  +9.1424649529E-001 -3.4442125096E+000 
14275550.688 +9.0763436007E-001 -5.7238556455E+000  +6.0617482002E-002 +1.9335194204E+000  +5.8818790164E-002 +1.2084538171E+000  +9.1094405371E-001 -5.9569042101E+000 
14400695.870 +9.1799528197E-001 -5.3709521015E+000  +6.1079800287E-002 +1.1767702636E+000  +5.8463523360E-002 +2.2851824915E+000  +9.3052331382E-001 -4.3344241544E+000 
