!  2-Port S-parameters saved by WinCal
! VAR MeasName=S-Parameters (CALIBRATED_DATA) read from VNA (P5004A)
! VAR MeasDate=29/08/2024 11:38:53
! VAR NAME=S2_r9c4_pristine_9k-100M_1
! VAR FILENAME=S2_r9c4_pristine_9k-100M_1.S2P
! VAR DATE=29/08/2024 11:38:53
! VAR PHYS_PORTS=1,2
! VAR ObjTypeName=DATASET
! VAR IndexType=Frequency
!
# Hz S MA R 50
9000.000 +8.9265868245E-002 -1.6735351586E+002  +1.1014015555E-002 -1.0177332854E+002  +7.0105344101E-003 -1.0229898075E+002  +2.8084521310E-001 -1.4301686112E+002 
134145.181 +1.1123907049E-001 +1.6977714755E+002  +2.7832644024E-004 +6.4522652388E+001  +6.6153674997E-004 +6.5781794385E+001  +2.4182085361E-001 -1.7105155474E+002 
259290.363 +1.1188730806E-001 +1.6949251022E+002  +6.4560868621E-004 -1.1253343555E+002  +7.6566109988E-004 +1.4242794830E+002  +2.4282652387E-001 -1.7093421197E+002 
384435.544 +1.1378087813E-001 +1.7064024140E+002  +4.5813813319E-004 -1.2219743940E+002  +3.6394005106E-004 +2.2988144945E+001  +2.3733001937E-001 -1.6844123765E+002 
509580.726 +1.1525742411E-001 +1.6995028095E+002  +1.0721991755E-003 -6.5402445144E+001  +1.3589966919E-003 +1.0337315426E+002  +2.4456790686E-001 -1.6434037600E+002 
634725.907 +1.1948611041E-001 +1.7172978344E+002  +2.1910360421E-003 -7.1484106847E+001  +1.9240485391E-003 +1.0945054854E+002  +2.5282031954E-001 -1.6587565867E+002 
759871.089 +1.2056280297E-001 +1.7066513770E+002  +5.6608201668E-004 -5.8196716965E+001  +2.0539816231E-003 +1.1482147913E+002  +2.4756256689E-001 -1.6569378708E+002 
885016.270 +1.2122946334E-001 +1.6893039603E+002  +7.0832682012E-004 -4.3476904826E+001  +7.3603661003E-004 -1.6558604384E+002  +2.4788918705E-001 -1.6746306418E+002 
1010161.452 +1.2003676381E-001 +1.6842508274E+002  +1.4145938484E-003 +4.4055890795E+001  +1.0065633896E-003 -1.4040582009E+002  +2.2046884918E-001 -1.7013374543E+002 
1135306.633 +1.2105852181E-001 +1.6773949723E+002  +2.5246625401E-003 -1.9089904815E+000  +3.6472332063E-003 -1.4059162675E+002  +2.0773235322E-001 -1.6497028587E+002 
1260451.815 +1.2239882150E-001 +1.7078001546E+002  +5.8585102589E-003 -1.9490562683E+001  +4.8871987676E-003 +1.4676767482E+002  +2.0517465832E-001 -1.4814441929E+002 
1385596.996 +1.2515370525E-001 +1.7228572796E+002  +1.9299613616E-003 -5.7895733153E+001  +3.1120916361E-003 +1.5630580175E+002  +2.5383542344E-001 -1.6136121885E+002 
1510742.178 +1.2893365878E-001 +1.7090350987E+002  +1.8774612620E-003 -2.7866228558E+001  +3.0022132873E-003 -1.6850528701E+002  +2.5197756755E-001 -1.6052850182E+002 
1635887.359 +1.2680788877E-001 +1.7053982567E+002  +2.1732388373E-003 +1.5797674712E+000  +3.0254934979E-003 -1.4420614265E+002  +2.4799047788E-001 -1.6136859020E+002 
1761032.541 +1.3051339355E-001 +1.6983370294E+002  +5.2794947203E-003 +1.4347705397E+001  +5.0812898136E-003 -1.0355472110E+002  +2.2332727841E-001 -1.5124844806E+002 
1886177.722 +1.3029463077E-001 +1.6932882791E+002  +5.8176044118E-003 +6.4238690547E+001  +8.3727167756E-003 -7.8544437454E+001  +2.1680038054E-001 -1.5805455489E+002 
2011322.904 +1.3165468252E-001 +1.6754015982E+002  +9.5379928555E-003 +7.0983751426E+001  +9.4783304913E-003 -5.9805668709E+001  +2.1342127828E-001 -1.6183138970E+002 
2136468.085 +1.3438299463E-001 +1.6539125553E+002  +1.1618158774E-002 +8.1534593425E+001  +1.1673656304E-002 -4.8547336835E+001  +2.2027299445E-001 -1.6140758505E+002 
2261613.267 +1.3040627778E-001 +1.6868584356E+002  +1.9713434055E-002 +7.0723144529E+001  +2.3721226003E-002 -4.8205832437E+001  +1.7147379545E-001 -1.6952563306E+002 
2386758.448 +1.3993087754E-001 +1.6549916197E+002  +2.3573784363E-002 +9.1264916379E+001  +2.4417244173E-002 -2.8391418975E+001  +1.7377273052E-001 -1.7696949481E+002 
2511903.630 +1.3435814157E-001 +1.6627219350E+002  +3.2741873582E-002 +7.8647738463E+001  +3.3675294090E-002 -3.3164140762E+001  +1.7707273011E-001 -1.7693174261E+002 
2637048.811 +1.1784128855E-001 +1.6667898473E+002  +7.4731219386E-002 +6.3206780111E+001  +6.7746417429E-002 -5.3080354643E+001  +6.5577043111E-002 -1.5861159980E+002 
2762193.992 +1.1067430060E-001 +1.6388497190E+002  +7.8876836369E-002 +4.4286314461E+001  +7.9132101896E-002 -6.5094506160E+001  +1.2660687797E-001 -1.2767814117E+002 
2887339.174 +1.4014634844E-001 -1.7893876363E+002  +6.5555937134E-002 +7.6236218389E+000  +6.6882749116E-002 -9.8287752574E+001  +1.2715724845E-001 -1.2575630831E+002 
3012484.355 +1.3848748484E-001 -1.7819023511E+002  +9.7400476574E-002 -6.2119998240E+000  +9.6302450865E-002 -1.0984623077E+002  +2.4448264021E-001 -9.2640670788E+001 
3137629.537 +1.4582965409E-001 +1.7952210139E+002  +5.7649688690E-002 -1.7610842312E+001  +5.8946766304E-002 -1.1484988429E+002  +2.5286801238E-001 -1.2574927688E+002 
3262774.718 +1.2916714758E-001 +1.7828529308E+002  +6.7418524475E-002 +1.6019939345E+001  +7.2206240764E-002 -7.2731253856E+001  +1.5244786158E-001 -1.4016996850E+002 
3387919.900 +1.3051797213E-001 +1.6031367665E+002  +8.3571334760E-002 +5.7321516765E+001  +8.4937086524E-002 -3.2111263385E+001  +8.4447427805E-002 +1.7108182215E+002 
3513065.081 +1.1917180703E-001 +1.5584116374E+002  +1.4281466816E-001 +6.6375662104E+001  +1.3394114625E-001 -2.1915475755E+001  +1.4754616313E-001 +8.4806188489E+001 
3638210.263 +1.5348022790E-001 +1.5873639494E+002  +7.4131324330E-002 +6.7000618248E+001  +8.1212966000E-002 -9.2119674319E+000  +1.5201189119E-001 +1.5488010679E+002 
3763355.444 +1.8151040755E-001 +1.4532333691E+002  +1.1444875572E-001 +1.2074546612E+002  +1.1670442261E-001 +4.4679364364E+001  +4.1530800031E-001 +1.5075934279E+002 
3888500.626 +1.7791487680E-001 +1.4221042734E+002  +1.5133170453E-001 +1.1543390189E+002  +1.5480150703E-001 +3.9781935589E+001  +4.8372243673E-001 +1.3758617092E+002 
4013645.807 +1.7448536685E-001 +1.5443834533E+002  +9.2542783301E-002 +9.1333542287E+001  +8.7224516870E-002 +2.3378432405E+001  +3.2423357178E-001 +1.5167265309E+002 
4138790.989 +1.7846655287E-001 +1.4972752998E+002  +8.9545125137E-002 +8.9240376982E+001  +8.4221297353E-002 +2.4259785683E+001  +3.0061650201E-001 +1.6760516251E+002 
4263936.170 +1.8872946478E-001 +1.4655336908E+002  +1.1226824870E-001 +9.7078739310E+001  +1.0810194695E-001 +3.4146277956E+001  +3.5128179760E-001 +1.5416900840E+002 
4389081.352 +1.9599530542E-001 +1.4887833268E+002  +1.0830419637E-001 +7.5317453533E+001  +1.0292391374E-001 +1.4754941931E+001  +2.0047283992E-001 +1.5860563058E+002 
4514226.533 +2.1002158323E-001 +1.4035899511E+002  +1.6042038318E-001 +9.1378271949E+001  +1.4928360889E-001 +3.5178813402E+001  +3.5367475741E-001 +1.3641782046E+002 
4639371.715 +2.4132137018E-001 +1.3441640272E+002  +2.7371180718E-001 +8.7968355197E+001  +2.7293115137E-001 +3.3339098984E+001  +6.1036466743E-001 +8.5180516574E+001 
4764516.896 +3.7198943415E-001 +1.3444336535E+002  +3.8302021609E-001 +1.2449756810E+002  +3.8324476439E-001 +7.5898139254E+001  +9.8264117757E-001 +1.1494106281E+002 
4889662.078 +5.8882428970E-001 +1.6683451804E+002  +8.4421716291E-001 -1.6056886668E+002  +8.4346971252E-001 +1.5487417787E+002  +2.1605972818E+000 +1.7278625891E+002 
5014807.259 +3.3155639203E-001 +1.2685433406E+002  +3.2979071955E-001 +1.0084263681E+002  +3.1075035186E-001 +5.4095127883E+001  +6.5281474632E-001 +1.0961958158E+002 
5139952.441 +3.6624876045E-001 +1.3427533276E+002  +2.6112804751E-001 +1.1955036296E+002  +2.4493849130E-001 +7.8147128917E+001  +6.9514075830E-001 +1.4068288401E+002 
5265097.622 +3.5373403715E-001 +1.3673103003E+002  +2.4045619819E-001 +1.1468237410E+002  +2.2450114675E-001 +7.5711900218E+001  +7.4560739436E-001 +1.3998119451E+002 
5390242.804 +3.4184864975E-001 +1.3497242724E+002  +2.5341699335E-001 +9.2172206256E+001  +2.4410566640E-001 +5.5620466855E+001  +5.8641179638E-001 +1.1847598133E+002 
5515387.985 +3.7324254440E-001 +1.3809138762E+002  +2.8246292946E-001 +1.0558527519E+002  +2.6965107243E-001 +7.2131976665E+001  +9.3329615695E-001 +1.2869360940E+002 
5640533.166 +3.6751258074E-001 +1.2956117407E+002  +3.3505909515E-001 +7.9184014655E+001  +3.2574806493E-001 +4.8589851112E+001  +7.0506605786E-001 +9.8179500749E+001 
5765678.348 +3.5258440624E-001 +1.1976509524E+002  +3.5582677664E-001 +6.8142965596E+001  +3.4758343981E-001 +4.0297713398E+001  +5.5773306588E-001 +9.8459941029E+001 
5890823.529 +4.1292590037E-001 +1.2769194520E+002  +4.0084364506E-001 +8.8214566341E+001  +3.9830644553E-001 +6.1743700127E+001  +1.2129468844E+000 +1.1121335565E+002 
6015968.711 +3.6682962798E-001 +1.3084838523E+002  +3.3183808663E-001 +7.2613356003E+001  +3.1745452040E-001 +4.8228447075E+001  +9.1080198114E-001 +1.1500529574E+002 
6141113.892 +4.6774338299E-001 +1.0234804354E+002  +6.3767787611E-001 +6.1121408419E+001  +6.4034844405E-001 +3.9920543311E+001  +1.3435503875E+000 +7.2961987882E+001 
6266259.074 +4.7376874307E-001 +1.1173464285E+002  +4.6075011762E-001 +6.1558587743E+001  +4.6852034405E-001 +4.2661264101E+001  +9.0428852436E-001 +9.0288928389E+001 
6391404.255 +5.5532335121E-001 +9.7608269298E+001  +5.8507510254E-001 +5.2275543907E+001  +5.7541885042E-001 +3.8228336955E+001  +9.5383998094E-001 +7.2585812272E+001 
6516549.437 +5.4789588273E-001 +7.7473547569E+001  +7.8281943910E-001 +3.7808819565E+001  +7.5690957324E-001 +2.3123917514E+001  +1.3464708652E+000 +4.8623034419E+001 
6641694.618 +5.9523861472E-001 +8.1206671654E+001  +6.8559541971E-001 +3.1719586522E+001  +6.6985686552E-001 +2.0408414403E+001  +1.0529168350E+000 +3.5744720635E+001 
6766839.800 +5.7219946544E-001 +4.7535923288E+001  +7.2483679653E-001 +1.7812469499E+001  +7.2326168965E-001 +9.2051948118E+000  +8.3320856216E-001 +3.1463878503E+001 
6891984.981 +5.7957935127E-001 +6.3313650286E+001  +6.2368597028E-001 +1.7777360944E+001  +6.2652007956E-001 +1.0795791121E+001  +7.3188386169E-001 +2.3643410775E+001 
7017130.163 +5.3490050092E-001 +4.0003739775E+001  +6.4371251797E-001 +5.8795236761E+000  +6.4352939839E-001 +9.1200356201E-001  +7.8220043838E-001 -1.1984923259E-001 
7142275.344 +7.3983163893E-001 +1.5171362733E+001  +6.7265593063E-001 +3.0981909716E+000  +6.8260841670E-001 +2.0436575867E-001  +7.2237283633E-001 -1.5884334473E+000 
7267420.526 +4.8944628891E-001 +1.9116509985E+000  +6.0062686589E-001 -9.1169194081E-001  +6.0903405344E-001 -1.6241305143E+000  +8.3951438814E-001 -1.7769426670E+001 
7392565.707 +6.1003236683E-001 +1.5543268204E+000  +5.5778840765E-001 +3.0115123120E+000  +5.6449340835E-001 +3.0444843968E+000  +6.0902622621E-001 -1.0533981888E+001 
7517710.889 +4.1590937594E-001 -9.2861197966E-001  +5.2611743304E-001 +7.4980325971E-001  +5.2950977020E-001 +1.9874083476E+000  +5.7730583108E-001 -8.6099871483E+000 
7642856.070 +3.1387532093E-001 -3.0681948700E+000  +5.0263755341E-001 -2.3686026312E+000  +5.0873506212E-001 +2.0459510499E+000  +4.6369245306E-001 -8.4232803411E+000 
7768001.252 +3.8979008785E-001 +2.5452815048E+001  +4.7102884587E-001 -1.7339814215E-001  +4.7454359136E-001 +4.2809744386E+000  +3.6962502530E-001 -2.9437307352E+000 
7893146.433 +3.3436094065E-001 +1.5297770199E+001  +4.5702518716E-001 -1.1140147968E+000  +4.5749254325E-001 +5.1417416651E+000  +4.1034858667E-001 +1.8003046395E+001 
8018291.615 +3.2194014358E-001 +3.1458063983E+001  +4.3509295463E-001 -2.4510861947E+000  +4.4132634874E-001 +5.0709846045E+000  +3.2650429379E-001 +2.2548297332E+001 
8143436.796 +2.8252725768E-001 +1.7603302487E+001  +4.4140796857E-001 -3.9674450004E+000  +4.3954449554E-001 +5.3167076517E+000  +3.0430067452E-001 +1.4753115195E+001 
8268581.977 +2.8083178281E-001 +2.4971744198E+001  +4.3356965749E-001 -4.3771733478E+000  +4.2382913615E-001 +5.9423295186E+000  +2.8109468301E-001 +1.8295219400E+001 
8393727.159 +2.5099564324E-001 +3.1096638615E+001  +4.1743790574E-001 -3.8372963424E+000  +4.1167523757E-001 +6.5652748053E+000  +3.4346032734E-001 +3.1998562923E+001 
8518872.340 +2.5852998943E-001 +2.7747405532E+001  +4.1545305361E-001 -5.1089404174E+000  +4.1355704417E-001 +7.1789518925E+000  +2.5524072641E-001 +2.7307687523E+001 
8644017.522 +2.5236329014E-001 +2.9529652079E+001  +4.1286166538E-001 -4.8355577218E+000  +4.0725493093E-001 +7.7759027153E+000  +2.7420652893E-001 +1.8781585425E+001 
8769162.703 +2.0989732663E-001 +4.3391503213E+001  +4.0393222472E-001 -5.5249401436E+000  +3.9803084112E-001 +7.1816341869E+000  +2.5312735152E-001 +3.2615246154E+001 
8894307.885 +1.9782410036E-001 +3.3094181343E+001  +4.0215830817E-001 -6.5769609177E+000  +4.0014477798E-001 +7.3398037277E+000  +1.6653115580E-001 +3.7959226922E+001 
9019453.066 +2.1563152667E-001 +3.6948442864E+001  +4.0206212787E-001 -5.5309569429E+000  +4.0390757128E-001 +9.1466816269E+000  +2.2777007292E-001 +2.7650298909E+001 
9144598.248 +2.3598169823E-001 +3.4399007121E+001  +3.9438713709E-001 -5.8962686992E+000  +3.9513303961E-001 +9.1696597457E+000  +2.2116901067E-001 +4.2742289079E+001 
9269743.429 +1.8078699118E-001 +3.4579948400E+001  +4.0270010993E-001 -6.9481852900E+000  +3.9808915076E-001 +8.6757391650E+000  +1.7444436381E-001 +1.0985084191E+001 
9394888.611 +1.6617745213E-001 +3.7967502542E+001  +3.9754629051E-001 -6.6354582314E+000  +3.9092127837E-001 +8.9727536956E+000  +1.7926819095E-001 +1.6853576604E+001 
9520033.792 +1.3553513805E-001 +2.5366322879E+001  +4.0056640238E-001 -7.1629190241E+000  +3.9521109702E-001 +8.5847686064E+000  +1.6281742711E-001 +2.7406644664E+001 
9645178.974 +1.6522608493E-001 +3.5158140511E+001  +3.9784382954E-001 -6.4621162990E+000  +3.9710773653E-001 +9.7223868045E+000  +1.7144559191E-001 +1.5446641882E+001 
9770324.155 +1.3041472056E-001 +2.6796625059E+001  +4.0094664133E-001 -6.9398528275E+000  +3.9892662408E-001 +9.4578861720E+000  +1.9225112376E-001 +1.5587378332E+001 
9895469.337 +1.3092631469E-001 +4.1988693509E+001  +3.9651189653E-001 -6.8890888115E+000  +3.9634385000E-001 +8.8521955305E+000  +1.4168952328E-001 +3.0367622646E+001 
10020614.518 +1.5109229022E-001 +2.9876379145E+001  +4.0295514756E-001 -6.6978538652E+000  +4.0353234493E-001 +9.3240353732E+000  +1.2643063791E-001 +1.8636443828E+001 
10145759.700 +1.5961095735E-001 +2.9134936902E+001  +4.0263004148E-001 -6.3575062117E+000  +4.0177855947E-001 +9.6335964199E+000  +1.4625438876E-001 +2.8467084924E+001 
10270904.881 +1.2906295567E-001 +3.0383371942E+001  +4.0516751795E-001 -5.9944410852E+000  +4.0211299432E-001 +9.9601122146E+000  +1.6436892215E-001 +1.8488569602E+001 
10396050.063 +1.3626880589E-001 +3.5292854940E+001  +4.0580233209E-001 -5.7999208612E+000  +4.0068011038E-001 +9.6300542731E+000  +1.8954058585E-001 +2.3712715621E+001 
10521195.244 +1.9496958146E-001 +4.7122324492E+001  +4.0510890546E-001 -5.3989751987E+000  +4.0087020255E-001 +1.0252508962E+001  +1.6348078770E-001 +1.5736564500E+001 
10646340.426 +1.8908922329E-001 +3.5641486011E+001  +4.0403185003E-001 -5.0836060652E+000  +4.0267769531E-001 +1.0014018480E+001  +1.7409677208E-001 +3.0781601710E+001 
10771485.607 +1.6078372594E-001 +4.3379011742E+001  +4.0610067849E-001 -4.8268399176E+000  +4.0546998110E-001 +9.5081665769E+000  +1.8363731351E-001 +3.7705958010E+001 
10896630.788 +2.1156598178E-001 +2.5785377132E+001  +4.1179511749E-001 -3.8612575904E+000  +4.1123938908E-001 +1.0441078926E+001  +1.7003132819E-001 +3.6728638058E+001 
11021775.970 +2.1221994088E-001 +3.3599384499E+001  +4.1664024510E-001 -3.9144767838E+000  +4.1238290256E-001 +9.8081499301E+000  +1.7599409958E-001 +2.2573527512E+001 
11146921.151 +2.0033170885E-001 +3.2000425705E+001  +4.1854582418E-001 -3.6444688313E+000  +4.1395487541E-001 +9.7558947176E+000  +2.0293803582E-001 +2.6126769027E+001 
11272066.333 +1.8892808385E-001 +3.5270410537E+001  +4.2285540928E-001 -3.8383051829E+000  +4.1794114457E-001 +9.1901962699E+000  +1.6326593112E-001 +2.7228033500E+001 
11397211.514 +2.0665423474E-001 +3.2300996043E+001  +4.2094309541E-001 -2.9014447026E+000  +4.1974044239E-001 +9.1045328880E+000  +2.2270132743E-001 +3.1130996532E+001 
11522356.696 +2.1993140848E-001 +2.2410355051E+001  +4.3027609041E-001 -2.8233177743E+000  +4.2741649358E-001 +8.9677987012E+000  +2.1403402971E-001 +2.6276394166E+001 
11647501.877 +1.9888793145E-001 +3.2971079255E+001  +4.2937028829E-001 -3.0574641380E+000  +4.2488399961E-001 +8.3559699865E+000  +2.0830822036E-001 +3.1710142977E+001 
11772647.059 +2.1949210314E-001 +2.9348291629E+001  +4.3355855457E-001 -2.0323417388E+000  +4.2801644031E-001 +8.8533587647E+000  +2.4163202348E-001 +2.6852729864E+001 
11897792.240 +2.2586506064E-001 +3.0545482863E+001  +4.3959408681E-001 -2.0779928638E+000  +4.3515681186E-001 +8.1098719285E+000  +2.1402335835E-001 +2.3632608256E+001 
12022937.422 +2.4473922853E-001 +2.9463504274E+001  +4.4296758605E-001 -1.5004984215E+000  +4.3601696647E-001 +8.6105509267E+000  +2.6825757767E-001 +2.0609220719E+001 
12148082.603 +2.5451598582E-001 +1.9226030007E+001  +4.4917745049E-001 -1.3904926576E+000  +4.4527691074E-001 +8.0196195478E+000  +2.4292202195E-001 +2.0946980650E+001 
12273227.785 +2.5060025884E-001 +2.0933214423E+001  +4.5448834470E-001 -1.3023203442E+000  +4.5144307487E-001 +7.1643650228E+000  +2.1951127728E-001 +1.2656814971E+001 
12398372.966 +2.4564007162E-001 +2.3578243086E+001  +4.5718175264E-001 -8.5850478892E-001  +4.5377619762E-001 +7.0404795666E+000  +2.7164517548E-001 +1.8359062887E+001 
12523518.148 +2.6889108561E-001 +1.6583934601E+001  +4.6559274283E-001 -6.3980522546E-001  +4.5820290847E-001 +6.8434486759E+000  +2.6422477527E-001 +1.7492622789E+001 
12648663.329 +2.8415144034E-001 +1.8512571003E+001  +4.6826235761E-001 +4.7662382206E-002  +4.6507333493E-001 +6.7733871241E+000  +2.8534678222E-001 +9.3678628549E+000 
12773808.511 +2.7497991145E-001 +1.0702761675E+001  +4.7444677005E-001 -5.1129912472E-001  +4.7039631958E-001 +5.7154400847E+000  +2.6642886015E-001 +1.1251642237E+001 
12898953.692 +2.9347012806E-001 +1.0012189449E+001  +4.7854920350E-001 -8.9766398672E-002  +4.7559629732E-001 +5.3314990702E+000  +2.6256460451E-001 +1.2275399278E+001 
13024098.874 +3.0757352935E-001 +7.7371026200E+000  +4.8604591831E-001 +3.7735610741E-001  +4.8146615604E-001 +5.2988291989E+000  +3.1221491578E-001 +7.4701439617E+000 
13149244.055 +2.9388937515E-001 +8.9734496430E+000  +4.9156651829E-001 +3.0332219750E-002  +4.8476392943E-001 +4.4882996761E+000  +2.9971939471E-001 +4.8960636807E+000 
13274389.237 +3.2878907466E-001 +9.0085065569E+000  +4.9450827184E-001 +5.7727195293E-001  +4.8909682012E-001 +4.5625402662E+000  +3.1498699603E-001 +5.0079989632E+000 
13399534.418 +3.2051251644E-001 +6.6350458342E+000  +4.9710176784E-001 +2.9257442753E-001  +4.9516696322E-001 +3.9421774882E+000  +3.2544713641E-001 +4.3929017099E+000 
13524679.599 +3.3841814409E-001 +5.9824219835E+000  +5.0249847998E-001 +9.2495932666E-001  +4.9906318993E-001 +3.9020774883E+000  +3.6117067753E-001 +1.5254493940E+000 
13649824.781 +3.6239038300E-001 +2.2065781339E+000  +5.0972562619E-001 +8.9654680625E-001  +5.0469793873E-001 +3.3338904547E+000  +3.5463143696E-001 +2.3123459255E+000 
13774969.962 +3.7934010610E-001 -7.2064548403E-001  +5.1355038322E-001 +9.5096109198E-001  +5.0740344788E-001 +2.9138510650E+000  +3.6630702569E-001 +4.4821073622E+000 
13900115.144 +3.7922131583E-001 +3.0421452067E+000  +5.1778138828E-001 +8.0631685381E-001  +5.1262829732E-001 +2.4625957918E+000  +3.7032719910E-001 -2.3548717118E+000 
14025260.325 +3.9874651559E-001 -1.0046627907E+000  +5.2253125180E-001 +7.2904647355E-001  +5.1568913596E-001 +2.2425280160E+000  +3.8353424595E-001 -8.7093846462E-001 
14150405.507 +3.8130857293E-001 -1.5571104747E+000  +5.2601378690E-001 +3.6586574395E-001  +5.2045210940E-001 +1.5552116795E+000  +3.9983374393E-001 -2.7666750389E+000 
14275550.688 +4.1980477314E-001 -4.9269461379E+000  +5.3253283061E-001 +7.7453251749E-001  +5.2487656942E-001 +1.3308942491E+000  +4.1949088528E-001 -2.8051481081E+000 
14400695.870 +4.3291545419E-001 -4.6005611306E+000  +5.3642331392E-001 +6.3160031746E-001  +5.2948394796E-001 +1.3040005040E+000  +4.4423666410E-001 -5.2983278666E+000 
