!  2-Port S-parameters saved by WinCal
! VAR MeasName=S-Parameters (CALIBRATED_DATA) read from VNA (P5004A)
! VAR MeasDate=29/08/2024 12:15:29
! VAR NAME=S2_r9c5_RESET1_9k-100M_1
! VAR FILENAME=S2_r9c5_RESET1_9k-100M_1.S2P
! VAR DATE=29/08/2024 12:15:29
! VAR PHYS_PORTS=1,2
! VAR ObjTypeName=DATASET
! VAR IndexType=Frequency
!
# Hz S MA R 50
9000.000 +9.4036984312E-002 -1.6058402835E+002  +5.2899380499E-003 -1.1297161373E+002  +1.6487832676E-004 +1.2969042831E+002  +2.1896913829E-001 -1.2075908623E+002 
134145.181 +1.1068274669E-001 +1.6981269947E+002  +4.3612040719E-004 -3.5950480316E+001  +9.9473251197E-005 +5.5988723908E+001  +2.4087104799E-001 -1.7118543629E+002 
259290.363 +1.1166175139E-001 +1.6974315460E+002  +7.1596936143E-004 +1.0618123831E+001  +4.3741936077E-004 +7.6476026383E+001  +2.3730151537E-001 -1.7051376832E+002 
384435.544 +1.1368887712E-001 +1.6974129319E+002  +5.7988672704E-004 +1.3092711861E+001  +8.8749212173E-004 +1.0228126045E+002  +2.3648716982E-001 -1.6993648707E+002 
509580.726 +1.1282818123E-001 +1.7044925344E+002  +1.1919121951E-003 -7.8471070181E+001  +1.3233755037E-003 +1.5812211062E+002  +2.4277874434E-001 -1.6573203751E+002 
634725.907 +1.1757030305E-001 +1.7036340151E+002  +1.6561420573E-003 -9.6596842197E+001  +1.1054942388E-003 +1.0762508563E+002  +2.4820816569E-001 -1.6403701345E+002 
759871.089 +1.1726433195E-001 +1.7092630704E+002  +1.1163092904E-003 -8.7335910365E+001  +1.0066144697E-003 +8.5585484923E+001  +2.4694976732E-001 -1.6761962120E+002 
885016.270 +1.2096109052E-001 +1.6883114233E+002  +7.7703213705E-004 -3.5050761805E+001  +4.6784593764E-004 +1.6563517998E+002  +2.3980125395E-001 -1.6799187430E+002 
1010161.452 +1.1516226897E-001 +1.6917967581E+002  +1.3389313910E-003 +3.1398594550E+001  +3.8787071604E-003 -1.7741832089E+002  +2.0893806041E-001 -1.7071447333E+002 
1135306.633 +1.1453893602E-001 +1.7135109145E+002  +1.8084724879E-003 -2.8541328965E+001  +3.8996148884E-003 -1.5876376231E+002  +2.2757745385E-001 -1.6892416432E+002 
1260451.815 +1.1767889177E-001 +1.6973252775E+002  +2.9107990547E-003 -1.3959482541E+001  +3.5329389263E-003 -1.5385849675E+002  +2.1385436816E-001 -1.6441871045E+002 
1385596.996 +1.2609699709E-001 +1.7186963097E+002  +2.8040096133E-003 -1.1702479457E+002  +5.3509054136E-003 +6.8617723962E+001  +2.8761966182E-001 -1.5239339020E+002 
1510742.178 +1.2593084476E-001 +1.7111860653E+002  +6.3581094216E-004 -1.3610205091E+001  +1.1863447928E-003 -1.6632499748E+002  +2.5794476508E-001 -1.6135059014E+002 
1635887.359 +1.2921284824E-001 +1.7187876900E+002  +5.2240093298E-004 -1.1353294549E+002  +2.4462059485E-003 -1.4018381601E+002  +2.3733386235E-001 -1.5688823556E+002 
1761032.541 +1.2921205016E-001 +1.7006272188E+002  +1.3109174184E-003 +4.6579704435E+001  +3.1817830591E-003 -1.0398432180E+002  +2.2337453326E-001 -1.5972439707E+002 
1886177.722 +1.2942326508E-001 +1.6917281589E+002  +1.6654062383E-003 +6.0394816952E+001  +3.5576660924E-003 -8.3276654836E+001  +2.3292837245E-001 -1.6685736970E+002 
2011322.904 +1.3567512531E-001 +1.6733007634E+002  +6.8362271339E-003 +7.3470790855E+001  +6.7782674218E-003 -7.7668981971E+001  +2.0081558347E-001 -1.6377356146E+002 
2136468.085 +1.3314589337E-001 +1.6461482327E+002  +7.7859107205E-003 +9.5305577158E+001  +9.2280857522E-003 -4.0220003227E+001  +2.0409149600E-001 -1.7173799061E+002 
2261613.267 +1.3635277702E-001 +1.6713626496E+002  +1.1222908546E-002 +6.7980666538E+001  +9.8678271315E-003 -5.1790629756E+001  +1.9263837036E-001 -1.7094170453E+002 
2386758.448 +1.3419619683E-001 +1.6442636622E+002  +1.1744019844E-002 +8.8031548448E+001  +1.3812691991E-002 -2.0520414854E+001  +2.1954204364E-001 -1.7457638923E+002 
2511903.630 +1.3533580208E-001 +1.6367423246E+002  +3.2845345123E-002 +7.6716529481E+001  +3.4085502822E-002 -2.9081040347E+001  +1.0945784551E-001 +1.4844413063E+002 
2637048.811 +1.2700715184E-001 +1.4927908757E+002  +8.0390605065E-002 +1.0628901763E+002  +9.1078647367E-002 +9.0112553076E-002  +2.6754659882E-001 +1.0721816957E+002 
2762193.992 +8.2733524740E-002 +1.6692673264E+002  +2.0451085545E-001 +6.7016697399E+001  +1.9239519976E-001 -3.7544260346E+001  +6.4837315248E-001 +6.8543113461E+001 
2887339.174 +1.3354102988E-001 +1.7283449165E+002  +4.5151193922E-002 +9.9347946782E+000  +4.8128248457E-002 -8.7499188470E+001  +9.0269742601E-002 -1.2769568386E+002 
3012484.355 +1.3944106232E-001 +1.6994404498E+002  +3.9494929184E-002 +2.6917459746E+001  +3.9554121857E-002 -6.8506960217E+001  +5.2831971613E-002 -1.6846149936E+002 
3137629.537 +1.3701207394E-001 +1.7113741877E+002  +5.6566417946E-002 -3.0485235527E+000  +7.3363352213E-002 -9.8076541655E+001  +2.2198144291E-001 -7.0962716992E+001 
3262774.718 +1.4550753276E-001 +1.7171757045E+002  +4.2516954825E-002 +1.7856386250E+000  +4.1088173063E-002 -9.6985794899E+001  +1.3898102179E-001 -1.1292869827E+002 
3387919.900 +1.2931401751E-001 +1.5889729029E+002  +6.1903700566E-002 +5.5893763014E+001  +5.3386777429E-002 -3.6490887816E+001  +1.3446815492E-001 +1.5676022246E+002 
3513065.081 +1.6635305180E-001 +1.4767238831E+002  +6.3718155240E-002 +1.0474265407E+002  +7.3525223751E-002 +1.5208759133E+001  +2.9515881011E-001 +1.3711912086E+002 
3638210.263 +1.5075991373E-001 +1.5143850264E+002  +5.6487763400E-002 +8.6895141249E+001  +5.4344794494E-002 -6.9366933288E-002  +2.5442975302E-001 +1.4696709122E+002 
3763355.444 +1.8496211804E-001 +1.5156332913E+002  +8.1570360552E-002 +9.0967383607E+001  +7.6057223163E-002 +1.6553986246E+001  +3.0330585340E-001 +1.0575147202E+002 
3888500.626 +1.7742325684E-001 +1.5731999005E+002  +6.7270925682E-002 +9.2770549047E+001  +6.2287090439E-002 +1.8155392639E+001  +3.5472438806E-001 +1.3017518724E+002 
4013645.807 +1.9108627318E-001 +1.4703508363E+002  +5.7618131173E-002 +9.8167048783E+001  +5.8273146138E-002 +3.0966044943E+001  +3.1055785336E-001 +1.5582015530E+002 
4138790.989 +1.6821985393E-001 +1.5535103577E+002  +8.1279802266E-002 +9.9490111407E+001  +7.0983031020E-002 +2.0571415078E+001  +4.6843461946E-001 +1.4215865496E+002 
4263936.170 +1.9948897711E-001 +1.4861869234E+002  +7.2981629723E-002 +1.1605700824E+002  +6.8510249307E-002 +5.3310755315E+001  +5.2513613816E-001 +1.5405115599E+002 
4389081.352 +1.7919138503E-001 +1.5317796192E+002  +8.9974695529E-002 +6.5298402101E+001  +9.4748248035E-002 -1.2619847967E+000  +2.7583509350E-001 +1.0498503713E+002 
4514226.533 +2.4117318165E-001 +1.3966832635E+002  +1.6189173487E-001 +1.1281658041E+002  +1.6204892057E-001 +4.8796607354E+001  +7.4558248792E-001 +1.1441869139E+002 
4639371.715 +3.3498728195E-001 +1.3505741403E+002  +2.2970096579E-001 +1.2998978582E+002  +2.1529611806E-001 +7.8529725649E+001  +8.4645304841E-001 +1.1556408323E+002 
4764516.896 +3.2229253366E-001 +1.3034343887E+002  +3.2856307338E-001 +1.0535563453E+002  +2.9317111990E-001 +5.7151828092E+001  +1.2340297863E+000 +9.0458284850E+001 
4889662.078 +7.0480622561E-001 +1.4759407881E+002  +1.6111062108E+000 -1.7953742802E+002  +1.6406802686E+000 +1.3464878771E+002  +5.9246746366E+000 +1.5421241341E+002 
5014807.259 +3.0962166858E-001 +1.3272458974E+002  +2.3371444045E-001 +1.3972395358E+002  +2.2755607259E-001 +9.4747970436E+001  +1.3196974407E+000 +1.4558985391E+002 
5139952.441 +3.7615872822E-001 +1.2011412355E+002  +3.1345721247E-001 +9.3903062017E+001  +2.8779107898E-001 +5.0383116203E+001  +8.6543149402E-001 +8.3456104751E+001 
5265097.622 +2.9361231611E-001 +1.2830227057E+002  +2.4662985831E-001 +8.5011934805E+001  +2.4100765679E-001 +4.6416190417E+001  +9.8696185985E-001 +9.4183628224E+001 
5390242.804 +3.9852852732E-001 +1.2731915171E+002  +2.1778033386E-001 +1.2272468138E+002  +2.2222008668E-001 +8.7916425356E+001  +1.1071438011E+000 +1.3613840357E+002 
5515387.985 +3.7976259154E-001 +1.2977406135E+002  +2.3273292826E-001 +9.5398332532E+001  +2.2830738317E-001 +5.9884378471E+001  +9.9120453146E-001 +1.0200093986E+002 
5640533.166 +4.3111464495E-001 +1.3382148477E+002  +3.5263287220E-001 +1.0876906247E+002  +3.4049513011E-001 +7.6482123578E+001  +2.1362407907E+000 +1.0335306618E+002 
5765678.348 +4.2440974676E-001 +1.2386868879E+002  +2.3886768739E-001 +8.3559819115E+001  +2.3957653842E-001 +5.2434242188E+001  +8.4916089149E-001 +9.8145802003E+001 
5890823.529 +4.9775873169E-001 +1.2036275672E+002  +3.4705315110E-001 +7.9323785998E+001  +3.3414432324E-001 +5.2802233650E+001  +1.2557661567E+000 +7.7440304328E+001 
6015968.711 +5.3320245429E-001 +1.1505251043E+002  +3.3614690175E-001 +6.7970631465E+001  +3.2726195420E-001 +4.4728401594E+001  +1.0969555278E+000 +6.6086589412E+001 
6141113.892 +5.3544671556E-001 +9.9965990352E+001  +5.1540874939E-001 +5.9671246797E+001  +5.4504841370E-001 +3.9333627323E+001  +1.9839901599E+000 +5.9855031954E+001 
6266259.074 +6.0521316508E-001 +9.2315562059E+001  +4.4065359212E-001 +4.1273337896E+001  +4.2404699062E-001 +2.3169965151E+001  +1.1501298141E+000 +3.3847319211E+001 
6391404.255 +7.1575802810E-001 +1.0111667564E+002  +3.7649458169E-001 +5.1436577621E+001  +3.6438900914E-001 +3.2286644622E+001  +1.0286271283E+000 +4.0018526708E+001 
6516549.437 +5.7444404941E-001 +7.3924110016E+001  +4.2768001309E-001 +2.5529940666E+001  +4.1337709586E-001 +1.4847677371E+001  +1.0535809730E+000 +3.5623750339E+001 
6641694.618 +1.0543439616E+000 +6.0705789745E+001  +5.1290990105E-001 +2.9522093360E+001  +5.2693986678E-001 +1.9009669451E+001  +9.3503938371E-001 +2.9178048678E+001 
6766839.800 +8.6553545677E-001 +5.6011602896E+001  +4.3878235528E-001 +1.7902464044E+001  +4.2980686501E-001 +6.8519877060E+000  +8.9933744557E-001 +1.4979644745E+001 
6891984.981 +9.1590086788E-001 +2.6483399701E+001  +4.6615785263E-001 +2.1905094354E+000  +4.6771624470E-001 -5.2515023326E+000  +1.0872672088E+000 -1.9077551024E+000 
7017130.163 +9.2309432403E-001 +2.0890899471E+001  +4.2760896496E-001 +1.1702957834E+000  +4.1133612622E-001 -4.9626009481E+000  +1.0043825418E+000 -4.0967715952E+000 
7142275.344 +1.0049312963E+000 +1.5940052704E+001  +3.8029401696E-001 +3.6672840720E+000  +3.8293176488E-001 -1.7132482504E+000  +9.8007737346E-001 -1.5906032822E+000 
7267420.526 +1.1298393868E+000 -6.5622996240E+000  +3.6189497755E-001 -2.0887649871E+000  +3.7274666334E-001 -1.7456515386E+000  +1.0239132476E+000 -1.3631668486E+001 
7392565.707 +9.1561479451E-001 -6.8822289169E-001  +3.0199665557E-001 +2.4742747310E+000  +3.0503284006E-001 +3.7809702794E+000  +9.3040284622E-001 -8.4888892899E+000 
7517710.889 +8.2675053673E-001 -5.8807349699E+000  +2.7914177370E-001 +1.4520331844E+000  +2.7697227781E-001 +3.4113164903E+000  +8.5928273687E-001 -1.1245793134E+001 
7642856.070 +6.4103519035E-001 +3.7263054908E+000  +2.5915589113E-001 -1.5316042720E+000  +2.5709792618E-001 +5.1182754721E+000  +7.7628697981E-001 -1.2609350530E+001 
7768001.252 +5.9322520239E-001 +3.6309514866E+000  +2.3994596751E-001 -3.2578396584E-001  +2.5428636866E-001 +3.4370625005E+000  +6.2449457991E-001 -2.8300670178E+000 
7893146.433 +5.3382914517E-001 +1.0563491616E+001  +2.3648291558E-001 -2.3529254052E-001  +2.4125461276E-001 +3.3054345808E+000  +6.2136104163E-001 -2.4694974581E+000 
8018291.615 +5.5266637268E-001 +1.2647456832E+001  +2.3174701405E-001 -3.6031070463E+000  +2.3418966919E-001 +5.6712600708E+000  +5.5899225696E-001 -5.2097888295E+000 
8143436.796 +5.2463872992E-001 +1.0421460628E+001  +2.2906303082E-001 -2.7180404056E+000  +2.2419207870E-001 +7.6252425783E+000  +5.4124727496E-001 +8.3912942978E+000 
8268581.977 +5.2818826577E-001 +9.0375547103E+000  +2.2383254227E-001 -2.3938473215E+000  +2.2578524541E-001 +7.1421059973E+000  +5.0062211356E-001 +3.5787779583E+000 
8393727.159 +5.0594134064E-001 +1.6998669597E+001  +2.1842057810E-001 -3.3726260921E+000  +2.1150036414E-001 +9.0047991801E+000  +5.0493468686E-001 +5.7744951419E+000 
8518872.340 +4.2858586850E-001 +1.2946162334E+001  +2.1519892004E-001 -4.5126716040E+000  +2.2058282317E-001 +7.7816228869E+000  +5.1527515566E-001 +6.0601892724E+000 
8644017.522 +4.3770058489E-001 +8.3756490893E+000  +2.1323223559E-001 -3.8694842566E+000  +2.1150296444E-001 +8.4412970239E+000  +4.3107156644E-001 +1.0073038582E+001 
8769162.703 +3.7437404743E-001 +9.4600256486E+000  +2.1096690446E-001 -4.9304611139E+000  +2.0858436847E-001 +6.2086741652E+000  +3.8738667872E-001 +1.5858930817E+000 
8894307.885 +3.5149909660E-001 +1.6015366799E+001  +2.1006427703E-001 -5.5297475784E+000  +2.0883369282E-001 +8.3950454142E+000  +3.4464068157E-001 -3.8341614192E+000 
9019453.066 +3.8335911990E-001 +1.9832549777E+001  +2.0585354454E-001 -5.4549798776E+000  +2.0355113110E-001 +9.1676347803E+000  +3.4928658657E-001 +1.8208666055E+000 
9144598.248 +3.5814725939E-001 +1.1680363540E+001  +2.0786954881E-001 -5.9954138308E+000  +2.0310845066E-001 +9.2285044859E+000  +3.9277172045E-001 +9.6685916776E+000 
9269743.429 +3.3345385909E-001 +1.6900586594E+001  +2.0658558226E-001 -5.1508486304E+000  +1.9732853471E-001 +9.2406084390E+000  +3.9900842190E-001 +2.4754710680E-001 
9394888.611 +3.2575001096E-001 +8.4814344419E+000  +2.0749857629E-001 -4.7579127664E+000  +2.0825095861E-001 +1.0360718513E+001  +4.4074303201E-001 +2.6623650632E+000 
9520033.792 +2.9181232220E-001 +1.5163318374E+001  +2.0111332017E-001 -6.5019530949E+000  +2.0459926440E-001 +9.8222472005E+000  +3.2644209511E-001 +7.9154643261E+000 
9645178.974 +3.5538803266E-001 +1.2512429092E+001  +2.0950326772E-001 -4.0074126847E+000  +2.0758839617E-001 +1.1292731936E+001  +3.8987763282E-001 -7.8936636135E-001 
9770324.155 +3.4233005554E-001 +1.4759782105E+001  +2.1015646474E-001 -4.9047064100E+000  +2.0628135099E-001 +1.1390152914E+001  +3.2070287989E-001 +1.7642293005E+000 
9895469.337 +2.7076121470E-001 +3.6924342919E+000  +2.0842953030E-001 -6.0897057464E+000  +2.0945832422E-001 +9.3042222849E+000  +3.3578845914E-001 -6.3887207970E+000 
10020614.518 +3.1195311707E-001 +8.7180914355E+000  +2.0566721798E-001 -4.8908448890E+000  +2.0559151089E-001 +1.2027112346E+001  +3.5048556539E-001 +8.4754036024E+000 
10145759.700 +3.2088669281E-001 +7.6254239180E+000  +2.1193726424E-001 -4.6281661993E+000  +2.1060439745E-001 +1.1469688489E+001  +3.4817852332E-001 +4.4828300303E-001 
10270904.881 +3.2138612136E-001 +1.1900571514E+001  +2.0970657186E-001 -4.6524171476E+000  +2.0833620323E-001 +1.1565798503E+001  +3.4433180450E-001 +4.7146815825E+000 
10396050.063 +3.6270564051E-001 +1.5925136480E+001  +2.0871408751E-001 -2.9448433567E+000  +2.0859066191E-001 +1.2323933057E+001  +3.3909085436E-001 +4.7332046352E+000 
10521195.244 +3.3474146213E-001 +1.2848760111E+001  +2.0968586922E-001 -3.5737742124E+000  +2.0750777266E-001 +1.1826215001E+001  +3.9544153314E-001 +1.0068077398E+001 
10646340.426 +3.2185035459E-001 +9.6676829910E+000  +2.1307354642E-001 -3.4611185677E+000  +2.1122969382E-001 +1.1365042579E+001  +3.7686431115E-001 +6.5945743122E+000 
10771485.607 +3.4355339668E-001 +1.3774652177E+001  +2.1380366260E-001 -2.8698581211E+000  +2.1166726658E-001 +1.2485539897E+001  +4.1537160566E-001 +7.4957959670E+000 
10896630.788 +3.4871478815E-001 +1.2282302061E+001  +2.1639980046E-001 -2.4667398843E+000  +2.1419090660E-001 +1.1452477780E+001  +4.0072922806E-001 +4.7408085452E+000 
11021775.970 +3.9132916408E-001 +1.5066444893E+001  +2.1844886939E-001 -1.1801125944E+000  +2.1575593101E-001 +1.2015417845E+001  +3.9454019643E-001 +4.1433435805E+000 
11146921.151 +3.9372396377E-001 +1.0926829005E+001  +2.2192570643E-001 -1.7581360866E+000  +2.1820756153E-001 +1.1620597000E+001  +3.8891595816E-001 +7.4596202028E+000 
11272066.333 +3.9057019491E-001 +1.7071914019E+001  +2.1812826211E-001 -8.0725296941E-001  +2.1657355780E-001 +1.1734623719E+001  +4.1563404954E-001 +9.8061695021E+000 
11397211.514 +4.1277695788E-001 +7.7682160831E+000  +2.2653372059E-001 -1.4690360458E+000  +2.2308757839E-001 +1.1669074247E+001  +3.8580731458E-001 +9.3750258816E+000 
11522356.696 +4.2877066003E-001 +1.0129927385E+001  +2.2617821051E-001 -5.9074323232E-001  +2.2382527588E-001 +1.1742864353E+001  +4.0441532248E-001 +7.3444794875E+000 
11647501.877 +3.9299416657E-001 +1.2703389147E+001  +2.2672160049E-001 -3.5802966064E-001  +2.2554012367E-001 +1.0641393032E+001  +4.1455539675E-001 +6.5444678404E+000 
11772647.059 +4.0620441922E-001 +1.2673900518E+001  +2.2855197769E-001 -4.9981541410E-001  +2.2653973713E-001 +1.0175197915E+001  +4.1597495076E-001 +7.0130182527E+000 
11897792.240 +4.1579266470E-001 +1.1831029392E+001  +2.3200245634E-001 +2.2239887852E-001  +2.3302728658E-001 +1.0155883964E+001  +4.5925486193E-001 +1.1986428069E+000 
12022937.422 +4.3740318838E-001 +8.6028717395E+000  +2.3779191344E-001 +3.5896031157E-001  +2.3300819367E-001 +9.9230962247E+000  +4.6683898591E-001 +4.5547953497E+000 
12148082.603 +4.6688456842E-001 +8.1883106929E+000  +2.3846219189E-001 +6.6251031353E-001  +2.3542221527E-001 +9.5999994160E+000  +4.4945238915E-001 +5.2001991965E+000 
12273227.785 +4.3937612112E-001 +5.5016320667E+000  +2.4042085643E-001 +3.8621853322E-001  +2.3874544251E-001 +8.6545187622E+000  +4.5808960991E-001 +2.7040329464E+000 
12398372.966 +4.4648199248E-001 +8.1690193015E+000  +2.4290218416E-001 +7.6544381923E-001  +2.4042853311E-001 +9.1094014537E+000  +5.1056292360E-001 +2.2613033366E+000 
12523518.148 +5.0051389025E-001 +5.3483081590E+000  +2.4574349135E-001 +5.0063323755E-001  +2.4216003192E-001 +8.1626716318E+000  +4.5652594621E-001 +3.5247131891E+000 
12648663.329 +4.7618582182E-001 +5.0972298977E+000  +2.4736954344E-001 +1.0685821559E+000  +2.4465085920E-001 +7.4473844973E+000  +4.9271456235E-001 +2.0067380809E+000 
12773808.511 +4.8981768210E-001 +5.8994224333E+000  +2.4892658420E-001 +1.1029836852E+000  +2.4757222310E-001 +7.0952898352E+000  +5.1894657955E-001 +2.2285348662E-001 
12898953.692 +5.1221860978E-001 +6.3864819553E+000  +2.5175478302E-001 +1.6386898740E+000  +2.4951535849E-001 +7.0081337480E+000  +5.2061195023E-001 -9.7056764888E-001 
13024098.874 +5.3989801082E-001 +7.6318579434E-001  +2.5655582435E-001 +1.2210941464E+000  +2.5454208673E-001 +6.3704943518E+000  +5.3796146991E-001 +3.0844216795E-001 
13149244.055 +5.4055854464E-001 +9.0266501300E-001  +2.5974774823E-001 +1.3874139222E+000  +2.5721872805E-001 +6.2199018580E+000  +5.5030431979E-001 -2.2785028430E+000 
13274389.237 +5.5231243457E-001 +3.1781986204E-003  +2.6096118259E-001 +1.5247066746E+000  +2.5969674998E-001 +5.1238997468E+000  +5.5940283706E-001 -1.0751195239E+000 
13399534.418 +5.6145027610E-001 -1.2849105702E+000  +2.6408329780E-001 +1.8050585736E+000  +2.6089342112E-001 +5.0720579914E+000  +5.8920865432E-001 -3.1962992125E+000 
13524679.599 +5.8281971280E-001 +6.7183986966E-001  +2.6631719881E-001 +1.9206572977E+000  +2.6321878504E-001 +4.7309097483E+000  +5.9648626192E-001 -2.1153867004E+000 
13649824.781 +6.1405457479E-001 -1.7611158399E+000  +2.6656131221E-001 +2.2414474277E+000  +2.6330605711E-001 +4.6750996172E+000  +6.2182142754E-001 -1.0114188351E+000 
13774969.962 +6.2191950140E-001 -2.3358526812E+000  +2.7085291916E-001 +1.9429157722E+000  +2.6585616000E-001 +3.8359887164E+000  +6.0645807442E-001 -3.4439563729E+000 
13900115.144 +6.5104602568E-001 -2.7616763873E+000  +2.7267198996E-001 +2.3920921649E+000  +2.6632263123E-001 +3.4783622888E+000  +6.4762939500E-001 -1.3340900511E+000 
14025260.325 +6.6807801148E-001 -3.3089899289E+000  +2.7326247736E-001 +1.9801353153E+000  +2.7173640915E-001 +3.1995284621E+000  +6.5423463467E-001 -4.4891895944E+000 
14150405.507 +6.6771768048E-001 -4.0398467572E+000  +2.7574375992E-001 +1.5426072838E+000  +2.7278226577E-001 +2.7411407389E+000  +6.8343544555E-001 -5.7345876335E+000 
14275550.688 +6.8809942610E-001 -6.0259308285E+000  +2.7689538513E-001 +1.5631163479E+000  +2.7284368149E-001 +2.3955371667E+000  +7.1133906597E-001 -2.9274460101E+000 
14400695.870 +6.9470993941E-001 -5.8233921202E+000  +2.7800479361E-001 +1.3667611848E+000  +2.7334359944E-001 +1.7913172287E+000  +7.0577350140E-001 -3.3390312539E+000 
