!  2-Port S-parameters saved by WinCal
! VAR MeasName=S-Parameters (CALIBRATED_DATA) read from VNA (P5004A)
! VAR MeasDate=29/08/2024 12:27:22
! VAR NAME=S2_r9c5_RESET3_9k-100M_2
! VAR FILENAME=S2_r9c5_RESET3_9k-100M_2.S2P
! VAR DATE=29/08/2024 12:27:22
! VAR PHYS_PORTS=1,2
! VAR ObjTypeName=DATASET
! VAR IndexType=Frequency
!
# Hz S MA R 50
9000.000 +1.0199618777E-001 -1.7119850363E+002  +9.9943212626E-003 -1.4798950178E+002  +2.3597774165E-003 +9.4605675485E+000  +2.7326772802E-001 -1.3304256208E+002 
134145.181 +1.1051302069E-001 +1.6984119873E+002  +3.7372624648E-004 +6.2598311587E+001  +2.8934254663E-004 +1.2312919808E+002  +2.4057705290E-001 -1.7031282852E+002 
259290.363 +1.1190976758E-001 +1.6942011278E+002  +1.0369175272E-003 -1.0886975408E+002  +9.6795142774E-005 +1.6422969952E+002  +2.3458194901E-001 -1.6805579282E+002 
384435.544 +1.1346813183E-001 +1.7047758920E+002  +4.0479767626E-004 -3.4396930000E+001  +2.9451254523E-004 +9.0000422526E+001  +2.4798181703E-001 -1.7048878268E+002 
509580.726 +1.1411688307E-001 +1.7061468886E+002  +5.6741092874E-004 -1.1758871726E-001  +6.3544153652E-004 -1.1591389350E+002  +2.5422020572E-001 -1.6146264691E+002 
634725.907 +1.1748979939E-001 +1.7123493920E+002  +1.2192930497E-003 +1.5737071616E+002  +5.4776762304E-004 -4.1970719531E+000  +2.5978469404E-001 -1.6244494946E+002 
759871.089 +1.1933609289E-001 +1.7076548369E+002  +5.6627998748E-004 +1.5745786483E+002  +8.2691560474E-004 +1.6360585834E+002  +2.4793482310E-001 -1.6581092569E+002 
885016.270 +1.2158413469E-001 +1.6948041625E+002  +5.7807646774E-004 +3.1653030084E+001  +2.8331798366E-004 +6.2909163211E+001  +2.4826970347E-001 -1.6450168338E+002 
1010161.452 +1.1919997509E-001 +1.7100518273E+002  +2.3250391098E-004 -3.4343676619E+001  +6.6912234193E-004 -3.7607674380E+001  +2.1900971945E-001 -1.6210858178E+002 
1135306.633 +1.1686201600E-001 +1.6912776546E+002  +1.1082367793E-003 +3.3965495201E+001  +1.5313969507E-003 +4.7326646061E+001  +1.9310564859E-001 -1.7045442323E+002 
1260451.815 +1.2050628529E-001 +1.7019802289E+002  +9.8085640198E-004 -1.4745995600E+002  +1.3036518747E-003 +4.6563771239E+001  +2.1547265983E-001 -1.5953317258E+002 
1385596.996 +1.2780534689E-001 +1.7381658606E+002  +1.0157071604E-003 -4.8206066558E+001  +2.1871976388E-004 -5.4193517757E+001  +2.4670020449E-001 -1.5464390461E+002 
1510742.178 +1.2757271640E-001 +1.7222568784E+002  +9.3468173903E-004 -1.3708242005E+002  +1.0310800483E-003 +8.6323633772E+001  +2.4838798804E-001 -1.5852069238E+002 
1635887.359 +1.2591381071E-001 +1.7134623060E+002  +2.1950292645E-004 -7.9394304446E+001  +1.0179137380E-003 +1.1635734217E+002  +2.3928367545E-001 -1.5972396921E+002 
1761032.541 +1.3114172296E-001 +1.7033834573E+002  +1.1471745437E-003 +8.0404460795E+001  +1.9643229923E-003 -9.8815096250E+001  +2.3504659217E-001 -1.5695626840E+002 
1886177.722 +1.2865612493E-001 +1.6924787571E+002  +3.8159381144E-004 -1.2425353537E+002  +1.1802190534E-003 +8.8045094016E+001  +2.2881683518E-001 -1.5741447349E+002 
2011322.904 +1.3667997891E-001 +1.6675995087E+002  +2.4611622906E-003 +1.3959511512E+002  +1.5569163041E-003 +7.5323729951E+000  +1.7394817773E-001 -1.6563000513E+002 
2136468.085 +1.3008212405E-001 +1.6653597050E+002  +3.9723167804E-003 +5.9663169837E+001  +8.6964626278E-004 -3.7789143312E+001  +1.7689845730E-001 +1.7257806960E+002 
2261613.267 +1.3083377551E-001 +1.6661929165E+002  +9.3425638606E-004 -4.2182087330E+001  +1.2865348439E-003 +2.7466528397E+001  +2.1110579812E-001 -1.6573434358E+002 
2386758.448 +1.3813549389E-001 +1.6330613737E+002  +4.3108415703E-003 +4.4308853282E+001  +1.0028810468E-003 +5.2131188374E+000  +1.7525331703E-001 -1.7716324828E+002 
2511903.630 +1.3911312090E-001 +1.6663434764E+002  +3.6343657729E-003 +5.9191333195E+001  +1.3961065588E-002 +1.2771559556E+000  +1.3904089562E-001 +8.3379056073E+001 
2637048.811 +1.3755360728E-001 +1.4607980767E+002  +1.4406846030E-002 +1.1512693918E+002  +6.6624083081E-003 -1.0883360742E+002  +1.4111120527E-001 +1.3801852345E+002 
2762193.992 +1.0488502699E-001 +1.6947599226E+002  +1.4429600235E-003 -9.6045706809E+001  +2.0194675017E-002 -2.0104359385E+001  +3.2504365450E-001 +1.3052722903E+002 
2887339.174 +1.1096565614E-001 -1.7723109134E+002  +6.5324423497E-003 -7.7346956685E+001  +8.0764698484E-003 +1.7113985144E+002  +2.3488783506E-001 -9.3092006843E+001 
3012484.355 +1.1520166758E-001 -1.7858094554E+002  +1.6607875462E-003 +2.0171430553E+001  +1.1761320970E-002 -1.1919379787E+002  +8.3224251809E-002 -1.3558036478E+002 
3137629.537 +1.0271571864E-001 +1.6927219651E+002  +1.2298644901E-002 -1.1553638433E+002  +6.0800511029E-003 -8.8641246978E+001  +3.4982275358E-001 -1.0947485763E+002 
3262774.718 +9.3977064680E-002 +1.6593307617E+002  +1.2583491945E-002 +2.7011008542E+001  +7.6470925502E-003 -7.3287220389E+001  +2.5512226758E-001 -2.3778520439E+001 
3387919.900 +1.6188816033E-001 +1.5629203777E+002  +9.2092608131E-003 +1.2991374973E+001  +4.1034362775E-003 +2.6883366411E+001  +1.5634820606E-001 -4.2144287237E+001 
3513065.081 +1.5712746816E-001 +1.5480601317E+002  +3.6887544931E-003 +1.7627047839E+002  +1.6075616068E-002 -3.2903085744E+001  +1.7672932149E-001 +9.6076835586E+001 
3638210.263 +1.6701616031E-001 +1.4848842075E+002  +1.3775354042E-002 +1.5780951879E+002  +1.9563638867E-002 +6.2158570442E+001  +6.7024838401E-001 +1.0737773185E+002 
3763355.444 +1.7551784976E-001 +1.5360377647E+002  +1.1136439794E-002 +1.1107290108E+002  +8.7236930244E-003 -3.5324858222E+000  +3.5874843029E-001 +1.0512488651E+002 
3888500.626 +1.8145419537E-001 +1.4476560501E+002  +9.9815321217E-003 +1.1124505567E+002  +1.7290815758E-002 +4.1308826230E+001  +5.3191730412E-001 +1.3149908324E+002 
4013645.807 +1.7636497430E-001 +1.4489792715E+002  +1.2391128606E-002 +1.2764391467E+002  +1.4335953942E-002 +4.9791663011E+001  +3.7908858485E-001 +1.3467524361E+002 
4138790.989 +1.8205264291E-001 +1.4412243967E+002  +3.5357340522E-003 +1.2055963846E+002  +7.5765428453E-003 -3.1572560734E+001  +4.4066534372E-001 +1.3217346725E+002 
4263936.170 +1.8687983411E-001 +1.4032542171E+002  +2.9882661953E-002 +8.1022528985E+001  +5.1426758386E-002 +5.3635069060E+001  +1.6994385312E+000 +1.1829215675E+002 
4389081.352 +2.0064406688E-001 +1.1659975941E+002  +1.4955772862E-002 -1.4086104347E+002  +5.7077735361E-003 +1.0187852344E+002  +1.0467501312E+000 +1.2081984070E+002 
4514226.533 +2.1860810841E-001 +1.4137454276E+002  +1.5271939060E-002 +7.7598911004E+001  +1.8853401871E-002 -2.1006294526E+001  +1.3608495203E+000 +2.0690568385E+001 
4639371.715 +2.4308822628E-001 +1.0240815656E+002  +2.0490314834E-001 -1.7513990148E+002  +2.5738002052E-001 +7.1876922321E+001  +8.6852869882E+000 +1.1596760139E+002 
4764516.896 +3.5070354039E-001 +1.3068896068E+002  +3.3041546602E-002 +8.1960963922E+001  +6.4638387037E-003 +9.6797811181E+001  +6.5952515257E-001 +4.9256318929E+001 
4889662.078 +3.9422148800E-001 +1.3477942333E+002  +3.9386394402E-002 -1.9361123573E+000  +2.8773352473E-002 -4.1214314511E+001  +1.4998724920E+000 -9.2368250422E+001 
5014807.259 +3.8148841386E-001 +1.2888908809E+002  +1.5062111049E-001 +5.3765432331E+001  +9.0235395960E-002 +3.5389099844E+001  +3.9133409160E+000 -3.9349385842E+000 
5139952.441 +3.9051673906E-001 +1.2716513762E+002  +1.0521781557E-001 +1.6005801011E+002  +4.3297400696E-002 +1.7974127095E+002  +3.9393582889E+000 +1.2561741499E+002 
5265097.622 +4.7902620668E-001 +1.2924569665E+002  +6.8542825886E-002 +6.5345818715E+001  +9.5367020322E-002 -9.7464878020E+000  +2.4581541943E+000 +3.6341604000E+001 
5390242.804 +4.3141921842E-001 +1.2222021200E+002  +4.5959748510E-002 +7.2064385892E+001  +4.1890244965E-002 +4.2142698513E+001  +2.5326898234E+000 +7.6232051467E+000 
5515387.985 +4.5957262559E-001 +1.2936890311E+002  +1.9192169352E-002 +7.7125781604E+001  +3.3555869816E-002 +4.9201611392E+001  +1.6531698594E+000 +6.7762038721E+001 
5640533.166 +4.4727247019E-001 +1.3702578907E+002  +5.5275175623E-002 +6.4161892060E+001  +3.5749862453E-002 +4.9672038470E+001  +5.1897737332E+000 +8.0809660369E+001 
5765678.348 +5.2985922976E-001 +1.2600583685E+002  +3.5444300519E-002 +7.2562196186E+001  +5.8266605648E-003 +4.1334645556E+001  +1.5013473161E+000 +3.4803355438E+001 
5890823.529 +6.2892017078E-001 +1.2007075058E+002  +2.2391356131E-002 +6.8055024566E+001  +2.5857660564E-002 +5.1234740957E+001  +1.6535926898E+000 +3.5312562101E+001 
6015968.711 +6.3302440781E-001 +1.2023047792E+002  +5.1593642435E-002 +6.9921849159E+001  +4.0790764601E-002 +5.0607707439E+001  +2.8331663459E+000 +4.3740169363E+001 
6141113.892 +6.5774873966E-001 +1.1534403132E+002  +3.2578740724E-002 +6.9201405564E+001  +2.5388452304E-002 +3.1468808169E+001  +1.9620142081E+000 +4.7588320725E+001 
6266259.074 +8.5406774574E-001 +1.1498811045E+002  +3.6334222736E-002 +6.8390043390E+001  +4.3764019379E-002 +1.2225305870E+001  +1.9430723706E+000 +2.0906176506E+001 
6391404.255 +8.6057998565E-001 +1.0678438750E+002  +1.9590879691E-002 +7.9237865884E+001  +3.1915292430E-002 +3.7706508201E+001  +1.4177881816E+000 +2.8004868544E+001 
6516549.437 +1.1706231152E+000 +9.0377756201E+001  +3.4509377542E-002 +4.1676955554E+001  +4.5697073290E-002 +9.8994038936E+000  +1.7222292118E+000 -2.8277003520E+000 
6641694.618 +1.5544442862E+000 +6.4104889301E+001  +5.3151252685E-002 +4.3034800749E+001  +5.3128008569E-002 +1.7978049052E+001  +1.3137056150E+000 +1.6651203196E+000 
6766839.800 +1.6306726958E+000 +5.6790630701E+001  +6.7342260201E-002 +2.5156224307E+001  +2.9083481085E-002 +2.8127022124E+001  +1.1801389616E+000 +1.6329055958E+000 
6891984.981 +2.2223080216E+000 +4.4718397539E+001  +3.2520082855E-002 +3.4978586903E+001  +3.4723836599E-002 -2.2614167259E+001  +1.3063061264E+000 -1.4270728715E+001 
7017130.163 +1.4141287517E+000 +1.9593406418E+001  +2.5247884604E-002 -1.2063544725E+001  +4.3274035926E-002 +6.4019880613E+000  +1.3165579726E+000 -1.0069023315E+001 
7142275.344 +1.6457533865E+000 +9.1947992225E+000  +4.1150874517E-002 +1.4445766436E+000  +1.3191736082E-002 -2.1994007435E+001  +1.2684071600E+000 -1.2854460375E+001 
7267420.526 +1.3265804915E+000 -1.3242772533E-001  +2.2192390642E-002 +8.3906708770E+000  +1.4382033703E-002 -1.1865104236E+000  +1.2844235813E+000 -1.1763305771E+001 
7392565.707 +1.3624926541E+000 +4.5485973850E+000  +1.6860841902E-002 -8.7085378476E+000  +2.8391443808E-002 -4.4146151948E+000  +1.3681878975E+000 -8.2544145074E+000 
7517710.889 +1.2035992251E+000 +8.0009145260E+000  +2.2737566427E-002 +1.6142761387E+001  +2.3079042670E-002 +3.4735678698E+001  +1.2253889046E+000 -2.9110015279E+000 
7642856.070 +9.6602749601E-001 +1.2366525138E+000  +2.0357562619E-002 +3.7624275363E+001  +1.2053222506E-002 -3.3317654543E+001  +1.2026583565E+000 -7.2706003962E+000 
7768001.252 +9.0993438259E-001 -1.4179463161E+000  +1.8016177291E-002 -8.0837029911E+000  +2.1386500465E-002 -4.0639404212E+000  +8.8689036396E-001 -7.5728862439E+000 
7893146.433 +8.4105410261E-001 +4.5194813228E+000  +1.7290619056E-002 +1.4868408351E+001  +1.6551956776E-002 +2.0566461567E+001  +9.1486129720E-001 -3.6007247445E+000 
8018291.615 +7.8134051746E-001 +5.4536412974E+000  +9.8203988987E-003 +3.1543094463E+001  +8.8543171710E-003 -1.2302296663E+001  +8.2732067018E-001 +2.8671853965E+000 
8143436.796 +7.3613415480E-001 +1.1021357376E+001  +1.4879751336E-002 +2.7761308341E+001  +1.9751018625E-002 -5.2604355951E+000  +7.4675525964E-001 +1.4710863510E+000 
8268581.977 +7.1660776895E-001 +7.7985089787E+000  +1.3109791201E-002 +1.4221697758E+000  +1.4578448775E-002 +2.5504589774E+001  +7.7414474407E-001 +5.3997848927E+000 
8393727.159 +6.5668430238E-001 +1.4400973732E+001  +8.3405196349E-003 +1.4453675269E+001  +1.0594988754E-002 +5.6624185161E+000  +6.5905744129E-001 +3.4880546508E-002 
8518872.340 +6.9909216969E-001 +9.2623320372E+000  +1.6878821435E-002 -2.4999392810E-001  +1.6131744215E-002 +2.9227861663E+001  +7.1837424722E-001 -2.7997177397E+000 
8644017.522 +6.4693055696E-001 +4.0593179344E+000  +1.0764284611E-002 +3.0180454542E+001  +1.2048642761E-002 -1.1716006776E+001  +6.8140038405E-001 -2.9467881787E+000 
8769162.703 +5.8388648210E-001 +1.1345550103E+001  +1.2723775695E-002 -7.4232817742E+000  +9.7137116017E-003 +2.3441221706E+001  +6.6532209339E-001 +2.8917308611E+000 
8894307.885 +5.9504855000E-001 +1.5989167389E+000  +1.6625595558E-002 -3.2023248531E+000  +1.1675238136E-002 +3.1010064868E+000  +6.3323950129E-001 -2.9435222292E+000 
9019453.066 +5.6166758477E-001 +4.9798116150E+000  +1.0752198376E-002 -2.0614903932E+001  +1.3552723174E-002 +2.6043660901E+001  +5.7831436068E-001 -2.7483267140E+000 
9144598.248 +5.4468233051E-001 +4.1602714251E+000  +1.4508556941E-002 -2.1557493376E+000  +1.1356853104E-002 +1.6441144290E+001  +6.1340279086E-001 -4.3842553065E+000 
9269743.429 +5.3736396763E-001 +9.4851535244E-001  +1.1576836277E-002 -1.5684599778E+000  +1.3070779390E-002 +5.5490965679E+000  +5.8100017946E-001 -2.7612578413E+000 
9394888.611 +5.4993995134E-001 +3.9744718083E+000  +1.7399109045E-002 +5.0711338689E+000  +1.3371641757E-002 +1.9127220073E+001  +5.7078121994E-001 -4.1224868028E+000 
9520033.792 +5.0899324900E-001 +4.1921770216E+000  +1.3546029216E-002 +4.7457912526E+000  +1.2014844485E-002 -1.3910642478E+000  +5.9700227298E-001 -3.1690794659E+000 
9645178.974 +5.5527854444E-001 +8.0171339676E+000  +1.2341148839E-002 +3.5819430405E+000  +1.6222512923E-002 +1.9557915198E+001  +5.7062139216E-001 -3.0340319493E+000 
9770324.155 +5.7422294764E-001 +4.6512237740E+000  +1.6893321606E-002 +1.8153625975E+000  +1.5600919243E-002 +2.3435497436E+001  +5.7854058807E-001 -8.5941346552E+000 
9895469.337 +5.2212833490E-001 +7.1689210047E+000  +1.5067398009E-002 +8.1708781673E+000  +1.3108252290E-002 +2.2677602441E+001  +5.7112203933E-001 -7.2873149051E+000 
10020614.518 +5.7603935100E-001 +5.1327173348E+000  +1.3246327214E-002 +5.9979848549E+000  +1.2492876517E-002 +1.2647696359E+001  +5.8954859103E-001 -3.9544090664E+000 
10145759.700 +5.1824800951E-001 +5.9688200254E-001  +1.2752079714E-002 -9.0602173091E+000  +9.9955789657E-003 +1.6487645289E+001  +6.0084785558E-001 -6.5533048377E+000 
10270904.881 +5.6897256698E-001 +1.7698208790E+000  +1.2700010444E-002 -1.3493380752E+000  +1.3505097832E-002 +1.2847840988E+001  +5.7189118277E-001 -2.9726787888E+000 
10396050.063 +5.0017083949E-001 +5.2559191887E+000  +1.1392443773E-002 -3.7063141342E+000  +1.6152022401E-002 +8.3430212615E+000  +5.5144394715E-001 -1.0095831182E+000 
10521195.244 +5.4538682663E-001 +7.5053928933E+000  +1.0907047385E-002 +1.8624801009E+000  +1.4505026760E-002 +1.4135352206E+001  +5.9461200926E-001 -9.7187295152E-001 
10646340.426 +5.6490907466E-001 +3.1565757845E+000  +1.4888661566E-002 -2.4295747377E+000  +1.2560163717E-002 +1.3890440606E+001  +5.5345379495E-001 -7.7062791939E-001 
10771485.607 +5.5112435977E-001 +7.9852826030E+000  +1.5433570687E-002 +3.8097430407E+000  +1.3859401618E-002 +1.5797303164E+001  +6.0775589487E-001 -2.6708062659E+000 
10896630.788 +5.7977177809E-001 +9.3851783078E+000  +1.4342610516E-002 +5.9450985702E+000  +1.4289654066E-002 +1.6327302859E+001  +6.3139339296E-001 -2.6736716369E-001 
11021775.970 +5.9604434049E-001 +6.6897471802E+000  +1.5857584420E-002 +7.7450475472E-001  +1.2983137833E-002 +2.2526178446E+001  +6.1687560042E-001 +4.9264373226E+000 
11146921.151 +5.7280902545E-001 +9.2070244500E+000  +1.2023271889E-002 +1.0148050283E+000  +1.3216016653E-002 +3.3064329407E+001  +6.3852410552E-001 +9.0483770912E-001 
11272066.333 +6.0350335782E-001 +1.2525432987E+001  +1.0977978921E-002 +1.4159082480E+000  +1.2846369625E-002 +2.3554288416E+001  +6.0655807191E-001 +1.1972939671E+000 
11397211.514 +6.0194782536E-001 +7.5205429113E+000  +1.4606042159E-002 +2.5719572158E+000  +1.3508110678E-002 +2.2535134093E+001  +6.0077679291E-001 +4.7953852979E-001 
11522356.696 +6.2948694966E-001 +6.5593788399E+000  +1.3289251171E-002 +3.6594759122E+000  +1.5700979322E-002 +1.3479752557E+001  +6.4403759878E-001 +8.4924766146E-001 
11647501.877 +6.2717671855E-001 +6.3976343826E+000  +1.4004391703E-002 +1.3928645042E+000  +1.4274432945E-002 +2.2386856392E+001  +6.5206708330E-001 +1.5760006072E+000 
11772647.059 +6.2951098079E-001 +5.5233223217E+000  +1.3567827473E-002 +9.0824727145E+000  +1.5532139356E-002 +9.8239044885E+000  +6.5507779293E-001 +2.8720307054E+000 
11897792.240 +6.6836806713E-001 +6.8859900220E+000  +1.5676070280E-002 +4.9517779857E+000  +1.6513481651E-002 +2.0655150953E+001  +6.7357740541E-001 +4.4485878267E-001 
12022937.422 +6.8294005964E-001 +7.0784247586E+000  +1.4387230270E-002 +4.4317101053E+000  +1.4477127580E-002 +1.7470133183E+001  +6.3694578997E-001 +1.8393614729E+000 
12148082.603 +6.7623926639E-001 +5.5309588375E+000  +1.6111479413E-002 +5.1596157503E+000  +1.6780094814E-002 +1.2753690011E+001  +6.9315515052E-001 +2.9291476479E+000 
12273227.785 +6.7688497383E-001 +2.3037391456E+000  +1.5946452559E-002 +9.6897173069E+000  +1.4450937364E-002 +7.3172807286E+000  +7.1306213584E-001 -4.7980853253E-001 
12398372.966 +6.9065666117E-001 +1.6204604133E+000  +1.6977867571E-002 +5.2561437049E+000  +1.6030938171E-002 +1.4966280749E+001  +7.2101162583E-001 -1.5891941757E+000 
12523518.148 +7.0259122327E-001 +4.2774068664E+000  +1.6775578809E-002 +7.7538976985E+000  +1.4168572054E-002 +1.1376160273E+001  +7.4022854202E-001 -7.1060916128E-001 
12648663.329 +7.0937034260E-001 +3.1857892781E+000  +1.4803259663E-002 +3.9251947373E+000  +1.7187040087E-002 +1.2638498012E+001  +7.4049335691E-001 +1.2812283961E+000 
12773808.511 +7.5095924611E-001 +3.2037989045E+000  +1.5388327319E-002 +1.1293147332E+001  +1.5606267611E-002 +1.7235187405E+001  +7.7277876013E-001 -5.8646765633E-001 
12898953.692 +7.7335827223E-001 +1.2782489720E+000  +1.5279994358E-002 +6.0152491601E+000  +1.7811314676E-002 +1.1332148674E+001  +7.6799633956E-001 -2.0620303584E+000 
13024098.874 +7.8722367681E-001 +2.5959369974E+000  +1.6732399843E-002 +8.7464185436E+000  +1.5233753484E-002 +1.2365386103E+001  +7.7322629369E-001 -8.0819236091E-001 
13149244.055 +7.9020489894E-001 -4.6959405834E-001  +1.6676722953E-002 +7.1927679436E+000  +1.6068553815E-002 +1.2019030262E+001  +8.1769273556E-001 -9.7214815043E-001 
13274389.237 +8.2069878924E-001 +1.4837856976E+000  +1.6493484508E-002 +1.3286560568E+001  +1.6724990969E-002 +1.4854259082E+001  +8.0490773462E-001 -1.1051331250E+000 
13399534.418 +8.4260773264E-001 -5.5655493403E-001  +1.6501829192E-002 +8.2350719070E+000  +1.6927366311E-002 +8.0933964839E+000  +8.3930254537E-001 -1.7626800027E+000 
13524679.599 +8.5136873725E-001 -2.6235242797E+000  +1.7608944874E-002 +8.6642913046E+000  +1.5955307701E-002 +1.7571045424E+001  +8.4223931503E-001 -4.1360284583E+000 
13649824.781 +8.5436679864E-001 -1.7505056058E+000  +1.7504827676E-002 +1.3842608664E+001  +1.6127794406E-002 +5.6992089335E+000  +8.6467118948E-001 -2.0080392381E+000 
13774969.962 +8.8810799142E-001 -2.5738543345E+000  +1.7427572449E-002 +5.4335943052E+000  +1.6155314111E-002 +1.1710486284E+001  +8.8841492959E-001 -2.9351199249E+000 
13900115.144 +8.9277300307E-001 -3.1466457805E+000  +1.6163134669E-002 +6.7791079962E+000  +1.6904070559E-002 +1.1710439666E+001  +9.0764148685E-001 -4.1385668360E+000 
14025260.325 +9.0856138851E-001 -3.3243808524E+000  +1.6584865887E-002 +7.8570444921E+000  +1.6653557384E-002 +8.8705000290E+000  +9.2522602712E-001 -3.9776794383E+000 
14150405.507 +9.2427559619E-001 -3.4085081825E+000  +1.6435981005E-002 +1.6244099235E+000  +1.7445846716E-002 +8.2718749085E+000  +9.4043883779E-001 -4.3543232387E+000 
14275550.688 +9.4091326690E-001 -4.5975462904E+000  +1.7347714436E-002 +1.4199700259E+001  +1.4847379027E-002 +1.3568724558E+001  +9.4839779865E-001 -5.1907119746E+000 
14400695.870 +9.5177377284E-001 -6.6941024834E+000  +1.6847076155E-002 +6.4889370474E+000  +1.8540055370E-002 +5.5356766118E+000  +9.8355676332E-001 -5.4740130896E+000 
