!  2-Port S-parameters saved by WinCal
! VAR MeasName=S-Parameters (CALIBRATED_DATA) read from VNA (P5004A)
! VAR MeasDate=29/08/2024 11:45:46
! VAR NAME=S2_r9c4_SET1_9k-100M_3
! VAR FILENAME=S2_r9c4_SET1_9k-100M_3.S2P
! VAR DATE=29/08/2024 11:45:46
! VAR PHYS_PORTS=1,2
! VAR ObjTypeName=DATASET
! VAR IndexType=Frequency
!
# Hz S MA R 50
9000.000 +9.3610303685E-002 -1.6993459948E+002  +3.0580595158E-003 -7.7328847376E+001  +4.2669411653E-003 +8.1907578922E+001  +2.4206760373E-001 -1.4934076567E+002 
134145.181 +1.1113822174E-001 +1.6964106430E+002  +4.2497996640E-004 -1.5053231687E+002  +3.6151418806E-004 +5.5187879105E+001  +2.4102482744E-001 -1.7178090126E+002 
259290.363 +1.1144017148E-001 +1.7010880142E+002  +4.4558377054E-004 -4.9889461299E+001  +6.4529239694E-004 -1.0054254670E+002  +2.4049404146E-001 -1.6905801668E+002 
384435.544 +1.1376817657E-001 +1.6965791591E+002  +8.1249528321E-004 -3.6344852578E+001  +1.1267463358E-003 +1.5742750024E+002  +2.4474644217E-001 -1.6871162862E+002 
509580.726 +1.1436396738E-001 +1.7078719715E+002  +3.0887189779E-004 +6.5275888921E+001  +1.2304741515E-003 +1.2903064874E+002  +2.2477694350E-001 -1.6331097854E+002 
634725.907 +1.1542167167E-001 +1.7186297643E+002  +1.2684613996E-003 -1.0616206166E+002  +4.1463433904E-003 +9.3608517813E+001  +2.5275536524E-001 -1.6436388721E+002 
759871.089 +1.1979539845E-001 +1.7079085509E+002  +1.1999774299E-003 -7.8277270252E+001  +1.1931810492E-003 +5.7426404658E+001  +2.5476375732E-001 -1.6811254540E+002 
885016.270 +1.2142807087E-001 +1.6873764246E+002  +3.2732859737E-004 -5.4040152626E+001  +1.8848949552E-004 +7.7100836414E+001  +2.4594722148E-001 -1.6866026213E+002 
1010161.452 +1.1645710803E-001 +1.6863467788E+002  +1.3321197812E-003 +2.2735174775E+001  +1.5666578114E-003 +1.6712677975E+002  +2.2073188739E-001 -1.7115801736E+002 
1135306.633 +1.1518443661E-001 +1.6947881552E+002  +2.7049843790E-003 +7.0303660740E+001  +2.8769273460E-003 -1.7347352185E+002  +2.0862502233E-001 -1.7365884712E+002 
1260451.815 +1.1700955500E-001 +1.7302252557E+002  +3.5045677509E-003 -4.0434231871E+001  +3.8892006575E-003 +1.5072588694E+002  +2.2383819176E-001 -1.6244181304E+002 
1385596.996 +1.2584523305E-001 +1.7441849281E+002  +2.2278225027E-003 -8.5614990094E+001  +1.3970174689E-003 +1.4499106990E+001  +2.8577983481E-001 -1.5735208268E+002 
1510742.178 +1.3013322971E-001 +1.7166032883E+002  +5.1440936584E-004 -6.6422083217E+001  +1.2887611032E-003 +1.7015008879E+002  +2.5051490570E-001 -1.5944935728E+002 
1635887.359 +1.2718512266E-001 +1.7090701420E+002  +8.1521926315E-004 -5.5483122679E+001  +1.5540665270E-003 -1.3709893594E+002  +2.3080418396E-001 -1.5848883130E+002 
1761032.541 +1.2478380542E-001 +1.7031823552E+002  +2.4282599004E-003 +4.4245131164E+001  +6.8086066484E-003 -1.2140919915E+002  +1.9259848121E-001 -1.6246336198E+002 
1886177.722 +1.3196786595E-001 +1.6844817954E+002  +4.0337156616E-003 +4.9918004070E+001  +3.1101190996E-003 -7.6653560870E+001  +2.1226893842E-001 -1.6590673210E+002 
2011322.904 +1.2982242899E-001 +1.6938654919E+002  +4.8347615563E-003 +4.1401157619E+001  +5.7377370081E-003 -7.9872611715E+001  +2.1162554613E-001 -1.5712741695E+002 
2136468.085 +1.3239731320E-001 +1.6599043852E+002  +8.3136689748E-003 +7.7061761217E+001  +7.8268735082E-003 -5.2782413228E+001  +2.1273176406E-001 -1.7041563527E+002 
2261613.267 +1.2945686042E-001 +1.6334089560E+002  +1.5300766416E-002 +6.9390592616E+001  +1.2629865547E-002 -6.5819612119E+001  +1.6293734697E-001 -1.5892722096E+002 
2386758.448 +1.3744510539E-001 +1.6675097863E+002  +9.8939675726E-003 +4.9495855772E+001  +1.0520560345E-002 -5.2398117048E+001  +2.0343959496E-001 -1.6223132935E+002 
2511903.630 +1.3883914389E-001 +1.6242778378E+002  +1.4180911738E-002 +9.7225817067E+001  +1.3316322854E-002 -3.6630134767E+001  +2.0222195353E-001 -1.7777042655E+002 
2637048.811 +1.2146760098E-001 +1.6468768137E+002  +5.3763813727E-002 +9.6237525117E+001  +5.1324401216E-002 -2.0131910327E+001  +2.7484904591E-001 +1.3687341351E+002 
2762193.992 +1.2316981951E-001 +1.6797479153E+002  +5.7674149055E-002 +1.9959736023E+001  +6.4692224099E-002 -8.0726022788E+001  +1.2372035375E-001 -6.7807650209E+001 
2887339.174 +1.3037991003E-001 +1.7015896189E+002  +6.0364724272E-002 -8.4753483377E+000  +6.3850781821E-002 -1.1823551251E+002  +2.8259638424E-001 -8.7224159700E+001 
3012484.355 +1.4017284669E-001 +1.6816605178E+002  +5.8345776364E-002 +1.2588455089E+000  +5.5367664334E-002 -9.2878930133E+001  +2.2346727963E-001 -5.7435996466E+001 
3137629.537 +1.2924880695E-001 +1.6970374654E+002  +5.6596235987E-002 +2.1401191508E+001  +5.5817469944E-002 -9.2706208010E+001  +3.4296369093E-002 -7.4198110579E+001 
3262774.718 +1.3784382889E-001 +1.6880495598E+002  +4.3798261433E-002 +2.5132114218E+001  +4.0028819411E-002 -5.5590497598E+001  +3.5598373877E-002 +1.5980145329E+002 
3387919.900 +1.3542709503E-001 +1.6960436144E+002  +5.3887749540E-002 +3.1099064498E+001  +4.8646584448E-002 -5.6846583963E+001  +5.0207152540E-002 +9.4882202369E+001 
3513065.081 +1.6058278348E-001 +1.5281621165E+002  +9.4694569502E-002 +1.0047704455E+002  +9.1989123938E-002 +9.7315151937E+000  +5.5702552984E-001 +9.9870474965E+001 
3638210.263 +1.9283906235E-001 +1.5178001833E+002  +5.4990798123E-002 +1.7093971729E+002  +5.3634356631E-002 +8.4422387931E+001  +6.8729342500E-001 +1.5945241540E+002 
3763355.444 +1.5668442885E-001 +1.5602361695E+002  +5.2163041219E-002 +1.0509270039E+002  +6.6895056007E-002 +3.2858692985E+001  +4.8481074629E-001 +1.4878555365E+002 
3888500.626 +1.6615734566E-001 +1.5169297949E+002  +5.0789612111E-002 +6.5808399314E+001  +5.6458807454E-002 +3.7027396006E+000  +1.6426279757E-001 +1.3474187983E+002 
4013645.807 +1.6858440579E-001 +1.5693767153E+002  +7.1418932570E-002 +3.5014294939E+001  +7.2546448673E-002 -3.9550428910E+001  +1.8036506952E-001 -6.3643670341E+000 
4138790.989 +1.9411287711E-001 +1.4925467210E+002  +6.5687733569E-002 +1.0614657850E+002  +6.4395910100E-002 +3.2795414387E+001  +4.5001992788E-001 +1.3938736939E+002 
4263936.170 +1.7341579508E-001 +1.4042068489E+002  +8.3119851851E-002 +8.1185622212E+001  +7.4413825135E-002 +2.2904888110E+001  +3.2540055331E-001 +1.4090798705E+002 
4389081.352 +1.8665008917E-001 +1.4074767351E+002  +1.0907976595E-001 +8.9777536355E+001  +1.0014005171E-001 +2.5591587077E+001  +4.3102269808E-001 +1.1913623328E+002 
4514226.533 +1.8754278315E-001 +1.3452790524E+002  +2.1322632931E-001 +4.7922515940E+001  +2.0987504308E-001 -7.3586480926E+000  +7.8477890673E-001 +2.7110711606E+001 
4639371.715 +3.0329326118E-001 +1.3629436942E+002  +1.4172017746E-001 +1.3309972531E+002  +1.4917175330E-001 +8.7341788092E+001  +8.4400666912E-001 +1.3418834527E+002 
4764516.896 +3.0600623515E-001 +1.3170977442E+002  +1.8754211588E-001 +1.4163972776E+002  +1.6588097587E-001 +9.1663198619E+001  +1.0679456154E+000 +1.4248619109E+002 
4889662.078 +4.2039248918E-001 +1.4801581704E+002  +6.3008387215E-001 -1.6305627113E+002  +6.3554318145E-001 +1.4276894023E+002  +3.7652502105E+000 +1.4963604727E+002 
5014807.259 +4.3295693843E-001 +1.3366363585E+002  +5.5988485451E-001 +1.3272133475E+002  +5.4985709680E-001 +8.6004768778E+001  +2.9431811011E+000 +9.8346886548E+001 
5139952.441 +3.6947504335E-001 +1.2774391466E+002  +2.1394382758E-001 +9.9136378456E+001  +2.2598033931E-001 +6.1234678039E+001  +7.9513825573E-001 +9.6998709716E+001 
5265097.622 +3.7258912114E-001 +1.3116205592E+002  +2.5797435153E-001 +1.0824441451E+002  +2.6245271253E-001 +6.6121185752E+001  +1.4159911941E+000 +9.9441921181E+001 
5390242.804 +3.7063142486E-001 +1.3885622582E+002  +4.0843375020E-001 +1.5377917675E+002  +3.4420185523E-001 +1.1233615435E+002  +3.2898176997E+000 +1.4308573397E+002 
5515387.985 +3.9564189013E-001 +1.3560225248E+002  +2.2241856219E-001 +1.0657413000E+002  +2.1269927690E-001 +7.2641188662E+001  +1.4563144670E+000 +1.0775476534E+002 
5640533.166 +4.1160944281E-001 +1.2827000613E+002  +2.5883747992E-001 +8.0587853942E+001  +2.4156538426E-001 +5.1528075221E+001  +1.2473617097E+000 +7.4432995727E+001 
5765678.348 +4.3087056613E-001 +1.2673868442E+002  +2.2876806258E-001 +1.0030594744E+002  +2.2063606587E-001 +7.6495753645E+001  +1.3957406630E+000 +1.1486544339E+002 
5890823.529 +5.2042532400E-001 +1.2244728870E+002  +2.4288395331E-001 +9.3269593471E+001  +2.3677742637E-001 +6.8564813247E+001  +1.1445092986E+000 +1.0087008342E+002 
6015968.711 +5.4596846771E-001 +1.2098097620E+002  +3.0082057401E-001 +6.8534193163E+001  +2.9042524590E-001 +4.9581773559E+001  +1.3720326364E+000 +5.7342087553E+001 
6141113.892 +5.6737615497E-001 +1.0485978876E+002  +3.7688098381E-001 +6.0707501161E+001  +3.7666371335E-001 +4.1077123707E+001  +1.5427195429E+000 +5.9368516406E+001 
6266259.074 +5.7824069532E-001 +1.0249072536E+002  +3.3369824044E-001 +5.0125906642E+001  +3.2063233931E-001 +3.2132750522E+001  +1.2043384772E+000 +5.2452696144E+001 
6391404.255 +6.8353669806E-001 +9.7479717910E+001  +3.1212940815E-001 +4.8419507938E+001  +2.9599671282E-001 +2.8436135327E+001  +8.3785227712E-001 +4.5118742796E+001 
6516549.437 +6.0397176906E-001 +6.9020369199E+001  +4.2727510526E-001 +1.6084994840E+001  +4.1257076785E-001 +1.7752967895E+000  +1.5165176017E+000 +1.3094786541E+001 
6641694.618 +9.8772312700E-001 +8.0122362368E+001  +3.8533418855E-001 +3.6125296139E+001  +3.6262158794E-001 +2.2806299882E+001  +1.0807464563E+000 +1.6332861621E+001 
6766839.800 +1.1439889318E+000 +4.5779411628E+001  +4.5444074464E-001 +1.2795283691E+001  +4.5394600325E-001 +7.0711869067E+000  +1.1393018004E+000 +8.7307210196E+000 
6891984.981 +1.2212106650E+000 +3.1376313051E+001  +4.3219659492E-001 +7.9718096835E+000  +4.3199394602E-001 +1.5120774042E+000  +9.8912144528E-001 +4.4097295811E+000 
7017130.163 +1.0046782604E+000 +2.5342028124E+001  +3.4492988932E-001 +3.0817338210E+000  +3.5551877641E-001 -2.2220066678E+000  +1.0085233311E+000 -6.6469002906E+000 
7142275.344 +1.0787652104E+000 +1.3783289052E+001  +3.1206474247E-001 +1.5991443630E+000  +3.1619475441E-001 -3.2807588983E+000  +8.5265615003E-001 -1.0767934452E+001 
7267420.526 +1.0881926693E+000 +3.0524957176E+000  +2.9778069015E-001 -3.0537577091E-001  +2.8532494018E-001 -1.9814165041E+000  +1.0589724977E+000 -1.4894721942E+001 
7392565.707 +7.9660651821E-001 -1.5455274515E-001  +2.4814099777E-001 +4.1771960010E+000  +2.4869650618E-001 +4.1991249185E+000  +1.1595511763E+000 -4.5687051969E+000 
7517710.889 +8.5704506186E-001 +5.1865776288E-001  +2.3607393264E-001 +2.2815894022E+000  +2.3379351966E-001 +4.8593278760E+000  +9.8024876592E-001 -1.0583143519E+001 
7642856.070 +8.1374006517E-001 +2.8732600357E+000  +2.2185770918E-001 +3.3127290499E+000  +2.2105710387E-001 +6.5678249910E+000  +9.1206347464E-001 -1.2701743188E+000 
7768001.252 +6.8574094036E-001 +6.9458363612E+000  +2.0553906972E-001 +1.7029951111E+000  +2.0570294237E-001 +6.2220901141E+000  +7.6750205338E-001 -3.3088814602E+000 
7893146.433 +6.1639649987E-001 +6.0846802496E+000  +1.9903610497E-001 +1.0087000041E+000  +1.9843905754E-001 +5.3482430913E+000  +6.9248110159E-001 -2.9051257951E+000 
8018291.615 +6.1439377696E-001 +1.3690577038E+001  +1.9172503023E-001 +4.2260081121E-001  +1.8800494377E-001 +6.6480572682E+000  +6.2780776383E-001 +1.0626486154E+001 
8143436.796 +6.2322468195E-001 +1.3403507685E+001  +1.8856411378E-001 -1.1528421819E+000  +1.8773647732E-001 +7.3788377129E+000  +5.9471303719E-001 +5.7528550501E+000 
8268581.977 +4.5585803812E-001 +1.4032297001E+001  +1.8285682464E-001 -2.1615692199E+000  +1.8175668637E-001 +7.3153381059E+000  +5.6680290497E-001 +4.7413949750E+000 
8393727.159 +5.3615084563E-001 +1.1453064220E+001  +1.8232626832E-001 -2.7533102183E+000  +1.8894100034E-001 +8.2320134917E+000  +5.2740009182E-001 +5.9937596341E+000 
8518872.340 +4.4658169254E-001 +1.0307132091E+001  +1.8184625784E-001 -4.5879152657E+000  +1.8191606604E-001 +7.5129998619E+000  +5.0525535017E-001 +3.2946666210E-001 
8644017.522 +4.6603224422E-001 +2.0360784101E+001  +1.7431774580E-001 -2.9532967833E+000  +1.7112061548E-001 +8.9741477272E+000  +5.1942467382E-001 +4.4054948562E+000 
8769162.703 +4.5877737129E-001 +1.7686716140E+001  +1.7678416008E-001 -4.4277770207E+000  +1.6701816588E-001 +9.2759287393E+000  +4.5978194364E-001 +1.1689927894E+001 
8894307.885 +4.4527544068E-001 +1.1320370619E+001  +1.7139754595E-001 -3.7472042197E+000  +1.7392198412E-001 +9.4352799841E+000  +4.5931208505E-001 +8.4554185303E+000 
9019453.066 +4.5020628824E-001 +1.6418021340E+001  +1.6939726579E-001 -4.0622355357E+000  +1.7617439589E-001 +1.0449315966E+001  +4.3320202142E-001 -1.9843439219E+000 
9144598.248 +3.7922392651E-001 +4.5663493715E+000  +1.6984823190E-001 -4.2649381740E+000  +1.7328524989E-001 +8.6844473860E+000  +3.8067014230E-001 +4.8920244189E+000 
9269743.429 +3.5073797515E-001 +8.2648350104E+000  +1.7429995380E-001 -4.3056928915E+000  +1.7451688987E-001 +9.5397336734E+000  +4.4221412092E-001 +1.3146270298E+000 
9394888.611 +3.7418137433E-001 +5.7853736902E+000  +1.6954035332E-001 -5.7363131865E+000  +1.6913150480E-001 +8.9575661470E+000  +4.1585603441E-001 +9.3327490347E+000 
9520033.792 +3.8085172701E-001 +1.2781498851E+001  +1.6837445778E-001 -3.9832293777E+000  +1.7006852066E-001 +1.0300771125E+001  +4.0047618937E-001 +9.4550314904E+000 
9645178.974 +3.6846790480E-001 +7.4333782374E+000  +1.7089255544E-001 -5.5231989529E+000  +1.7003095273E-001 +1.0777420648E+001  +3.8750598204E-001 +5.2657492125E-001 
9770324.155 +3.2430085513E-001 +3.6415523696E+000  +1.7565653208E-001 -4.5653481906E+000  +1.7487621630E-001 +1.1180573575E+001  +4.3546879131E-001 -2.4715409129E-001 
9895469.337 +3.1524532538E-001 +3.5496854071E+000  +1.7378913910E-001 -5.0958795451E+000  +1.7465972784E-001 +1.0926802789E+001  +3.9431459531E-001 -3.3197893704E+000 
10020614.518 +3.6680095772E-001 +5.2579149501E+000  +1.7535976713E-001 -3.9458942858E+000  +1.7432576858E-001 +1.1199581054E+001  +3.7893544227E-001 +2.2457209132E+000 
10145759.700 +3.6494720058E-001 +4.9512775262E+000  +1.7365671825E-001 -3.5941046060E+000  +1.7690745325E-001 +1.2332940297E+001  +3.8500864024E-001 -4.5807918796E+000 
10270904.881 +3.7513104017E-001 +1.0465708010E+001  +1.7502950763E-001 -3.4224119900E+000  +1.7503763371E-001 +1.1938045098E+001  +3.8898916503E-001 +1.9682233416E+000 
10396050.063 +3.3493369831E-001 +1.2619436533E+001  +1.7556531929E-001 -4.4046054442E+000  +1.7405976457E-001 +1.0862990540E+001  +3.9908916176E-001 +5.5632796384E+000 
10521195.244 +4.3700403595E-001 +9.4763483952E+000  +1.7734784709E-001 -2.1798510476E+000  +1.7336939281E-001 +1.2226454892E+001  +3.8152040303E-001 +4.3872426807E+000 
10646340.426 +3.6285744489E-001 +1.2578249371E+001  +1.8180253721E-001 -3.8322057500E+000  +1.7742777759E-001 +1.1800402100E+001  +3.6290103259E-001 -6.9351960211E-001 
10771485.607 +4.1914756642E-001 +1.2232013879E+001  +1.7800974378E-001 -1.6558995623E+000  +1.7640472758E-001 +1.2036310450E+001  +4.0990883544E-001 +7.7177244149E+000 
10896630.788 +4.1024941876E-001 +8.7201928366E+000  +1.8341588957E-001 -1.5924736303E+000  +1.8047734364E-001 +1.2057913413E+001  +4.2697117725E-001 +1.9513777030E+000 
11021775.970 +4.1135585279E-001 +1.4578770141E+001  +1.8129261724E-001 -1.3910696831E+000  +1.7734443451E-001 +1.2229953576E+001  +4.2316065711E-001 +1.3031662713E+001 
11146921.151 +4.2683940610E-001 +6.3919832656E+000  +1.8500312094E-001 -1.2309778596E+000  +1.8508167293E-001 +1.2205613172E+001  +4.2766014169E-001 +5.0627120939E+000 
11272066.333 +4.3851807512E-001 +1.1711970087E+001  +1.8651736701E-001 -1.3211870343E+000  +1.8412329823E-001 +1.1752227614E+001  +4.5008018581E-001 +1.7344254910E+000 
11397211.514 +4.0222597590E-001 +1.2115188050E+001  +1.8806887509E-001 -1.8745937442E+000  +1.8394152522E-001 +1.1053794910E+001  +4.2283151514E-001 +7.1668563062E+000 
11522356.696 +3.9822792662E-001 +6.7721967175E+000  +1.8972239265E-001 -7.1783976551E-001  +1.8798037568E-001 +1.0732663988E+001  +4.7105246615E-001 +4.7986323938E+000 
11647501.877 +4.1908044767E-001 +1.0695421637E+001  +1.8966398949E-001 -4.9074671417E-001  +1.8664857676E-001 +1.1633078710E+001  +4.6693078678E-001 +4.2469069156E+000 
11772647.059 +4.6175259167E-001 +7.9774599968E+000  +1.9240374289E-001 +3.2097926953E-001  +1.9123202104E-001 +1.0074952722E+001  +4.3975542578E-001 +6.7916117961E+000 
11897792.240 +4.5176950970E-001 +9.7401631876E+000  +1.9527972408E-001 +1.4930567158E-002  +1.9330847604E-001 +1.0142535773E+001  +4.6464159430E-001 +2.2325071842E+000 
12022937.422 +4.8201813018E-001 +1.0293413870E+001  +1.9566146721E-001 +7.4928654803E-001  +1.9357828703E-001 +1.0707027392E+001  +4.9869901460E-001 +5.0808244434E+000 
12148082.603 +4.7686703743E-001 +7.2077638859E+000  +1.9845585856E-001 +7.5204297289E-001  +1.9740345003E-001 +9.7189944808E+000  +4.9995267814E-001 +5.0814676979E+000 
12273227.785 +5.1234174135E-001 +5.2722885992E+000  +2.0127372483E-001 +1.1076635942E+000  +1.9777097874E-001 +9.1625503797E+000  +4.9297628077E-001 +3.8536108922E+000 
12398372.966 +4.9282386549E-001 +2.2066829660E+000  +2.0541964498E-001 +1.1104551443E+000  +2.0212340914E-001 +8.5644725707E+000  +5.1262710376E-001 +3.0345546541E+000 
12523518.148 +5.1098067860E-001 +4.7105994000E+000  +2.0648557658E-001 +1.6456746426E+000  +2.0262536139E-001 +8.2605883214E+000  +5.4299460719E-001 +3.9527890985E+000 
12648663.329 +5.2070340272E-001 +3.6593676343E+000  +2.0737262281E-001 +1.2318218521E+000  +2.0489093998E-001 +8.7177833406E+000  +5.6320046942E-001 +2.8241257326E+000 
12773808.511 +5.6375438209E-001 +4.1730109313E+000  +2.0928687646E-001 +1.9801105593E+000  +2.0773072957E-001 +7.6022021723E+000  +5.6522393437E-001 +2.1828332914E+000 
12898953.692 +5.5914659574E-001 +2.9062226474E+000  +2.1283868538E-001 +1.0731650523E+000  +2.1105575051E-001 +7.0200698987E+000  +5.6345319497E-001 -5.8215927316E-001 
13024098.874 +5.8406359727E-001 +1.9244996367E+000  +2.1535389820E-001 +1.8214798663E+000  +2.1260163387E-001 +7.2617682650E+000  +5.8678305590E-001 -3.6801607893E-001 
13149244.055 +5.8434338339E-001 +1.7590948090E+000  +2.1393729595E-001 +1.8705957101E+000  +2.1218670879E-001 +6.6615989800E+000  +5.8799737009E-001 +9.2906385111E-001 
13274389.237 +5.9474122514E-001 +1.6604881470E+000  +2.1619622324E-001 +2.3142906104E+000  +2.1352147441E-001 +6.0237397680E+000  +5.9800721641E-001 +5.9459259461E-001 
13399534.418 +6.1769825485E-001 +1.1995275738E+000  +2.1785471589E-001 +2.7616503726E+000  +2.1647716751E-001 +5.8206517730E+000  +6.4583574993E-001 -6.4561614992E-001 
13524679.599 +6.3924850221E-001 +4.3927504564E-001  +2.2011764608E-001 +2.2388695559E+000  +2.2003691935E-001 +4.6554616530E+000  +6.4071695404E-001 -1.8512849084E+000 
13649824.781 +6.4319751749E-001 -3.5860190274E+000  +2.2531488480E-001 +1.5891958746E+000  +2.2095777462E-001 +4.2396310570E+000  +6.2241203240E-001 -4.3256324644E+000 
13774969.962 +6.4761747562E-001 -2.8651667102E+000  +2.2695366503E-001 +1.7362662057E+000  +2.2355152407E-001 +3.9082291499E+000  +6.7394074264E-001 -3.6171428940E+000 
13900115.144 +6.6698642672E-001 -2.6510637260E+000  +2.2496299795E-001 +2.0267405794E+000  +2.2450199461E-001 +3.5275848968E+000  +7.0109286802E-001 -2.4556407924E+000 
14025260.325 +7.1669497944E-001 -3.2535019687E+000  +2.2847871763E-001 +1.7283004603E+000  +2.2515563071E-001 +3.5037570069E+000  +6.8676620442E-001 -3.0399652631E+000 
14150405.507 +7.0723334079E-001 -3.9984066287E+000  +2.2994265180E-001 +1.8121094568E+000  +2.2689975588E-001 +2.5787398661E+000  +7.3072553239E-001 -3.5108219443E+000 
14275550.688 +7.2217744756E-001 -5.1394302672E+000  +2.3196852324E-001 +1.7904403500E+000  +2.2829459273E-001 +2.3621947702E+000  +7.5177045315E-001 -4.3162941669E+000 
14400695.870 +7.5275989852E-001 -6.3315085069E+000  +2.3415267386E-001 +1.2366416610E+000  +2.2796592343E-001 +2.0197234252E+000  +7.4813690208E-001 -5.5436473921E+000 
