!  2-Port S-parameters saved by WinCal
! VAR MeasName=S-Parameters (CALIBRATED_DATA) read from VNA (P5004A)
! VAR MeasDate=29/08/2024 12:06:47
! VAR NAME=S2_r9c5_pristine_9k-100M_1
! VAR FILENAME=S2_r9c5_pristine_9k-100M_1.S2P
! VAR DATE=29/08/2024 12:06:47
! VAR PHYS_PORTS=1,2
! VAR ObjTypeName=DATASET
! VAR IndexType=Frequency
!
# Hz S MA R 50
9000.000 +9.6165480796E-002 -1.7337017818E+002  +6.5920844541E-003 +1.6148236028E+001  +6.2741628764E-003 -1.6247603177E+002  +2.7203188541E-001 -1.3497070356E+002 
134145.181 +1.1105422337E-001 +1.6985161697E+002  +4.2381723465E-004 +2.0161055522E+001  +3.4191287447E-004 +7.3721926360E+001  +2.4460567027E-001 -1.7039672117E+002 
259290.363 +1.1151702268E-001 +1.6989123282E+002  +1.2917441304E-003 -3.4633832714E+001  +1.2779536275E-003 +1.1634089316E+002  +2.4725065583E-001 -1.6967406250E+002 
384435.544 +1.1455109819E-001 +1.7042212146E+002  +4.6771930838E-004 -5.4332465120E+001  +9.2974656891E-004 +7.8285328239E+001  +2.4217616406E-001 -1.6957869447E+002 
509580.726 +1.1423711396E-001 +1.7101354067E+002  +2.7481115806E-003 -3.9836639154E+000  +1.8572742453E-003 -1.5403495261E+002  +2.1903295404E-001 -1.6537208138E+002 
634725.907 +1.1715877236E-001 +1.7129595179E+002  +1.0830228677E-003 -9.7570789828E+001  +1.2171110315E-003 +5.5919990935E+001  +2.5722190193E-001 -1.6584600679E+002 
759871.089 +1.1837061320E-001 +1.7026462809E+002  +1.2539089401E-003 -6.9736342659E+001  +1.4093881770E-003 +1.3601101152E+002  +2.4759350325E-001 -1.6691569907E+002 
885016.270 +1.2129972510E-001 +1.6909877164E+002  +1.0279589148E-003 -5.5579905449E+001  +7.0137059297E-004 +1.3475426006E+002  +2.4287433608E-001 -1.6780893629E+002 
1010161.452 +1.1961090659E-001 +1.7006188402E+002  +1.3002352666E-003 +2.8127531638E+000  +2.0403691586E-003 +1.7420713231E+002  +2.2123497901E-001 -1.6938835915E+002 
1135306.633 +1.1742805087E-001 +1.6866228435E+002  +2.3600465784E-003 +2.3884438086E+000  +2.5919361807E-003 -1.1286282974E+002  +2.1064773664E-001 -1.7057016972E+002 
1260451.815 +1.2057122769E-001 +1.7069888318E+002  +2.8192180010E-003 +1.4999921680E+001  +2.8226698843E-003 +1.7783187450E+002  +2.1087263602E-001 -1.6390168973E+002 
1385596.996 +1.2342639539E-001 +1.7188515858E+002  +2.6465571120E-003 -7.7701464056E+001  +4.2896497828E-003 +1.4477187257E+002  +2.5441382197E-001 -1.5557960202E+002 
1510742.178 +1.2892343480E-001 +1.7127645775E+002  +1.1107324153E-003 -5.4405578463E+000  +1.1354668305E-003 +1.6083328818E+002  +2.4930870874E-001 -1.6198949261E+002 
1635887.359 +1.2881018824E-001 +1.7138998264E+002  +2.3072622317E-003 +3.4226593992E+000  +1.9717162076E-003 -1.4736906323E+002  +2.4211163683E-001 -1.6109072014E+002 
1761032.541 +1.2932730614E-001 +1.7008053938E+002  +3.5416578250E-003 +5.3441690113E+001  +5.0802952666E-003 -1.0049396221E+002  +2.1946895401E-001 -1.6160460832E+002 
1886177.722 +1.3245053237E-001 +1.6973360916E+002  +5.3506516540E-003 +2.9418373387E+001  +7.4988146869E-003 -8.1758877038E+001  +2.0950506427E-001 -1.5879707687E+002 
2011322.904 +1.3157077290E-001 +1.6770714480E+002  +6.6551040895E-003 +6.7239057904E+001  +7.0189850444E-003 -6.9929954443E+001  +2.2359957778E-001 -1.6407254729E+002 
2136468.085 +1.3539510888E-001 +1.6877520921E+002  +1.2521812292E-002 +7.8486577181E+001  +1.2865211308E-002 -5.4665133755E+001  +1.7677363940E-001 -1.6821308418E+002 
2261613.267 +1.3290289323E-001 +1.6804564565E+002  +1.3802185695E-002 +7.7874427555E+001  +1.3840949703E-002 -4.6900205978E+001  +2.0414291572E-001 -1.7189055821E+002 
2386758.448 +1.3899912081E-001 +1.6624158248E+002  +1.6360070396E-002 +7.3721375309E+001  +1.8727038091E-002 -4.6703782822E+001  +1.8459539891E-001 -1.6769102825E+002 
2511903.630 +1.3640580309E-001 +1.6662887981E+002  +1.7376381351E-002 +9.1826103272E+001  +1.8780573525E-002 -2.3112805432E+001  +2.3643691395E-001 -1.7858687252E+002 
2637048.811 +1.3037633008E-001 +1.6488293111E+002  +4.2956618534E-002 +7.3474763616E+001  +4.2403557111E-002 -5.0242293826E+001  +1.1792759647E-001 -1.7770343252E+002 
2762193.992 +1.0029689828E-001 -1.7696200712E+002  +1.0748550470E-001 +4.0900576348E+001  +1.1457342648E-001 -6.9021135717E+001  +6.4666861197E-002 +7.7343831288E+001 
2887339.174 +1.3882026334E-001 +1.7387902305E+002  +7.5564615962E-002 +2.7492773287E+001  +7.1133253073E-002 -7.4158444636E+001  +4.0363428221E-002 +2.6855928337E+001 
3012484.355 +1.3386375084E-001 +1.7843890732E+002  +6.9586724959E-002 -2.6413876059E+000  +7.5171069533E-002 -1.0156302745E+002  +1.5945466052E-001 -1.0135240131E+002 
3137629.537 +1.3625932856E-001 +1.7518790547E+002  +5.7528210628E-002 +3.2586458898E+001  +6.3529069825E-002 -6.5499826395E+001  +9.6789834358E-002 +1.7595320418E+002 
3262774.718 +1.2853225955E-001 +1.6937060511E+002  +7.1003352378E-002 +6.7811187507E+001  +6.2883009845E-002 -2.9392419328E+001  +2.2038255507E-001 +1.4694608325E+002 
3387919.900 +1.2796751535E-001 +1.6974992456E+002  +6.7903146428E-002 +3.4554750588E+001  +6.4104824804E-002 -4.8350167970E+001  +9.9224878348E-002 -1.6859170118E+002 
3513065.081 +1.3641524497E-001 +1.5462672327E+002  +8.2533356136E-002 +8.8029342273E+001  +8.2833769739E-002 +1.8476761056E+000  +2.7713845856E-001 +1.4266221649E+002 
3638210.263 +1.6861567379E-001 +1.5461617069E+002  +4.5073199559E-002 +1.0251542545E+002  +4.3509751003E-002 +2.6677473992E+001  +3.1583635943E-001 +1.7165487977E+002 
3763355.444 +1.8228135521E-001 +1.5103412382E+002  +8.4302312584E-002 +9.1211148943E+001  +8.0670825580E-002 +1.7809986833E+001  +2.3285794617E-001 +1.3405621727E+002 
3888500.626 +1.8652084514E-001 +1.5519528507E+002  +7.3038406252E-002 +1.0429241747E+002  +7.0568841985E-002 +2.8655710468E+001  +3.5943092738E-001 +1.4476728977E+002 
4013645.807 +1.7812843895E-001 +1.5146127792E+002  +8.9623250476E-002 +7.6174773213E+001  +8.2292997011E-002 +7.4233873431E+000  +1.8822287062E-001 +1.4033313649E+002 
4138790.989 +1.7779739562E-001 +1.5729329809E+002  +7.1846293123E-002 +8.2352112320E+001  +6.5383331340E-002 +1.5588889243E+001  +3.0812217052E-001 +1.5428889520E+002 
4263936.170 +1.9322393678E-001 +1.4508251728E+002  +1.3852030413E-001 +9.9212548992E+001  +1.2950718723E-001 +3.3148009991E+001  +4.4465088282E-001 +1.2686765267E+002 
4389081.352 +2.0111970260E-001 +1.4622758417E+002  +1.0953545146E-001 +8.5929055375E+001  +1.1164431030E-001 +2.9132926601E+001  +3.0580327719E-001 +1.3688504726E+002 
4514226.533 +1.8948171299E-001 +1.4376772835E+002  +1.4578596614E-001 +6.3942080034E+001  +1.4716651581E-001 +6.8696032122E+000  +1.7786151519E-001 +8.8272920858E+001 
4639371.715 +2.7250646253E-001 +1.4427066878E+002  +1.7375914238E-001 +1.3849584846E+002  +1.7398082248E-001 +8.5520611827E+001  +8.6757152310E-001 +1.4628335257E+002 
4764516.896 +2.6790799874E-001 +1.1918111818E+002  +3.2207842389E-001 +1.1396382450E+002  +3.1517076347E-001 +6.3276420811E+001  +9.8535836381E-001 +1.3108572100E+002 
4889662.078 +3.2855105460E-001 +1.6738582930E+002  +6.4875980061E-001 -1.2483448821E+002  +6.4766000008E-001 -1.7241219475E+002  +2.5681607037E+000 -1.4565097640E+002 
5014807.259 +4.0957837686E-001 +1.4065450357E+002  +3.8730681247E-001 +1.4199454711E+002  +3.6586897956E-001 +9.7023872776E+001  +1.4527157000E+000 +1.2079297323E+002 
5139952.441 +2.4945286089E-001 +1.3029421978E+002  +2.7102310445E-001 +7.4434530010E+001  +2.5388042890E-001 +3.3389653830E+001  +6.5534871753E-001 +9.1088747277E+001 
5265097.622 +3.2680171750E-001 +1.3057868963E+002  +4.2351398336E-001 +9.8041462640E+001  +3.8461939414E-001 +5.9772751514E+001  +1.5741061890E+000 +9.9250499788E+001 
5390242.804 +3.8949653668E-001 +1.3288720554E+002  +2.4787438332E-001 +1.1678333960E+002  +2.4008958761E-001 +7.9683486628E+001  +8.8287404673E-001 +1.3204444982E+002 
5515387.985 +4.1065877620E-001 +1.2587025310E+002  +4.2776808490E-001 +1.1115085536E+002  +4.1671967002E-001 +7.5718969929E+001  +1.5660094784E+000 +1.1632157124E+002 
5640533.166 +4.3293220252E-001 +1.2947773095E+002  +3.0652905628E-001 +1.0613894337E+002  +3.0055172029E-001 +7.5400059982E+001  +1.0471859811E+000 +1.2158691417E+002 
5765678.348 +4.2607518772E-001 +1.2850246932E+002  +3.0203220969E-001 +9.6442367387E+001  +2.9335731528E-001 +6.6557403871E+001  +1.0461787607E+000 +1.1726998090E+002 
5890823.529 +4.6952654586E-001 +1.2580744963E+002  +3.2912993453E-001 +8.5295184859E+001  +3.1082675501E-001 +5.9572244882E+001  +9.3678161610E-001 +1.0006823586E+002 
6015968.711 +5.5536803303E-001 +1.2133476177E+002  +4.1879075843E-001 +8.8947016636E+001  +3.9530009178E-001 +6.6969353679E+001  +1.2476495716E+000 +9.6434577517E+001 
6141113.892 +5.0981419436E-001 +1.1496686356E+002  +4.3398813420E-001 +6.8615537613E+001  +4.0884706964E-001 +4.6476236465E+001  +1.1226697407E+000 +7.9063027405E+001 
6266259.074 +4.7431964803E-001 +1.0226477702E+002  +4.2729525899E-001 +4.7003379936E+001  +4.3353863515E-001 +3.0852988652E+001  +8.1793145195E-001 +6.4232494577E+001 
6391404.255 +5.0783954770E-001 +9.5746501079E+001  +5.0818662705E-001 +4.0955476218E+001  +5.0275978723E-001 +2.5980414527E+001  +1.1239489582E+000 +5.0714286728E+001 
6516549.437 +5.3368361295E-001 +8.4958132089E+001  +5.1434080394E-001 +3.4500313958E+001  +5.0951213140E-001 +2.0951891246E+001  +9.4519145987E-001 +4.4686856308E+001 
6641694.618 +7.9043355114E-001 +7.0174135779E+001  +5.7503139666E-001 +2.8037188487E+001  +5.5205557868E-001 +1.7100053638E+001  +7.3980853665E-001 +2.2566864366E+001 
6766839.800 +8.0125888754E-001 +6.1351631479E+001  +6.1119502104E-001 +1.9369890852E+001  +5.8495267388E-001 +1.1638968674E+001  +9.9630306207E-001 +1.3121412520E+001 
6891984.981 +7.5197274107E-001 +3.3456884783E+001  +6.1241895676E-001 +7.3874739962E+000  +6.2691665314E-001 +4.7346070542E-001  +9.4361053307E-001 +8.3347228411E+000 
7017130.163 +6.3593104369E-001 +9.4936359301E+000  +5.5325424759E-001 -1.9517749899E+000  +5.5047355861E-001 -6.1487515253E+000  +9.1829436792E-001 +3.3376627346E+000 
7142275.344 +8.2964413483E-001 +1.7597143576E+001  +5.1398641831E-001 +2.9814429037E+000  +5.2175804258E-001 -7.5519940249E-001  +7.3091892552E-001 -8.6897295958E+000 
7267420.526 +8.4751381934E-001 +1.1049134158E+001  +4.6694551890E-001 +1.6045653633E+000  +4.6658968944E-001 +3.5505309748E-002  +6.8825027211E-001 -8.4306481344E+000 
7392565.707 +7.7446609572E-001 +1.1386735026E+001  +4.2056331465E-001 +6.0234318920E+000  +4.2289495725E-001 +5.4545737959E+000  +8.8803159669E-001 -5.6743616913E+000 
7517710.889 +7.1081502779E-001 +3.9433524374E+000  +3.9981612235E-001 +3.0711540708E+000  +4.0174454463E-001 +4.9653214911E+000  +7.2619321280E-001 -8.4847195455E+000 
7642856.070 +6.0680643174E-001 +8.4249326882E-001  +3.8445197694E-001 +8.2174027352E-001  +3.8108554755E-001 +3.5709573306E+000  +6.0082976397E-001 +2.3124343297E+000 
7768001.252 +4.7123332157E-001 +3.4415180619E+000  +3.6673769668E-001 +6.8252834799E-001  +3.6061416166E-001 +5.1098688997E+000  +6.4020342893E-001 +1.8869346811E+000 
7893146.433 +4.5232562515E-001 +1.6646239738E+001  +3.4126117632E-001 -1.5442707847E+000  +3.3970062645E-001 +5.9047822719E+000  +5.3470829900E-001 +1.1803114547E+001 
8018291.615 +4.8122639557E-001 +1.8016519730E+001  +3.3604469953E-001 -1.6668060057E+000  +3.3302810829E-001 +6.8867324941E+000  +5.1351816846E-001 +1.0977519922E+000 
8143436.796 +3.9357156410E-001 +2.7290639581E+001  +3.2080316764E-001 -2.5492748082E+000  +3.1992889683E-001 +6.6339434602E+000  +4.4037957646E-001 +1.5204129306E+001 
8268581.977 +4.0243155894E-001 +1.9223949365E+001  +3.2346020449E-001 -3.4147766960E+000  +3.1285807547E-001 +6.3830871610E+000  +3.7205452630E-001 +1.0884248128E+001 
8393727.159 +3.7570587793E-001 +2.4826610563E+001  +3.1752154508E-001 -3.8511323040E+000  +3.1585805975E-001 +6.7144109061E+000  +3.6353399731E-001 +6.0248389167E+000 
8518872.340 +3.3938122312E-001 +2.1780320487E+001  +3.0970760141E-001 -5.1811726169E+000  +3.0739505850E-001 +7.1790029468E+000  +3.7514576896E-001 +1.4208723305E+001 
8644017.522 +3.1769674906E-001 +3.2158193210E+001  +3.0475667817E-001 -5.2206907455E+000  +3.0538741933E-001 +7.5715005767E+000  +3.2388413583E-001 +1.2537995300E+001 
8769162.703 +2.9527142705E-001 +2.5945547687E+001  +3.0110912110E-001 -5.1421374430E+000  +3.0023091275E-001 +8.0287800963E+000  +3.4376140209E-001 +1.3571783305E+001 
8894307.885 +2.6298177349E-001 +2.5636239931E+001  +2.9821090574E-001 -6.9354825886E+000  +2.9721827943E-001 +7.1907593288E+000  +2.3383367926E-001 +2.5099377316E+001 
9019453.066 +2.8421033158E-001 +1.5559678046E+001  +3.0319289967E-001 -5.3238408459E+000  +3.0057298859E-001 +8.5751852926E+000  +3.0179220868E-001 +1.1517733686E+001 
9144598.248 +2.7873194819E-001 +2.3428559402E+001  +2.9775165667E-001 -5.5186754841E+000  +2.9745074093E-001 +9.1789144349E+000  +2.7688339850E-001 +1.1614824121E+001 
9269743.429 +2.8074224439E-001 +2.6534259991E+001  +2.9878681332E-001 -5.6445974564E+000  +2.9476678144E-001 +9.7567629236E+000  +2.9082193772E-001 +1.0385071643E+001 
9394888.611 +2.5741872375E-001 +2.3700774263E+001  +2.9423643399E-001 -5.7846456985E+000  +2.9366730160E-001 +9.3554202789E+000  +2.6434290852E-001 +1.7577729509E+001 
9520033.792 +2.8978000826E-001 +1.3423841006E+001  +2.9717917084E-001 -5.5006984143E+000  +2.9682326147E-001 +1.0008317673E+001  +2.6473939437E-001 +1.4218329217E+001 
9645178.974 +2.2448478891E-001 +3.0175123323E+001  +2.9441535872E-001 -5.5694211817E+000  +2.9201214141E-001 +1.0114495465E+001  +2.5722909738E-001 +8.7725056120E+000 
9770324.155 +2.0371471732E-001 +8.6359690004E+000  +3.0164972601E-001 -6.7841238484E+000  +2.9896010802E-001 +8.6737086288E+000  +2.4246472162E-001 +3.3740338000E+000 
9895469.337 +2.1616738062E-001 +9.9236816859E+000  +3.0190864045E-001 -6.7648925110E+000  +3.0073071653E-001 +9.3526048294E+000  +2.4520536320E-001 +1.1057539424E+001 
10020614.518 +2.2235112903E-001 +6.5132026739E+000  +3.0761328047E-001 -5.2956798085E+000  +3.0573437256E-001 +1.0623848155E+001  +2.9665712660E-001 +1.3144504802E+000 
10145759.700 +2.2584687085E-001 +2.7299829412E+001  +2.9790044292E-001 -4.8018625738E+000  +3.0188558773E-001 +1.0523078143E+001  +2.9277151347E-001 +5.6904106189E+000 
10270904.881 +2.5171877570E-001 +1.5356943238E+001  +3.0589027007E-001 -4.8741490853E+000  +3.0297531331E-001 +1.1177708905E+001  +2.8384598915E-001 +5.5754296458E+000 
10396050.063 +2.4797846392E-001 +1.7955195197E+001  +3.0592981044E-001 -4.7871202869E+000  +3.0411449897E-001 +1.0112341451E+001  +2.3539385135E-001 +1.0145533563E+001 
10521195.244 +2.5323425799E-001 +1.7406430506E+001  +3.0736116337E-001 -4.3164627824E+000  +3.0560787605E-001 +1.1047327624E+001  +2.7471218028E-001 +1.4912304626E+001 
10646340.426 +2.5671982694E-001 +1.9959215975E+001  +3.1140508774E-001 -4.0131491754E+000  +3.0990401406E-001 +1.0919682189E+001  +2.5290841331E-001 +5.0447010500E+000 
10771485.607 +3.0756109492E-001 +2.3536725862E+001  +3.1002549013E-001 -3.1556797072E+000  +3.0394293674E-001 +1.1528652147E+001  +2.7966920783E-001 +1.2694892176E+001 
10896630.788 +2.7322040134E-001 +1.7107321777E+001  +3.1103867316E-001 -3.2141983163E+000  +3.0596997240E-001 +1.0729066881E+001  +2.7209032835E-001 +2.0508310824E+001 
11021775.970 +2.5011045351E-001 +1.7703345130E+001  +3.1544654272E-001 -3.3966027374E+000  +3.1257581369E-001 +1.0606787845E+001  +2.7741147665E-001 +1.0722379694E+001 
11146921.151 +2.7897204223E-001 +1.5508615176E+001  +3.1823154280E-001 -2.5913895879E+000  +3.1571184595E-001 +1.0695972723E+001  +3.0986993341E-001 +1.1359251203E+001 
11272066.333 +2.5603807804E-001 +2.1661967197E+001  +3.1693806236E-001 -2.3961685267E+000  +3.1365001645E-001 +1.0448220475E+001  +3.0373688227E-001 +1.3379510046E+001 
11397211.514 +2.7018073620E-001 +2.2319883406E+001  +3.2025324607E-001 -2.6217240469E+000  +3.1458677732E-001 +9.7717567428E+000  +3.0287181417E-001 +1.9871281275E+001 
11522356.696 +2.9610189074E-001 +2.0844292981E+001  +3.1967669361E-001 -1.9904175005E+000  +3.1777056885E-001 +9.9329341114E+000  +3.2170583354E-001 +1.7976202730E+001 
11647501.877 +2.7739424778E-001 +1.5632784918E+001  +3.2839085229E-001 -1.5416517560E+000  +3.2279715052E-001 +9.8384926219E+000  +3.6997132834E-001 +1.3575180947E+001 
11772647.059 +3.3351698343E-001 +1.3920442534E+001  +3.3101306864E-001 -1.2725795033E+000  +3.2858414384E-001 +9.8472337499E+000  +3.2015228551E-001 +1.3338555857E+001 
11897792.240 +3.4091610994E-001 +1.3621059059E+001  +3.3377367512E-001 -1.0936223492E+000  +3.3184178212E-001 +9.4887367615E+000  +3.1703168471E-001 +9.0531049129E+000 
12022937.422 +3.3985333285E-001 +1.2263171461E+001  +3.3796509688E-001 -4.7752901390E-001  +3.3610901923E-001 +8.7143597124E+000  +3.4128982587E-001 +1.1592193884E+001 
12148082.603 +3.5652968267E-001 +1.3521098408E+001  +3.3885089544E-001 -1.4283205752E-001  +3.3433217678E-001 +9.1847408035E+000  +3.7433728292E-001 +1.3968347901E+001 
12273227.785 +3.3429663901E-001 +9.3909568630E+000  +3.4278389306E-001 -4.1439470082E-001  +3.3935547027E-001 +7.9597213556E+000  +3.6037783028E-001 +1.2759185563E+001 
12398372.966 +3.6415250851E-001 +9.6761556785E+000  +3.4767246515E-001 +4.1702426261E-002  +3.4299299387E-001 +7.7821735986E+000  +3.6946691565E-001 +1.0386162559E+001 
12523518.148 +3.8799112746E-001 +7.5428703746E+000  +3.5576181267E-001 +5.9771174446E-001  +3.4996717851E-001 +8.1309062251E+000  +4.1103414649E-001 +5.1377897358E+000 
12648663.329 +3.8351611531E-001 +1.0063425906E+001  +3.5602905647E-001 +5.3292758998E-001  +3.5135097041E-001 +7.1087051211E+000  +3.9684528318E-001 +4.2002272283E+000 
12773808.511 +3.9455912489E-001 +6.0857371336E+000  +3.6076432663E-001 +7.0948473097E-001  +3.5591311007E-001 +6.5683156409E+000  +4.1029969172E-001 +5.1595304836E+000 
12898953.692 +4.1397330804E-001 +5.4842897449E+000  +3.6451332419E-001 +7.9876340762E-001  +3.6025788874E-001 +6.5291525520E+000  +4.1123728921E-001 +4.0271932321E+000 
13024098.874 +4.0234715848E-001 +4.2410805024E+000  +3.6696803150E-001 +8.7713161113E-001  +3.6168737269E-001 +6.1083657123E+000  +4.2341536044E-001 +7.0206731859E+000 
13149244.055 +4.0833257639E-001 +3.7799943161E+000  +3.7012364428E-001 +7.5199334001E-001  +3.6782238443E-001 +5.2570628165E+000  +4.2830283200E-001 +2.5208261542E+000 
13274389.237 +4.2013077689E-001 +4.4872110902E+000  +3.7375734064E-001 +8.5037649694E-001  +3.6801155702E-001 +4.8047177336E+000  +4.3567150138E-001 +1.4452964340E+000 
13399534.418 +4.6099356874E-001 +5.5487112775E-001  +3.8001831368E-001 +1.1258535536E+000  +3.7445676746E-001 +4.4882101564E+000  +4.4929594310E-001 -5.1802222013E-001 
13524679.599 +4.7434443018E-001 +1.2386056652E+000  +3.8245746006E-001 +1.1263922207E+000  +3.7900966635E-001 +4.4811496953E+000  +4.7010160060E-001 -1.2009870467E+000 
13649824.781 +4.8349721488E-001 -2.7449344020E+000  +3.8778722358E-001 +1.0784749907E+000  +3.8344752580E-001 +3.5874322229E+000  +4.8287954143E-001 -1.0395355661E+000 
13774969.962 +4.9111024014E-001 -1.5802371128E+000  +3.8873583244E-001 +1.1886902158E+000  +3.8351838254E-001 +3.3428617874E+000  +5.0513324433E-001 -1.0992104838E+000 
13900115.144 +5.0458980787E-001 -1.8482498971E+000  +3.9195058915E-001 +1.0951547177E+000  +3.8488991710E-001 +2.9093110728E+000  +5.2447614980E-001 -1.7169808333E+000 
14025260.325 +5.2640139497E-001 -2.4551609385E+000  +3.9544272823E-001 +1.3852969886E+000  +3.9106577305E-001 +2.6514416262E+000  +5.2883695935E-001 -2.8094301370E+000 
14150405.507 +5.5212511066E-001 -4.7171756716E+000  +3.9807517127E-001 +1.2505144014E+000  +3.9327264590E-001 +2.3462159053E+000  +5.3579699396E-001 -2.7122559526E+000 
14275550.688 +5.3839832748E-001 -3.6143985661E+000  +3.9946659091E-001 +7.3589654448E-001  +3.9458586962E-001 +1.5932613869E+000  +5.5452511751E-001 -5.7702403972E+000 
14400695.870 +5.5198764012E-001 -3.1460204677E+000  +4.0166482617E-001 +8.3671509615E-001  +3.9601580699E-001 +1.2634202767E+000  +5.9362969514E-001 -6.1171180829E+000 
