!  2-Port S-parameters saved by WinCal
! VAR MeasName=S-Parameters (CALIBRATED_DATA) read from VNA (P5004A)
! VAR MeasDate=29/08/2024 10:44:06
! VAR NAME=S2_r9c2_RESET4_9k-100M_3
! VAR FILENAME=S2_r9c2_RESET4_9k-100M_3.S2P
! VAR DATE=29/08/2024 10:44:06
! VAR PHYS_PORTS=1,2
! VAR ObjTypeName=DATASET
! VAR IndexType=Frequency
!
# Hz S MA R 50
9000.000 +8.3790220905E-002 -1.7003414855E+002  +3.8770319208E-003 +1.1307802897E+002  +5.4666550253E-003 +1.0031371636E+002  +2.2539688890E-001 -1.5045753806E+002 
134145.181 +1.1038307568E-001 +1.6968565744E+002  +3.9557454078E-004 +1.2880241613E+002  +3.3289015314E-004 -8.2465434767E+001  +2.4198044449E-001 -1.7008331748E+002 
259290.363 +1.1111421504E-001 +1.7009523113E+002  +1.1137895335E-003 -8.3138841907E+001  +7.2818672746E-004 +9.1398557896E+001  +2.3488638156E-001 -1.6926886855E+002 
384435.544 +1.1367633626E-001 +1.6987872148E+002  +4.3121034311E-004 -6.3340394877E+001  +8.0875966765E-004 +6.5958237864E+001  +2.3782281461E-001 -1.6978556539E+002 
509580.726 +1.1393762946E-001 +1.7058205014E+002  +5.8302098034E-004 -1.0656039427E+001  +1.4678045555E-003 +9.3097222395E+001  +2.4132162668E-001 -1.6374119262E+002 
634725.907 +1.1635174319E-001 +1.7213081192E+002  +5.8070341325E-004 +1.5115690343E+002  +1.6644084775E-004 -1.3974913995E+001  +2.4319939556E-001 -1.6626575640E+002 
759871.089 +1.2052827768E-001 +1.7080743425E+002  +4.3213379291E-004 -1.5285438356E+002  +3.1505484435E-004 +8.7319090234E+001  +2.4784094025E-001 -1.6623684666E+002 
885016.270 +1.2020711350E-001 +1.6867993648E+002  +4.5204571069E-004 -1.0447854813E+002  +6.2295990673E-004 +1.3529739514E+002  +2.4638874620E-001 -1.6713975589E+002 
1010161.452 +1.1728102528E-001 +1.7038990708E+002  +2.1651836742E-003 -6.6591034592E+001  +5.8024757390E-004 -7.8639233126E+001  +2.1331008565E-001 -1.6983777654E+002 
1135306.633 +1.1498527759E-001 +1.6774373843E+002  +2.0997543681E-003 -4.4844234514E+001  +1.6883331981E-003 +9.8944085213E+001  +1.7166371774E-001 -1.6550534632E+002 
1260451.815 +1.1743254807E-001 +1.7241217842E+002  +2.5507525281E-004 -4.7875560524E+001  +2.6398035077E-003 +1.6059814968E+002  +2.1373620052E-001 -1.5441858577E+002 
1385596.996 +1.2479772087E-001 +1.7406461944E+002  +1.1373952042E-003 -4.8330865141E+001  +1.2414089033E-003 -1.6716712156E+002  +2.7450639360E-001 -1.5839635173E+002 
1510742.178 +1.2611740619E-001 +1.7174161221E+002  +1.9357330192E-003 -1.4865111650E+001  +1.4621680467E-003 -1.5408410068E+002  +2.6299627892E-001 -1.5551976893E+002 
1635887.359 +1.2974556166E-001 +1.7072638404E+002  +7.6528973678E-004 -3.9982469524E+001  +6.9231712685E-004 +1.4880716957E+002  +2.4114040127E-001 -1.4980573078E+002 
1761032.541 +1.3078169687E-001 +1.6861758824E+002  +1.0905379484E-003 -8.2789811190E+001  +1.1386857269E-003 -1.5394787340E+002  +2.4272593274E-001 -1.5724761299E+002 
1886177.722 +1.2779846087E-001 +1.6823977159E+002  +1.8087257017E-003 +5.9376845456E+001  +2.1296535905E-003 -6.1980459966E+001  +2.2445766798E-001 -1.6023993249E+002 
2011322.904 +1.2757490457E-001 +1.6626956198E+002  +4.7393225239E-003 +7.3451909408E+001  +3.0618675004E-003 -7.7232067683E+001  +2.1344177222E-001 -1.5568101328E+002 
2136468.085 +1.3563028843E-001 +1.6706409563E+002  +4.0983351750E-003 +3.4818881754E+001  +4.3666419429E-003 -6.5415964756E+001  +1.7823163299E-001 -1.5790939750E+002 
2261613.267 +1.4022356355E-001 +1.6387980588E+002  +8.7229182497E-003 +1.3851721393E+002  +9.2848206359E-003 +7.9797299444E+000  +2.2197585639E-001 +1.5337797416E+002 
2386758.448 +1.3376052227E-001 +1.6306192236E+002  +8.4929679177E-003 +7.8354395085E+001  +9.2994065767E-003 -3.5175300402E+001  +1.8283046040E-001 +1.6412306520E+002 
2511903.630 +1.3670134655E-001 +1.6267935758E+002  +5.3532019692E-003 +8.4190894725E+001  +1.0253736884E-002 -5.3850951632E+001  +1.9243240582E-001 -1.7218313289E+002 
2637048.811 +1.2633480756E-001 +1.5932020001E+002  +1.3365745469E-002 +6.7078583729E+001  +1.0411993295E-002 -3.9228280423E+001  +1.8584639586E-001 +1.7695131384E+002 
2762193.992 +1.0739805015E-001 +1.6877444600E+002  +2.8670577957E-002 +6.7987005022E+001  +3.4950671901E-002 -5.6915193665E+001  +1.9676786864E-001 +1.3595031358E+002 
2887339.174 +1.3841687398E-001 +1.6885967989E+002  +5.3734422336E-002 -4.9173208437E+001  +4.3617201127E-002 +1.7480777257E+002  +7.9449723419E-001 -9.3080730889E+001 
3012484.355 +1.2043044171E-001 +1.6735639269E+002  +3.1276694754E-002 -9.9535447906E+000  +3.4676333924E-002 -8.5993843964E+001  +9.3530652326E-002 -4.8150961675E+001 
3137629.537 +1.3410537445E-001 +1.7303029961E+002  +3.8443375390E-002 -1.0162888702E+002  +4.1117323028E-002 -1.7258385196E+002  +6.0882956538E-001 -9.5308992213E+001 
3262774.718 +1.3194968805E-001 +1.6402990478E+002  +2.4527179258E-002 +2.9067996149E+001  +3.2048851633E-002 -5.3949477992E+001  +1.1139257412E-001 +2.7000567345E+001 
3387919.900 +1.1175557840E-001 +1.4926830812E+002  +3.1281108000E-002 +4.2270585766E+001  +3.1339689131E-002 -3.4359624264E+001  +1.5922577840E-001 +1.2911571508E+002 
3513065.081 +1.5877199451E-001 +1.5193823551E+002  +5.9764133191E-002 +1.2860184489E+002  +6.2518712235E-002 +3.1074701697E+001  +9.9804815574E-001 +1.1938494106E+002 
3638210.263 +1.7328495787E-001 +1.4525397950E+002  +3.6535734649E-002 +1.1208515232E+002  +4.2394622504E-002 +1.6871242528E+001  +5.3042415240E-001 +1.2040250818E+002 
3763355.444 +1.7969722474E-001 +1.5360784552E+002  +2.4332784342E-002 +1.0820899632E+002  +2.2809596840E-002 +1.2406431097E+001  +3.6106322153E-001 +1.3245474543E+002 
3888500.626 +1.7176498543E-001 +1.5321117172E+002  +1.9683243031E-002 +1.2795654258E+002  +4.1863915906E-002 +1.0689893863E+001  +4.1484948193E-001 +1.1896770605E+002 
4013645.807 +1.7584582995E-001 +1.5294214439E+002  +2.3287910413E-002 +5.6741962713E+001  +1.5998706557E-002 -7.2736301466E+000  +2.1252905930E-001 +1.3819679451E+002 
4138790.989 +1.8511816944E-001 +1.5340771877E+002  +3.3006928783E-002 +9.3293150705E+001  +3.1814078518E-002 +2.5008859611E+001  +4.4482747526E-001 +1.2590751776E+002 
4263936.170 +2.2096928523E-001 +1.5090900817E+002  +2.2440067430E-002 +1.0811340091E+002  +2.3654696161E-002 +4.3984104736E+001  +4.0688402792E-001 +1.5120398185E+002 
4389081.352 +2.1998665411E-001 +1.4389660354E+002  +4.6843947770E-002 +1.3454061102E+002  +3.8120455511E-002 +5.6036469077E+001  +7.4365112461E-001 +1.3950539131E+002 
4514226.533 +2.1894703426E-001 +1.3848236505E+002  +8.4170143916E-002 +1.3030853710E+002  +8.3975952019E-002 +8.2203827960E+001  +1.1976110603E+000 +1.3530941873E+002 
4639371.715 +2.6530521930E-001 +1.3489583088E+002  +6.3676629154E-002 +1.0678515350E+002  +6.7379363526E-002 +6.3282715365E+001  +7.6291511582E-001 +1.1966621684E+002 
4764516.896 +3.5645642002E-001 +1.2043012720E+002  +1.4163333242E-001 -1.7592596032E+002  +1.8192556794E-001 +1.3398198501E+002  +1.7759006375E+000 +1.6313211520E+002 
4889662.078 +4.7784206099E-001 +1.3507374763E+002  +5.3460575657E-001 +1.2914720241E+002  +7.1627590827E-001 +8.4226456721E+001  +7.0958938981E+000 +6.9505692584E+001 
5014807.259 +3.9412645426E-001 +1.3692748636E+002  +1.6986669831E-001 +1.7489638053E+002  +1.9681182302E-001 +1.1680711809E+002  +2.9355938533E+000 +1.2235577028E+002 
5139952.441 +4.0372259764E-001 +1.3464678264E+002  +1.3068783945E-001 +1.7847793156E+002  +1.4992989462E-001 +1.3728941252E+002  +2.4769386224E+000 +1.4849684108E+002 
5265097.622 +3.1843904273E-001 +1.2527575259E+002  +1.3840036978E-001 +7.4437952271E+001  +1.3336645525E-001 +3.3427434133E+001  +1.3301263493E+000 +7.5437072765E+001 
5390242.804 +4.0958559860E-001 +1.3207753288E+002  +1.2293405949E-001 +1.0079217744E+002  +8.8234132393E-002 +6.7691286509E+001  +1.0157776034E+000 +8.6810745459E+001 
5515387.985 +4.1508291208E-001 +1.3775661524E+002  +1.0240795274E-001 +9.6497500745E+001  +9.7389786716E-002 +7.0062585821E+001  +1.3621183817E+000 +8.9388313355E+001 
5640533.166 +4.7944774057E-001 +1.2609144785E+002  +1.9108133203E-001 +9.3734498326E+001  +1.4225761544E-001 +5.3440914864E+001  +1.7530412142E+000 +7.5483323615E+001 
5765678.348 +4.7160369086E-001 +1.2439037976E+002  +1.8458733938E-001 +1.0773245558E+002  +2.0737249305E-001 +6.9315412877E+001  +2.6205481510E+000 +8.6733505972E+001 
5890823.529 +5.2056210240E-001 +1.1793707209E+002  +2.1014245751E-001 +9.1219762634E+001  +2.0696080667E-001 +7.2503748734E+001  +2.4847420864E+000 +8.8551630746E+001 
6015968.711 +6.1133072475E-001 +1.2419229724E+002  +1.4247588165E-001 +6.0575802823E+001  +1.5730862044E-001 +4.1788437124E+001  +1.7101445545E+000 +4.0160186255E+001 
6141113.892 +6.9174150691E-001 +1.0735190944E+002  +2.1174091794E-001 +6.0039638494E+001  +2.1493807239E-001 +3.8100794300E+001  +1.7303783473E+000 +4.3912527354E+001 
6266259.074 +7.4040698740E-001 +1.0399470669E+002  +1.8009890295E-001 +6.7204739073E+001  +1.6698531984E-001 +3.9352218204E+001  +1.4787967224E+000 +5.4331002827E+001 
6391404.255 +1.0338501857E+000 +9.1155614546E+001  +1.7781474224E-001 +4.6757008172E+001  +1.9820850066E-001 +3.2969287188E+001  +1.0138502514E+000 +2.4315884716E+001 
6516549.437 +9.6050008349E-001 +9.5954943736E+001  +1.7074702101E-001 +3.4628803090E+001  +1.7948376240E-001 +2.8641730691E+001  +1.3733874661E+000 +1.6962546812E+001 
6641694.618 +1.1406695944E+000 +7.6482951406E+001  +1.7425937844E-001 +2.9482545609E+001  +2.0253310183E-001 +2.1448172823E+001  +1.2810694352E+000 +8.8220648612E+000 
6766839.800 +1.7186824296E+000 +5.5482222393E+001  +2.6262883591E-001 +1.7780812475E+001  +2.4247051402E-001 +1.2717698606E+001  +1.3349857903E+000 -2.8079139879E-001 
6891984.981 +1.2304789477E+000 +4.1133734944E+001  +1.9259044250E-001 +1.2197439535E+001  +1.8514273395E-001 +6.9061078735E-001  +1.1960353451E+000 +9.0400275535E+000 
7017130.163 +1.3795944582E+000 +2.1489490323E+001  +1.7319554472E-001 +3.6422258619E+000  +1.6953750764E-001 -7.3160261787E+000  +1.1576888512E+000 -1.0768102478E+001 
7142275.344 +1.4056352004E+000 +1.2738524627E+001  +1.6252835714E-001 +2.7462374673E+000  +1.5636032748E-001 -5.9702715246E+000  +1.2972450361E+000 -8.8503244798E+000 
7267420.526 +1.3574614966E+000 -2.0534363036E+000  +1.3747134251E-001 +2.7417774208E-001  +1.3047285690E-001 -9.1040102000E+000  +1.2339583426E+000 -1.3063073314E+001 
7392565.707 +1.1520811146E+000 +2.5866447568E+000  +1.0920993073E-001 +3.8854413604E+000  +1.1363424652E-001 +4.7537349310E+000  +1.3534539624E+000 -1.0720026334E+001 
7517710.889 +1.0939479081E+000 +3.5269757873E+000  +9.4907570948E-002 +4.7516811939E+000  +9.7266812064E-002 +7.9675747199E+000  +1.1098277354E+000 -3.5992981084E+000 
7642856.070 +8.8321439734E-001 +3.4861897585E+000  +9.4625718642E-002 +1.8691982606E+000  +8.8629138646E-002 +4.2859791052E+000  +1.0561116125E+000 -7.3885725291E+000 
7768001.252 +8.9897498450E-001 +9.1530689910E-001  +8.7423150355E-002 -2.8933963856E-001  +8.6392653278E-002 +9.2414187792E+000  +9.1695711142E-001 -5.8732993478E+000 
7893146.433 +7.6301817991E-001 +9.1655595400E+000  +8.7622940533E-002 +3.7537787870E+000  +8.9581143148E-002 +4.1514699956E+000  +8.8591431799E-001 +1.7568251762E-001 
8018291.615 +7.0573829904E-001 +7.7283369951E+000  +8.6646577982E-002 -1.7972335862E+000  +8.5486897368E-002 +6.6838939435E+000  +7.2379396457E-001 -2.2133684390E+000 
8143436.796 +7.1185832108E-001 +1.4062935285E+001  +8.1163715109E-002 -3.8213274709E+000  +8.7427630248E-002 +7.2858276713E+000  +7.7915524984E-001 -1.4980659877E+000 
8268581.977 +7.1677034175E-001 +8.7558307923E+000  +7.9583622284E-002 +1.5680600812E+000  +8.0701465575E-002 +8.5790096507E+000  +6.7739781600E-001 +9.4674580757E-001 
8393727.159 +6.4110176455E-001 +1.1013798153E+001  +7.2372172517E-002 -2.1809890118E+000  +7.6227332678E-002 +6.4543115959E+000  +6.7193686528E-001 +7.9014022475E+000 
8518872.340 +6.5892766449E-001 +6.7544408046E+000  +8.1140983583E-002 -3.0378931371E+000  +8.1436960920E-002 +1.1946683911E+001  +7.0192144190E-001 +2.7702264215E-001 
8644017.522 +5.9323120745E-001 +1.3613322773E+001  +7.0570280440E-002 -3.6726112142E+000  +7.0967327506E-002 +9.9015986939E+000  +5.9572012375E-001 +6.7676076991E-001 
8769162.703 +5.8216916927E-001 +1.4938098904E+001  +7.3430336209E-002 -1.2827528847E+000  +7.1620390457E-002 +1.1876588407E+001  +6.2764937706E-001 -1.1427005269E+000 
8894307.885 +5.6091487093E-001 +7.1042821920E+000  +7.1892547281E-002 -2.5025040679E+000  +7.0603690748E-002 +1.0776944116E+001  +5.2196078911E-001 +6.3643467158E+000 
9019453.066 +5.4516156975E-001 +8.4753950425E+000  +6.9264016686E-002 -1.7323526089E+000  +7.0975805705E-002 +9.2472690310E+000  +5.6739863386E-001 +3.7470298097E+000 
9144598.248 +5.4262017899E-001 +7.0018939069E+000  +7.4744134639E-002 -4.0851870789E+000  +7.2958132597E-002 +8.8300058583E+000  +5.8466306526E-001 +6.4304223191E+000 
9269743.429 +5.2881518889E-001 +5.7541952192E+000  +7.4970379136E-002 -2.7791610525E+000  +7.3018742154E-002 +1.1250465962E+001  +4.9095997154E-001 +1.1869731098E+000 
9394888.611 +4.8669772344E-001 +6.6804692737E+000  +7.3259979208E-002 -4.6114914545E+000  +7.2782385134E-002 +1.2308663852E+001  +5.4737029865E-001 -1.8565753566E+000 
9520033.792 +5.0521209917E-001 +4.8327512987E+000  +7.3789955469E-002 -2.0607384848E+000  +7.1694654204E-002 +1.0011215190E+001  +4.8756596830E-001 -8.1738639248E+000 
9645178.974 +4.9750808592E-001 +6.9378509380E-002  +7.4743663567E-002 -2.7574663649E+000  +7.5136502582E-002 +1.1174261256E+001  +5.2970488711E-001 -2.6588542119E+000 
9770324.155 +4.5539640475E-001 +2.7576784894E+000  +7.6455408735E-002 -4.3134590255E+000  +7.0375713102E-002 +9.6354179147E+000  +4.9974338220E-001 -5.7435986018E+000 
9895469.337 +4.5151175632E-001 +3.3346176266E+000  +7.6219999877E-002 -2.8924779670E+000  +7.4869299749E-002 +1.1858748040E+001  +5.2259411691E-001 -5.0596831243E+000 
10020614.518 +5.2253377768E-001 -2.2073047413E-001  +7.6898331537E-002 -3.7689680113E+000  +7.6100122554E-002 +1.0658434908E+001  +5.2499403339E-001 -1.0276132321E+001 
10145759.700 +4.7682669638E-001 +4.0266382822E+000  +7.4286928788E-002 -3.2539259796E+000  +7.5994411561E-002 +1.3367158718E+001  +4.9099946549E-001 -1.3683499087E+000 
10270904.881 +4.7603884100E-001 +8.6398047286E+000  +7.4061978497E-002 -4.3510114203E+000  +7.5080980035E-002 +1.6219474275E+001  +5.2940526315E-001 -1.0301100948E+000 
10396050.063 +4.5794194882E-001 +8.5695684995E+000  +7.3734287708E-002 -1.2252012047E+000  +7.1812110034E-002 +1.0772386036E+001  +5.0582263543E-001 +1.1096958946E+000 
10521195.244 +4.9864260870E-001 +5.2604288411E+000  +7.6448551475E-002 -1.8221379714E-001  +7.5930151890E-002 +1.3485483852E+001  +5.0467187802E-001 -2.4003423434E+000 
10646340.426 +4.8734192960E-001 +6.5797856819E+000  +7.7383542194E-002 -5.2812472361E-001  +7.5418257821E-002 +1.5307288210E+001  +5.4581193438E-001 -3.2619984566E+000 
10771485.607 +5.2674971474E-001 +4.5220099145E+000  +7.8574575018E-002 -6.5718937545E-002  +7.5558431357E-002 +1.3129355722E+001  +5.2315382382E-001 +1.5888931839E+000 
10896630.788 +5.2019088990E-001 +8.7418695875E+000  +7.6053177897E-002 -1.7524107748E-001  +7.5202843210E-002 +1.3611524251E+001  +4.9843183705E-001 +1.8815770090E-001 
11021775.970 +4.9705201607E-001 +8.8902050315E+000  +7.7771940200E-002 -1.1241665744E+000  +7.6561731408E-002 +1.3985616999E+001  +5.5686383694E-001 +5.8638112105E+000 
11146921.151 +4.8982976665E-001 +7.2080378086E+000  +7.9929024018E-002 -9.5622807318E-001  +7.7725255455E-002 +1.2207103105E+001  +5.4530884811E-001 +4.3277898256E+000 
11272066.333 +5.2564808611E-001 +7.8149458770E+000  +7.8819575425E-002 +9.6013655410E-001  +7.9043570747E-002 +1.2053426934E+001  +5.6989924289E-001 +5.2400528049E+000 
11397211.514 +5.3496259491E-001 +7.4807580558E+000  +7.8474267124E-002 -6.2659408969E-001  +7.8364490186E-002 +1.1784141124E+001  +5.3967604277E-001 +5.0271061766E+000 
11522356.696 +5.6067035391E-001 +9.4809126298E+000  +8.1093730969E-002 +2.2350657004E+000  +8.0014540810E-002 +1.1922589689E+001  +5.7011856627E-001 +1.4427628025E+000 
11647501.877 +5.6213905420E-001 +5.5073661361E+000  +8.1651933826E-002 +1.2728935550E-001  +7.9483219622E-002 +1.2647399963E+001  +5.5687844854E-001 +4.1952685670E+000 
11772647.059 +5.9705200781E-001 +9.6843032881E+000  +8.2925625914E-002 +2.0060317506E+000  +8.1234352204E-002 +1.1477981402E+001  +5.7849220044E-001 +3.1807427620E+000 
11897792.240 +5.6138561007E-001 +7.9252826983E+000  +8.3372364405E-002 -2.8898009894E-001  +8.1074294198E-002 +1.2278713649E+001  +5.9945492637E-001 +2.4617758224E+000 
12022937.422 +6.0563320367E-001 +4.7940379883E+000  +8.4052152807E-002 +3.1262545769E+000  +8.2914349970E-002 +1.1441236707E+001  +6.1827624141E-001 +2.4368102230E+000 
12148082.603 +6.1621184024E-001 +6.4956383405E+000  +8.4699085129E-002 +1.9992227379E+000  +8.3973982257E-002 +1.0296037126E+001  +6.2307546342E-001 +2.3960915721E+000 
12273227.785 +6.2064118178E-001 +4.8026034707E+000  +8.6004605816E-002 +1.2440215163E+000  +8.4866435447E-002 +1.0118494852E+001  +6.1593629807E-001 +2.1376624459E+000 
12398372.966 +6.0851381226E-001 +8.3650874665E+000  +8.7547339753E-002 +2.0338061410E+000  +8.5543880965E-002 +9.2080900268E+000  +6.5427535175E-001 +3.4317900806E-001 
12523518.148 +6.2685768049E-001 +4.8997100889E+000  +8.7594657990E-002 +1.7372703102E+000  +8.6968281473E-002 +9.0554948852E+000  +6.6596014534E-001 +5.7885686875E-001 
12648663.329 +6.4366961236E-001 +3.7553231581E+000  +8.7983615708E-002 +3.0499457316E+000  +8.8047613845E-002 +7.2366478899E+000  +6.8954275535E-001 +1.5623650710E+000 
12773808.511 +6.5757195315E-001 +3.1665035398E+000  +9.0618757370E-002 +2.3310662644E+000  +8.8477840642E-002 +9.2595331764E+000  +6.9186381224E-001 -5.3478752359E-001 
12898953.692 +6.9233924116E-001 +1.9993115878E+000  +9.2590031034E-002 +3.2538631498E+000  +9.0047102091E-002 +8.1784277977E+000  +7.1422922093E-001 +6.1545225421E-002 
13024098.874 +7.2956127613E-001 +1.5703738919E+000  +9.3119458709E-002 +2.1403044436E+000  +9.2159224667E-002 +7.4510029489E+000  +7.0673454850E-001 -6.0963431475E-001 
13149244.055 +6.9573534032E-001 +1.6580425818E+000  +9.3273310910E-002 +3.5296775364E+000  +9.0921322481E-002 +7.2247208123E+000  +7.2806350578E-001 -1.2265333912E+000 
13274389.237 +7.2179394586E-001 +3.5614055101E-001  +9.2525495666E-002 +2.8027143325E+000  +9.2037417028E-002 +5.7338595913E+000  +7.4220102427E-001 -3.5922672329E+000 
13399534.418 +7.5968832722E-001 -1.5738487461E+000  +9.6083397475E-002 +1.6675242612E+000  +9.2263750031E-002 +5.5687498222E+000  +7.3698260774E-001 -3.1249236616E+000 
13524679.599 +7.8817286703E-001 -2.2433367102E+000  +9.7069254167E-002 +2.9718665496E+000  +9.4659823083E-002 +5.9495232845E+000  +7.8870631193E-001 -1.6932865273E+000 
13649824.781 +7.9443736933E-001 -2.8036942688E+000  +9.5208810844E-002 +2.7065891174E+000  +9.5156775675E-002 +6.0610367747E+000  +7.7323360439E-001 -2.8938647981E+000 
13774969.962 +7.7003671676E-001 -3.0212948083E+000  +9.7663248626E-002 +2.6692662998E+000  +9.6683870713E-002 +4.1071755399E+000  +8.0561307722E-001 -4.1039333978E+000 
13900115.144 +8.1971248464E-001 -3.2229079292E+000  +9.9303909100E-002 +1.8146290882E+000  +9.5421330043E-002 +4.3151564589E+000  +8.1970450882E-001 -4.8953543623E+000 
14025260.325 +8.4202099607E-001 -3.3208849683E+000  +9.6278089655E-002 +3.0196742087E+000  +9.5321135072E-002 +4.2163057973E+000  +8.4063761805E-001 -1.7483851599E+000 
14150405.507 +8.5689684761E-001 -4.9110560900E+000  +9.8711003094E-002 +1.7689047326E+000  +9.6622234107E-002 +3.8035489329E+000  +8.7191599919E-001 -5.1309025635E+000 
14275550.688 +8.6416006012E-001 -4.4449057868E+000  +9.7961871269E-002 +2.0687732652E+000  +9.7916433763E-002 +2.8002129039E+000  +8.7013700843E-001 -5.6317984116E+000 
14400695.870 +8.8358693905E-001 -5.3460495106E+000  +9.8364881114E-002 +1.3917753792E+000  +9.6024011565E-002 +3.1708015158E+000  +8.9555989956E-001 -4.3731504325E+000 
