!  2-Port S-parameters saved by WinCal
! VAR MeasName=S-Parameters (CALIBRATED_DATA) read from VNA (P5004A)
! VAR MeasDate=29/08/2024 13:53:58
! VAR NAME=S2_r9c6_SET1_9k-100M_2
! VAR FILENAME=S2_r9c6_SET1_9k-100M_2.S2P
! VAR DATE=29/08/2024 13:53:58
! VAR PHYS_PORTS=1,2
! VAR ObjTypeName=DATASET
! VAR IndexType=Frequency
!
# Hz S MA R 50
9000.000 +9.4337293664E-002 -1.7259867669E+002  +3.5298062066E-003 +7.0148553351E+001  +7.4953800389E-003 +1.6988841522E+002  +2.3871294936E-001 -1.4333260318E+002 
134145.181 +1.1057521091E-001 +1.6928824939E+002  +7.1328284322E-004 -4.0905030614E+001  +7.7996260277E-004 -1.7022051157E+002  +2.4291300706E-001 -1.7088422051E+002 
259290.363 +1.1184120142E-001 +1.6972205146E+002  +2.7702325944E-004 +9.3383579943E+001  +7.5299628085E-004 +1.0508235085E+002  +2.4351073208E-001 -1.6972237290E+002 
384435.544 +1.1459888366E-001 +1.7018395508E+002  +7.7515051387E-004 -1.1442178027E+002  +3.6508261369E-004 -1.5113719600E+001  +2.3990955127E-001 -1.6955121909E+002 
509580.726 +1.1517581657E-001 +1.7203012246E+002  +9.6637139695E-004 -6.1280449509E+001  +1.9757880273E-003 +8.6812437438E+001  +2.5351208460E-001 -1.6441394276E+002 
634725.907 +1.1730401909E-001 +1.7095982683E+002  +3.0313324200E-004 +1.4374601484E+002  +6.8831235038E-004 +1.2200655729E+002  +2.5334070939E-001 -1.5830762827E+002 
759871.089 +1.2080711316E-001 +1.7079671214E+002  +2.7608780993E-004 +1.1540863070E+002  +8.9050287605E-004 +8.2916825442E+001  +2.5972246289E-001 -1.6635387793E+002 
885016.270 +1.2039784266E-001 +1.6950932056E+002  +4.1083165448E-004 -1.1753870826E+002  +3.2858803905E-004 +1.5108482194E+002  +2.4945714844E-001 -1.6774234558E+002 
1010161.452 +1.1683121806E-001 +1.6913616499E+002  +1.5935465398E-003 -2.3961427066E+000  +5.2046464555E-004 -1.0382657700E+002  +2.2253880522E-001 -1.6895657854E+002 
1135306.633 +1.2052386312E-001 +1.7044172112E+002  +1.1369187909E-003 -8.5604969060E+001  +1.5947003854E-003 +1.1448462412E+002  +1.7687233514E-001 -1.6280146932E+002 
1260451.815 +1.1548341933E-001 +1.7014914398E+002  +1.7139809189E-003 +1.3401502497E+002  +1.8111607219E-003 -1.7329271875E+002  +2.0590461332E-001 -1.5884966615E+002 
1385596.996 +1.2666852527E-001 +1.7216560311E+002  +2.2699652661E-003 -1.6155139366E+002  +1.2681054211E-003 -9.7473679556E+001  +2.7239115866E-001 -1.5363646352E+002 
1510742.178 +1.2836757822E-001 +1.7178157109E+002  +4.9010712504E-004 +1.0284125929E+002  +6.4126089968E-004 -7.2598903143E-001  +2.4981958002E-001 -1.5971858178E+002 
1635887.359 +1.2820623873E-001 +1.7020689301E+002  +1.0918519885E-003 +1.4901366656E+001  +1.2254729861E-003 -5.9918576464E+001  +2.4196807219E-001 -1.5343619700E+002 
1761032.541 +1.3122130387E-001 +1.6922954823E+002  +1.4847352471E-003 +2.6340482888E+001  +1.6048675492E-003 -1.5115501229E+002  +2.2553507953E-001 -1.5620232387E+002 
1886177.722 +1.3278316716E-001 +1.6902838711E+002  +1.3842269360E-003 -1.5820911874E+002  +6.8575636981E-004 -1.1228492426E+002  +2.1787713983E-001 -1.5965458457E+002 
2011322.904 +1.2855203862E-001 +1.6789373850E+002  +8.2103072029E-004 -1.0531128976E+002  +4.0343463686E-003 -1.0382659423E+002  +2.1759488396E-001 -1.5246333033E+002 
2136468.085 +1.2334719637E-001 +1.6957837928E+002  +2.3400011444E-003 -1.8612491145E+000  +9.6316476201E-003 -4.1303287957E+001  +1.9877177057E-001 +1.6842067713E+002 
2261613.267 +1.2954071263E-001 +1.6490416873E+002  +8.1048538722E-003 +4.5602802376E+001  +6.9467220504E-003 -2.0401823311E+001  +1.4641568177E-001 +1.1995071115E+002 
2386758.448 +1.3714519052E-001 +1.6329775559E+002  +1.6986360629E-003 +1.2715089490E+002  +5.4257505682E-003 -8.3228988637E+000  +2.1808435881E-001 +1.7987911239E+002 
2511903.630 +1.3625746124E-001 +1.6400229270E+002  +1.6973555508E-003 +8.5115577238E+001  +2.1388258157E-003 +8.4485277029E+001  +2.7114967417E-001 +1.6390594326E+002 
2637048.811 +1.3420807889E-001 +1.6535386954E+002  +8.5793955591E-003 +3.1753027790E+001  +1.1156835857E-002 -5.0708683071E+001  +2.5069329174E-001 +1.1661919267E+002 
2762193.992 +1.1383185494E-001 +1.6704786041E+002  +5.4310155253E-002 +1.4276603143E+001  +5.9961715188E-002 -1.1139301463E+002  +8.8957950255E-001 +2.7954289162E+001 
2887339.174 +1.2077277314E-001 +1.7788370554E+002  +8.7311460953E-003 +1.2917532650E+002  +4.4139776746E-003 +8.4809524398E+001  +3.9556679948E-001 -1.0235129759E+002 
3012484.355 +8.7351663056E-002 +1.6925336130E+002  +1.6106634483E-002 -5.9504001652E+001  +1.7920463475E-002 -1.4548927251E+002  +3.3468845218E-001 -1.0316027389E+002 
3137629.537 +1.3556521543E-001 +1.6040738175E+002  +3.6624609726E-003 +6.1658946864E+001  +9.4144921566E-003 -1.2733116138E+002  +2.0407658418E-001 -5.9505284373E+001 
3262774.718 +1.2477066943E-001 +1.6637976856E+002  +7.3279675394E-003 -9.8181143911E+001  +1.7391374516E-002 -8.2190040984E+001  +7.4133307634E-001 -1.1918830405E+001 
3387919.900 +1.3064209527E-001 +1.6086851187E+002  +3.8498896015E-002 +2.0156037110E+001  +3.9098286705E-002 -5.1822414880E+000  +6.4384339749E-001 +6.1956652330E+001 
3513065.081 +1.6572761321E-001 +1.4612458762E+002  +2.1019301845E-002 +9.6764399797E+001  +1.3426251862E-002 -7.0889209868E+001  +2.6207721551E-001 +7.7122088442E+001 
3638210.263 +1.6506603531E-001 +1.4814164282E+002  +2.8122763338E-002 +8.3337703805E+001  +1.9764477130E-002 +6.8202371422E+001  +7.3603732088E-001 +1.4293854254E+002 
3763355.444 +2.1558399543E-001 +1.5196635226E+002  +1.2247706114E-002 +1.5317467578E+002  +1.3859230616E-002 +8.3124886729E+001  +5.5360077737E-001 +1.4140400751E+002 
3888500.626 +1.9140579287E-001 +1.4417696782E+002  +2.8261387602E-002 +9.0213093090E+001  +1.3291421564E-002 -2.6395831826E+000  +2.7009392664E-001 +1.0495095203E+002 
4013645.807 +1.7524680565E-001 +1.5325240621E+002  +1.1949894036E-002 +5.8184809512E+001  +1.4069429666E-002 +3.7032549247E+001  +2.4687439735E-001 +1.2502632798E+002 
4138790.989 +1.7804514507E-001 +1.4957481484E+002  +1.9046166659E-002 +5.4530766802E+001  +9.8386479864E-003 -9.3426069212E+000  +3.1241964765E-001 +1.0518422215E+002 
4263936.170 +1.8269795489E-001 +1.4152247795E+002  +1.6028577437E-002 +7.0217567548E+001  +2.5388424346E-002 -3.5561275278E-001  +2.8768903013E-001 +7.6358872776E+001 
4389081.352 +1.9807635266E-001 +1.3983192145E+002  +2.6335460216E-002 +1.0526393024E+002  +2.8583509959E-002 +1.0208082444E+002  +8.2455897266E-001 +1.2416320299E+002 
4514226.533 +2.0865496467E-001 +1.3377803378E+002  +6.7605385217E-003 +6.0488076703E+001  +2.8072712999E-002 +4.1195869673E+001  +5.8101652806E-001 +1.1431285359E+002 
4639371.715 +4.1444255880E-001 +1.2632852908E+002  +2.5896425870E-001 +1.5002424174E+002  +1.2871889221E-001 +7.2098415084E+001  +3.6770785997E+000 +9.1668309850E+001 
4764516.896 +3.1466691552E-001 +1.2760577286E+002  +5.0174194701E-001 +1.2849383602E+002  +2.7239209648E-001 +7.6377818939E+001  +9.0620361632E+000 +9.1547941279E+001 
4889662.078 +3.8886039589E-001 +1.2961640561E+002  +6.0151816396E-001 -8.0578434030E+001  +7.2221166375E-001 -1.4179314110E+002  +1.7037781129E+001 -1.3585466407E+002 
5014807.259 +3.1041205550E-001 +1.1129972004E+002  +1.1720624169E-001 +1.1156985752E+002  +6.7308648197E-002 +7.3283153561E+001  +1.7048419089E+000 +1.2230049630E+002 
5139952.441 +4.5895902066E-001 +1.3051666730E+002  +1.0708502845E-001 +1.6058427226E+002  +7.9295034366E-002 +1.3013843100E+002  +2.6028434231E+000 +1.2683906416E+002 
5265097.622 +3.8502197562E-001 +1.3475287520E+002  +7.9421099166E-002 +8.1549574544E+001  +5.3215037715E-002 +5.3200931923E+001  +2.1010460735E+000 +4.5873806245E+001 
5390242.804 +3.9505199272E-001 +1.2293618926E+002  +1.0915244622E-001 +1.0218694262E+002  +7.3286905052E-002 +9.6738514971E+001  +2.7009961396E+000 +8.0468115475E+001 
5515387.985 +4.4532844013E-001 +1.3660450664E+002  +2.9174372972E-002 +1.2085601429E+002  +2.6440560489E-002 +7.8152587937E+001  +1.2805824983E+000 +1.2509575575E+002 
5640533.166 +5.3722432177E-001 +1.2399638095E+002  +1.0000851207E-001 +1.0001866523E+002  +1.1129469192E-001 +6.8872833258E+001  +2.4316056154E+000 +5.1310142176E+001 
5765678.348 +4.9983010196E-001 +1.2263085516E+002  +6.2723373267E-002 +9.1634334525E+001  +8.3824996605E-002 +6.0782142098E+001  +2.1354405690E+000 +6.1471186375E+001 
5890823.529 +5.0983722693E-001 +1.1542216273E+002  +1.1322918818E-001 +5.8115070510E+001  +9.0973384335E-002 +5.1143593939E+000  +3.1237466397E+000 +5.7759149164E+001 
6015968.711 +6.3808715191E-001 +1.2150296937E+002  +7.4308017944E-002 +5.4663653152E+001  +7.8900455726E-002 +4.5164490886E+001  +1.7277895805E+000 +3.3876278194E+001 
6141113.892 +6.8277728028E-001 +1.1826969327E+002  +6.6429444297E-002 +5.5616855413E+001  +5.9013044766E-002 +2.2761932451E+001  +1.7239050844E+000 +3.3471251059E+001 
6266259.074 +8.5054149100E-001 +9.7942247689E+001  +8.5252484174E-002 +5.0287832113E+001  +8.0155085050E-002 +3.6868519339E+001  +1.3197552153E+000 +2.3388309347E+001 
6391404.255 +9.2005434206E-001 +9.5209787594E+001  +7.6940424002E-002 +2.1649695866E+001  +9.1355168281E-002 +2.6281487472E+001  +1.5942732571E+000 +8.1963655695E-001 
6516549.437 +1.1147964745E+000 +8.8031160271E+001  +8.3074790183E-002 +4.5620000964E+001  +6.6636370422E-002 +1.7961256054E+000  +1.3914835548E+000 +5.3064339550E+000 
6641694.618 +1.2825051247E+000 +7.4341611734E+001  +7.0137297509E-002 +3.5054934467E+001  +5.9551046898E-002 +2.9464816217E+001  +1.3026840044E+000 +4.6441141084E+000 
6766839.800 +1.3182349662E+000 +4.5770416607E+001  +8.4010104001E-002 +8.0809576217E+000  +8.7228600556E-002 +4.7341217281E+000  +1.3742703982E+000 -3.6538457405E+000 
6891984.981 +1.6147102314E+000 +3.0720219919E+001  +7.9662308704E-002 -2.7643618379E+000  +9.1679588832E-002 +1.1170783150E+001  +1.1745279920E+000 -4.8587312707E+000 
7017130.163 +1.6559975313E+000 +1.4171924008E+001  +6.7474484846E-002 -4.5444205605E+000  +7.5500724113E-002 -1.3604290290E+001  +1.3443569563E+000 -9.6490726660E+000 
7142275.344 +1.5943123030E+000 +2.4567017532E-001  +6.7797798445E-002 -2.4220793419E+000  +6.6370203774E-002 +4.6050514024E+000  +1.1966321751E+000 -9.8354018259E+000 
7267420.526 +1.4704493544E+000 +8.2169755317E+000  +5.8054916734E-002 +1.1619556005E-001  +6.0863185683E-002 +8.0287219454E-001  +1.3425386390E+000 -1.2405065701E+001 
7392565.707 +1.0135338822E+000 +7.4485145906E-001  +3.9918112165E-002 -1.2178845307E+000  +4.1747307755E-002 +1.5024240252E+000  +1.3454632164E+000 -7.1215884947E+000 
7517710.889 +1.1963945512E+000 +9.8628441470E-001  +3.6883233563E-002 +4.9088163327E+000  +3.8336263820E-002 +1.4425480682E+000  +1.0839983161E+000 -2.9565829307E+000 
7642856.070 +1.0928856025E+000 +1.9847452606E+000  +4.2576797641E-002 +6.6857250196E-001  +3.6092098145E-002 +8.0301132498E+000  +1.1092096314E+000 -7.5781236239E+000 
7768001.252 +9.4194055794E-001 +1.4211790550E+000  +2.9649332267E-002 +6.3951105121E+000  +3.7093054738E-002 +1.2037464342E+001  +9.0303462032E-001 -9.6797473048E+000 
7893146.433 +7.8592748365E-001 +7.2331782780E+000  +3.5760584281E-002 +4.2553264753E-001  +2.8610288192E-002 +1.4208208826E+000  +8.5472356400E-001 -4.9264901283E+000 
8018291.615 +8.5274931725E-001 +5.7526092443E+000  +3.3021996106E-002 +3.9963526425E+000  +3.6519085158E-002 +1.3843086314E+001  +8.9914695479E-001 -4.9443215085E-001 
8143436.796 +7.3259041202E-001 +2.6106111214E-001  +3.1602251223E-002 -6.5199989049E+000  +3.5064604247E-002 +1.3102410194E+000  +7.8842456426E-001 -3.4426359472E+000 
8268581.977 +6.3507187110E-001 +8.2428463703E+000  +3.4152762963E-002 -4.6313118240E-001  +3.0844983982E-002 +2.1397559470E+000  +7.3079500912E-001 +2.0486614117E+000 
8393727.159 +6.4764527559E-001 +1.2339471049E+001  +2.4913767766E-002 -5.4166513953E+000  +2.9047738326E-002 +9.5366436716E+000  +6.7673377579E-001 -3.9734827360E+000 
8518872.340 +6.2155067359E-001 +1.2372976330E+001  +2.6144896084E-002 +3.4744602915E+000  +3.1767112978E-002 +3.4363690927E+000  +6.5717857383E-001 +5.8924181560E+000 
8644017.522 +6.1164740034E-001 +1.0321679857E+001  +2.7972079810E-002 -2.7800353672E+000  +3.1744526765E-002 +1.3576767671E+001  +6.2138297313E-001 +3.6570763575E-001 
8769162.703 +6.2498323791E-001 +7.2669901659E+000  +2.8449954895E-002 -4.4680316649E+000  +2.8396667272E-002 +1.3639651883E+001  +5.9536327850E-001 +1.6228339935E+000 
8894307.885 +5.7515564721E-001 +5.8721678083E+000  +2.6008145968E-002 +5.6423316413E-001  +3.2157651168E-002 +7.5412104731E+000  +5.9207337571E-001 +8.0942013830E-002 
9019453.066 +5.3982191253E-001 +3.8062346125E+000  +2.7950023973E-002 -3.2610929558E+000  +2.4719188200E-002 +1.1152460687E+001  +6.2794863741E-001 -2.1216169266E+000 
9144598.248 +5.1794875409E-001 +9.7781116781E+000  +2.8299045844E-002 +5.1657460966E+000  +3.0416760083E-002 +1.3756070835E+001  +5.9826034556E-001 -1.3299955577E-001 
9269743.429 +5.5144280713E-001 +6.3715969749E+000  +2.9806712595E-002 -1.3584094310E-001  +3.0470491412E-002 +8.0722486578E-001  +5.8953074862E-001 -2.1817719385E-001 
9394888.611 +4.9518586741E-001 +7.7277516342E+000  +2.9607382217E-002 -2.2272587157E+000  +2.3067318831E-002 +2.1738731969E+001  +5.7847115855E-001 -3.2360705126E+000 
9520033.792 +5.4972492730E-001 +8.9782995080E+000  +2.8230216028E-002 +2.6515579320E+000  +2.8098993614E-002 +6.7937829688E+000  +5.6961776520E-001 +5.4811214753E-001 
9645178.974 +5.4897789240E-001 -2.3832821235E-001  +2.8469502713E-002 -9.5607500742E-001  +3.0309268645E-002 +1.6316373731E+001  +5.6630173023E-001 -3.4874550561E+000 
9770324.155 +5.1178643806E-001 +1.7779348633E+000  +2.8246611282E-002 -6.1317431594E+000  +3.0256938651E-002 +1.5027462759E+001  +5.7310403479E-001 -4.3572382100E+000 
9895469.337 +5.0525022999E-001 +2.0082087270E+000  +3.0352530708E-002 -2.6883998702E+000  +3.0688519565E-002 +1.0421683926E+001  +5.2213026592E-001 -4.0286453059E+000 
10020614.518 +5.3655131478E-001 +7.1691657990E+000  +3.0163067397E-002 -1.1581893242E+001  +3.0360865762E-002 +1.5235022626E+001  +5.4927000977E-001 -5.7961961107E+000 
10145759.700 +5.4361048120E-001 +1.1445179012E+001  +2.6989313272E-002 -3.5212374894E+000  +2.8676358419E-002 +1.9999132512E+001  +5.6445362620E-001 +7.1669957198E-002 
10270904.881 +5.4835294193E-001 +4.3031088780E+000  +3.0341719496E-002 -7.0827726739E-001  +3.1724522848E-002 +1.2873646731E+001  +5.9211667735E-001 -3.5511491667E+000 
10396050.063 +5.1983021277E-001 +7.9321468113E+000  +2.8543342540E-002 -3.4575958637E+000  +2.7628798944E-002 +1.0342421468E+001  +5.7195882803E-001 -1.3764220269E+000 
10521195.244 +5.6701837863E-001 +4.3725691710E+000  +2.8944645978E-002 -4.1746783215E-001  +3.0859019411E-002 +1.1435522099E+001  +5.5742966503E-001 -1.0563628999E-001 
10646340.426 +5.3187526303E-001 +3.3575635170E+000  +3.1461810037E-002 -2.0735992470E+000  +2.8940597512E-002 +1.2871830652E+001  +5.6890399367E-001 +4.7891438143E+000 
10771485.607 +5.6688364135E-001 +5.9076856943E+000  +3.2708785114E-002 +2.3771274805E+000  +2.9507008760E-002 +1.3432594917E+001  +5.7234846721E-001 +1.2773160850E-001 
10896630.788 +5.6200003013E-001 +1.2165877384E+001  +3.0651051516E-002 -1.7123013003E+000  +2.9382798311E-002 +1.8909693305E+001  +5.5421794260E-001 +3.3987157524E+000 
11021775.970 +5.4957493942E-001 +5.2748300948E+000  +3.0729189650E-002 +6.7447599464E-001  +2.9507828981E-002 +1.0445302452E+001  +5.9974686522E-001 +3.8001628321E+000 
11146921.151 +5.6905809653E-001 +6.6629839770E+000  +3.2924009547E-002 -2.3983140359E+000  +3.1862711941E-002 +1.6411626813E+001  +5.8038383665E-001 +4.0660608695E+000 
11272066.333 +5.7183514571E-001 +8.4316914519E+000  +2.8691127326E-002 +1.1984834006E+000  +3.1663383597E-002 +1.5821075453E+001  +5.7086815130E-001 +4.8649316258E+000 
11397211.514 +5.8316513192E-001 +6.8492176531E+000  +3.2192845977E-002 +3.8716063536E-001  +3.3109900071E-002 +1.8426566237E+001  +5.8911926099E-001 -8.9100675564E-001 
11522356.696 +6.1579912292E-001 +8.0837427547E+000  +3.1500440217E-002 +2.9083090648E+000  +3.3090827866E-002 +1.4637161681E+001  +6.1614904528E-001 +7.6757933596E-001 
11647501.877 +5.9911605303E-001 +4.7203479839E+000  +3.2019512126E-002 +1.6012433900E+000  +3.1811976538E-002 +1.3105214369E+001  +6.3964253030E-001 +1.1471645970E+000 
11772647.059 +6.2984739789E-001 +8.1890593556E+000  +3.1050163163E-002 +3.2209318142E+000  +3.2377212855E-002 +1.0834634085E+001  +6.5188112697E-001 +2.8454771851E+000 
11897792.240 +6.1974089853E-001 +6.5618743435E+000  +3.4302321444E-002 +1.3137112806E+000  +3.3579197524E-002 +1.6706891499E+001  +6.4522556178E-001 +2.0986803098E-001 
12022937.422 +6.5497860560E-001 +6.0332886701E+000  +3.3768851916E-002 +4.5434977308E+000  +3.3618676504E-002 +1.2267974679E+001  +6.6953812792E-001 -9.3504064315E-001 
12148082.603 +6.5387051072E-001 +6.3611369279E+000  +3.5353447979E-002 +3.7496174671E+000  +3.2697812273E-002 +1.3855429057E+001  +6.5578482691E-001 +1.6085716363E+000 
12273227.785 +6.8123839614E-001 +3.0195604514E-001  +3.4897923689E-002 +1.0678882527E+000  +3.5011734257E-002 +9.2583635548E+000  +6.7123920903E-001 +1.5649028506E+000 
12398372.966 +6.8273793097E-001 +2.1107380307E+000  +3.5708849607E-002 +2.4750775606E+000  +3.4229001038E-002 +9.2933289632E+000  +7.1042153662E-001 +1.9408470421E+000 
12523518.148 +7.0329359075E-001 +1.0218507498E+000  +3.4493933762E-002 +1.2155882869E+000  +3.7025169192E-002 +9.8267947915E+000  +7.0450883000E-001 -8.2720081373E-001 
12648663.329 +7.2825185757E-001 +3.6399000091E+000  +3.5410737444E-002 +2.4184282186E+000  +3.5030700601E-002 +8.9306629324E+000  +7.3343650728E-001 +4.5011208619E-001 
12773808.511 +7.2115349957E-001 +2.4195072841E+000  +3.5171193693E-002 +1.2451691250E+000  +3.5362714606E-002 +1.1197240389E+001  +7.1945725443E-001 +2.9293720404E-001 
12898953.692 +7.4461445348E-001 +1.4150059728E+000  +3.4130078371E-002 +4.1078919776E+000  +3.5841831793E-002 +7.9727150256E+000  +7.4627419900E-001 -1.4671241201E+000 
13024098.874 +7.4569627837E-001 +7.0368433609E-001  +3.6737512011E-002 +2.5116518822E+000  +3.5371867130E-002 +6.5950248808E+000  +7.6432321326E-001 -2.4333167649E-001 
13149244.055 +7.8919116883E-001 +2.4667075850E-001  +3.6245265349E-002 +2.7061628551E+000  +3.4580473656E-002 +5.1011739017E+000  +7.9980862445E-001 -2.6464214793E+000 
13274389.237 +7.7320703595E-001 +8.3315225703E-001  +3.5749736889E-002 +5.8932308870E+000  +3.5237299581E-002 +6.6342182546E+000  +7.9872015387E-001 -2.5510806252E+000 
13399534.418 +8.1802076321E-001 +1.0066253637E+000  +3.7988458631E-002 +2.8909821634E+000  +3.5919444367E-002 +5.7769602293E+000  +8.1510870676E-001 -1.2450921800E+000 
13524679.599 +8.3073159247E-001 -3.4614295982E+000  +3.8502049597E-002 +4.4759060766E+000  +3.7190820993E-002 +6.6058940171E+000  +8.4415535661E-001 -2.2980146859E+000 
13649824.781 +8.7093349795E-001 -1.7046414728E+000  +3.8707950047E-002 +5.9301455339E+000  +3.5345672531E-002 +6.9503917476E+000  +8.4467283904E-001 -2.8985891111E+000 
13774969.962 +8.7055880993E-001 -2.9982599083E+000  +3.7159611707E-002 +2.7932406774E+000  +3.8040383884E-002 +5.4099653036E+000  +8.9628808242E-001 -3.0721391750E+000 
13900115.144 +8.8112401401E-001 -4.4073852936E+000  +3.6721802529E-002 +1.7595305341E+000  +3.7532652797E-002 +3.8609807065E+000  +8.7596889134E-001 -2.5611614293E+000 
14025260.325 +8.8294792429E-001 -4.0025677922E+000  +3.9662519586E-002 +1.3523492800E+000  +3.8440693711E-002 +5.5283848705E+000  +9.1752893028E-001 -4.6214129008E+000 
14150405.507 +9.1100764138E-001 -4.0014239791E+000  +3.8359834031E-002 +2.0536176169E+000  +3.7561119447E-002 +2.8035834111E+000  +9.3012298685E-001 -5.0509679777E+000 
14275550.688 +9.3133723093E-001 -5.7407603771E+000  +3.9284363616E-002 +1.4739205535E+000  +3.7516960656E-002 +2.6757974551E+000  +9.3723579450E-001 -3.0799008697E+000 
14400695.870 +9.3667881488E-001 -5.6487354544E+000  +3.9991677171E-002 +3.0659600642E+000  +3.9540656765E-002 +1.7217928166E+000  +9.5789163026E-001 -4.8418867511E+000 
