!  2-Port S-parameters saved by WinCal
! VAR MeasName=S-Parameters (CALIBRATED_DATA) read from VNA (P5004A)
! VAR MeasDate=29/08/2024 10:05:15
! VAR NAME=S2_r9c1_RESET1_9k-100M_2
! VAR FILENAME=S2_r9c1_RESET1_9k-100M_2.S2P
! VAR DATE=29/08/2024 10:05:15
! VAR PHYS_PORTS=1,2
! VAR ObjTypeName=DATASET
! VAR IndexType=Frequency
!
# Hz S MA R 50
9000.000 +7.3156830924E-002 -1.6054417556E+002  +6.4226951283E-003 +5.8147176231E+001  +1.7322044775E-002 +1.0829593771E+002  +2.1804199818E-001 -1.4080721442E+002 
134145.181 +1.1095808416E-001 +1.6910204838E+002  +2.0939965953E-004 -8.1707481913E+001  +1.1742096186E-004 +5.3149389098E+001  +2.3997067973E-001 -1.7110309438E+002 
259290.363 +1.1231291755E-001 +1.6956882865E+002  +5.3373164973E-004 -1.4690969337E+002  +5.7752037209E-004 +5.1959005076E+001  +2.4021904839E-001 -1.6947036353E+002 
384435.544 +1.1285229218E-001 +1.6994445908E+002  +6.6502640345E-004 -1.6042498944E+001  +1.4900041197E-004 -1.7512871269E+002  +2.3514469388E-001 -1.6846390127E+002 
509580.726 +1.1435220037E-001 +1.7183059659E+002  +3.7099236660E-004 -1.3887319912E+002  +3.3792700253E-004 +1.2352652445E+002  +2.3769977480E-001 -1.6720370864E+002 
634725.907 +1.1562372459E-001 +1.7167115114E+002  +2.2269349047E-003 -1.2366573663E+002  +3.4590659885E-004 +1.7523312756E+002  +2.5244042427E-001 -1.6670359280E+002 
759871.089 +1.2110676363E-001 +1.7081154136E+002  +2.6990155376E-004 -1.7468579200E+002  +9.6608908585E-004 +8.7106357952E+001  +2.4457565431E-001 -1.6726074379E+002 
885016.270 +1.2125462344E-001 +1.6933266982E+002  +5.2513523187E-004 -6.8486834980E+001  +8.0393213342E-004 +8.1318702556E+001  +2.4462749716E-001 -1.6816526379E+002 
1010161.452 +1.1271594105E-001 +1.6998908014E+002  +2.8861551606E-003 -1.3155103219E+001  +3.0738081964E-003 -1.4081782220E+002  +1.9710253520E-001 -1.6524923307E+002 
1135306.633 +1.1630172797E-001 +1.6769729929E+002  +2.0851521077E-003 -1.3350830855E+001  +2.4978414461E-003 +1.5156944483E+002  +1.9131432701E-001 -1.6394426299E+002 
1260451.815 +1.1775129761E-001 +1.7321771013E+002  +2.4762242279E-003 -8.5318995555E+001  +8.0037207702E-003 +1.1088040749E+002  +2.3181166950E-001 -1.5553270658E+002 
1385596.996 +1.2379764846E-001 +1.7258044161E+002  +2.5501409064E-003 -7.0317636020E+001  +7.2744965407E-004 +1.4546732355E+002  +2.5629522302E-001 -1.5907353168E+002 
1510742.178 +1.2833657264E-001 +1.7252075795E+002  +1.1130212775E-003 -8.3344782290E+001  +3.3292451438E-004 +1.4300173369E+002  +2.5974596435E-001 -1.5811726293E+002 
1635887.359 +1.3030091989E-001 +1.7139314043E+002  +1.7232784258E-003 +1.3212426391E+001  +1.0997199482E-003 -1.3870445280E+002  +2.3542863828E-001 -1.5871016168E+002 
1761032.541 +1.2942763463E-001 +1.7027967984E+002  +8.5028452143E-004 +3.6278995807E+001  +1.4693129346E-003 +1.7646222530E+002  +2.4161567842E-001 -1.5508643356E+002 
1886177.722 +1.2779368448E-001 +1.6749611321E+002  +3.5877294070E-003 +5.0098405312E+000  +6.2444722805E-003 -7.3178050610E+001  +1.9839704383E-001 -1.5294089904E+002 
2011322.904 +1.2825152631E-001 +1.6770144503E+002  +4.1954385230E-003 +8.4964645721E+001  +4.6306884292E-003 -5.9683932935E+001  +2.2300196416E-001 -1.6673437062E+002 
2136468.085 +1.2005827655E-001 +1.6708955180E+002  +2.7115515083E-002 +3.4894651968E+001  +2.4618614633E-002 -1.1114305255E+002  +1.7536795776E-001 -9.1648601359E+001 
2261613.267 +1.3474407046E-001 +1.6837455823E+002  +8.9933787127E-003 +7.5872359647E+001  +1.1172262255E-002 -4.6405074423E+001  +1.9163500525E-001 -1.7490737303E+002 
2386758.448 +1.3686796356E-001 +1.6393896102E+002  +1.1672267059E-002 +9.9657059900E+001  +9.2669214921E-003 -2.7339148912E+001  +2.1354587427E-001 -1.7804225069E+002 
2511903.630 +1.3317185779E-001 +1.6483147519E+002  +1.5424227802E-002 +7.0969528098E+001  +1.7808000648E-002 -4.2972593425E+001  +1.5452165688E-001 -1.7955922012E+002 
2637048.811 +1.2023032825E-001 +1.6216503197E+002  +4.3178144409E-002 +8.0512841572E+001  +4.5044081719E-002 -2.7795932804E+001  +1.4286900585E-001 +1.3748820182E+002 
2762193.992 +9.9658605416E-002 +1.7335857442E+002  +1.0170970563E-001 +1.8253484577E+001  +1.0415838620E-001 -8.6455993794E+001  +1.5749797041E-001 -2.6066258961E+001 
2887339.174 +1.2214729595E-001 +1.6830633708E+002  +6.4938077423E-002 +8.4641774100E+000  +6.7667812406E-002 -9.2637628004E+001  +1.7112411670E-001 -5.4371037111E+001 
3012484.355 +1.3779425808E-001 +1.7334579328E+002  +5.1733368345E-002 +5.2349207849E+000  +3.7835533933E-002 -8.5776988296E+001  +2.2567569397E-002 -5.2160909220E+001 
3137629.537 +1.2993073862E-001 +1.7084259946E+002  +9.1591565106E-002 +5.1297105790E+001  +9.5900219055E-002 -5.7593081135E+001  +4.5447084028E-001 +4.5439386634E+001 
3262774.718 +1.2604930419E-001 +1.6736801552E+002  +7.4036016899E-002 +1.8540950165E+001  +6.5077576597E-002 -7.2250161002E+001  +1.6221139183E-001 +1.0714191698E+000 
3387919.900 +1.2021456754E-001 +1.6055695262E+002  +4.0502090281E-002 +2.1058088666E+001  +3.3861970102E-002 -6.2296451416E+001  +1.6993553069E-001 -1.4773939376E+002 
3513065.081 +1.4036444703E-001 +1.4943456879E+002  +6.8351335132E-002 +6.4766357024E+001  +7.4333644097E-002 -5.4705129867E+000  +1.7846875981E-001 +1.1235708939E+002 
3638210.263 +1.3740148172E-001 +1.4969230087E+002  +6.1408235063E-002 +9.0113917170E+001  +6.2171091866E-002 +1.2557373716E+001  +3.6548271786E-001 +1.3801395329E+002 
3763355.444 +1.7325747609E-001 +1.5073398748E+002  +5.7652686447E-002 +9.8448432629E+001  +5.3202707161E-002 +2.6731387282E+001  +3.6720109199E-001 +1.3646904733E+002 
3888500.626 +1.6650396881E-001 +1.5601389065E+002  +6.7449916348E-002 +6.9676395902E+001  +6.5295191325E-002 -6.2666924486E+000  +3.1199316692E-001 +8.7501811184E+001 
4013645.807 +1.8218660993E-001 +1.5489103335E+002  +3.6364484291E-002 +1.0016367760E+002  +3.9132065074E-002 +2.9884168111E+001  +3.7079550777E-001 +1.5607151177E+002 
4138790.989 +1.8824211093E-001 +1.5043681454E+002  +7.3146141414E-002 +1.0534426115E+002  +5.8188428309E-002 +3.3316779402E+001  +4.4654050317E-001 +1.3635311465E+002 
4263936.170 +2.0617441878E-001 +1.4711771831E+002  +6.8671506862E-002 +8.7746565474E+001  +5.9187491993E-002 +2.3775026495E+001  +2.8387612923E-001 +1.2781366239E+002 
4389081.352 +2.1534767780E-001 +1.3706829650E+002  +1.4769806071E-001 +1.2298036607E+002  +1.3428377021E-001 +6.2016226755E+001  +8.3786430875E-001 +1.3112382583E+002 
4514226.533 +2.0641876800E-001 +1.3844813077E+002  +1.2305700761E-001 +9.1471935414E+001  +1.2752439071E-001 +3.4529248950E+001  +6.1940789268E-001 +1.0388234979E+002 
4639371.715 +2.6585850324E-001 +1.2775652540E+002  +1.9069322429E-001 +9.5692546638E+001  +2.0268377741E-001 +4.1137787811E+001  +8.0558391398E-001 +9.0420121035E+001 
4764516.896 +3.6035413520E-001 +1.3055998391E+002  +3.4179291124E-001 +1.4617963604E+002  +3.0613590841E-001 +1.0170738932E+002  +1.6758600758E+000 +1.2898677021E+002 
4889662.078 +2.1681240289E-001 +1.1331002442E+002  +6.4103549563E-001 -2.6543498945E+001  +6.6072713303E-001 -7.4522441572E+001  +3.3494681027E+000 -7.7592982493E+001 
5014807.259 +3.4816635081E-001 +1.3438327828E+002  +2.6934609084E-001 +1.2781714088E+002  +2.9111755468E-001 +8.5274069786E+001  +1.7429376076E+000 +1.1338038112E+002 
5139952.441 +3.6695626375E-001 +1.3606060617E+002  +3.4426686479E-001 +9.3230448779E+001  +2.8843628102E-001 +5.3422904050E+001  +2.0923007002E+000 +6.5255878380E+001 
5265097.622 +3.9597495437E-001 +1.2903896373E+002  +2.9360389492E-001 +1.2675908004E+002  +2.8563675006E-001 +8.3461031203E+001  +1.6719366291E+000 +1.1379164218E+002 
5390242.804 +3.5653463787E-001 +1.2787033414E+002  +3.6924817113E-001 +7.9484572092E+001  +3.7484493652E-001 +4.8691003314E+001  +2.3122117758E+000 +7.1258177413E+001 
5515387.985 +3.9002319230E-001 +1.2500202480E+002  +2.4750141627E-001 +7.7700057317E+001  +2.4887890102E-001 +4.2758121243E+001  +1.1873682222E+000 +6.8692571796E+001 
5640533.166 +4.4051526360E-001 +1.3124436313E+002  +1.8818841003E-001 +1.1075948430E+002  +1.8633270130E-001 +8.0781780638E+001  +1.2678667674E+000 +1.1865168568E+002 
5765678.348 +3.6868184081E-001 +1.2457844305E+002  +2.2430923137E-001 +8.9107633045E+001  +2.2060706855E-001 +6.0735875347E+001  +1.3886046156E+000 +1.0915529194E+002 
5890823.529 +4.8463924589E-001 +1.3294862171E+002  +1.7370264595E-001 +9.4282881402E+001  +1.6673428060E-001 +6.7817918433E+001  +1.0948946781E+000 +1.0255463161E+002 
6015968.711 +6.0121065512E-001 +1.1673566036E+002  +3.5484550806E-001 +8.3732325140E+001  +3.3215712731E-001 +5.6793016526E+001  +1.6946459402E+000 +7.2109534935E+001 
6141113.892 +5.7194357653E-001 +1.1011428515E+002  +3.5043755979E-001 +4.6125631532E+001  +3.5701022254E-001 +2.9024360498E+001  +1.6347238762E+000 +3.1984720739E+001 
6266259.074 +6.0055298033E-001 +1.0548913987E+002  +2.9434419735E-001 +4.9484050679E+001  +3.1610235096E-001 +2.8686037954E+001  +1.1270119256E+000 +3.9799962066E+001 
6391404.255 +9.1038134774E-001 +9.6324571471E+001  +4.3001658415E-001 +5.7976306647E+001  +4.2586076332E-001 +3.9355587602E+001  +1.5374654337E+000 +3.9982873762E+001 
6516549.437 +9.9225275026E-001 +8.8162016211E+001  +4.0030342960E-001 +3.6992213896E+001  +3.9624167889E-001 +2.6302322307E+001  +1.3549645211E+000 +1.4196011555E+001 
6641694.618 +1.0086369121E+000 +6.9419176335E+001  +3.9624855368E-001 +2.3141539744E+001  +4.0044337427E-001 +1.7006580416E+001  +1.0877854007E+000 +2.8765034027E+000 
6766839.800 +7.3157373453E-001 +5.5603241033E+001  +3.2523739912E-001 +7.6473707712E+000  +3.2946734881E-001 +2.7059588096E+000  +1.0084067770E+000 +1.8685784302E+000 
6891984.981 +1.0658738557E+000 +4.2268998717E+001  +3.4732812240E-001 +8.5962596635E+000  +3.5678321263E-001 +3.6032542777E+000  +1.1391480410E+000 +1.7891107368E+000 
7017130.163 +7.8867900592E-001 +1.8783744218E+001  +3.1265389146E-001 -1.0952645667E+000  +2.9257901101E-001 -7.3706534270E+000  +1.0313827264E+000 -4.8456128366E+000 
7142275.344 +1.0349421462E+000 -7.5260867351E-001  +3.3037322893E-001 -3.0785481901E+000  +2.9284685811E-001 -1.0065509528E+001  +1.2230327201E+000 -7.3167154783E+000 
7267420.526 +1.1471130228E+000 +5.5636546709E+000  +2.6852627190E-001 -5.8617341235E-001  +2.6988340049E-001 +4.5073090503E-001  +1.0374950288E+000 -1.1516565157E+001 
7392565.707 +1.0235336620E+000 -8.8346655500E+000  +2.4062892472E-001 +2.8904139166E+000  +2.2954269707E-001 +1.6539359456E+000  +9.5786033205E-001 -1.4781228659E+001 
7517710.889 +7.8370254294E-001 +4.7468351474E+000  +2.0185302398E-001 +3.3793704379E+000  +2.0931806525E-001 +4.9511432808E+000  +1.0606694943E+000 -6.3155295870E+000 
7642856.070 +6.9933541387E-001 +6.5212974455E+000  +2.0731294339E-001 +1.8529921483E+000  +1.9666931640E-001 +4.1374866173E+000  +8.9768235278E-001 -6.5824518044E+000 
7768001.252 +7.8277952768E-001 +2.5027632445E+000  +1.8986965065E-001 +1.6205897738E+000  +1.9347179151E-001 +5.5778095413E+000  +8.2421603062E-001 -5.8117740119E-001 
7893146.433 +6.9563431556E-001 +1.0800500087E+001  +1.8380679617E-001 -1.2270301858E-001  +1.8895129711E-001 +6.9572624795E+000  +7.0181975801E-001 -7.4986389482E+000 
8018291.615 +5.4957073412E-001 +7.9987456680E+000  +1.8758185248E-001 -1.4359143025E+000  +1.7898512025E-001 +5.2013469736E+000  +6.9217008482E-001 -5.4896594053E-001 
8143436.796 +5.6314853317E-001 +9.9986117367E+000  +1.7465333613E-001 -2.5565595753E+000  +1.7596872032E-001 +6.5415518697E+000  +6.0949346983E-001 +7.0307600150E+000 
8268581.977 +4.7624533333E-001 +2.0037592008E+001  +1.7163141398E-001 -3.2244095118E+000  +1.6421975922E-001 +6.6088317054E+000  +5.6935898765E-001 +6.1076405294E-001 
8393727.159 +5.3035198670E-001 +1.3155128224E+001  +1.7115790380E-001 -2.2158208198E+000  +1.6529841509E-001 +9.4793293942E+000  +6.2488432560E-001 -2.4430786456E-001 
8518872.340 +5.5439260211E-001 +1.1616851765E+001  +1.6785116900E-001 -2.2744710217E+000  +1.6827641925E-001 +7.6214466294E+000  +5.7794453557E-001 +1.0681071236E+001 
8644017.522 +5.0003864424E-001 +1.5582051587E+001  +1.5967378049E-001 -2.6879919756E+000  +1.6054001897E-001 +9.2840350093E+000  +5.2433521607E-001 +6.3739031723E+000 
8769162.703 +4.5439769386E-001 +1.4624316106E+001  +1.6043750609E-001 -1.9276263439E+000  +1.6091522603E-001 +8.4474707391E+000  +4.6833795130E-001 +7.3524831739E+000 
8894307.885 +4.5217559374E-001 +1.6338626999E+001  +1.6391232507E-001 -5.3095066073E+000  +1.6058258588E-001 +9.3695015532E+000  +4.7061203432E-001 -4.0579481135E+000 
9019453.066 +4.4474931641E-001 +1.0160592189E+001  +1.6001761870E-001 -3.7760509317E+000  +1.5999487599E-001 +1.0316873144E+001  +4.4451255387E-001 -4.3313627844E-002 
9144598.248 +4.2572477733E-001 +8.2588459756E+000  +1.6140265799E-001 -4.5741572207E+000  +1.5654592576E-001 +9.2631558300E+000  +3.9189691120E-001 +5.3286756484E+000 
9269743.429 +4.1624637216E-001 +1.9074596403E+001  +1.6013835926E-001 -5.0700370639E+000  +1.5713457026E-001 +1.0321136186E+001  +4.0478610823E-001 +3.6480668975E+000 
9394888.611 +3.9140534928E-001 +9.0077334401E+000  +1.5908154498E-001 -5.2430795820E+000  +1.5923725998E-001 +1.0521153225E+001  +4.2982684496E-001 +1.0549444839E+000 
9520033.792 +3.9101738665E-001 +6.3165664532E+000  +1.5673800414E-001 -3.7615977368E+000  +1.5676546059E-001 +9.9976534124E+000  +3.7874060091E-001 +6.6525900639E+000 
9645178.974 +3.7382761125E-001 +6.0757838893E+000  +1.5832093954E-001 -5.6589199162E+000  +1.6398350118E-001 +1.0689835984E+001  +3.5238189495E-001 +1.5390239532E+000 
9770324.155 +3.6068183489E-001 +1.0373432794E+001  +1.5789129264E-001 -5.0797518189E+000  +1.5900836609E-001 +1.0963297391E+001  +4.0912226196E-001 -2.9761046869E+000 
9895469.337 +3.4814547265E-001 +1.0239874769E+001  +1.6300126681E-001 -5.3826589836E+000  +1.5936548851E-001 +1.0703825137E+001  +4.0040534750E-001 -2.9840922552E+000 
10020614.518 +3.7342491077E-001 +3.1906854017E+000  +1.6200861859E-001 -4.1425300432E+000  +1.6124089318E-001 +1.0621705456E+001  +3.5609229640E-001 -6.2274104175E-001 
10145759.700 +3.8069522395E-001 -3.9528937029E-001  +1.6385935975E-001 -4.8907099491E+000  +1.6245885427E-001 +1.1497776884E+001  +4.0464144254E-001 -1.7458622179E+000 
10270904.881 +4.0693646287E-001 +8.3475511714E+000  +1.6458598759E-001 -2.8027841129E+000  +1.6235500520E-001 +1.2738777210E+001  +4.2420745723E-001 +7.9241068808E-001 
10396050.063 +3.8835909259E-001 +1.1787181689E+001  +1.6292516703E-001 -3.1034124673E+000  +1.6053770490E-001 +1.2228381838E+001  +4.1217631616E-001 +2.9463404191E+000 
10521195.244 +4.4284166882E-001 +1.3159779250E+001  +1.6388909345E-001 -3.3281608798E+000  +1.6483719595E-001 +1.2865231319E+001  +3.9941024918E-001 +2.9514192044E+000 
10646340.426 +3.5490145244E-001 +1.0327849771E+001  +1.6515335986E-001 -2.5342025576E+000  +1.6246100438E-001 +1.1975787967E+001  +4.3740406499E-001 +4.4747097110E+000 
10771485.607 +4.0461052175E-001 +1.0917018383E+001  +1.6942035127E-001 -1.5063839533E+000  +1.6436601162E-001 +1.2463214027E+001  +4.2885019852E-001 +3.7590057069E+000 
10896630.788 +4.1100172888E-001 +1.3244393980E+001  +1.6783327026E-001 -1.9568157283E+000  +1.6585132072E-001 +1.2302291050E+001  +4.3379315130E-001 +6.5927655579E+000 
11021775.970 +4.4123915522E-001 +1.5877016268E+001  +1.6872442093E-001 -1.2986181940E+000  +1.6622471019E-001 +1.2067051120E+001  +4.0924561076E-001 +6.4703992080E+000 
11146921.151 +4.3385753557E-001 +1.2876154129E+001  +1.7030931500E-001 -1.5836579881E-001  +1.6647266982E-001 +1.2505820297E+001  +4.5738640896E-001 +8.5277850849E+000 
11272066.333 +4.3937546524E-001 +8.5395608300E+000  +1.7246736459E-001 -1.2458163636E+000  +1.6798662905E-001 +1.1998415456E+001  +4.4473230698E-001 +5.8282027888E+000 
11397211.514 +4.5031691458E-001 +1.2843670905E+001  +1.7173622512E-001 -5.4687492166E-001  +1.6997575559E-001 +1.2449779773E+001  +4.6491862668E-001 +3.4537400981E+000 
11522356.696 +4.7607104285E-001 +5.4141578033E+000  +1.7674357942E-001 -2.5862519375E-001  +1.7308235288E-001 +1.1353604986E+001  +4.5722308045E-001 +6.3319642119E+000 
11647501.877 +4.8819463154E-001 +1.4266845656E+001  +1.7622104418E-001 +1.0767119743E+000  +1.7421242836E-001 +1.1440827316E+001  +4.6782132163E-001 +4.8886240562E+000 
11772647.059 +4.7653361781E-001 +1.0854161222E+001  +1.7910711797E-001 +6.2805415309E-002  +1.7724114437E-001 +1.0534311518E+001  +4.8484493276E-001 +3.3597144280E+000 
11897792.240 +4.4673321314E-001 +1.0607917296E+001  +1.7991395357E-001 -3.2816664570E-001  +1.7777020725E-001 +1.0238168320E+001  +4.9860879732E-001 +3.2575886451E+000 
12022937.422 +5.1919380934E-001 +8.2308525691E+000  +1.8419153008E-001 +9.1562584475E-001  +1.8001490640E-001 +1.1163896857E+001  +4.9100652141E-001 +2.9454086318E+000 
12148082.603 +4.8672940860E-001 +6.7526074468E+000  +1.8558136809E-001 +1.4667786769E+000  +1.8433686747E-001 +1.0044311794E+001  +5.4329033929E-001 +3.2131588558E+000 
12273227.785 +5.5297593847E-001 +5.6513740136E+000  +1.8552573196E-001 +1.2956300190E+000  +1.8676592103E-001 +1.0430606371E+001  +5.3440331227E-001 +3.4039254176E+000 
12398372.966 +5.2640877523E-001 +6.5498660398E+000  +1.8810306069E-001 +4.4674192059E-001  +1.8700610439E-001 +9.4827434771E+000  +5.2703665193E-001 +8.2100153373E-001 
12523518.148 +5.3524673390E-001 +8.0981437528E+000  +1.9051096718E-001 +1.4818275815E+000  +1.8775811250E-001 +8.9238675824E+000  +5.4978650541E-001 +2.4878764619E-001 
12648663.329 +5.4039301523E-001 +4.0455207687E+000  +1.9351121317E-001 +2.0966254496E+000  +1.9138857476E-001 +8.5909339645E+000  +5.7447674488E-001 -1.7232212906E-002 
12773808.511 +5.6208117724E-001 +5.2435636123E+000  +1.9358246177E-001 +1.8406499559E+000  +1.9300303141E-001 +8.3141137654E+000  +5.8080991707E-001 -7.3209186206E-001 
12898953.692 +5.7576272313E-001 +2.5733976956E+000  +1.9575816540E-001 +2.2747332238E+000  +1.9441521683E-001 +7.4134264640E+000  +5.7941216908E-001 -2.3976400862E-001 
13024098.874 +5.9394822091E-001 +2.3835733289E+000  +2.0142403919E-001 +1.8652716227E+000  +1.9582892634E-001 +6.7346052895E+000  +5.7233210753E-001 -4.1788627409E-001 
13149244.055 +6.0902275997E-001 +2.2544107868E+000  +1.9903507779E-001 +2.1681154351E+000  +1.9708055837E-001 +6.6839181938E+000  +6.0538150240E-001 +6.3777787851E-001 
13274389.237 +6.3936508998E-001 -1.5883427449E-001  +2.0246196621E-001 +3.0351707669E+000  +2.0074998977E-001 +5.9673690183E+000  +6.3469727067E-001 -2.2785704627E-001 
13399534.418 +6.3813781745E-001 -5.7493278585E-001  +2.0553736418E-001 +2.6119406226E+000  +2.0232002065E-001 +5.6808872838E+000  +6.4610897024E-001 -1.5594362810E+000 
13524679.599 +6.5444082504E-001 -8.2387182527E-001  +2.0551837156E-001 +1.7335556592E+000  +2.0293276963E-001 +5.2315150206E+000  +6.5241344101E-001 -1.2886226897E+000 
13649824.781 +6.7085627603E-001 -8.5551554280E-001  +2.0767901617E-001 +2.1802106154E+000  +2.0351144662E-001 +5.3580168693E+000  +6.9347464537E-001 -2.3796176978E+000 
13774969.962 +6.7467505503E-001 -2.2763361076E+000  +2.0770501917E-001 +2.1519090099E+000  +2.0640322272E-001 +3.8069759916E+000  +6.9185254291E-001 -1.5207872155E+000 
13900115.144 +6.9140771471E-001 -1.6518666363E+000  +2.0971331962E-001 +1.9999270430E+000  +2.0735006830E-001 +3.4920458629E+000  +7.0814542039E-001 -3.2666796999E+000 
14025260.325 +7.3041856872E-001 -4.1942283577E+000  +2.1422242382E-001 +2.1294149139E+000  +2.1093138878E-001 +3.8003580067E+000  +7.3579535082E-001 -4.9513355069E+000 
14150405.507 +7.2909365286E-001 -3.0346993488E+000  +2.1234643402E-001 +1.9606790783E+000  +2.1003952229E-001 +2.7647152078E+000  +7.4978679128E-001 -4.6051303631E+000 
14275550.688 +7.2878762361E-001 -4.4279653377E+000  +2.1256988305E-001 +1.7253497631E+000  +2.0911418841E-001 +2.1241176465E+000  +7.6438753013E-001 -2.6499454104E+000 
14400695.870 +7.4247506941E-001 -4.7295281146E+000  +2.1507744440E-001 +1.4741384930E+000  +2.1193766689E-001 +1.9871298148E+000  +7.7510714144E-001 -4.8824128992E+000 
