!  2-Port S-parameters saved by WinCal
! VAR MeasName=S-Parameters (CALIBRATED_DATA) read from VNA (P5004A)
! VAR MeasDate=29/08/2024 12:38:49
! VAR NAME=S2_r9c5_SET3_9k-100M_3
! VAR FILENAME=S2_r9c5_SET3_9k-100M_3.S2P
! VAR DATE=29/08/2024 12:38:49
! VAR PHYS_PORTS=1,2
! VAR ObjTypeName=DATASET
! VAR IndexType=Frequency
!
# Hz S MA R 50
9000.000 +9.2352002694E-002 -1.6076368920E+002  +1.8389639437E-003 -7.2101627164E+001  +5.9392279337E-003 +3.8857902749E+000  +2.5213538508E-001 -1.5522274843E+002 
134145.181 +1.1102153127E-001 +1.6939819541E+002  +2.3386468760E-004 +1.2568968732E+002  +1.0314277681E-003 +1.3657564445E+002  +2.3965936192E-001 -1.7100442324E+002 
259290.363 +1.1221704316E-001 +1.6961841279E+002  +3.9108204459E-004 +6.8115116812E+001  +5.9237176155E-004 +1.3672498804E+002  +2.5037965789E-001 -1.6947363556E+002 
384435.544 +1.1343925929E-001 +1.7021308079E+002  +9.6388692314E-004 +5.7943683205E+000  +1.4483046426E-003 +8.7917441415E+001  +2.4269303597E-001 -1.6795313465E+002 
509580.726 +1.1635097024E-001 +1.7084443916E+002  +2.0207797804E-003 -8.8571316559E+001  +1.1437955649E-003 +1.6355186913E+002  +2.5074389646E-001 -1.6563641597E+002 
634725.907 +1.1713189194E-001 +1.7048539462E+002  +3.5575193188E-004 -9.0114253741E+001  +4.8445439355E-004 +1.0645896037E+002  +2.4732827316E-001 -1.6579437471E+002 
759871.089 +1.1915109875E-001 +1.7069424014E+002  +9.0534849988E-004 -9.3550555788E+001  +6.7046692966E-004 +7.3148698854E+001  +2.5298511109E-001 -1.6749566847E+002 
885016.270 +1.2120144221E-001 +1.6949245758E+002  +3.6354335794E-004 -1.3856701337E+002  +6.0078243305E-004 +8.5271640998E+001  +2.4357839073E-001 -1.6774747874E+002 
1010161.452 +1.1298582126E-001 +1.6986441417E+002  +2.1600338670E-003 -3.2109167078E+001  +1.7506160424E-003 +1.4615802203E+002  +2.2296975866E-001 -1.6714273046E+002 
1135306.633 +1.1852484980E-001 +1.6748766359E+002  +1.2153195127E-003 -6.3160415572E+001  +1.8483873067E-003 +1.5805524587E+002  +2.1527741930E-001 -1.6718918870E+002 
1260451.815 +1.2017341914E-001 +1.6987022993E+002  +1.7220465407E-003 -2.5783092689E+001  +2.0672926789E-003 +1.7936200578E+002  +2.1050330728E-001 -1.6382390105E+002 
1385596.996 +1.2771044733E-001 +1.7245474679E+002  +8.9635103280E-004 -8.1401771195E+001  +7.1485389408E-004 +2.5608144621E+000  +2.6381645837E-001 -1.5850616400E+002 
1510742.178 +1.2675828989E-001 +1.7135597856E+002  +1.2862013353E-003 -5.8916391804E+001  +6.8242104811E-004 -1.5634154780E+002  +2.5359741115E-001 -1.5765124641E+002 
1635887.359 +1.3085704344E-001 +1.7229493788E+002  +1.8684975039E-003 -4.2738668569E+001  +2.1450020873E-004 +1.2561291440E+002  +2.2293214311E-001 -1.5203984929E+002 
1761032.541 +1.3135402606E-001 +1.6889429782E+002  +1.7271079254E-003 -1.0850713780E+001  +1.0912636781E-003 -1.2723298282E+002  +2.3477667045E-001 -1.5868058445E+002 
1886177.722 +1.3001484144E-001 +1.6904784489E+002  +4.1219134517E-003 +6.6635785489E+001  +3.6284691188E-003 -1.0272669132E+002  +2.0577049305E-001 -1.6377141700E+002 
2011322.904 +1.2949252505E-001 +1.6728980483E+002  +7.3562340930E-003 +6.9541236218E+001  +9.2933025301E-003 -5.4045281398E+001  +1.7906051184E-001 -1.6774851592E+002 
2136468.085 +1.3110494477E-001 +1.6723083013E+002  +1.1392540992E-002 +6.1639099365E+001  +8.7698726767E-003 -7.3156777140E+001  +1.7972134570E-001 -1.6160530931E+002 
2261613.267 +1.2107190187E-001 +1.6910186935E+002  +2.1637828345E-002 +5.0148941241E+001  +1.9839942905E-002 -7.8293734812E+001  +1.1107292496E-001 -1.5157529231E+002 
2386758.448 +1.4078875802E-001 +1.6658090114E+002  +1.4680576060E-002 +9.0150687781E+001  +9.4026575585E-003 -2.1137263304E+001  +2.1199689521E-001 +1.7102706101E+002 
2511903.630 +1.3698266006E-001 +1.6766166164E+002  +2.0147585005E-002 +1.0083921404E+002  +1.7783231919E-002 -1.2893210432E+001  +2.4610510885E-001 +1.6016953539E+002 
2637048.811 +1.3123954167E-001 +1.6261737440E+002  +3.4319089601E-002 +6.1097711391E+001  +3.5365147648E-002 -4.6397943987E+001  +1.0005662693E-001 +1.6934610475E+002 
2762193.992 +1.1092750136E-001 +1.7565388716E+002  +8.7397100149E-002 +3.2046046836E+001  +8.4281145181E-002 -7.1798613936E+001  +1.3257762670E-001 +5.5845681527E+001 
2887339.174 +1.2839177021E-001 +1.7705157044E+002  +1.1637696247E-001 +8.2571723343E+000  +1.0045177981E-001 -1.1096268270E+002  +3.9810586665E-001 -1.4883537652E+001 
3012484.355 +1.2385473815E-001 +1.6424935089E+002  +4.9639028517E-002 -2.5726734985E+000  +4.4864136240E-002 -1.0835564030E+002  +2.4754746812E-001 -1.0379490756E+002 
3137629.537 +1.1133497280E-001 +1.7054837101E+002  +6.0905750537E-002 +4.6106097688E+001  +6.5578677334E-002 -5.3780894936E+001  +1.5056032457E-001 +1.3379707109E+002 
3262774.718 +1.3137593579E-001 +1.6958507603E+002  +3.1611939501E-002 +6.6985026276E+000  +3.8522398190E-002 -7.7462454643E+001  +1.2481975703E-001 -1.3735586673E+002 
3387919.900 +1.5048157407E-001 +1.5486855969E+002  +3.9659827471E-002 +7.8281946878E+001  +3.5866900812E-002 -4.4984922301E+000  +2.2963094896E-001 +1.5770815818E+002 
3513065.081 +1.4441003339E-001 +1.5690547182E+002  +5.5638893524E-002 +5.0659890495E+001  +6.0112609483E-002 -3.3756419037E+001  +1.2342893552E-001 +1.0923409417E+002 
3638210.263 +1.5965667227E-001 +1.5728518126E+002  +5.5049077131E-002 +6.8901818298E+001  +5.3203937583E-002 -1.0139349741E+001  +1.9661938760E-001 +1.1752172053E+002 
3763355.444 +1.7695438416E-001 +1.5012809102E+002  +1.1074550995E-001 +1.2514296914E+002  +1.0656504190E-001 +4.1776687502E+001  +9.5892329540E-001 +1.2249762652E+002 
3888500.626 +1.7120465992E-001 +1.5095125867E+002  +8.9149614227E-002 +1.1110578486E+002  +8.3861097061E-002 +3.6629327523E+001  +6.2211912279E-001 +1.2709770621E+002 
4013645.807 +1.8275314696E-001 +1.5101233167E+002  +4.8419056997E-002 +1.1988614467E+002  +4.6387245433E-002 +5.0479120688E+001  +4.9831373000E-001 +1.5880647090E+002 
4138790.989 +1.6567722098E-001 +1.5422862892E+002  +4.9711187555E-002 +6.3882572099E+001  +4.8601880626E-002 -1.1654413175E+001  +1.7607310036E-001 +1.3174120979E+002 
4263936.170 +1.8136466691E-001 +1.4608442046E+002  +7.4847075251E-002 +9.6227564750E+001  +7.6670474018E-002 +2.9578627575E+001  +4.6472753779E-001 +1.3336533944E+002 
4389081.352 +2.1030082463E-001 +1.5149251912E+002  +8.9876681815E-002 +1.0534955846E+002  +7.7527685578E-002 +4.1269083970E+001  +6.9440055793E-001 +1.1911566943E+002 
4514226.533 +2.3182148696E-001 +1.4327219439E+002  +1.0634146345E-001 +9.2948402915E+001  +1.0675174581E-001 +4.1819787483E+001  +5.7515666234E-001 +1.0544876146E+002 
4639371.715 +2.6483703269E-001 +1.3033800221E+002  +4.4934181918E-001 +1.0572089261E+002  +3.8616134248E-001 +4.8604335990E+001  +2.9487555939E+000 +9.0563139868E+001 
4764516.896 +3.7708008822E-001 +1.3591174985E+002  +3.6550582251E-001 +1.5278876947E+002  +3.3509084085E-001 +1.0274510966E+002  +2.0796127656E+000 +1.1986751897E+002 
4889662.078 +5.0547457616E-001 +1.3240158439E+002  +1.1256522687E+000 +1.5901718444E+002  +9.6610849934E-001 +1.0411014179E+002  +5.6918908298E+000 +1.2520971418E+002 
5014807.259 +3.9130257647E-001 +1.3561398283E+002  +1.7387258582E-001 +1.0357030859E+002  +1.6011257159E-001 +6.1248280183E+001  +6.2030562370E-001 +8.4138762206E+001 
5139952.441 +3.0874733007E-001 +1.0993136404E+002  +3.9990976237E-001 +8.5933312792E+001  +4.0175396383E-001 +4.7873888365E+001  +1.8738321949E+000 +8.8840301251E+001 
5265097.622 +3.8223347891E-001 +1.2335245957E+002  +4.9032118175E-001 +1.0827405150E+002  +4.5366563760E-001 +7.1745552333E+001  +3.0570090674E+000 +9.5209753752E+001 
5390242.804 +3.7307766174E-001 +1.2171553959E+002  +3.0178160061E-001 +7.6149193024E+001  +2.6662230497E-001 +4.4444494029E+001  +1.3021842176E+000 +6.9641105421E+001 
5515387.985 +4.0367825609E-001 +1.3468369579E+002  +1.5900070480E-001 +9.9309082547E+001  +1.5102494324E-001 +6.5429266251E+001  +9.1682159006E-001 +1.0306352483E+002 
5640533.166 +4.8812012735E-001 +1.3283224283E+002  +2.0131403497E-001 +1.1224298377E+002  +2.1399587976E-001 +8.0572608967E+001  +1.2582327767E+000 +1.0583873482E+002 
5765678.348 +4.6862513336E-001 +1.3268931169E+002  +1.8497540764E-001 +9.7848209571E+001  +1.8579091347E-001 +7.5603489550E+001  +1.2093319534E+000 +9.7584087477E+001 
5890823.529 +4.5503942139E-001 +1.2080638191E+002  +3.1182542349E-001 +6.3113946411E+001  +3.2175023604E-001 +4.0446586636E+001  +1.8318795203E+000 +5.4671539814E+001 
6015968.711 +6.1878812456E-001 +1.1084505639E+002  +4.0730029187E-001 +9.4517225090E+001  +3.6171407588E-001 +6.8504499522E+001  +2.1019290066E+000 +8.9228009218E+001 
6141113.892 +6.0945745647E-001 +1.1437452552E+002  +2.9139789652E-001 +5.8453158171E+001  +2.8688237110E-001 +4.0745729001E+001  +1.3181965800E+000 +5.0595446161E+001 
6266259.074 +7.4253272618E-001 +1.0126700915E+002  +3.8165344545E-001 +5.7984067545E+001  +3.7596598372E-001 +4.5567707796E+001  +1.5724813183E+000 +5.0252986879E+001 
6391404.255 +7.2135917776E-001 +9.8241473396E+001  +2.8117207792E-001 +5.1260254105E+001  +2.8907699139E-001 +3.5842610615E+001  +9.2730181340E-001 +4.3636466576E+001 
6516549.437 +1.0687899026E+000 +8.0088305196E+001  +4.0341902642E-001 +3.5076073737E+001  +4.1961573407E-001 +2.0264440076E+001  +1.2196168053E+000 +1.3610747750E+001 
6641694.618 +9.7344910786E-001 +6.3656432552E+001  +4.0928738901E-001 +2.0731414472E+001  +3.7260393449E-001 +1.1654858862E+001  +1.2820552263E+000 +1.1442694600E+001 
6766839.800 +1.1766859130E+000 +5.9062267816E+001  +3.8838702888E-001 +2.4148490813E+001  +3.8806082226E-001 +1.3364025592E+001  +1.1282808848E+000 +1.5909980233E+001 
6891984.981 +1.2987258593E+000 +2.8861804100E+001  +4.0011027329E-001 +7.0832549662E+000  +3.9831760761E-001 -7.6749412784E-001  +1.0281241175E+000 -3.6779434414E+000 
7017130.163 +9.1060930251E-001 +2.3457622980E+001  +3.0963518111E-001 -1.0457926494E+000  +2.9757760603E-001 -1.6536683023E+000  +1.0911800799E+000 +1.9670670482E+000 
7142275.344 +1.1769691584E+000 +1.8636199146E+001  +2.9643011272E-001 +3.4601194857E+000  +3.0018804173E-001 -1.7039956368E+000  +1.2008048633E+000 -8.6185576604E+000 
7267420.526 +1.1231636052E+000 -2.0919320930E+000  +2.6463357759E-001 -6.8704282709E-001  +2.6962877833E-001 -7.0377855799E-001  +1.0472629084E+000 -1.0565081318E+001 
7392565.707 +1.1564840616E+000 -4.8770413720E-001  +2.3889810849E-001 +5.6189566652E+000  +2.2750857692E-001 +6.2387959139E+000  +9.7708224632E-001 -1.2813437905E+001 
7517710.889 +8.0527105023E-001 -3.1878784129E+000  +1.9956704704E-001 +1.8611135404E+000  +2.0361994167E-001 +4.4715463528E+000  +9.6322927496E-001 -4.0216904390E+000 
7642856.070 +7.9666077237E-001 +4.0679782159E+000  +1.9584002057E-001 +4.1171228831E-001  +1.9349125646E-001 +6.6732250292E+000  +8.8484322610E-001 -5.5479066091E-001 
7768001.252 +7.9140488775E-001 +6.6216716064E+000  +1.8689320734E-001 +1.1236513143E+000  +1.7727618375E-001 +4.7015254651E+000  +7.9214768285E-001 +5.4976054228E-001 
7893146.433 +6.9847956318E-001 +8.4225912375E+000  +1.8097752082E-001 +1.5168417682E+000  +1.8132596594E-001 +4.1703600186E+000  +7.3191770201E-001 -9.0601064521E+000 
8018291.615 +6.3658859111E-001 +1.2241155502E+001  +1.6807332066E-001 -1.5785752117E+000  +1.6903684237E-001 +5.9168742687E+000  +5.9066826736E-001 +3.3289895870E+000 
8143436.796 +6.1232263237E-001 +1.5175221763E+001  +1.6638678901E-001 -2.9482513460E+000  +1.6941227063E-001 +6.2878980155E+000  +5.6862657869E-001 +1.8014399950E+000 
8268581.977 +5.7820691771E-001 +3.9756191146E+000  +1.6674143498E-001 -3.8482973299E+000  +1.6478493139E-001 +6.6600461921E+000  +5.5776918536E-001 +2.1112209680E+000 
8393727.159 +5.3633287289E-001 +1.0550934574E+001  +1.6457551621E-001 -3.0691712111E+000  +1.6611803039E-001 +8.6705338468E+000  +6.0253784155E-001 -1.7307083317E+000 
8518872.340 +4.5452824745E-001 +8.5538729339E+000  +1.5935752885E-001 -4.7000606558E+000  +1.5792515363E-001 +7.0273814025E+000  +5.1863907713E-001 +3.0305397145E+000 
8644017.522 +4.4447884959E-001 +2.0685359936E+001  +1.4933018729E-001 -4.5960167090E+000  +1.5058680036E-001 +7.6178515367E+000  +5.0221459744E-001 +3.4710345626E+000 
8769162.703 +4.5901417822E-001 +1.0887477948E+001  +1.5770639227E-001 -4.3710184010E+000  +1.5505100529E-001 +7.9349370836E+000  +4.3914680463E-001 -2.6223282193E+000 
8894307.885 +4.1394895273E-001 +1.0471863573E+001  +1.5495730587E-001 -4.4455345911E+000  +1.5489202318E-001 +8.6455324509E+000  +4.7824996348E-001 +1.1109540644E+001 
9019453.066 +4.3805891285E-001 +1.8143633866E+001  +1.5502734440E-001 -3.1603042295E+000  +1.5230626981E-001 +1.0073055724E+001  +5.0535375002E-001 +7.9676705221E+000 
9144598.248 +4.9152347424E-001 +1.8548547821E+001  +1.4777492113E-001 -3.9259966779E+000  +1.5100017315E-001 +1.1605731948E+001  +4.3867546416E-001 +3.2640597582E+000 
9269743.429 +3.9943202085E-001 +1.5990306157E+001  +1.5149722257E-001 -4.7455494040E+000  +1.4929471727E-001 +1.0631575160E+001  +4.2134170695E-001 -1.1885246634E+000 
9394888.611 +3.5408403407E-001 +1.5249298095E+001  +1.5253130727E-001 -6.6947272876E+000  +1.4964413052E-001 +1.1101664232E+001  +4.3972149405E-001 +3.8299120646E+000 
9520033.792 +4.3352696594E-001 +7.7393195225E+000  +1.5454877099E-001 -5.2472747744E+000  +1.5547141955E-001 +1.0158083337E+001  +3.9170495964E-001 -1.2329657009E-001 
9645178.974 +3.8308117029E-001 +7.8448729626E+000  +1.5497322251E-001 -4.6656842985E+000  +1.5208372907E-001 +1.0528336833E+001  +4.2238564466E-001 -5.0259628927E+000 
9770324.155 +3.7527953634E-001 +4.1627952087E+000  +1.5523710648E-001 -4.7865880002E+000  +1.5301207896E-001 +9.8989421833E+000  +3.6167171756E-001 -3.3953120033E+000 
9895469.337 +3.7137733937E-001 +4.0750605117E+000  +1.5514670160E-001 -4.5275534533E+000  +1.5395442621E-001 +1.0419425216E+001  +3.9214190411E-001 -8.7193319347E+000 
10020614.518 +3.8849473867E-001 +7.1366600623E+000  +1.5416717416E-001 -4.3499621450E+000  +1.5263804621E-001 +1.1650122772E+001  +4.1208851190E-001 +7.8384407087E-001 
10145759.700 +3.8447088398E-001 +8.9013189108E+000  +1.5667253591E-001 -4.5662184902E+000  +1.5238531913E-001 +1.1512766789E+001  +4.1217895457E-001 +7.4536070344E-002 
10270904.881 +4.1134493714E-001 +1.0787508566E+001  +1.5433071335E-001 -2.2262032216E+000  +1.5599004653E-001 +1.2636301740E+001  +4.3782491162E-001 +3.1205933898E+000 
10396050.063 +4.2808855046E-001 +8.0717354643E+000  +1.5859934242E-001 -3.4802427695E+000  +1.5825969390E-001 +1.3612967596E+001  +4.3797909539E-001 -3.2505871907E+000 
10521195.244 +4.1989493536E-001 +8.8252369655E+000  +1.5769558840E-001 -3.5944871571E+000  +1.5763597828E-001 +1.2793718818E+001  +3.9263556631E-001 +5.7361072171E+000 
10646340.426 +4.0080185095E-001 +1.4295928608E+001  +1.5863849317E-001 -2.0304223901E+000  +1.5600809859E-001 +1.2596014955E+001  +4.0733705865E-001 +5.6730229687E+000 
10771485.607 +4.0870608428E-001 +1.3885440235E+001  +1.5905063865E-001 -1.8989382715E+000  +1.5792420661E-001 +1.3207510037E+001  +3.9891582069E-001 +1.3869928318E+000 
10896630.788 +3.8939734460E-001 +9.4807262283E+000  +1.6005377280E-001 -2.4725531686E+000  +1.6049901562E-001 +1.2168376620E+001  +4.5444559923E-001 +6.2120251746E+000 
11021775.970 +4.1411622148E-001 +1.3705069770E+001  +1.6005421216E-001 -2.0968819421E+000  +1.6128425686E-001 +1.1719671578E+001  +4.3354661276E-001 +8.9608300225E+000 
11146921.151 +4.2467277677E-001 +1.0732504548E+001  +1.6532263798E-001 -9.2199423125E-001  +1.6137710665E-001 +1.1830040762E+001  +4.6591130025E-001 +4.7477514354E+000 
11272066.333 +4.1343016271E-001 +1.4713421606E+001  +1.6335703239E-001 -2.0568030487E+000  +1.6324554189E-001 +1.1162898323E+001  +4.4214994562E-001 +2.9723440412E+000 
11397211.514 +4.5713721798E-001 +1.2042150117E+001  +1.6526922165E-001 -3.7036809743E-001  +1.6490754588E-001 +1.2653731324E+001  +5.0236541853E-001 +4.4212918845E+000 
11522356.696 +4.7262885294E-001 +7.4379797236E+000  +1.6913172337E-001 +5.1349250121E-001  +1.6741109191E-001 +1.2114200415E+001  +4.7902478571E-001 +6.5639688864E+000 
11647501.877 +4.6320417586E-001 +8.6277749832E+000  +1.7097817447E-001 -5.5949426368E-001  +1.6844916758E-001 +1.1445888699E+001  +4.7528787596E-001 +4.9229719336E+000 
11772647.059 +4.6491810852E-001 +7.9511971224E+000  +1.7223768401E-001 -1.3336439084E-001  +1.6892931999E-001 +1.0661414579E+001  +4.6945626261E-001 +4.0732855772E+000 
11897792.240 +4.9611358394E-001 +1.0781611857E+001  +1.7220558046E-001 +1.0348365469E+000  +1.7291880755E-001 +1.1166957671E+001  +5.0306745480E-001 +4.3192129181E+000 
12022937.422 +5.2708904536E-001 +8.5018887096E+000  +1.7501170294E-001 +1.7966116037E+000  +1.7408717047E-001 +1.0618259803E+001  +5.1258990544E-001 +2.8308640399E+000 
12148082.603 +5.2037683156E-001 +5.6924810740E+000  +1.7761207608E-001 +8.6319632474E-001  +1.7580331787E-001 +1.0622281748E+001  +5.0307859551E-001 +3.6350031393E+000 
12273227.785 +5.0108503812E-001 +5.7543655003E+000  +1.7979712821E-001 +1.3092504794E+000  +1.7619847538E-001 +9.9205260362E+000  +5.5856057782E-001 +3.3106546569E+000 
12398372.966 +5.4787905499E-001 +5.2234075871E+000  +1.8049263088E-001 +1.5719498585E+000  +1.7979225965E-001 +9.4797266016E+000  +5.5132728268E-001 -1.5741166684E-001 
12523518.148 +5.5605838250E-001 +5.4950132843E+000  +1.8401102015E-001 +1.3704991558E+000  +1.8200971257E-001 +8.9070693076E+000  +5.5271549358E-001 +1.1470515927E+000 
12648663.329 +5.6212033256E-001 +2.1550595751E+000  +1.8468817182E-001 +1.2075145098E+000  +1.8314729415E-001 +7.5544927488E+000  +5.4240187857E-001 +2.0025251233E+000 
12773808.511 +5.7092635618E-001 +1.1242198449E+000  +1.8734194860E-001 +1.9404344517E+000  +1.8480959100E-001 +7.8141165816E+000  +5.7411126498E-001 +5.3678166052E-001 
12898953.692 +5.9140656099E-001 +1.7627799540E+000  +1.8862029266E-001 +2.1360458634E+000  +1.8629938283E-001 +7.1677973010E+000  +5.7849386666E-001 +1.8299105809E+000 
13024098.874 +6.2416158410E-001 +2.5690391639E+000  +1.9049374356E-001 +2.0084800565E+000  +1.8929414606E-001 +7.6133001997E+000  +5.9822007946E-001 -4.0480151624E-001 
13149244.055 +6.0483872040E-001 +1.1949586697E+000  +1.9284451441E-001 +2.2401455322E+000  +1.8886249285E-001 +7.0244648204E+000  +6.3553152560E-001 +9.7212752787E-001 
13274389.237 +6.3094096589E-001 +2.6232710950E+000  +1.9230642994E-001 +2.5484779939E+000  +1.9246982576E-001 +6.4948912471E+000  +6.4455927100E-001 -9.2594652613E-001 
13399534.418 +6.4338087369E-001 +4.3764592516E-001  +1.9469803791E-001 +2.6048914837E+000  +1.9515180261E-001 +5.9494478623E+000  +6.5379695564E-001 -1.7374262210E+000 
13524679.599 +6.4170312508E-001 -1.1407976255E+000  +1.9725661491E-001 +2.1966234509E+000  +1.9383344277E-001 +5.1167973498E+000  +6.7533940278E-001 -1.3398914274E+000 
13649824.781 +6.7301317115E-001 -2.8916872065E+000  +2.0011076967E-001 +1.9076109120E+000  +1.9892708652E-001 +4.8803312122E+000  +6.9009770288E-001 -3.5278613661E+000 
13774969.962 +6.8353165266E-001 -2.7413174141E+000  +2.0221675210E-001 +2.3806493966E+000  +1.9851441404E-001 +4.5231440765E+000  +7.0784999433E-001 -2.3706952355E+000 
13900115.144 +7.0828135438E-001 -3.9780217867E+000  +2.0318614012E-001 +2.1274895954E+000  +2.0058499914E-001 +4.2288159844E+000  +7.0683465254E-001 -2.7970274692E+000 
14025260.325 +7.0779643094E-001 -3.4829351305E+000  +2.0368648587E-001 +1.9430760549E+000  +1.9936899445E-001 +3.4287358618E+000  +7.4307150318E-001 -4.0810703221E+000 
14150405.507 +7.1682008369E-001 -3.1482561739E+000  +2.0551990864E-001 +1.2428242942E+000  +2.0144581367E-001 +2.5327063873E+000  +7.4306153780E-001 -5.9043608571E+000 
14275550.688 +7.4841680546E-001 -6.3508201356E+000  +2.0776220628E-001 +1.7008189363E+000  +2.0403483795E-001 +2.1265750064E+000  +7.8649015823E-001 -4.4669010121E+000 
14400695.870 +7.4547827401E-001 -7.2838814845E+000  +2.0877798818E-001 +1.5199334096E+000  +2.0460657217E-001 +1.4635937944E+000  +7.8337550260E-001 -6.7597371513E+000 
