!  2-Port S-parameters saved by WinCal
! VAR MeasName=S-Parameters (CALIBRATED_DATA) read from VNA (P5004A)
! VAR MeasDate=29/08/2024 13:35:24
! VAR NAME=S2_r9c6_pristine_9k-100M_3
! VAR FILENAME=S2_r9c6_pristine_9k-100M_3.S2P
! VAR DATE=29/08/2024 13:35:24
! VAR PHYS_PORTS=1,2
! VAR ObjTypeName=DATASET
! VAR IndexType=Frequency
!
# Hz S MA R 50
9000.000 +8.5583551666E-002 -1.5739520213E+002  +1.4213348074E-002 -8.0999056626E+001  +6.5716144172E-003 -3.1675004754E+001  +2.6762592146E-001 -1.4431973343E+002 
134145.181 +1.1167390234E-001 +1.6934242760E+002  +8.7170622404E-005 -4.9909591636E+001  +6.9101104078E-004 +9.3745978811E+001  +2.4365191916E-001 -1.7116631696E+002 
259290.363 +1.1231058455E-001 +1.6937078703E+002  +5.9394245326E-004 +1.7764697034E+002  +1.8092215303E-003 -2.0531654317E+001  +2.4635517684E-001 -1.6732513521E+002 
384435.544 +1.1436875263E-001 +1.6978454578E+002  +4.9061465300E-004 -7.8704565751E+001  +2.8757220215E-004 +1.7392222841E+002  +2.4316439981E-001 -1.7045216078E+002 
509580.726 +1.1384567541E-001 +1.7066500953E+002  +1.4010491380E-003 -1.1754969393E+002  +1.3598343761E-003 +8.2125649254E+001  +2.5887497064E-001 -1.6801143083E+002 
634725.907 +1.1833349136E-001 +1.7189299867E+002  +1.7277932199E-003 -4.2020806533E+001  +1.5238233381E-003 +8.5228018705E+001  +2.3963914487E-001 -1.6618599924E+002 
759871.089 +1.2068423142E-001 +1.7053693287E+002  +1.3171466530E-003 -5.6304122690E+001  +1.3833841602E-003 +1.6214506060E+002  +2.4852595216E-001 -1.6679176600E+002 
885016.270 +1.2174131492E-001 +1.6921377870E+002  +6.5540675485E-004 +9.4653111950E+000  +1.0120434326E-003 +1.4501005963E+002  +2.4501668879E-001 -1.6683655000E+002 
1010161.452 +1.1902648895E-001 +1.6869300883E+002  +1.8525994233E-003 +2.3946740223E+001  +1.5462304489E-003 -1.2714671952E+002  +2.1440019267E-001 -1.7144411979E+002 
1135306.633 +1.1990859785E-001 +1.6858837717E+002  +1.6808727846E-003 +6.0021440391E+001  +2.7209492058E-003 -8.4681718834E+001  +2.0748118419E-001 -1.7041486990E+002 
1260451.815 +1.2125300127E-001 +1.7089303901E+002  +3.2205793405E-003 +3.1375728347E+001  +5.4244572699E-003 -1.4195706594E+002  +2.2325521435E-001 -1.6431415977E+002 
1385596.996 +1.2770018221E-001 +1.7217114190E+002  +3.8911671124E-003 -2.9069186023E+001  +2.7471978491E-003 +1.5811774052E+002  +2.5298554793E-001 -1.5938627998E+002 
1510742.178 +1.3073110777E-001 +1.7320104726E+002  +3.1360048507E-003 -1.9794839104E+001  +4.2980569691E-003 -1.7424978642E+002  +2.4753497950E-001 -1.6096853703E+002 
1635887.359 +1.2943447373E-001 +1.7188984832E+002  +3.7256123063E-003 +5.4901217210E+000  +2.5601076897E-003 -1.3521713728E+002  +2.4954954828E-001 -1.6282879701E+002 
1761032.541 +1.3067301180E-001 +1.7073804172E+002  +4.6807068788E-003 +3.0528004571E+001  +6.0003356327E-003 -1.1493336080E+002  +2.4832802355E-001 -1.5825770276E+002 
1886177.722 +1.2766466101E-001 +1.6808944476E+002  +8.9609716370E-003 +8.7442072321E+001  +7.7741526232E-003 -4.9468724133E+001  +2.3117085666E-001 -1.6520447614E+002 
2011322.904 +1.3071221207E-001 +1.7065994677E+002  +1.2939518459E-002 +5.9959314072E+001  +1.3473145858E-002 -7.5367572433E+001  +2.2136796931E-001 -1.6103845099E+002 
2136468.085 +1.3013371020E-001 +1.6623490511E+002  +2.5228253323E-002 +8.0152437336E+001  +2.8173480181E-002 -4.5708921738E+001  +1.6649044495E-001 -1.5947814966E+002 
2261613.267 +1.3453738363E-001 +1.6557380878E+002  +2.5192753548E-002 +9.7353640789E+001  +2.7520757482E-002 -3.3284496391E+001  +1.8560126243E-001 -1.6998139424E+002 
2386758.448 +1.3849228828E-001 +1.6640301552E+002  +2.2897927171E-002 +9.5088869813E+001  +2.4266924690E-002 -2.4012154676E+001  +2.1700730058E-001 -1.7270848043E+002 
2511903.630 +1.4018194617E-001 +1.6756242562E+002  +2.6241090502E-002 +7.7625605216E+001  +2.7525233582E-002 -3.4432999123E+001  +2.0989407970E-001 -1.6745930875E+002 
2637048.811 +1.2700672218E-001 +1.6941859487E+002  +5.5718681410E-002 +5.2258836661E+001  +5.6229837369E-002 -5.7538497490E+001  +1.4894967305E-001 -1.4591741135E+002 
2762193.992 +1.2476068174E-001 -1.7997788933E+002  +7.1370796055E-002 +1.7672983089E+001  +7.1782868496E-002 -8.7907819719E+001  +2.0479022725E-001 -1.3052730858E+002 
2887339.174 +1.4692286914E-001 +1.7943238063E+002  +6.0316030638E-002 -6.8172828618E+000  +6.1797842837E-002 -1.1505311091E+002  +2.8117193499E-001 -1.2728614718E+002 
3012484.355 +1.5925897947E-001 -1.7912819602E+002  +4.9064113401E-002 -8.9166448321E+000  +5.1550943846E-002 -1.1243122250E+002  +2.4357284708E-001 -1.3499040551E+002 
3137629.537 +1.1052037788E-001 +1.6225316622E+002  +1.0657735098E-001 +5.2634328779E+001  +1.1188502803E-001 -4.2702986595E+001  +8.7625691871E-002 -1.2722112761E+002 
3262774.718 +3.4412357657E-001 -1.6882501767E+002  +5.3316999791E-001 -7.7944544888E+001  +5.2885713388E-001 -1.7342659572E+002  +1.5955030420E+000 -1.0729022096E+002 
3387919.900 +1.0624206820E-001 +1.7967812472E+002  +1.4594426310E-001 +3.5545936980E+001  +1.5167020416E-001 -5.3047788457E+001  +8.6146958163E-002 -6.2375487850E+001 
3513065.081 +1.3850261227E-001 +1.5792310168E+002  +1.0603631932E-001 +7.6515532258E+001  +1.0281974596E-001 -4.9766343178E+000  +1.6662635652E-001 +1.5901932742E+002 
3638210.263 +1.7400645815E-001 +1.1648909829E+002  +3.4601634584E-001 +9.7005744486E+001  +3.3536393989E-001 +1.8899496090E+001  +5.7345206946E-001 +8.7132402855E+001 
3763355.444 +1.3794847892E-001 +1.4776997933E+002  +1.6220331513E-001 +8.1760987626E+001  +1.6342034377E-001 +3.4769934985E+000  +2.0926486848E-001 +1.2494839972E+002 
3888500.626 +1.4756272193E-001 +1.6147409095E+002  +9.8682063517E-002 +6.5097891121E+001  +9.7132163389E-002 -1.1203220359E+001  +1.8924928766E-001 -1.7672949953E+002 
4013645.807 +1.0413527632E-001 +1.6183948744E+002  +2.1096383186E-001 +4.6517011813E+001  +2.0335022955E-001 -2.2382437596E+001  +9.9270582914E-002 +3.5984230722E+001 
4138790.989 +1.6174778158E-001 +1.5254998273E+002  +1.4536503589E-001 +7.8637496486E+001  +1.4124273481E-001 +9.8929008711E+000  +2.1747769670E-001 +1.4791778390E+002 
4263936.170 +1.8645308530E-001 +1.5776685440E+002  +8.8693153704E-002 +7.2867471407E+001  +8.6365840078E-002 +1.0185980263E+001  +2.5994556815E-001 -1.7198214006E+002 
4389081.352 +1.6491203993E-001 +1.5252734964E+002  +1.5380354774E-001 +6.6066691602E+001  +1.4258178576E-001 +6.4911053362E+000  +1.7648133117E-001 +1.6363526061E+002 
4514226.533 +1.6813223826E-001 +1.2482639754E+002  +3.5315870062E-001 +7.9708259937E+001  +3.4144096690E-001 +2.1916243843E+001  +5.4550077921E-001 +9.4107478561E+001 
4639371.715 +2.6095044855E-001 +1.3567361680E+002  +2.7709906016E-001 +1.1599981129E+002  +2.7346606184E-001 +6.0718701028E+001  +6.5063225141E-001 +1.4324570495E+002 
4764516.896 +2.7320822964E-001 +1.2839934432E+002  +4.0117290919E-001 +1.0332492604E+002  +3.8671393243E-001 +5.1859719812E+001  +8.2214149176E-001 +1.1618142973E+002 
4889662.078 +7.2377525052E-001 +1.5137301273E+002  +9.6750863012E-001 -1.7476884234E+002  +9.2933676712E-001 +1.3673857889E+002  +2.1663232094E+000 -1.7758799153E+002 
5014807.259 +3.6944189614E-001 +1.3681861028E+002  +3.8807358338E-001 +1.3617196699E+002  +3.7410954671E-001 +8.9116508681E+001  +1.0124850387E+000 +1.5450840360E+002 
5139952.441 +2.3752116279E-001 +1.3209187270E+002  +3.4052971442E-001 +8.3877631097E+001  +3.2490700971E-001 +4.0632123469E+001  +5.7744038010E-001 +1.2186521626E+002 
5265097.622 +3.0132098828E-001 +1.2170782067E+002  +3.9275255325E-001 +9.7045822430E+001  +3.9110865513E-001 +5.8417612225E+001  +7.4671009978E-001 +1.3775812952E+002 
5390242.804 +3.1648348975E-001 +1.3792258785E+002  +2.8518745871E-001 +9.6740424187E+001  +2.7187464008E-001 +6.1076928829E+001  +6.2201206209E-001 +1.4769286631E+002 
5515387.985 +3.2629123408E-001 +1.4055262731E+002  +2.9301803756E-001 +9.9612539978E+001  +2.8418546307E-001 +6.4618456222E+001  +7.6181736387E-001 +1.4861408213E+002 
5640533.166 +3.5092102927E-001 +1.2798533500E+002  +4.1797992945E-001 +9.2477926363E+001  +4.0845274390E-001 +6.2788405384E+001  +8.5688111306E-001 +1.3638126530E+002 
5765678.348 +3.6355731450E-001 +1.3970447465E+002  +2.8431239795E-001 +9.7806633776E+001  +2.7857481417E-001 +6.9272083086E+001  +8.1621713209E-001 +1.5758510799E+002 
5890823.529 +3.6948056191E-001 +1.3395122961E+002  +4.0331558453E-001 +8.5546727017E+001  +3.9597023924E-001 +5.8996535994E+001  +8.7808253126E-001 +1.3399412594E+002 
6015968.711 +3.9134901969E-001 +1.2196841404E+002  +5.2312502858E-001 +8.1384774469E+001  +5.1149502345E-001 +5.8738313912E+001  +1.0130973524E+000 +1.2792585107E+002 
6141113.892 +3.9487668357E-001 +1.0659083489E+002  +6.7642055421E-001 +6.9766489926E+001  +6.6897189854E-001 +4.8861068434E+001  +1.0640581716E+000 +1.1070929482E+002 
6266259.074 +3.6124616218E-001 +1.1515090279E+002  +6.3060077629E-001 +6.1024211922E+001  +6.2446928442E-001 +4.2292723018E+001  +9.8023504094E-001 +1.0530580780E+002 
6391404.255 +3.1398087405E-001 +9.9387724156E+001  +7.0994900302E-001 +5.0800655835E+001  +6.9705543124E-001 +3.3653595284E+001  +8.9531725149E-001 +1.0226015199E+002 
6516549.437 +2.7974781537E-001 +1.0344069104E+002  +7.8741017121E-001 +3.8477278768E+001  +7.8307845507E-001 +2.3716312629E+001  +9.8311015866E-001 +7.3880511855E+001 
6641694.618 +3.1939060785E-001 +1.0090176663E+002  +7.5517991977E-001 +3.3778588681E+001  +7.5305288201E-001 +2.1588241900E+001  +6.6681473131E-001 +7.3796190644E+001 
6766839.800 +1.9826804996E-001 +4.4120426857E+001  +9.2514060011E-001 +1.8136777784E+001  +9.1289206635E-001 +9.2738359486E+000  +6.2688898717E-001 +5.5886352283E+001 
6891984.981 +1.2284368939E-001 +4.1505751719E+001  +9.1536156001E-001 +1.1304372409E+001  +9.0920307598E-001 +3.8313385489E+000  +5.7249929613E-001 +4.1800545854E+001 
7017130.163 +5.8626572648E-002 +1.1448604978E+001  +9.1174244148E-001 +4.2993141624E+000  +9.1435534207E-001 -1.0744173970E+000  +4.9465382820E-001 +2.2052533856E+001 
7142275.344 +9.7303244580E-002 +7.7590471508E+001  +8.7519844533E-001 +4.5261518007E+000  +8.7122121409E-001 +1.7242863689E+000  +2.2658325818E-001 +3.5670583947E+001 
7267420.526 +2.1340562622E-002 +1.6675344631E+001  +9.1726157757E-001 +5.0282740910E-001  +9.1730586398E-001 -1.3230028913E+000  +1.6401106767E-001 -1.6432518756E+000 
7392565.707 +8.8095125640E-002 +1.2543879809E+001  +9.6032001583E-001 +1.6060643512E+000  +9.6356327522E-001 +1.1391832895E+000  +1.5521605489E-001 -8.4751890667E+000 
7517710.889 +6.4584103158E-002 -8.7144691424E+001  +9.2868969191E-001 -1.2053306018E+000  +9.2959068627E-001 +1.0182311186E+000  +9.9382761253E-002 +4.0466454358E+001 
7642856.070 +1.5673575110E-001 +1.1359212671E+002  +8.6303876709E-001 -1.4768575030E+000  +8.6232878293E-001 +1.9203484970E+000  +5.8619947538E-002 +3.0743901409E+001 
7768001.252 +1.8335467232E-001 +1.3705148248E+002  +8.3291098907E-001 -3.5533497280E+000  +8.2536907198E-001 +1.2616851341E+000  +1.0157996624E-001 +1.2732836855E+002 
7893146.433 +1.3762769251E-001 +1.2994068409E+002  +8.0813611668E-001 -3.8267437521E+000  +8.0559726203E-001 +2.3701251961E+000  +2.1093427293E-001 +1.1553106131E+002 
8018291.615 +1.8620118172E-001 +1.3316524909E+002  +7.8169089634E-001 -5.1966033757E+000  +7.8653335870E-001 +2.7937738200E+000  +1.8280895704E-001 +1.4084064749E+002 
8143436.796 +2.4685908239E-001 +1.1429531782E+002  +7.5059728719E-001 -4.0206273113E+000  +7.5221353744E-001 +4.7023073321E+000  +2.1585113168E-001 +1.1614272943E+002 
8268581.977 +2.2381418277E-001 +1.1541421505E+002  +7.3712498777E-001 -5.2019363545E+000  +7.3754216231E-001 +4.6068261025E+000  +3.0110074807E-001 +1.1846836756E+002 
8393727.159 +2.3407412755E-001 +1.2213402403E+002  +7.3501548914E-001 -5.7240099841E+000  +7.2861806239E-001 +5.0665609182E+000  +2.2165836509E-001 +1.1939238408E+002 
8518872.340 +1.9340163779E-001 +1.1768435640E+002  +7.2620917501E-001 -6.1280819076E+000  +7.2285488501E-001 +5.9383450852E+000  +2.7390569698E-001 +1.2209597436E+002 
8644017.522 +2.4187836673E-001 +1.2662046535E+002  +7.0586592295E-001 -6.6604352113E+000  +7.0272828606E-001 +5.8022934901E+000  +3.1411527384E-001 +1.1859152822E+002 
8769162.703 +2.3309171764E-001 +1.3077332458E+002  +7.0343140815E-001 -7.8171949202E+000  +7.0170583930E-001 +5.3568477671E+000  +3.0855071017E-001 +1.2692225568E+002 
8894307.885 +2.6597579498E-001 +1.3106404944E+002  +6.9493151472E-001 -7.5848236364E+000  +6.8722750986E-001 +6.1433006074E+000  +2.9141560632E-001 +1.1896530450E+002 
9019453.066 +2.6074905570E-001 +1.4093481519E+002  +6.9303327390E-001 -8.7196032847E+000  +6.8656815400E-001 +5.6506464249E+000  +3.2691866555E-001 +1.2043325248E+002 
9144598.248 +2.8735589878E-001 +1.4117296147E+002  +6.9205078599E-001 -9.2812129981E+000  +6.9010765020E-001 +5.5272407211E+000  +2.5014268242E-001 +1.3482022355E+002 
9269743.429 +2.4987896151E-001 +1.4093830430E+002  +6.9150371503E-001 -8.9018987664E+000  +6.8867997830E-001 +6.1644149379E+000  +2.5308546840E-001 +1.2854072097E+002 
9394888.611 +3.0959254498E-001 +1.3770319853E+002  +6.7514250835E-001 -9.2629367237E+000  +6.7455431181E-001 +6.3622390370E+000  +2.6101514432E-001 +1.2821293651E+002 
9520033.792 +2.6164793414E-001 +1.4219077785E+002  +6.8808453177E-001 -9.0834787230E+000  +6.8276863661E-001 +6.9790116380E+000  +2.4080700161E-001 +1.2768864227E+002 
9645178.974 +2.6776531932E-001 +1.3543055763E+002  +6.8442632748E-001 -8.3445876789E+000  +6.8504095270E-001 +7.4149271329E+000  +1.9699277352E-001 +1.2914828155E+002 
9770324.155 +2.7715046957E-001 +1.4091776543E+002  +6.8021830974E-001 -9.4901839181E+000  +6.7721176924E-001 +6.5372377303E+000  +2.8468023321E-001 +1.3169399557E+002 
9895469.337 +2.4526901604E-001 +1.3717749910E+002  +6.8836485007E-001 -9.2047925077E+000  +6.8534698819E-001 +6.6948352096E+000  +2.7850937374E-001 +1.3982108836E+002 
10020614.518 +2.4606658846E-001 +1.3837513949E+002  +6.9272496812E-001 -9.0717694645E+000  +6.8556993934E-001 +6.6611656890E+000  +2.5935415541E-001 +1.4256359944E+002 
10145759.700 +2.4340136499E-001 +1.3122572968E+002  +6.8629333565E-001 -8.3862335392E+000  +6.8213093345E-001 +7.1732516749E+000  +2.8774091139E-001 +1.3547951581E+002 
10270904.881 +2.1934663309E-001 +1.3846439366E+002  +6.9423346275E-001 -8.2436659307E+000  +6.9080175833E-001 +7.3869123045E+000  +2.5329724126E-001 +1.2680616828E+002 
10396050.063 +2.6350102091E-001 +1.4155278227E+002  +6.9282323918E-001 -8.4846601265E+000  +6.8927305295E-001 +6.9215438729E+000  +2.4887289427E-001 +1.2803033817E+002 
10521195.244 +2.5166770245E-001 +1.3513450756E+002  +6.9014384000E-001 -7.7947976651E+000  +6.8742854869E-001 +7.1967495297E+000  +2.7851560964E-001 +1.2610119030E+002 
10646340.426 +2.4235127627E-001 +1.2602081455E+002  +6.9583753728E-001 -7.0267228298E+000  +6.9227648759E-001 +7.7861829922E+000  +2.4651793102E-001 +1.3005185617E+002 
10771485.607 +2.3979276272E-001 +1.3201563588E+002  +6.9594667891E-001 -7.3555895076E+000  +6.9562178637E-001 +7.0887942947E+000  +2.7857343578E-001 +1.2898872446E+002 
10896630.788 +2.5510992887E-001 +1.3143576469E+002  +7.0071014108E-001 -6.9972083038E+000  +6.9628235035E-001 +7.0390878961E+000  +2.5481193762E-001 +1.2683671796E+002 
11021775.970 +2.4574221900E-001 +1.2908551345E+002  +7.0401848300E-001 -6.6946130847E+000  +6.9792858876E-001 +7.2593095660E+000  +2.6045542286E-001 +1.1888693034E+002 
11146921.151 +2.4335707767E-001 +1.3124405319E+002  +7.0795810783E-001 -6.7011589332E+000  +7.0700559102E-001 +6.5805556661E+000  +2.7392863399E-001 +1.2935154271E+002 
11272066.333 +2.0981310371E-001 +1.2714882114E+002  +7.2296468528E-001 -6.0430002197E+000  +7.1557621244E-001 +6.8870708520E+000  +2.4191985106E-001 +1.2746482433E+002 
11397211.514 +2.3121014550E-001 +1.2818602039E+002  +7.2218559095E-001 -5.8403356631E+000  +7.1892815271E-001 +6.5517074419E+000  +2.4192391695E-001 +1.2371717724E+002 
11522356.696 +2.1513160369E-001 +1.2789537639E+002  +7.2976130662E-001 -5.4151749232E+000  +7.2758254213E-001 +6.4104193853E+000  +2.3183996546E-001 +1.2772312773E+002 
11647501.877 +2.0786606543E-001 +1.3209737403E+002  +7.3581912437E-001 -5.3776056131E+000  +7.3087776313E-001 +5.8357644962E+000  +2.4599215378E-001 +1.2283705876E+002 
11772647.059 +2.1869484746E-001 +1.2965390158E+002  +7.4225253663E-001 -5.2699840879E+000  +7.3885771025E-001 +5.7035062474E+000  +2.2886258906E-001 +1.2791757361E+002 
11897792.240 +2.2459581988E-001 +1.2915136694E+002  +7.4485750730E-001 -4.8602141325E+000  +7.3944948501E-001 +5.3707648076E+000  +2.3701786368E-001 +1.2044990606E+002 
12022937.422 +2.0263292618E-001 +1.2854794895E+002  +7.5710309551E-001 -4.3836234931E+000  +7.5332581224E-001 +5.1740746165E+000  +2.1327707299E-001 +1.2443278331E+002 
12148082.603 +2.1856544934E-001 +1.2131083959E+002  +7.5683684533E-001 -3.7795958243E+000  +7.5525597096E-001 +5.2362642635E+000  +2.0458035383E-001 +1.1966142326E+002 
12273227.785 +1.8939473256E-001 +1.3723353237E+002  +7.7255647121E-001 -4.2583120607E+000  +7.6924631365E-001 +4.2455027877E+000  +2.1412734151E-001 +1.2483756148E+002 
12398372.966 +1.7495854227E-001 +1.1758608940E+002  +7.7730468144E-001 -3.0926993610E+000  +7.7618570304E-001 +4.8353299088E+000  +1.8875679397E-001 +1.2032234035E+002 
12523518.148 +1.7010176857E-001 +1.2616640490E+002  +7.9000050871E-001 -3.2755477155E+000  +7.8447170233E-001 +4.0092911228E+000  +1.8073960745E-001 +1.2255961711E+002 
12648663.329 +1.3413676595E-001 +1.2994522809E+002  +8.0052667609E-001 -2.8054664305E+000  +7.9484613304E-001 +4.0436858739E+000  +1.7892442639E-001 +1.1782204909E+002 
12773808.511 +1.1424623202E-001 +1.2727214959E+002  +8.1397681607E-001 -2.5137288387E+000  +8.0947653771E-001 +3.6606453103E+000  +1.6081273735E-001 +1.2485378401E+002 
12898953.692 +1.5045654635E-001 +1.2583635569E+002  +8.1353113085E-001 -2.4971963116E+000  +8.0990309225E-001 +3.1760666881E+000  +1.5515706309E-001 +1.2000519685E+002 
13024098.874 +1.2558080737E-001 +1.2427574741E+002  +8.2814746055E-001 -2.1812042862E+000  +8.2182306816E-001 +2.9827431889E+000  +1.3450056263E-001 +1.2150877726E+002 
13149244.055 +1.2404202818E-001 +1.2623765526E+002  +8.3275255390E-001 -2.0537490880E+000  +8.2633575196E-001 +2.5666951967E+000  +1.5146958295E-001 +1.1799777376E+002 
13274389.237 +1.2478947550E-001 +1.1508608944E+002  +8.4048888034E-001 -1.5848960372E+000  +8.3696450768E-001 +2.4607325431E+000  +1.1596348609E-001 +1.1916247350E+002 
13399534.418 +1.2614265804E-001 +1.2687793299E+002  +8.4983066834E-001 -2.5068473996E+000  +8.4864602960E-001 +1.6433133951E+000  +9.5145847800E-002 +1.2220054168E+002 
13524679.599 +8.2902415753E-002 +1.2867946203E+002  +8.7384742793E-001 -1.5525550442E+000  +8.6151352366E-001 +1.5715162548E+000  +9.5110978359E-002 +1.1701427783E+002 
13649824.781 +9.6309893103E-002 +1.2756950845E+002  +8.7196386806E-001 -2.0937001637E+000  +8.6809062852E-001 +1.1156650287E+000  +8.0189298146E-002 +1.1120603915E+002 
13774969.962 +6.3850982945E-002 +1.1341937607E+002  +8.8522722320E-001 -7.7034215713E-001  +8.8425581281E-001 +7.0428729371E-001  +8.7994409435E-002 +1.1040740721E+002 
13900115.144 +5.3494636851E-002 +1.0355007729E+002  +8.9651674358E-001 -1.5111434731E+000  +8.9482213973E-001 +8.0489145458E-001  +6.9169170718E-002 +1.0895929944E+002 
14025260.325 +6.5469642784E-002 +1.1802536214E+002  +9.0163318053E-001 -7.1098117623E-001  +8.9340426255E-001 +5.3942807114E-001  +3.8983120603E-002 +1.2044114141E+002 
14150405.507 +4.0443553415E-002 +8.5126300338E+001  +9.0960546415E-001 -9.1720770087E-001  +9.1168575663E-001 -6.5067441313E-002  +3.9381533489E-002 +1.2667177658E+002 
14275550.688 +4.6243138133E-002 +8.7999070982E+001  +9.2235596936E-001 -2.9226701015E-001  +9.2280246514E-001 +3.1520587338E-001  +2.2986501885E-002 +9.9983971632E+001 
14400695.870 +2.1992813891E-002 +4.1571121110E+001  +9.4262035230E-001 -8.3968191411E-001  +9.2091427563E-001 -1.1238049289E-001  +2.4836407206E-002 +7.9729973247E+001 
