!  2-Port S-parameters saved by WinCal
! VAR MeasName=S-Parameters (CALIBRATED_DATA) read from VNA (P5004A)
! VAR MeasDate=29/08/2024 11:13:04
! VAR NAME=S2_r9c3_RESET2_9k-100M_1
! VAR FILENAME=S2_r9c3_RESET2_9k-100M_1.S2P
! VAR DATE=29/08/2024 11:13:04
! VAR PHYS_PORTS=1,2
! VAR ObjTypeName=DATASET
! VAR IndexType=Frequency
!
# Hz S MA R 50
9000.000 +8.2533463242E-002 -1.7135228606E+002  +7.2730170891E-003 -1.1285025654E+002  +1.4516589691E-002 +2.4924088790E+000  +2.2236821612E-001 -1.3118438868E+002 
134145.181 +1.1135920711E-001 +1.7012046455E+002  +4.6239018905E-005 -1.1753406058E+002  +2.1546031089E-004 +5.3032639671E+001  +2.3953599581E-001 -1.7098941635E+002 
259290.363 +1.1161013680E-001 +1.7036801766E+002  +5.8090255670E-004 -5.6693019867E+000  +1.2241270874E-003 +1.0700051480E+002  +2.3621214381E-001 -1.6922001358E+002 
384435.544 +1.1298158619E-001 +1.7045236750E+002  +9.1651854436E-004 -1.6681747871E+002  +1.6249736384E-003 +1.3026905671E+002  +2.4883131068E-001 -1.6972960792E+002 
509580.726 +1.1451865976E-001 +1.7026082069E+002  +6.8497871177E-004 -8.2789414429E+001  +7.9781471541E-004 +1.0113652935E+002  +2.5209068094E-001 -1.6440300724E+002 
634725.907 +1.1820364666E-001 +1.7135888115E+002  +1.3552484418E-003 -9.9805364889E+001  +5.9962756064E-004 -1.4014287461E+002  +2.5143952726E-001 -1.6562833251E+002 
759871.089 +1.2041893680E-001 +1.7104633197E+002  +4.3268008786E-004 -1.7023056329E+001  +6.1454557291E-004 +4.8739969825E+001  +2.5066132332E-001 -1.6705334149E+002 
885016.270 +1.2084188378E-001 +1.6913972831E+002  +2.4847389820E-004 -9.9813282137E+001  +4.8173853892E-004 +1.3615994913E+002  +2.4143404423E-001 -1.6521928393E+002 
1010161.452 +1.1511346145E-001 +1.7001635082E+002  +2.2742353888E-003 -7.3425617638E+001  +1.1895492389E-003 +1.1503773453E+002  +2.0801761959E-001 -1.7334207879E+002 
1135306.633 +1.1967035441E-001 +1.6902372977E+002  +1.5635970253E-003 -1.3048158972E+002  +1.6681417669E-003 -1.7443976458E+002  +1.9245445311E-001 -1.5918384947E+002 
1260451.815 +1.1866370520E-001 +1.6939444563E+002  +2.6601973948E-004 -1.7715356479E+001  +1.8565038260E-003 -3.0074464122E+001  +2.2477493278E-001 -1.5337772730E+002 
1385596.996 +1.2402444609E-001 +1.7395014495E+002  +1.8451681920E-003 -1.5316448165E+002  +2.9278102505E-004 -6.4455490625E+001  +2.6171687852E-001 -1.5858775759E+002 
1510742.178 +1.2737769126E-001 +1.7225928647E+002  +6.9028870779E-004 -7.5918558868E+000  +4.4770909521E-004 -6.1508972138E+001  +2.6629326657E-001 -1.5768727443E+002 
1635887.359 +1.2871740405E-001 +1.7066332030E+002  +2.3118917492E-003 +1.1805224726E+001  +2.3724721615E-004 +3.3341047528E+001  +2.1744414335E-001 -1.5515980899E+002 
1761032.541 +1.2887581260E-001 +1.7041410546E+002  +1.5045555024E-003 +3.9058871432E+001  +1.9532604541E-003 -1.2445688106E+002  +2.2131279000E-001 -1.6073924641E+002 
1886177.722 +1.3202396430E-001 +1.6788990913E+002  +6.9218182087E-004 -1.6726160153E+001  +2.9193876586E-003 -8.7740863824E+001  +2.1046407497E-001 -1.6235313436E+002 
2011322.904 +1.2637589029E-001 +1.6704243093E+002  +3.2807901712E-003 +8.2326301973E+001  +6.4868928524E-003 -4.4861165758E+001  +1.8741107424E-001 -1.6998945258E+002 
2136468.085 +1.3479735118E-001 +1.6691708024E+002  +6.2687302886E-003 +4.0407403500E+001  +3.6611746091E-003 -7.6939879648E+001  +2.0096638318E-001 -1.5361584389E+002 
2261613.267 +1.3486254161E-001 +1.6597181134E+002  +6.7195309574E-003 +9.1311098254E+001  +5.9937010242E-003 -2.4911411599E+001  +2.2782657852E-001 +1.7315623418E+002 
2386758.448 +1.4574456172E-001 +1.6388852082E+002  +9.5047391856E-003 +1.0796573343E+002  +6.1316402869E-003 -6.0272646283E+001  +2.0614549224E-001 -1.7890685380E+002 
2511903.630 +1.2991475069E-001 +1.6305231932E+002  +1.4329380821E-002 +7.9397452924E+001  +1.6463279810E-002 -4.4280063364E+001  +1.7080772128E-001 +1.7963222911E+002 
2637048.811 +1.3576358025E-001 +1.6664797061E+002  +3.5661906892E-002 +1.0966882361E+002  +2.5086181904E-002 +9.6475456393E+000  +4.3929451076E-001 +1.3440852031E+002 
2762193.992 +1.1485176371E-001 +1.6542520583E+002  +1.2251871806E-001 +1.6452492925E+002  +1.1550586400E-001 +6.1559757244E+001  +1.3732706297E+000 -1.7722178183E+002 
2887339.174 +1.3555305776E-001 +1.6336218735E+002  +6.1230073541E-002 -4.6895389139E+001  +6.6166717709E-002 -1.3052538631E+002  +7.7266762841E-001 -6.7973767568E+001 
3012484.355 +1.2808954358E-001 +1.7113386526E+002  +2.5908770767E-002 -3.2788783905E+001  +3.7845976184E-002 -1.2775401628E+002  +2.9612444238E-001 -9.6895790881E+001 
3137629.537 +1.1568577022E-001 +1.6522293812E+002  +2.8519731309E-002 +1.3695163608E+001  +3.2672293160E-002 -9.1953834301E+001  +1.5929988518E-001 -1.1218715490E+002 
3262774.718 +1.2155345234E-001 +1.7058195474E+002  +7.2663415414E-002 -2.6612849902E+001  +5.1260484849E-002 -1.2994017437E+002  +5.0237414435E-001 -7.2005646998E+001 
3387919.900 +1.3090707447E-001 +1.5534462763E+002  +6.8494532432E-002 +5.3496257139E+001  +4.9186480217E-002 -4.4863968420E+001  +1.7468843589E-001 +6.9961203671E+001 
3513065.081 +1.4506962541E-001 +1.5250515603E+002  +6.1817119422E-002 +7.5281373207E+001  +6.0907276803E-002 +8.1813879658E+000  +3.5393208140E-001 +1.0308581185E+002 
3638210.263 +1.6827063165E-001 +1.5430300646E+002  +3.8371537943E-002 +1.0711272513E+002  +3.1731322030E-002 +1.6517070952E+001  +4.1825625353E-001 +1.4291035754E+002 
3763355.444 +1.5139204412E-001 +1.3780738369E+002  +8.3534979792E-002 +9.2906032860E+001  +8.2125952453E-002 +1.7374672542E+000  +4.5990715944E-001 +1.0999470883E+002 
3888500.626 +1.5742543487E-001 +1.4883423801E+002  +8.5569303936E-002 +7.6286219297E+001  +8.3453777685E-002 +1.7748303714E+001  +7.7532693911E-001 +1.0494412102E+002 
4013645.807 +1.7243969114E-001 +1.5402602284E+002  +3.9604678690E-002 +9.8800118921E+001  +3.8214759009E-002 +1.6860693697E+001  +3.7871867118E-001 +1.4111397720E+002 
4138790.989 +1.9619302762E-001 +1.4758735429E+002  +6.4538313134E-002 +1.1250447847E+002  +5.8348525532E-002 +3.6055072257E+001  +6.2773340293E-001 +1.2375702125E+002 
4263936.170 +1.8299702069E-001 +1.5028612955E+002  +4.9155418877E-002 +7.2933796928E+001  +4.5751213247E-002 +2.2700542471E+001  +4.5752903302E-001 +1.2536926532E+002 
4389081.352 +1.8602484877E-001 +1.4559426652E+002  +5.3901171426E-002 +9.0758105460E+001  +5.3810206011E-002 +3.1486348731E+001  +4.4491204326E-001 +1.3373945995E+002 
4514226.533 +2.3991210817E-001 +1.2888479248E+002  +2.1314215172E-001 +1.5072905897E+002  +1.9417725603E-001 +9.4939710680E+001  +1.8597084648E+000 +1.3794120047E+002 
4639371.715 +2.4495466098E-001 +1.3504789163E+002  +1.1038292237E-001 +1.1110090811E+002  +1.1126854761E-001 +6.2397798795E+001  +1.0010368029E+000 +1.2121704433E+002 
4764516.896 +2.8499840669E-001 +1.2832695596E+002  +2.9144176366E-001 +8.7907673683E+001  +2.4655281474E-001 +3.8124214573E+001  +2.1282404804E+000 +6.5254067053E+001 
4889662.078 +2.9692933599E-001 +1.2563016297E+002  +3.0855160949E-001 -4.0611150525E+001  +3.1743051656E-001 -9.9243752414E+001  +3.1499200046E+000 -9.7272977287E+001 
5014807.259 +5.1430661659E-001 +1.3104573894E+002  +6.4062252328E-001 +1.1245680644E+002  +5.9761469300E-001 +5.9779605428E+001  +4.4211879461E+000 +5.4061192793E+001 
5139952.441 +3.7294013260E-001 +1.3716671672E+002  +1.9541254825E-001 +1.3167392587E+002  +1.6804664492E-001 +9.5254320712E+001  +1.8163786341E+000 +1.1055440800E+002 
5265097.622 +2.9990197412E-001 +1.3585167636E+002  +1.5407867857E-001 +8.4744077885E+001  +1.6573624941E-001 +4.5326896869E+001  +1.6479598727E+000 +8.4421552924E+001 
5390242.804 +3.8273406598E-001 +1.2848848811E+002  +1.5463077444E-001 +9.3032754129E+001  +1.4302681720E-001 +5.5815379994E+001  +1.0488334742E+000 +9.1925700669E+001 
5515387.985 +4.0801301273E-001 +1.3843959415E+002  +1.2940127854E-001 +1.0129919269E+002  +1.1551316079E-001 +6.9501255111E+001  +1.2462517557E+000 +9.2613070589E+001 
5640533.166 +4.1266500134E-001 +1.2999215881E+002  +1.8931992448E-001 +8.8193423241E+001  +1.6490998135E-001 +5.9084569237E+001  +1.9988492392E+000 +8.5556804911E+001 
5765678.348 +4.9058199187E-001 +1.2760028720E+002  +2.3658025193E-001 +7.6157180940E+001  +2.0722215972E-001 +5.6121922560E+001  +2.0399166237E+000 +6.5443391835E+001 
5890823.529 +4.7283550418E-001 +1.1933415387E+002  +1.5608257671E-001 +5.2957709180E+001  +1.4962196216E-001 +3.7842557371E+001  +9.6391010201E-001 +5.4286062852E+001 
6015968.711 +5.9832961635E-001 +1.2161657422E+002  +1.8248847529E-001 +7.8035610265E+001  +1.8075342765E-001 +5.8017459366E+001  +1.4388825591E+000 +6.6476649117E+001 
6141113.892 +5.4527476653E-001 +1.1484129318E+002  +3.1503489389E-001 +7.4327801769E+001  +2.7503875664E-001 +6.3245626168E+001  +3.2099337409E+000 +7.6639323721E+001 
6266259.074 +7.5360407711E-001 +1.0697192107E+002  +2.6679641677E-001 +6.8589645563E+001  +2.5246313935E-001 +4.7627960790E+001  +1.8892294535E+000 +5.3676149194E+001 
6391404.255 +6.2165379822E-001 +7.9308580340E+001  +2.4300658524E-001 +2.2345794314E+001  +2.4691926427E-001 +8.5126697153E+000  +1.2246519055E+000 +2.1672059987E+001 
6516549.437 +9.0309318575E-001 +7.8457044693E+001  +2.4159116045E-001 +2.7016358607E+001  +2.4701816329E-001 +1.2481009357E+001  +1.0850100560E+000 +1.0607296678E+001 
6641694.618 +1.0792752349E+000 +7.0834362875E+001  +2.9569613327E-001 +2.9703854663E+001  +2.8804123117E-001 +2.1851584363E+001  +1.5243138214E+000 +2.1566990863E+001 
6766839.800 +1.3839200765E+000 +4.9386029548E+001  +3.0503207419E-001 +1.9482760591E+001  +2.7461331635E-001 +7.7297182111E+000  +1.1248335269E+000 +4.7481909521E+000 
6891984.981 +1.3552986464E+000 +3.9509064440E+001  +2.8196371294E-001 +1.0313926065E+001  +2.5769644889E-001 +3.2525673471E+000  +1.1916305506E+000 -1.6654269451E+000 
7017130.163 +1.4840271766E+000 +2.5050615929E+001  +2.5146465573E-001 +1.9430840386E+000  +2.4689335277E-001 -1.3381253988E+000  +1.1751929377E+000 -5.1223622577E+000 
7142275.344 +1.2844930707E+000 +6.7399817605E+000  +2.1410483461E-001 -3.2893770512E+000  +2.0560017306E-001 -4.9837283998E+000  +1.0761892869E+000 -1.1639983364E+001 
7267420.526 +1.3451464241E+000 +4.3012435431E+000  +1.8223606652E-001 -3.0611521796E+000  +1.7959040964E-001 +1.9507019027E+000  +1.0931635193E+000 -6.8394161546E+000 
7392565.707 +1.0310223977E+000 -3.6277762437E-002  +1.4429169556E-001 +4.6567441378E+000  +1.5103241420E-001 +4.1528317956E+000  +1.1169741123E+000 -8.9272160911E+000 
7517710.889 +9.1043326258E-001 -1.0619409554E+000  +1.3412574769E-001 +3.9532348800E+000  +1.3335426870E-001 +2.9831741137E+000  +1.1189307591E+000 -6.8281866306E+000 
7642856.070 +9.0804131134E-001 +4.3940962259E+000  +1.2896316994E-001 +1.7988033170E+000  +1.3259830160E-001 +5.4599072180E+000  +9.8342780699E-001 -3.8260454081E+000 
7768001.252 +8.5216392437E-001 +7.4010065136E+000  +1.2085281402E-001 +2.7639726982E+000  +1.2045526710E-001 +8.5448429075E+000  +8.6239727898E-001 -1.1134420887E+001 
7893146.433 +7.1548202516E-001 +3.5260159803E+000  +1.2197713948E-001 -6.4981926389E-002  +1.2129086358E-001 +5.8656702869E+000  +7.3973342841E-001 +1.6904932420E+000 
8018291.615 +6.9621140805E-001 +6.1285345127E+000  +1.1065309909E-001 +2.5731456964E+000  +1.0909603044E-001 +5.2248583285E+000  +7.1618516629E-001 +1.8543268911E+000 
8143436.796 +5.8413348372E-001 +1.5545269691E+001  +1.0725638149E-001 -1.6832427841E+000  +1.0806208339E-001 +5.1500834820E+000  +7.1446130313E-001 +2.3114160465E+000 
8268581.977 +5.6951529449E-001 +1.6136386622E+001  +1.0764428917E-001 -2.2482029332E+000  +1.0663825968E-001 +3.7975775594E+000  +6.2790238092E-001 -1.1074821988E+000 
8393727.159 +5.7626982948E-001 +8.5427347993E+000  +1.0541570589E-001 -2.0144014966E+000  +1.0432895180E-001 +6.5907401138E+000  +6.4591114779E-001 -2.9724627837E+000 
8518872.340 +5.0878285895E-001 +5.9012654304E+000  +1.0600849240E-001 -2.9448418793E+000  +1.0470261042E-001 +7.9811461489E+000  +5.6861695397E-001 +6.8109854586E+000 
8644017.522 +5.0816622057E-001 +1.4409430578E+001  +1.0281062711E-001 -4.1058686093E+000  +1.0274239385E-001 +7.5342559219E+000  +5.4483632810E-001 +6.4142293375E+000 
8769162.703 +5.3903225941E-001 +5.6704455580E+000  +9.9383953167E-002 -4.4053041787E+000  +1.0232705587E-001 +7.4687018279E+000  +5.4898167489E-001 +7.4094595460E-001 
8894307.885 +5.3214598186E-001 +1.2263211743E+001  +1.0086165172E-001 -2.1508879763E+000  +1.0139999650E-001 +7.2336721467E+000  +4.8942113827E-001 +1.2775648931E+000 
9019453.066 +5.4153742073E-001 +1.0100290266E+001  +1.0029508347E-001 -3.1591578928E+000  +9.8338030432E-002 +1.0087517214E+001  +5.5466445992E-001 +4.5942829764E+000 
9144598.248 +3.9606195370E-001 +1.0241119041E+001  +1.0021970025E-001 -5.6700143350E+000  +1.0091570863E-001 +6.9898976642E+000  +4.5185851665E-001 -5.5910434114E-001 
9269743.429 +4.5671725670E-001 +8.0326641356E+000  +1.0095899128E-001 -3.8715031749E+000  +1.0130972494E-001 +9.9101965744E+000  +5.0650975051E-001 -5.3997742362E+000 
9394888.611 +4.4449868359E-001 +1.1947366070E+001  +1.0200364996E-001 -3.8642288911E+000  +9.9215905721E-002 +1.2604500214E+001  +5.0350648257E-001 -3.4625289784E-003 
9520033.792 +4.5532105230E-001 +1.0345524561E+001  +1.0034675532E-001 -2.5290566498E+000  +9.7358453299E-002 +1.2487613463E+001  +4.5214517976E-001 -3.9684610818E+000 
9645178.974 +4.5255474286E-001 +5.6420033625E+000  +1.0046709523E-001 -2.2938626168E+000  +1.0076610400E-001 +1.1631224427E+001  +4.8631606828E-001 -4.4079141959E+000 
9770324.155 +3.8742411337E-001 +2.2027101129E-001  +1.0125257550E-001 -5.8511752028E+000  +1.0160491274E-001 +1.2722277374E+001  +4.8633980772E-001 -6.6414490306E+000 
9895469.337 +4.2468547272E-001 +1.7879607502E+000  +1.0248740904E-001 -5.4618427829E+000  +1.0183445467E-001 +1.1052617336E+001  +4.7293432261E-001 -4.8822535276E+000 
10020614.518 +4.4743399962E-001 +3.0727940854E+000  +1.0091753914E-001 -2.7209548631E+000  +1.0214497214E-001 +1.3173063315E+001  +4.6345660021E-001 -3.3046389390E+000 
10145759.700 +4.3858847664E-001 +1.1453594374E+001  +1.0310427416E-001 -3.5508343466E+000  +1.0057477614E-001 +1.2951713519E+001  +4.6975598007E-001 -1.6090313401E+000 
10270904.881 +4.3691191296E-001 +6.5942041180E+000  +1.0308399701E-001 -3.0983671318E+000  +1.0507562333E-001 +1.1797714580E+001  +4.6938398207E-001 -2.6610706481E+000 
10396050.063 +4.5188072706E-001 +9.4628421723E+000  +1.0350022555E-001 -4.1717473429E+000  +1.0529238371E-001 +1.2742697786E+001  +5.0346056706E-001 -2.5957179672E-001 
10521195.244 +4.3630066750E-001 +1.1584777181E+001  +1.0457345278E-001 -1.7009092185E+000  +1.0003105903E-001 +1.3084029970E+001  +4.7697531844E-001 +5.8302982251E+000 
10646340.426 +4.5583182772E-001 +1.0749232291E+001  +1.0046430245E-001 -1.7063666738E+000  +1.0266922506E-001 +1.2313761211E+001  +4.8580900688E-001 +6.3219430589E-001 
10771485.607 +4.6636646424E-001 +9.6553554741E+000  +1.0519600489E-001 -4.2299495263E-001  +1.0345473769E-001 +1.2873106008E+001  +4.8567912345E-001 +2.2622323691E+000 
10896630.788 +4.7754723286E-001 +6.4489046741E+000  +1.0495311183E-001 -1.9294169218E+000  +1.0676914387E-001 +1.3091431137E+001  +5.2296617274E-001 +4.8958220670E+000 
11021775.970 +4.8402107298E-001 +8.9078346395E+000  +1.0997033242E-001 -1.1675042270E+000  +1.0896850472E-001 +1.0572363855E+001  +4.9121638332E-001 +9.3224847464E-001 
11146921.151 +5.2603225997E-001 +9.8235190143E+000  +1.0696115256E-001 -4.2127484229E-002  +1.0832830441E-001 +1.2140024513E+001  +4.9879480590E-001 +5.0582613838E+000 
11272066.333 +5.3177631904E-001 +1.0860013520E+001  +1.0882887117E-001 -7.6613827395E-001  +1.0736018603E-001 +1.1946506626E+001  +5.2292164965E-001 +4.3867654090E+000 
11397211.514 +5.0507364543E-001 +8.1255289381E+000  +1.0896337975E-001 -8.5419800213E-001  +1.0839415117E-001 +1.1620408749E+001  +5.0385134748E-001 +5.6790461361E+000 
11522356.696 +4.9007990670E-001 +8.7596023873E+000  +1.1123868285E-001 +2.1311256123E-001  +1.1004735335E-001 +1.1837625200E+001  +5.2499409585E-001 +3.7435166107E+000 
11647501.877 +5.5836857797E-001 +1.2205013751E+001  +1.1241093952E-001 +5.2770063379E-001  +1.0980135362E-001 +1.2163551666E+001  +5.5616925896E-001 +1.4328889675E+000 
11772647.059 +5.4397738937E-001 +1.0199664750E+001  +1.1404271475E-001 +4.4326702289E-001  +1.1061314872E-001 +1.2425269259E+001  +5.7796368269E-001 +5.0442097628E+000 
11897792.240 +5.4211310300E-001 +8.8137428996E+000  +1.1360537121E-001 +8.8058614427E-001  +1.1266494697E-001 +1.1062617745E+001  +5.4422462358E-001 +3.9153036687E+000 
12022937.422 +5.4472919074E-001 +5.8687596117E+000  +1.1763333389E-001 +3.6582174967E-001  +1.1442797797E-001 +1.0735345824E+001  +5.6360341976E-001 +2.4121327269E+000 
12148082.603 +5.9332733757E-001 +8.1441859454E+000  +1.1562573224E-001 +1.2927591026E+000  +1.1340332279E-001 +1.1231309766E+001  +5.6080855402E-001 +4.3887271758E+000 
12273227.785 +5.8243017519E-001 +6.5499929502E+000  +1.1804291073E-001 +1.8619680105E+000  +1.1879809797E-001 +8.7374548418E+000  +6.1361514614E-001 +1.2071640990E+000 
12398372.966 +6.0085371776E-001 +4.9063045728E+000  +1.2032211400E-001 +1.8289130056E+000  +1.1975160828E-001 +1.0369832351E+001  +6.0923547320E-001 +1.0578677804E+000 
12523518.148 +6.0693748491E-001 +4.5375199636E+000  +1.2147982521E-001 +1.9040283893E+000  +1.2106364661E-001 +8.8779286719E+000  +6.0376710895E-001 -1.1474311163E+000 
12648663.329 +6.2225698285E-001 +4.3500930348E+000  +1.2195434108E-001 +2.9772544670E+000  +1.2157357098E-001 +9.8759424390E+000  +6.4082034751E-001 +1.2748894707E+000 
12773808.511 +6.2247131726E-001 +2.7979591291E+000  +1.2400262389E-001 +1.7059128148E+000  +1.2280736228E-001 +8.1405764239E+000  +6.4588146514E-001 -9.8148758313E-001 
12898953.692 +6.5050534185E-001 +2.0077047950E+000  +1.2468760109E-001 +2.0900734571E+000  +1.2370896587E-001 +7.4889770643E+000  +6.5129792195E-001 -7.7163109377E-001 
13024098.874 +6.6756243827E-001 +1.0936462372E+000  +1.2730027086E-001 +2.5636966608E+000  +1.2435098283E-001 +7.2107267497E+000  +6.6457745542E-001 -1.2568543012E+000 
13149244.055 +6.7842134666E-001 -1.4667748546E+000  +1.2809323277E-001 +2.7959946212E+000  +1.2660333419E-001 +7.0618424769E+000  +7.0540493969E-001 -1.0166589832E+000 
13274389.237 +7.0976772774E-001 -9.5914636641E-001  +1.2811503896E-001 +2.3139748468E+000  +1.2652690758E-001 +7.1923160810E+000  +7.0981044669E-001 -2.2905722081E+000 
13399534.418 +7.1652925539E-001 -2.1329688865E+000  +1.2898192480E-001 +2.3678249997E+000  +1.2904713407E-001 +5.7420635544E+000  +7.1343605057E-001 -1.6984633991E+000 
13524679.599 +7.3759866484E-001 -1.6652239526E+000  +1.3320651933E-001 +1.6374099464E+000  +1.2941495462E-001 +5.1647992374E+000  +7.2511625133E-001 -8.1076769531E-001 
13649824.781 +7.6317292528E-001 -1.5249945053E+000  +1.3198901247E-001 +2.5705115420E+000  +1.3107422830E-001 +5.3948428125E+000  +7.4954389195E-001 -3.5506369733E+000 
13774969.962 +7.6326174868E-001 -2.1106000791E+000  +1.3187415784E-001 +2.9467570868E+000  +1.3143499443E-001 +4.1114055247E+000  +7.6364612795E-001 -2.4777544076E+000 
13900115.144 +7.8701290982E-001 -2.9420754077E+000  +1.3337039680E-001 +2.2928724521E+000  +1.3051696206E-001 +3.4428554395E+000  +7.6767442658E-001 -2.2840859371E+000 
14025260.325 +7.7966623358E-001 -3.6614347125E+000  +1.3295346501E-001 +1.6353290289E+000  +1.3194727906E-001 +3.0969435010E+000  +7.8921821516E-001 -2.1566054376E+000 
14150405.507 +8.0851637452E-001 -2.9285277750E+000  +1.3398819658E-001 +2.1366693314E+000  +1.3249313901E-001 +2.4238444896E+000  +7.9945161480E-001 -4.3904821236E+000 
14275550.688 +8.2462395315E-001 -4.9709890823E+000  +1.3608647728E-001 +2.2135882357E+000  +1.3544289171E-001 +2.3745207121E+000  +8.4026362055E-001 -4.3286495439E+000 
14400695.870 +8.3092005204E-001 -6.8193999765E+000  +1.3621006210E-001 +1.4938031050E+000  +1.3464290059E-001 +1.7280090394E+000  +8.6397802243E-001 -5.2661623987E+000 
