!  2-Port S-parameters saved by WinCal
! VAR MeasName=S-Parameters (CALIBRATED_DATA) read from VNA (P5004A)
! VAR MeasDate=29/08/2024 10:11:17
! VAR NAME=S2_r9c1_SET1_9k-100M_1
! VAR FILENAME=S2_r9c1_SET1_9k-100M_1.S2P
! VAR DATE=29/08/2024 10:11:17
! VAR PHYS_PORTS=1,2
! VAR ObjTypeName=DATASET
! VAR IndexType=Frequency
!
# Hz S MA R 50
9000.000 +8.8776150805E-002 -1.7530695316E+002  +3.9661180764E-004 -1.4404051300E+001  +8.5205948286E-003 -4.8778405894E+000  +2.4755681704E-001 -1.5149663678E+002 
134145.181 +1.1132365109E-001 +1.6951944142E+002  +3.2401899588E-004 -1.4799452515E+002  +8.0614773425E-004 +5.6480350372E+001  +2.3869350572E-001 -1.7095592487E+002 
259290.363 +1.1236188370E-001 +1.6991526595E+002  +3.8851207924E-004 +8.6349372410E+001  +1.5549215493E-003 +8.4496871325E+001  +2.4158706526E-001 -1.7022621423E+002 
384435.544 +1.1441564568E-001 +1.7026263054E+002  +6.4018690230E-004 -8.3537549056E+001  +2.6493491603E-004 +1.5643695824E+002  +2.4624763212E-001 -1.6992159825E+002 
509580.726 +1.1229610031E-001 +1.7130563528E+002  +1.0468430369E-003 -7.9190733658E+001  +2.7933176924E-003 -1.5899063767E+002  +2.3098539428E-001 -1.6328217075E+002 
634725.907 +1.1695255912E-001 +1.7147732084E+002  +1.8936467637E-003 -7.2835935872E+001  +1.5894916940E-003 +5.9306917351E+001  +2.4959293944E-001 -1.6614427251E+002 
759871.089 +1.1873599642E-001 +1.7029730419E+002  +4.7470198520E-004 -3.5952836481E+001  +1.6111595762E-003 +1.2386122676E+002  +2.5120509313E-001 -1.6725418806E+002 
885016.270 +1.2108533657E-001 +1.6888821479E+002  +7.9150816905E-004 -2.6317165587E+001  +3.2639914255E-004 +6.4264138840E+001  +2.4751573937E-001 -1.6656161099E+002 
1010161.452 +1.1723781696E-001 +1.6948205626E+002  +1.3910837710E-003 +8.5644313260E+000  +8.0432308273E-004 -1.5445410947E+002  +2.1324677334E-001 -1.7072706401E+002 
1135306.633 +1.1452473506E-001 +1.6659464561E+002  +2.6801762033E-003 -3.8581730501E+001  +1.5753226978E-003 +1.5399926426E+002  +1.9959022029E-001 -1.6598385145E+002 
1260451.815 +1.1663882101E-001 +1.7028898459E+002  +2.0499851639E-003 -1.0261340195E+002  +1.0048795525E-003 +9.8648532161E+001  +2.3527109640E-001 -1.5801365136E+002 
1385596.996 +1.2467064653E-001 +1.7331735770E+002  +2.8218040623E-003 -9.9596238862E+001  +2.8891177210E-003 +9.7197755567E+001  +2.6409735002E-001 -1.5458636077E+002 
1510742.178 +1.2819780757E-001 +1.7208595285E+002  +1.0378585420E-003 -6.5090550895E+001  +2.1939831641E-003 +1.6705181323E+002  +2.5360029630E-001 -1.5985746468E+002 
1635887.359 +1.2649714763E-001 +1.7068339217E+002  +2.0980155584E-003 -1.4987587459E+001  +1.2315967818E-003 -1.4096094091E+002  +2.3996020167E-001 -1.5684130084E+002 
1761032.541 +1.3099367186E-001 +1.7119833287E+002  +1.2851118211E-003 +4.2921173107E+001  +2.2759850969E-003 -9.6967658360E+001  +2.5428037246E-001 -1.5808684228E+002 
1886177.722 +1.3334542804E-001 +1.6836943815E+002  +1.3305137497E-003 +4.4849591652E+001  +2.7066011582E-003 -8.5407523440E+001  +2.0987936428E-001 -1.6315368941E+002 
2011322.904 +1.3175739502E-001 +1.6618884389E+002  +6.2182603242E-003 +7.1435128957E+001  +5.2116889413E-003 -7.1186765473E+001  +1.8949249082E-001 -1.6035767988E+002 
2136468.085 +1.3490035968E-001 +1.6534267106E+002  +7.4449268272E-003 +9.2782877475E+001  +7.7115062369E-003 -4.3045482154E+001  +1.9701390207E-001 -1.7496374341E+002 
2261613.267 +1.3157258924E-001 +1.6557364014E+002  +8.0797355877E-003 +6.0774923230E+001  +1.0357891234E-002 -6.3181911342E+001  +1.8829171659E-001 -1.6407706418E+002 
2386758.448 +1.3423182674E-001 +1.6579129909E+002  +5.7471829148E-003 +9.7000726553E+001  +6.1481677306E-003 -3.4831775925E+001  +2.4074633449E-001 -1.7189959457E+002 
2511903.630 +1.3309802247E-001 +1.6177470235E+002  +1.2150180898E-002 +8.7666176249E+001  +9.7187741356E-003 -3.2144731779E+001  +2.2137202608E-001 -1.7110227742E+002 
2637048.811 +1.2697860449E-001 +1.7072861335E+002  +5.0109428953E-002 +6.1053546642E+001  +3.9966717670E-002 -5.7730124412E+001  +9.8777240782E-002 +1.0725411944E+002 
2762193.992 +1.2660071256E-001 +1.7402684326E+002  +5.0905035388E-002 -8.3853427726E-001  +6.0864779056E-002 -1.0800598109E+002  +1.2228372937E-001 -7.3430067165E+001 
2887339.174 +1.4658826339E-001 +1.7426319546E+002  +9.6752591887E-002 -4.6959997682E+001  +1.0029058858E-001 -1.5464432357E+002  +6.3353488359E-001 -5.9783886214E+001 
3012484.355 +1.2133113590E-001 +1.7889154576E+002  +3.8676643936E-002 -8.4475775863E+000  +3.5731699778E-002 -1.0441310038E+002  +1.0427007330E-001 -1.5620466678E+002 
3137629.537 +1.2081390653E-001 +1.6823245925E+002  +1.1881024139E-001 -1.3860872234E-001  +1.2889033035E-001 -8.1721546844E+001  +5.5931272030E-001 -2.2145936883E+001 
3262774.718 +1.4404898290E-001 +1.7231215123E+002  +5.2160492299E-002 +1.7280720185E+001  +5.5465848152E-002 -8.6879451480E+001  +1.6971322995E-001 +1.3796452563E+001 
3387919.900 +1.3523718446E-001 +1.6321118560E+002  +6.1997805099E-002 +5.2117797031E+001  +5.8592130919E-002 -3.1822265654E+001  +1.7868446745E-001 +7.7530199147E+001 
3513065.081 +1.4060785667E-001 +1.5869271874E+002  +5.0680698566E-002 +4.0143842676E+001  +4.9429514422E-002 -3.4047155701E+001  +9.1805803581E-002 +1.1898433972E+002 
3638210.263 +1.7674074241E-001 +1.4710647106E+002  +5.1525112048E-002 +1.1254931093E+002  +3.7433083657E-002 +2.4763477170E+001  +3.5001493840E-001 +1.4266771326E+002 
3763355.444 +1.6110167386E-001 +1.4980515589E+002  +6.5930156697E-002 +7.7953064164E+001  +5.6296092261E-002 +3.0620882488E+000  +2.3510599921E-001 +1.1785997450E+002 
3888500.626 +1.8815742232E-001 +1.5512741209E+002  +5.7151841348E-002 +1.0318059230E+002  +5.0104997790E-002 +2.2289127965E+001  +4.3697819494E-001 +1.2582304661E+002 
4013645.807 +1.6234314879E-001 +1.5648416979E+002  +7.9462365093E-002 +5.2884350827E+001  +7.9446013398E-002 -2.0904285620E+001  +2.6884524871E-001 +6.8437663885E+001 
4138790.989 +2.0504889073E-001 +1.4753399899E+002  +6.3316150409E-002 +9.9021202587E+001  +6.6336030892E-002 +3.2728947772E+001  +3.8834817161E-001 +1.2411000234E+002 
4263936.170 +1.6970368496E-001 +1.4810749121E+002  +6.1055613864E-002 +8.4662605943E+001  +7.5122067466E-002 +1.6453887254E+001  +3.9815645941E-001 +1.3455053316E+002 
4389081.352 +1.9841464730E-001 +1.5077087556E+002  +7.8492976633E-002 +9.7187761237E+001  +7.0819263328E-002 +4.5343541021E+001  +6.1108570063E-001 +1.3520845145E+002 
4514226.533 +2.1302121302E-001 +1.4715254057E+002  +1.0030730475E-001 +9.2759594343E+001  +1.0353883894E-001 +3.1486032470E+001  +6.5520644759E-001 +1.0611421028E+002 
4639371.715 +2.8706901172E-001 +1.4103994156E+002  +1.0362217544E-001 +1.2584771606E+002  +1.0131068544E-001 +7.6469803996E+001  +7.4245881079E-001 +1.3146807846E+002 
4764516.896 +2.6474624279E-001 +1.2652142514E+002  +1.6611176988E-001 +5.5209267420E+001  +1.4294692475E-001 +5.1758739757E+000  +4.1649931035E-001 +1.3372301238E+001 
4889662.078 +3.7115713998E-001 +1.4397427301E+002  +5.5513705783E-001 -1.7714461974E+002  +5.3238168959E-001 +1.3955584995E+002  +4.2091167336E+000 +1.5188992320E+002 
5014807.259 +3.8229074117E-001 +1.0738196656E+002  +7.2212547473E-001 +7.9317011487E+001  +6.5681096949E-001 +3.3972373984E+001  +3.2493048474E+000 +5.3413335746E+001 
5139952.441 +4.2376103432E-001 +1.2832797997E+002  +4.5260608380E-001 +1.4727411610E+002  +4.4363118193E-001 +1.0820961811E+002  +2.6628462208E+000 +1.3010504797E+002 
5265097.622 +3.3690220438E-001 +1.2461094313E+002  +4.3867393986E-001 +1.1359795673E+002  +3.7467135318E-001 +7.4815341297E+001  +2.8401668680E+000 +1.0995491137E+002 
5390242.804 +3.2628208087E-001 +1.2469148207E+002  +1.8528578422E-001 +7.8965085751E+001  +1.8608604886E-001 +4.0774883866E+001  +8.2122392569E-001 +8.7792564052E+001 
5515387.985 +4.3127118018E-001 +1.3729327566E+002  +2.0240158559E-001 +1.2250312298E+002  +1.9853132219E-001 +8.9147568135E+001  +1.6444444640E+000 +1.1703697078E+002 
5640533.166 +4.6263393830E-001 +1.3168764991E+002  +1.5249036413E-001 +1.0792629667E+002  +1.5249141321E-001 +7.6575072025E+001  +9.4821228963E-001 +1.1129122048E+002 
5765678.348 +4.3562689072E-001 +1.3041491516E+002  +1.7317024114E-001 +7.9876758908E+001  +1.6488347296E-001 +5.3588390936E+001  +8.8170850567E-001 +8.8582464890E+001 
5890823.529 +4.5927973842E-001 +1.2659025465E+002  +2.1869253549E-001 +9.6906329593E+001  +1.9244968625E-001 +7.0133233258E+001  +1.5449294458E+000 +1.0989105063E+002 
6015968.711 +5.3524144644E-001 +9.9650931525E+001  +3.4567661996E-001 +7.7468784190E+001  +3.3762874287E-001 +5.8441219231E+001  +1.6090203727E+000 +9.4044304905E+001 
6141113.892 +5.6504466547E-001 +1.1676303586E+002  +2.7279869097E-001 +6.0862628021E+001  +2.6011445403E-001 +4.1668709813E+001  +1.3552859680E+000 +5.4497283940E+001 
6266259.074 +6.5629776880E-001 +1.0190704101E+002  +3.9525216544E-001 +5.5903100568E+001  +3.7722280445E-001 +3.5812084102E+001  +1.9050986771E+000 +4.9133054423E+001 
6391404.255 +7.7834452851E-001 +8.2807198907E+001  +4.3428617938E-001 +3.6311568737E+001  +4.0365272861E-001 +1.5303586258E+001  +1.5718032933E+000 +2.2673587393E+001 
6516549.437 +8.5168634288E-001 +5.8581549673E+001  +4.8194094918E-001 +2.4486664618E+001  +4.8362937081E-001 +9.7612909272E+000  +1.6510954361E+000 +2.5210235697E+001 
6641694.618 +1.1351610486E+000 +7.1126429604E+001  +4.0089379885E-001 +3.2527501011E+001  +3.9217403511E-001 +2.0900561741E+001  +1.2188932136E+000 +2.0964842359E+001 
6766839.800 +1.1209612634E+000 +5.7899444134E+001  +3.5938522913E-001 +2.2618844149E+001  +3.7074332455E-001 +1.5223135548E+001  +9.9818256566E-001 +1.5414244579E+001 
6891984.981 +1.1137900737E+000 +3.3249508935E+001  +3.9235393033E-001 +4.7465501957E+000  +3.7750299375E-001 -1.4855719642E+000  +1.2412841574E+000 +6.3486594621E-001 
7017130.163 +1.2640082668E+000 +3.1146500141E+001  +3.4240602607E-001 +5.1106236849E+000  +3.3329239647E-001 +2.3885062179E+000  +1.1970105592E+000 -6.2259248246E+000 
7142275.344 +1.2168267530E+000 +5.1253134711E+000  +2.9986592256E-001 +5.6586436700E-001  +3.0073509988E-001 -3.8752555632E+000  +1.0802989808E+000 -5.8271683861E-001 
7267420.526 +1.1467963527E+000 -5.0661581498E-001  +2.6418390490E-001 +1.5603667091E-001  +2.4595551662E-001 -3.8700542345E+000  +1.1354529236E+000 -1.5054600356E+001 
7392565.707 +1.0541846589E+000 -1.1355969650E+000  +2.2478205685E-001 +5.3051833544E+000  +2.1243908465E-001 +3.6097542264E+000  +1.1995298779E+000 -1.2917926261E+001 
7517710.889 +8.8000036204E-001 +4.8555517398E-001  +1.9554396604E-001 +1.6811430262E+000  +2.1038444913E-001 +6.1473904539E+000  +1.0228376449E+000 -5.9515667966E+000 
7642856.070 +6.3070268462E-001 +6.7147814060E+000  +1.8701293745E-001 +1.1447333593E+000  +1.8574995466E-001 +3.3861824878E+000  +8.8168971377E-001 -5.4051846115E+000 
7768001.252 +7.8667098159E-001 +4.4802307342E+000  +1.8528393674E-001 +7.3658903415E-001  +1.7784305016E-001 +5.5131777728E+000  +8.1954374950E-001 -4.1002993170E+000 
7893146.433 +7.1209112149E-001 +2.8274132071E+000  +1.7173040345E-001 +3.7458298166E-001  +1.6974220658E-001 +8.3361501838E+000  +7.1109351521E-001 +4.4558196417E+000 
8018291.615 +6.2543388896E-001 +1.4307675593E+001  +1.7395999391E-001 -1.7480047850E+000  +1.6760737953E-001 +7.9435333187E+000  +7.4563364782E-001 -6.9658178951E+000 
8143436.796 +6.3136465354E-001 +1.1259878886E+001  +1.6084232735E-001 -2.1876352671E+000  +1.6076885012E-001 +6.7569714542E+000  +5.6399004487E-001 +6.1072551518E+000 
8268581.977 +6.6555300900E-001 +1.3141477312E+001  +1.6113822112E-001 -5.6187247066E-001  +1.6250945636E-001 +9.2229198861E+000  +6.5986526851E-001 +2.1164585825E+000 
8393727.159 +4.6733144260E-001 +1.3711252822E+001  +1.5474662542E-001 -3.7220101432E+000  +1.5674446148E-001 +9.2403467530E+000  +5.6423530460E-001 +2.5738083736E+000 
8518872.340 +5.2763906326E-001 +5.6543232285E+000  +1.5547866878E-001 -2.2037318493E+000  +1.5614058100E-001 +7.7267749550E+000  +5.2169588044E-001 +6.2391643891E+000 
8644017.522 +5.4651156647E-001 +8.5334465450E+000  +1.6052373455E-001 -2.4093932265E+000  +1.5351212162E-001 +8.9439772624E+000  +5.6782403055E-001 -3.2980890992E+000 
8769162.703 +4.4736581243E-001 +7.5672396838E+000  +1.5309711246E-001 -4.3956920715E+000  +1.5290013871E-001 +9.9840268846E+000  +5.0155399250E-001 +4.3566998351E+000 
8894307.885 +4.7229676581E-001 +1.2104970276E+001  +1.5182512546E-001 -4.5878743120E+000  +1.5165310353E-001 +1.1775314876E+001  +5.1913328619E-001 +6.0635504196E+000 
9019453.066 +4.0860753327E-001 +7.8114490030E+000  +1.5063964696E-001 -5.6261998240E+000  +1.4761291154E-001 +8.8691645489E+000  +4.4952609662E-001 +9.7504073846E-002 
9144598.248 +3.9647746686E-001 +5.2064104341E+000  +1.5090021494E-001 -4.9444933907E+000  +1.5156174929E-001 +8.6272098848E+000  +4.2314746538E-001 +6.9742422861E-001 
9269743.429 +4.5159386318E-001 +6.9979392887E+000  +1.5044717634E-001 -3.4665043719E+000  +1.4809884630E-001 +1.1437521421E+001  +4.5510167522E-001 +1.5734973998E+000 
9394888.611 +4.0365800333E-001 +4.8003287546E+000  +1.5092572853E-001 -3.8955489957E+000  +1.4547352553E-001 +1.0023387089E+001  +4.5933260528E-001 +1.1897354563E+000 
9520033.792 +4.2496034388E-001 +3.9960820568E+000  +1.4845541406E-001 -4.1010090534E+000  +1.5037733351E-001 +1.0388199919E+001  +4.0567693323E-001 +4.7940084372E+000 
9645178.974 +3.7172571436E-001 +1.1385039385E+001  +1.4849535480E-001 -3.9488574349E+000  +1.4796506959E-001 +1.1537411484E+001  +4.4829851071E-001 -3.2852665429E+000 
9770324.155 +4.1590136072E-001 +3.0975447448E+000  +1.5030321977E-001 -4.3765700054E+000  +1.4773580467E-001 +1.1820054651E+001  +4.0116898832E-001 -1.9529127403E+000 
9895469.337 +3.5794661373E-001 +6.4161430761E+000  +1.5332850556E-001 -4.9470379140E+000  +1.4934709987E-001 +1.0334434005E+001  +4.0327492476E-001 -1.0364563285E+001 
10020614.518 +4.0658171445E-001 +8.7298515101E+000  +1.5163759769E-001 -4.7048903375E+000  +1.4948294240E-001 +1.1893420749E+001  +3.6847092495E-001 -4.0179578555E+000 
10145759.700 +4.3655336835E-001 +6.5023810543E+000  +1.5364938587E-001 -3.1639710861E+000  +1.5098574251E-001 +1.2769769423E+001  +4.3573416258E-001 -4.2031987384E+000 
10270904.881 +4.3614511368E-001 +1.0913336027E+001  +1.5344085570E-001 -2.6200663871E+000  +1.5130572721E-001 +1.3362010997E+001  +4.4471339710E-001 +8.7409170182E-001 
10396050.063 +4.3273300509E-001 +9.6691073565E+000  +1.5379205969E-001 -3.5978470641E+000  +1.4871522172E-001 +1.2302530452E+001  +3.8386850356E-001 +4.1916556670E+000 
10521195.244 +3.8502586211E-001 +1.3135685435E+001  +1.5251859982E-001 -2.4691622429E+000  +1.5060218989E-001 +1.1291005551E+001  +4.6218354221E-001 +2.8396858805E+000 
10646340.426 +4.2272042908E-001 +1.4813325687E+001  +1.5110979473E-001 -2.4842595534E+000  +1.5094338155E-001 +1.2442953263E+001  +4.2987869930E-001 +3.2296526853E+000 
10771485.607 +4.1950977195E-001 +1.1452455432E+001  +1.5218040923E-001 -1.8087410638E+000  +1.5369045942E-001 +1.2902321255E+001  +4.5455668723E-001 +6.1720297517E+000 
10896630.788 +3.8056529298E-001 +1.2950298659E+001  +1.5690631597E-001 -2.1042628961E+000  +1.5312570429E-001 +1.1418147524E+001  +4.6642273698E-001 +1.6066856581E+000 
11021775.970 +4.2255642511E-001 +1.2700586680E+001  +1.5607653010E-001 -9.5062912785E-001  +1.5502525849E-001 +1.2826287993E+001  +4.9598666203E-001 +5.5450288576E+000 
11146921.151 +4.4440561982E-001 +1.0863577740E+001  +1.6028169284E-001 -1.3015836513E+000  +1.5851196405E-001 +1.1951034312E+001  +4.7322738035E-001 +4.9114922268E+000 
11272066.333 +4.4388257598E-001 +1.2195209711E+001  +1.5887224405E-001 -1.0713513125E+000  +1.5824749976E-001 +1.2000457028E+001  +4.6666667437E-001 +5.2307568040E+000 
11397211.514 +4.5137472538E-001 +1.3103343633E+001  +1.6372774972E-001 -3.2456324483E-001  +1.5905689804E-001 +1.1177389328E+001  +4.5623342464E-001 +2.1014331590E+000 
11522356.696 +4.7008332607E-001 +1.1252568131E+001  +1.6624694970E-001 +4.1580185057E-002  +1.6274852976E-001 +1.0953534397E+001  +4.5177910194E-001 -9.6704504283E-001 
11647501.877 +4.8570873951E-001 +8.9754570242E+000  +1.6553109869E-001 -5.3040571074E-001  +1.6372837803E-001 +1.0624109767E+001  +4.6020213961E-001 +1.5053587353E+000 
11772647.059 +4.8652256815E-001 +7.4764594734E+000  +1.6775859762E-001 +5.0072213523E-001  +1.6567437039E-001 +1.1542759062E+001  +5.2955073527E-001 +5.5026983625E+000 
11897792.240 +5.0916021048E-001 +1.0560387699E+001  +1.6802947163E-001 +4.8797390321E-001  +1.6722722102E-001 +1.1306413528E+001  +5.0625707633E-001 +2.1729189911E+000 
12022937.422 +5.0676980001E-001 +6.7121756422E+000  +1.7102532471E-001 +1.6006120187E+000  +1.6829772797E-001 +9.9422245906E+000  +5.1176695413E-001 +3.0408910121E+000 
12148082.603 +4.9945734597E-001 +8.5214912421E+000  +1.6992749618E-001 +9.4658112870E-001  +1.6891092143E-001 +9.7617204082E+000  +5.2436329781E-001 +2.3378450123E+000 
12273227.785 +5.4467250324E-001 +5.3994721010E+000  +1.7522653865E-001 +1.6631785354E+000  +1.7358351880E-001 +9.3679327444E+000  +5.2556167615E-001 -3.5658438386E-001 
12398372.966 +5.7631566073E-001 +6.8245297741E+000  +1.7463008221E-001 +2.1247679937E+000  +1.7526155430E-001 +9.8286729441E+000  +5.3649239588E-001 +1.8865676358E+000 
12523518.148 +5.6171799957E-001 +5.7683700645E+000  +1.7663133937E-001 +1.5825972747E+000  +1.7669112040E-001 +8.7580487377E+000  +5.4751258776E-001 +6.5211217696E-001 
12648663.329 +5.6430027836E-001 +2.0548067332E+000  +1.7951661460E-001 +1.7392478093E+000  +1.7746031612E-001 +8.2175121438E+000  +5.6894592107E-001 +1.2417401385E+000 
12773808.511 +5.6520141994E-001 +4.6051203755E+000  +1.7990453392E-001 +2.3313224892E+000  +1.8020108080E-001 +8.2837460941E+000  +6.0563065075E-001 +1.4972817486E+000 
12898953.692 +6.1800679527E-001 +2.0559546151E+000  +1.8483906547E-001 +2.3909372751E+000  +1.8178618727E-001 +8.8089620352E+000  +6.1580181645E-001 +1.0787435180E+000 
13024098.874 +6.2789553100E-001 +4.1642566041E+000  +1.8372361380E-001 +2.6186461609E+000  +1.8249919363E-001 +7.5879473370E+000  +6.1930487996E-001 +1.8066236603E+000 
13149244.055 +6.2681484010E-001 +2.7835628280E+000  +1.8685091146E-001 +2.3890923866E+000  +1.8440687485E-001 +6.5666287399E+000  +6.2661177572E-001 -1.7928156244E+000 
13274389.237 +6.2978240258E-001 +9.7646598034E-001  +1.8762768258E-001 +2.1128894230E+000  +1.8536659335E-001 +6.4653671369E+000  +6.7057323770E-001 -1.9567229759E+000 
13399534.418 +6.4929305378E-001 -1.3918041217E+000  +1.9053715612E-001 +2.6640158119E+000  +1.8888320444E-001 +5.9382465938E+000  +6.5587449530E-001 -3.2629632743E+000 
13524679.599 +6.6742011975E-001 -1.4658783904E+000  +1.9317151279E-001 +2.1384142774E+000  +1.9026273815E-001 +4.9418392086E+000  +6.7576037277E-001 -3.7298978598E+000 
13649824.781 +6.9811164506E-001 -1.1711903429E+000  +1.9331431101E-001 +2.2486511968E+000  +1.9363259401E-001 +4.7576063281E+000  +6.8281469463E-001 -3.3605193747E+000 
13774969.962 +7.1571988906E-001 -2.3587743309E+000  +1.9464795531E-001 +2.5605524994E+000  +1.9272238022E-001 +4.4881672295E+000  +7.2211796941E-001 -2.2257561482E+000 
13900115.144 +7.0510366961E-001 -4.2626696865E+000  +1.9678323716E-001 +2.1150229353E+000  +1.9542181850E-001 +3.6962434847E+000  +7.1977553918E-001 -3.1343578650E+000 
14025260.325 +7.1978538119E-001 -4.0803582478E+000  +1.9914235392E-001 +2.2380454077E+000  +1.9489740876E-001 +3.6943174936E+000  +7.5206354282E-001 -4.5382599219E+000 
14150405.507 +7.4009366488E-001 -4.4417935126E+000  +2.0255597516E-001 +1.6362077287E+000  +1.9641432671E-001 +3.2551115829E+000  +7.6647502037E-001 -5.2951990372E+000 
14275550.688 +7.7259483280E-001 -3.9299774538E+000  +2.0101360443E-001 +1.6535870255E+000  +1.9651112396E-001 +2.8744374435E+000  +7.6554180240E-001 -4.7455080593E+000 
14400695.870 +7.9450930607E-001 -6.0640963815E+000  +2.0265652618E-001 +1.6140907238E+000  +1.9835266485E-001 +2.0910666828E+000  +7.8703917277E-001 -5.2070072200E+000 
