!  2-Port S-parameters saved by WinCal
! VAR MeasName=S-Parameters (CALIBRATED_DATA) read from VNA (P5004A)
! VAR MeasDate=28/08/2024 16:57:09
! VAR NAME=S2_r9c9_RESET3_9k-100M_3
! VAR FILENAME=S2_r9c9_RESET3_9k-100M_3.S2P
! VAR DATE=28/08/2024 16:57:09
! VAR PHYS_PORTS=1,2
! VAR ObjTypeName=DATASET
! VAR IndexType=Frequency
!
# Hz S MA R 50
9000.000 +9.5494320841E-002 -1.7584273879E+002  +2.8441221940E-003 -1.9383912505E+001  +5.7714309401E-003 -9.1096984753E+001  +2.8500258200E-001 -1.4756116307E+002 
134145.181 +1.1155849426E-001 +1.6947283750E+002  +1.6951095001E-004 +5.6711833290E+000  +4.3475415687E-004 +7.1593403586E+001  +2.4445389358E-001 -1.7088437188E+002 
259290.363 +1.1243787009E-001 +1.6980905310E+002  +3.4235167378E-004 +7.3342306349E+001  +4.3055825302E-004 +1.9044130695E+001  +2.3748584399E-001 -1.6933245641E+002 
384435.544 +1.1551785184E-001 +1.7009700172E+002  +4.6787869481E-004 -1.0649438723E+002  +1.7321148954E-004 +1.2051619896E+002  +2.4932676036E-001 -1.6940625088E+002 
509580.726 +1.1156582828E-001 +1.7039238368E+002  +1.5500610420E-003 -1.1745937711E+002  +2.2477900530E-003 +1.1620471894E+002  +2.3884924019E-001 -1.6391629926E+002 
634725.907 +1.1733299460E-001 +1.7130181012E+002  +2.2270771152E-003 -4.6996802877E+001  +1.4299877350E-003 +1.3766737377E+001  +2.5049745512E-001 -1.6259332083E+002 
759871.089 +1.2060165602E-001 +1.7085643782E+002  +5.4214673477E-004 -1.6816867700E+002  +6.0203503375E-004 +6.2579822884E+001  +2.5355269215E-001 -1.6743874737E+002 
885016.270 +1.2091154809E-001 +1.6912815937E+002  +3.9516221640E-004 -1.7748174023E+002  +2.6306833144E-004 +1.3413330174E+002  +2.4244381911E-001 -1.6732560397E+002 
1010161.452 +1.1675705634E-001 +1.7002924271E+002  +1.9752181138E-003 -5.1093611146E+001  +7.9204990410E-004 -9.7871151308E+001  +2.0159594189E-001 -1.6643374740E+002 
1135306.633 +1.1421817073E-001 +1.6872671404E+002  +4.9288746501E-003 -6.0617190794E+001  +5.7160159106E-003 +1.5681706923E+002  +2.5085971176E-001 -1.3255820212E+002 
1260451.815 +1.1948326874E-001 +1.7001782836E+002  +7.7034912259E-004 -5.0113115387E+001  +7.9752501287E-004 -1.1705469832E+002  +2.2030936746E-001 -1.6369861624E+002 
1385596.996 +1.2824946930E-001 +1.7270952653E+002  +1.5103401961E-003 -7.9280020794E+001  +1.8230633597E-003 +1.2881726645E+002  +2.4492951859E-001 -1.5779987201E+002 
1510742.178 +1.2806371303E-001 +1.7077673404E+002  +1.0164359565E-003 -7.1769403541E+001  +9.8517754615E-004 +1.1662753980E+002  +2.6723107852E-001 -1.6079786656E+002 
1635887.359 +1.2886385693E-001 +1.7020187200E+002  +1.3003016602E-003 -6.6336359418E+001  +1.5298424071E-003 -1.5533891968E+002  +2.3935391080E-001 -1.5991601031E+002 
1761032.541 +1.2836632490E-001 +1.6993789836E+002  +1.9652350372E-003 +3.6744504357E+001  +1.6683048999E-003 -1.1118512916E+002  +2.4135115715E-001 -1.5998648311E+002 
1886177.722 +1.3187362996E-001 +1.6847041025E+002  +3.7796152440E-003 +5.7654828038E+001  +4.8808933841E-003 -8.2188290510E+001  +1.6810939084E-001 -1.6818282790E+002 
2011322.904 +1.3037650544E-001 +1.6694027916E+002  +5.3404865309E-003 +7.3342974018E+001  +3.8776941086E-003 -3.8709349389E+001  +2.0543636698E-001 -1.6901031743E+002 
2136468.085 +1.3169885651E-001 +1.6783170839E+002  +6.7238998806E-003 +9.8293263986E+001  +6.7652261755E-003 -6.6539872971E+001  +1.9881229919E-001 -1.7180420634E+002 
2261613.267 +1.3108300152E-001 +1.6596993628E+002  +1.0641670954E-002 +1.0036059680E+002  +1.0325789290E-002 -3.7394495342E+001  +1.9151579910E-001 +1.7861926555E+002 
2386758.448 +1.3856196602E-001 +1.6262988074E+002  +1.6093046065E-002 +1.1776929748E+002  +1.1774447422E-002 -2.3639004550E+001  +2.0326433101E-001 +1.6803718269E+002 
2511903.630 +1.3728953309E-001 +1.6593519129E+002  +1.5268458205E-002 +6.7350441796E+001  +1.5374443490E-002 -3.8150468130E+001  +1.8740459471E-001 +1.7853775330E+002 
2637048.811 +1.2773180511E-001 +1.6405478497E+002  +1.9116676314E-002 +8.5091345316E+001  +2.2267737223E-002 -3.7999494516E+001  +1.9740747170E-001 +1.6948608558E+002 
2762193.992 +1.1665698677E-001 +1.7764458842E+002  +4.6907535186E-002 +2.2090602443E+001  +4.2739287843E-002 -9.6839043550E+001  +4.4620809787E-002 -1.6578675175E+002 
2887339.174 +1.2003152257E-001 -1.7861035286E+002  +6.9814608285E-002 -1.2497796100E+000  +6.6012367675E-002 -1.0500344283E+002  +1.2789090254E-001 -2.9729654062E+000 
3012484.355 +1.3539081240E-001 +1.7194589839E+002  +3.4084182531E-002 -1.6364369152E+001  +3.5423347511E-002 -1.0571739561E+002  +1.4933188541E-001 -1.1366489127E+002 
3137629.537 +1.3768967330E-001 +1.6942927141E+002  +8.1887616560E-002 -5.3517816195E+000  +8.4959402596E-002 -8.9052556355E+001  +4.6220316506E-001 -3.0944812537E+001 
3262774.718 +1.0913994041E-001 +1.7131044357E+002  +4.7486530855E-002 +1.3918166625E+001  +3.4496435441E-002 -8.1838150857E+001  +1.3558290003E-001 -1.4223589362E+002 
3387919.900 +1.3044975125E-001 +1.5788788387E+002  +3.5711720447E-002 +4.3564271206E+001  +4.4284224520E-002 -5.6991350698E+001  +9.2007221875E-002 -1.7586494448E+002 
3513065.081 +1.5271351019E-001 +1.6122098766E+002  +3.2282411472E-002 +9.0694630693E+001  +2.5772869744E-002 +3.0658205457E-001  +3.4697605612E-001 +1.5234292774E+002 
3638210.263 +1.7739681367E-001 +1.5260190161E+002  +3.9796730560E-002 +1.3073617606E+002  +2.8964644870E-002 +5.1098250265E+001  +4.3495825746E-001 +1.5883089331E+002 
3763355.444 +1.4038948572E-001 +1.4920371585E+002  +4.9783807940E-002 +8.4443648506E+001  +4.9948560961E-002 +8.1555927285E+000  +2.8800886355E-001 +1.5535736523E+002 
3888500.626 +1.6773439597E-001 +1.4885675452E+002  +4.6685296739E-002 +1.0206167715E+002  +4.7147312257E-002 +2.7097131714E+001  +3.9910202574E-001 +1.4790635051E+002 
4013645.807 +1.4783625289E-001 +1.5086387728E+002  +6.7709729726E-002 +8.5804524466E+001  +6.1778027875E-002 +2.2380578561E+001  +3.9976793711E-001 +1.3763468862E+002 
4138790.989 +2.0125340600E-001 +1.5109601176E+002  +5.8989752963E-002 +8.8070282213E+001  +5.3791888690E-002 +2.4449587321E+001  +3.1537971264E-001 +1.2290044298E+002 
4263936.170 +2.0342637295E-001 +1.5393224855E+002  +4.0725343414E-002 +9.7019099442E+001  +3.8829574045E-002 +3.3488250128E+001  +3.7417238175E-001 +1.5022213520E+002 
4389081.352 +1.5105692655E-001 +1.4714016815E+002  +7.2535169602E-002 +8.7716233513E+001  +7.7590264213E-002 +2.2068961582E+001  +5.3859706445E-001 +1.4139558956E+002 
4514226.533 +2.1091246826E-001 +1.4286166069E+002  +1.0209594383E-001 +6.4302684663E+001  +9.7391301676E-002 +5.9188759901E+000  +4.0455032324E-001 +5.6697420694E+001 
4639371.715 +2.5403503476E-001 +1.2610887263E+002  +4.4071019758E-001 +7.5046778447E+001  +3.5456939689E-001 +2.7490687669E+001  +2.3233588894E+000 +5.7453654374E+001 
4764516.896 +3.5333036236E-001 +1.2126762851E+002  +4.8501498299E-001 +1.0997803964E+002  +4.8706934826E-001 +5.7967634960E+001  +2.4659136683E+000 +8.4025989127E+001 
4889662.078 +4.1080738945E-001 +1.3663397185E+002  +4.1784732906E-001 +1.7283261572E+002  +3.8944119915E-001 +1.2915710220E+002  +2.4465156886E+000 +1.4487495952E+002 
5014807.259 +3.9752474734E-001 +1.1842684226E+002  +7.7588123796E-001 +1.2928026936E+002  +7.8206706865E-001 +8.4718265319E+001  +4.6628018861E+000 +1.1394024083E+002 
5139952.441 +4.0205341381E-001 +1.2129702800E+002  +4.9192561011E-001 +9.7171179615E+001  +5.2920940354E-001 +5.4054757757E+001  +2.7285392791E+000 +7.0720593983E+001 
5265097.622 +3.2983766093E-001 +1.3361853676E+002  +1.2748690495E-001 +1.1231059590E+002  +1.1282389205E-001 +7.8599741297E+001  +9.0191091912E-001 +1.3571394893E+002 
5390242.804 +3.7154498907E-001 +1.3039031748E+002  +1.5183563411E-001 +1.2131065634E+002  +1.5086331860E-001 +9.2628130546E+001  +1.1970481995E+000 +1.3536350442E+002 
5515387.985 +4.4121199439E-001 +1.2581965768E+002  +2.3151368824E-001 +1.0147270973E+002  +2.0013511314E-001 +6.5651616162E+001  +1.1754313001E+000 +9.1962658440E+001 
5640533.166 +4.9319624679E-001 +1.3619463185E+002  +2.1438709903E-001 +1.2384206913E+002  +1.9990165907E-001 +9.0712499157E+001  +1.6902684418E+000 +1.0802899110E+002 
5765678.348 +4.2908779014E-001 +1.2101310840E+002  +1.7381625464E-001 +8.5722656294E+001  +1.9040415175E-001 +5.6515280250E+001  +9.6702945865E-001 +1.0125270235E+002 
5890823.529 +5.0711478953E-001 +1.1943974854E+002  +2.2927146129E-001 +8.8694093953E+001  +2.2601364264E-001 +6.0459502497E+001  +1.2300137616E+000 +8.9172815458E+001 
6015968.711 +6.5062223830E-001 +1.1242585751E+002  +2.9782564557E-001 +9.8663365941E+001  +2.9039083310E-001 +7.6177073495E+001  +1.6076923708E+000 +1.0240975802E+002 
6141113.892 +5.2418794426E-001 +1.1889345862E+002  +2.5568201489E-001 +6.7813359158E+001  +2.2210757509E-001 +4.5412960788E+001  +1.6284491915E+000 +7.2197362797E+001 
6266259.074 +6.4101296795E-001 +9.4479156755E+001  +3.4105067318E-001 +6.1805853064E+001  +3.2350900374E-001 +4.3444475400E+001  +1.4884034150E+000 +7.2106297256E+001 
6391404.255 +7.5365049212E-001 +1.0277583501E+002  +2.7289108159E-001 +5.7741571315E+001  +2.6664418486E-001 +3.4378527749E+001  +1.0484658293E+000 +4.4669395463E+001 
6516549.437 +8.4489667272E-001 +8.2482283853E+001  +2.9352251378E-001 +3.9243454095E+001  +2.9461591423E-001 +2.3521429327E+001  +7.6664035405E-001 +2.8391952088E+001 
6641694.618 +1.1429356931E+000 +7.5827761210E+001  +3.6243766515E-001 +3.0963270129E+001  +3.5862170461E-001 +2.3179601799E+001  +1.2033952809E+000 +1.3940855016E+001 
6766839.800 +1.1399742569E+000 +3.6955090034E+001  +4.0220140857E-001 +5.5866067656E+000  +3.7994895007E-001 -6.1028667382E-001  +1.0852548032E+000 -1.8832239769E+000 
6891984.981 +1.0627469375E+000 +3.0711724372E+001  +3.2954256615E-001 +6.8038213120E-001  +3.1876327323E-001 -2.4126864654E+000  +8.7832264661E-001 -5.4461076245E+000 
7017130.163 +1.2746909128E+000 +2.1086621221E+001  +3.4028754198E-001 +4.1321342391E+000  +3.2825428676E-001 -1.3893644461E+000  +1.0246901537E+000 -2.5872324235E+000 
7142275.344 +1.3076343201E+000 +6.3452028603E+000  +2.9724690878E-001 -7.7769630773E-002  +2.8739024991E-001 -8.3202468627E+000  +9.7132289068E-001 -1.4772816274E+001 
7267420.526 +1.1223993035E+000 -5.5568673152E+000  +2.5730451572E-001 -2.5304708158E+000  +2.4569417991E-001 -4.7760481106E+000  +1.0713074748E+000 -4.6698218198E+000 
7392565.707 +1.0990740155E+000 +4.6379911179E+000  +2.1327268098E-001 +4.3376154990E+000  +2.1663223076E-001 +4.6718955894E+000  +1.0767020979E+000 -6.8199588481E+000 
7517710.889 +8.7309516329E-001 -8.1728682411E+000  +1.9992770414E-001 -8.0708863245E-001  +1.9746878267E-001 +3.6335203405E+000  +9.9578898326E-001 -6.3574994221E+000 
7642856.070 +7.7627062212E-001 +1.6904332037E+000  +1.8894898078E-001 +3.4596075373E+000  +1.8743596796E-001 +6.7701094144E+000  +9.0277518684E-001 -5.2023029247E+000 
7768001.252 +6.4000342692E-001 +6.5827519700E+000  +1.6788720883E-001 -5.3244147812E-002  +1.7045238670E-001 +4.1908051201E+000  +7.9574332063E-001 -4.8004287228E-001 
7893146.433 +6.5290376113E-001 +1.0485185904E+001  +1.6518704616E-001 -9.6890587665E-001  +1.6372371608E-001 +4.2415843424E+000  +6.8875869571E-001 +1.9858889443E-001 
8018291.615 +7.1433886767E-001 +7.9809470692E+000  +1.6165926168E-001 -1.1529515459E+000  +1.6333576823E-001 +4.4496790538E+000  +6.6085219596E-001 +1.2773153110E+000 
8143436.796 +5.9685456175E-001 +5.6267442723E+000  +1.5718544149E-001 -4.1448372486E+000  +1.5953228201E-001 +4.0009869050E+000  +6.0511213290E-001 -8.9007107078E-001 
8268581.977 +5.9321229052E-001 +1.2590957774E+001  +1.5350335033E-001 -2.9322517187E+000  +1.5691427909E-001 +8.5143565242E+000  +6.0682155371E-001 +7.0527092577E-001 
8393727.159 +4.9176712091E-001 +1.3837581030E+001  +1.4910551438E-001 -5.8752980761E+000  +1.4934662936E-001 +7.7636493367E+000  +5.4422851603E-001 -2.9066007729E+000 
8518872.340 +5.0177152889E-001 +1.7800173348E+001  +1.4723209552E-001 -3.8317959561E+000  +1.4273994291E-001 +8.7109872859E+000  +5.6553093452E-001 +5.9382842627E+000 
8644017.522 +4.8728017888E-001 +1.3451406327E+001  +1.4524261006E-001 -4.2882928172E+000  +1.4452963851E-001 +9.6864103334E+000  +5.2062744097E-001 +1.0281089854E+001 
8769162.703 +4.8719915003E-001 +1.3241588566E+001  +1.4277502747E-001 -3.4817852429E+000  +1.4264458043E-001 +1.0403053526E+001  +5.2034239822E-001 +9.8346915269E+000 
8894307.885 +4.4485339338E-001 +7.6558690159E+000  +1.4900638331E-001 -5.3092713104E+000  +1.4669996682E-001 +9.3297495244E+000  +4.7708836912E-001 +1.6882922281E+000 
9019453.066 +4.2327982438E-001 +6.0674320440E+000  +1.4741323550E-001 -7.1495753441E+000  +1.4433902757E-001 +9.7139221222E+000  +3.9974938785E-001 +7.3855233267E+000 
9144598.248 +4.4902319280E-001 +1.4218929575E+001  +1.4584755310E-001 -5.8781233635E+000  +1.4366344903E-001 +8.9670044402E+000  +4.1877570391E-001 -4.9304938630E+000 
9269743.429 +4.3394424828E-001 +1.2042799630E+001  +1.4697529716E-001 -6.0094839318E+000  +1.4113628090E-001 +9.8708431589E+000  +3.9179413619E-001 -2.0199783139E-001 
9394888.611 +4.2340193534E-001 +1.2132445436E+001  +1.4430952281E-001 -4.5857666513E+000  +1.4161940808E-001 +1.0815306513E+001  +4.5920090749E-001 -1.9074356786E+000 
9520033.792 +3.6689844033E-001 +7.8900425800E+000  +1.4200863536E-001 -5.2660074787E+000  +1.4050268214E-001 +1.0560890105E+001  +4.1069519684E-001 +3.5051977143E+000 
9645178.974 +3.8315050724E-001 +3.6842901309E+000  +1.4519379447E-001 -5.2248577985E+000  +1.4302745408E-001 +9.8468130584E+000  +4.1399115276E-001 +4.6948689914E+000 
9770324.155 +3.6876748627E-001 +4.9090531018E-002  +1.4632144634E-001 -5.9177708689E+000  +1.4604404948E-001 +1.1251967535E+001  +4.2839710918E-001 -3.6418838772E+000 
9895469.337 +3.7452330476E-001 +4.4605539491E+000  +1.4590923966E-001 -5.7145002341E+000  +1.4666784151E-001 +1.0085367155E+001  +3.8347191883E-001 -1.6484963679E+000 
10020614.518 +4.1715143317E-001 +8.3055542421E+000  +1.4635860947E-001 -3.2437245664E+000  +1.4376873996E-001 +1.3470803080E+001  +4.5409364201E-001 -1.9084029118E+000 
10145759.700 +3.9477467836E-001 +6.3612042544E+000  +1.4593421271E-001 -5.5896710417E+000  +1.4524344997E-001 +1.1568161829E+001  +3.9008399616E-001 +4.3677737095E+000 
10270904.881 +4.0318167365E-001 +1.3239694486E+001  +1.4749400949E-001 -2.9879583005E+000  +1.4469329458E-001 +1.2119501847E+001  +4.5228956411E-001 -9.2773240700E-001 
10396050.063 +4.1208361776E-001 +5.0188838605E+000  +1.4813792139E-001 -4.2861414937E+000  +1.4871528095E-001 +1.2279550130E+001  +4.4396705217E-001 -7.5847171937E-001 
10521195.244 +4.0175296254E-001 +7.3517560400E+000  +1.4762542662E-001 -3.9641715383E+000  +1.4346603017E-001 +1.1624480728E+001  +4.2704464749E-001 +6.6307289852E+000 
10646340.426 +4.0983971857E-001 +1.1874875927E+001  +1.4702912942E-001 -2.7600186589E+000  +1.4766857033E-001 +1.3472965423E+001  +4.5230975949E-001 +5.7030197851E+000 
10771485.607 +4.2355195573E-001 +9.9485698929E+000  +1.4746282119E-001 -3.2488032785E+000  +1.5016399958E-001 +1.2650764107E+001  +4.5007334358E-001 +2.4218638416E+000 
10896630.788 +4.2198624484E-001 +1.1693392579E+001  +1.5187643563E-001 -1.7334099402E+000  +1.4724203475E-001 +1.2123942598E+001  +4.4833313492E-001 +5.1172034237E+000 
11021775.970 +4.5177748871E-001 +1.1254638221E+001  +1.5274387699E-001 -4.2805657574E-001  +1.4946999616E-001 +1.2609591090E+001  +4.5127109173E-001 +4.2486245077E+000 
11146921.151 +4.3301779931E-001 +1.0199861032E+001  +1.5527567007E-001 -1.6002122493E+000  +1.5120225793E-001 +1.1405344902E+001  +4.4463342849E-001 +5.2027004246E+000 
11272066.333 +4.4628346518E-001 +1.0769379907E+001  +1.5300150869E-001 -6.4143940205E-001  +1.5325923975E-001 +1.2249427350E+001  +4.5344603944E-001 +2.6852993642E+000 
11397211.514 +4.5150776796E-001 +1.3059162917E+001  +1.5433107455E-001 -1.1563462386E-001  +1.5431566960E-001 +1.1216817221E+001  +4.9653450944E-001 +4.9398435022E+000 
11522356.696 +4.5824570685E-001 +8.7147292185E+000  +1.5810629373E-001 -6.9329834246E-001  +1.5462684342E-001 +1.1023621949E+001  +4.6921218318E-001 +5.5932000048E+000 
11647501.877 +4.7261243636E-001 +1.3204203440E+001  +1.5736832210E-001 +7.6144401186E-002  +1.5694162168E-001 +1.1061959167E+001  +5.2787123009E-001 +3.7259673527E+000 
11772647.059 +4.6907880060E-001 +8.3956816919E+000  +1.6007378080E-001 -2.1493495637E-001  +1.6041641065E-001 +1.1064664736E+001  +4.9903381899E-001 +4.9094477706E+000 
11897792.240 +5.0977910902E-001 +7.6494596550E+000  +1.6346698819E-001 +2.7008298748E-001  +1.5969799156E-001 +1.1317997841E+001  +4.9766726499E-001 +7.8113210767E+000 
12022937.422 +5.1893619757E-001 +6.0870486813E+000  +1.6660608786E-001 +1.4160011727E+000  +1.6065634044E-001 +1.0781809091E+001  +5.1336124810E-001 +3.9871933132E-001 
12148082.603 +4.9631734472E-001 +6.1923758317E+000  +1.6711297335E-001 +1.3329612844E+000  +1.6383143815E-001 +9.6330218907E+000  +5.5023024407E-001 +3.0280272928E+000 
12273227.785 +5.3096418596E-001 +5.2476593014E+000  +1.6767066453E-001 +7.3539456138E-001  +1.6855292198E-001 +9.4488918956E+000  +5.3022642514E-001 +1.5828274805E+000 
12398372.966 +5.3948191229E-001 +6.0498904430E+000  +1.6917101386E-001 +1.7148560830E+000  +1.6736225695E-001 +9.3176621141E+000  +5.5394025838E-001 +4.2298831751E+000 
12523518.148 +5.4773814165E-001 +3.4347236195E+000  +1.7148670118E-001 +1.4497283182E+000  +1.6960889667E-001 +9.0010253538E+000  +5.7983504815E-001 +1.9597330720E+000 
12648663.329 +5.8676432924E-001 +4.6143684247E+000  +1.7380423549E-001 +2.0906379965E+000  +1.7121235211E-001 +8.5074590105E+000  +5.5791226143E-001 +1.7892140875E+000 
12773808.511 +5.7859346287E-001 +2.3268094271E+000  +1.7622503106E-001 +2.3676187587E+000  +1.7383152866E-001 +7.9588605696E+000  +6.0076468316E-001 +6.6253829094E-001 
12898953.692 +5.9032329615E-001 +1.8484195760E+000  +1.7840014008E-001 +2.0201359859E+000  +1.7479880983E-001 +7.3223728983E+000  +5.9746041742E-001 -7.4504030462E-002 
13024098.874 +6.1210033506E-001 +2.7603563267E+000  +1.7992363787E-001 +2.4076459582E+000  +1.7602291380E-001 +7.5959139919E+000  +6.2351102236E-001 -2.1565841356E-001 
13149244.055 +6.1165336989E-001 -6.2457788630E-001  +1.8224839175E-001 +2.1094987714E+000  +1.8040440656E-001 +6.8358806790E+000  +6.2583137895E-001 +3.9871107160E-001 
13274389.237 +6.3761019152E-001 +1.6272341028E+000  +1.8119861632E-001 +2.5837868164E+000  +1.7957344834E-001 +6.5491535068E+000  +6.3807149985E-001 -2.3802563985E-001 
13399534.418 +6.4672044329E-001 +5.6981498864E-001  +1.8248138923E-001 +2.3503036538E+000  +1.8078725667E-001 +6.2589459761E+000  +6.7314630286E-001 -1.0404225122E+000 
13524679.599 +6.7023183489E-001 -2.6205538136E+000  +1.8668477100E-001 +2.2273003170E+000  +1.8396051928E-001 +5.1180278989E+000  +6.6003071272E-001 +5.5357033167E-001 
13649824.781 +6.7662955972E-001 -2.4695828021E+000  +1.8631603640E-001 +2.5727966413E+000  +1.8631200575E-001 +3.9750854326E+000  +6.9474643119E-001 -2.7195910559E+000 
13774969.962 +7.0637502245E-001 -2.3018183868E+000  +1.8867686688E-001 +2.2670332105E+000  +1.8400196981E-001 +4.0710533842E+000  +6.9058448335E-001 -2.5311710681E+000 
13900115.144 +7.2911599178E-001 -2.3225194458E+000  +1.8997066647E-001 +2.3339275136E+000  +1.8522742017E-001 +4.2570501112E+000  +7.2835241766E-001 -1.7761278856E+000 
14025260.325 +7.3385970600E-001 -2.0379873517E+000  +1.9260480562E-001 +1.8431956422E+000  +1.8843877232E-001 +3.5054705724E+000  +7.2557779196E-001 -3.4467770755E+000 
14150405.507 +7.4416509871E-001 -3.1496621020E+000  +1.9147963386E-001 +1.7415636462E+000  +1.8939601612E-001 +2.8397959334E+000  +7.4541952047E-001 -2.9281621639E+000 
14275550.688 +7.7671316581E-001 -4.8029786521E+000  +1.9260031105E-001 +2.2835365706E+000  +1.9256808597E-001 +3.2110565378E+000  +7.8513401917E-001 -4.1972283508E+000 
14400695.870 +7.8828507067E-001 -4.9879020336E+000  +1.9440662735E-001 +1.7080741941E+000  +1.9070153518E-001 +2.2666760316E+000  +7.7527536435E-001 -5.0029219305E+000 
