!  2-Port S-parameters saved by WinCal
! VAR MeasName=S-Parameters (CALIBRATED_DATA) read from VNA (P5004A)
! VAR MeasDate=29/08/2024 10:18:09
! VAR NAME=S2_r9c1_RESET4_9k-100M_2
! VAR FILENAME=S2_r9c1_RESET4_9k-100M_2.S2P
! VAR DATE=29/08/2024 10:18:09
! VAR PHYS_PORTS=1,2
! VAR ObjTypeName=DATASET
! VAR IndexType=Frequency
!
# Hz S MA R 50
9000.000 +1.0091364720E-001 -1.7286404693E+002  +4.4954762035E-003 +4.7313423890E+001  +2.6669440745E-003 +1.1114042492E+002  +2.5551715652E-001 -1.5301593003E+002 
134145.181 +1.1095191196E-001 +1.6946264502E+002  +5.2295630293E-004 -2.9588564538E+001  +4.6129283411E-004 -3.7703846520E+001  +2.3940521525E-001 -1.6926512632E+002 
259290.363 +1.1291363579E-001 +1.6973318138E+002  +5.5047833782E-004 +1.3766591939E+002  +3.4595640445E-004 -6.9051345276E+001  +2.4755455722E-001 -1.6999232232E+002 
384435.544 +1.1495909837E-001 +1.7017628220E+002  +4.2862108608E-004 +6.4401371743E+000  +1.7741058269E-004 +7.1725252269E+001  +2.4925463200E-001 -1.6870965683E+002 
509580.726 +1.1518755943E-001 +1.7143989963E+002  +4.5348680681E-004 +5.3196412659E+001  +2.2938102166E-003 +1.3531198513E+002  +2.3692237132E-001 -1.6490416238E+002 
634725.907 +1.1514484861E-001 +1.7362898766E+002  +1.2304477872E-004 -6.6586856298E+001  +5.5335371101E-004 +7.9649199719E+001  +2.4491183415E-001 -1.6430165350E+002 
759871.089 +1.1908156225E-001 +1.7110104298E+002  +1.9563310653E-004 -1.0389440713E+002  +2.3168930041E-004 -1.0305572541E+002  +2.5800814765E-001 -1.6577338091E+002 
885016.270 +1.2118668820E-001 +1.6961606556E+002  +1.4591434736E-004 +7.2464061430E+001  +4.5588066790E-004 -2.5473785824E+001  +2.4495835663E-001 -1.6735536234E+002 
1010161.452 +1.1585996432E-001 +1.7075374433E+002  +9.3503021058E-004 -2.2004100469E+000  +8.5192976726E-004 +1.3132900414E+002  +2.1200770389E-001 -1.6751725341E+002 
1135306.633 +1.1540964157E-001 +1.6835320188E+002  +1.1829071617E-003 -6.1452255652E+001  +1.2948666705E-003 +1.2465021210E+002  +2.1012699142E-001 -1.7392736685E+002 
1260451.815 +1.2127292324E-001 +1.7013324170E+002  +7.1760876792E-004 -6.0619954196E+001  +2.1082987123E-003 +7.3700226280E+001  +1.9942034060E-001 -1.5748342585E+002 
1385596.996 +1.2566118230E-001 +1.7356006732E+002  +1.0553694389E-003 +1.2487229690E+002  +1.3527441272E-003 +4.9887293431E+001  +2.7496681208E-001 -1.5974895026E+002 
1510742.178 +1.2469362957E-001 +1.7187654726E+002  +1.7448638638E-003 -1.3648507252E+002  +1.0495595278E-003 -1.6788496605E+002  +2.5947424241E-001 -1.5844057965E+002 
1635887.359 +1.2277500604E-001 +1.7187941132E+002  +3.9310595323E-004 +2.1786729009E+001  +1.1557983821E-003 +2.5290596354E+001  +2.5272689452E-001 -1.5576874300E+002 
1761032.541 +1.2642591027E-001 +1.7021026293E+002  +1.3257468070E-003 +8.2008559177E+001  +8.4814957670E-004 +1.6419671592E+002  +2.3428397410E-001 -1.5452804608E+002 
1886177.722 +1.3239267958E-001 +1.6811008601E+002  +1.2133574255E-003 +1.1294873397E+002  +2.2564476974E-003 -3.1360066462E+001  +2.0576624892E-001 -1.6888848654E+002 
2011322.904 +1.3049465735E-001 +1.6793756538E+002  +1.4518355674E-003 +1.0837355686E+002  +1.4916730196E-003 +1.6873448678E+002  +2.0387463465E-001 -1.5905766060E+002 
2136468.085 +1.2457657913E-001 +1.6720197933E+002  +2.1689937621E-003 +2.7255504855E+000  +1.2648887734E-003 -2.9889615539E+001  +2.0057668831E-001 -1.6737261558E+002 
2261613.267 +1.3674299055E-001 +1.6515387346E+002  +4.0256521455E-003 +1.4688567153E+002  +5.3150848656E-003 -3.1698826995E+001  +1.7035837232E-002 +1.2431617771E+002 
2386758.448 +1.3074160812E-001 +1.6067808479E+002  +8.0754171326E-003 -5.6349259910E+001  +8.5227397074E-003 -1.7060865602E+001  +1.3401416787E-001 +1.6836580707E+002 
2511903.630 +1.3957856354E-001 +1.5953627588E+002  +1.7495250914E-002 +5.9733569578E+001  +9.2429087969E-003 -3.1199049091E+001  +2.1525331477E-001 +1.1602478400E+002 
2637048.811 +1.2312245758E-001 +1.7042631460E+002  +4.3264435888E-003 +7.7252314457E+001  +3.6401222867E-003 +5.4042297167E+001  +2.3908026905E-001 +1.5572022281E+002 
2762193.992 +9.4116674452E-002 +1.7408094532E+002  +4.2290020828E-002 +1.8294757766E+001  +2.2294605109E-002 -1.0690528055E+002  +2.8490074262E-001 -6.7614196826E+001 
2887339.174 +1.2676061144E-001 -1.7826973987E+002  +4.6226361078E-003 -8.0299202460E+001  +5.6748073441E-003 +1.7458196434E+002  +3.1524106133E-001 -9.5444618670E+001 
3012484.355 +1.2841951944E-001 +1.7838884733E+002  +2.1949636258E-002 -7.4491976911E+001  +2.6506113887E-002 -1.4242278495E+002  +1.1064857127E+000 -9.0741320284E+001 
3137629.537 +1.2982221979E-001 +1.7452142542E+002  +9.9930008761E-003 -4.6433539514E+001  +7.3969558102E-003 -1.7547231851E+002  +2.8685525302E-001 -9.2118549639E+001 
3262774.718 +1.2523418826E-001 +1.7371131587E+002  +1.1776078257E-002 +4.0011300713E+001  +1.0257441903E-002 -8.0878841673E+001  +2.1211826830E-001 -4.8395598620E+000 
3387919.900 +1.2848008359E-001 +1.5896744851E+002  +2.8742060969E-002 +1.6776131395E+002  +3.2349069737E-002 +5.9809597862E+001  +1.7447945374E+000 +1.4124511433E+002 
3513065.081 +1.5033629344E-001 +1.5480640675E+002  +2.9176962703E-002 +6.8125013443E+001  +1.4139417963E-002 -7.6474057898E+001  +3.1141216609E-001 +6.6234400890E+001 
3638210.263 +1.8402709873E-001 +1.5167288690E+002  +2.6618201267E-002 +1.1256690111E+002  +4.6581197130E-002 +3.3572438446E+001  +9.4686894461E-001 +9.5989660308E+001 
3763355.444 +1.7138863890E-001 +1.4451787359E+002  +1.6737960484E-002 -1.5788946501E+002  +1.4641556231E-002 +1.0306850994E+002  +8.6317693316E-001 +1.7085905804E+002 
3888500.626 +1.7496140372E-001 +1.4505452152E+002  +6.3039644770E-003 +7.5456938139E+001  +5.7875280283E-003 -7.7024219172E+000  +4.7176799670E-001 +1.1460568748E+002 
4013645.807 +1.6742038696E-001 +1.5007754460E+002  +2.5793135575E-002 +8.3803977967E+001  +2.2559865587E-002 +1.8742130326E+001  +6.4620296067E-001 +1.2070773088E+002 
4138790.989 +1.8265175907E-001 +1.5068689322E+002  +1.0115422521E-002 +1.0518315165E+002  +1.2241735475E-002 +1.8190309865E+001  +4.1708414269E-001 +1.4513171062E+002 
4263936.170 +2.0488773041E-001 +1.4662823971E+002  +1.6187546980E-002 +1.0011953377E+002  +2.3758780694E-002 +3.3169052723E+001  +7.7925442893E-001 +1.2114659929E+002 
4389081.352 +2.4354846989E-001 +1.4154347126E+002  +2.8456070876E-002 +8.9196901055E+001  +1.6804899885E-002 -1.9649647852E+001  +3.7982848285E-001 +6.0405214242E+001 
4514226.533 +2.4614906527E-001 +1.3096920825E+002  +4.0463470183E-002 +1.2210834091E+002  +2.7339530458E-002 +4.1148174914E+001  +7.8865896492E-001 +1.1336608894E+002 
4639371.715 +3.2022316201E-001 +1.3481322723E+002  +3.8575020835E-002 +1.1211503156E+002  +3.9280768517E-002 +1.3419365592E+002  +1.6603606606E+000 +1.1782649610E+002 
4764516.896 +3.0405170734E-001 +1.2021796499E+002  +1.3762104739E-001 +1.4561093019E+002  +1.1399349296E-001 +1.0489005559E+002  +2.7947982675E+000 +1.2679523570E+002 
4889662.078 +3.3651356294E-001 +1.1353903014E+002  +5.7213857959E-002 -6.4780133477E+001  +6.0020202037E-002 -6.5551874957E+001  +1.9752491338E+000 -1.1263725333E+002 
5014807.259 +4.1114406072E-001 +1.2505647701E+002  +1.8096630223E-001 +5.2340382158E+001  +1.5486262677E-001 +2.6977104752E+001  +6.7266108907E+000 +3.4051690766E+001 
5139952.441 +4.5175693316E-001 +1.0929315983E+002  +3.1039883444E-001 -1.5157611829E+002  +4.2046080938E-001 -1.7702770046E+002  +1.0651862134E+001 +1.7666857961E+002 
5265097.622 +3.6805007748E-001 +1.2888425482E+002  +2.6870025179E-002 +1.2880654663E+002  +4.2946609772E-002 +1.0927865214E+002  +2.0388936049E+000 +1.2200754076E+002 
5390242.804 +3.1905707660E-001 +1.3058008034E+002  +5.8229292697E-002 +9.6381073133E+001  +8.5896941889E-002 +3.0227318229E+001  +2.3156597218E+000 +7.0611221846E+001 
5515387.985 +4.0303155248E-001 +1.3395649704E+002  +2.6722961335E-002 +8.1404811556E+001  +1.5990499045E-002 +4.3672831593E+001  +1.0832363179E+000 +8.6806296898E+001 
5640533.166 +4.4570875586E-001 +1.2964279772E+002  +1.3438431062E-001 +5.8190833131E+001  +5.7685277905E-002 +3.1791208927E+001  +4.6109219301E+000 +2.2429214965E+001 
5765678.348 +4.9330096882E-001 +1.3038272179E+002  +3.3663650514E-002 +6.7095813981E+001  +3.1799304867E-002 +6.2739520857E+001  +1.2772168099E+000 +6.6644902216E+001 
5890823.529 +5.7010623251E-001 +1.2574404358E+002  +4.9448655276E-002 +5.8484287250E+001  +3.3824744851E-002 +6.5287643445E+001  +1.8326583968E+000 +5.6590520748E+001 
6015968.711 +6.1503577922E-001 +1.2533731061E+002  +4.4517641616E-002 +3.1206533099E+001  +5.8857430481E-002 +3.5028202222E+001  +2.5881978273E+000 +2.1584049844E+001 
6141113.892 +5.9428344068E-001 +1.1380668748E+002  +4.2102307291E-002 +4.6171360109E+001  +3.9517645788E-002 -3.1413095180E+000  +1.4097428162E+000 +2.5917145891E+001 
6266259.074 +9.5586988706E-001 +9.3542559085E+001  +7.5452643526E-002 +3.5446963968E+001  +1.1158917132E-001 +2.9115293351E+001  +1.5501256256E+000 +2.4169059809E+001 
6391404.255 +1.0477144563E+000 +9.0795864968E+001  +8.6096553962E-002 +5.7781305139E+001  +5.3300735336E-002 +1.3085015207E+001  +1.4272598639E+000 +3.1953835973E+001 
6516549.437 +1.2208624866E+000 +7.5346174095E+001  +8.7383900579E-002 +3.9194945508E+001  +1.1265032712E-001 +4.0590148402E+001  +1.8786429630E+000 +7.4066469899E+000 
6641694.618 +1.5221764772E+000 +8.5710851146E+001  +6.5258160919E-002 +1.8908791335E+001  +6.3742312988E-002 +7.8093198580E+000  +1.2927166557E+000 +4.9082404372E+000 
6766839.800 +1.2103602583E+000 +6.5334519691E+001  +7.0864847006E-002 +2.2386496655E+001  +5.0144453067E-002 -1.3307418051E+001  +1.5747302726E+000 -1.3640273645E+001 
6891984.981 +1.7539693013E+000 +2.5086011343E+001  +6.3232136831E-002 +1.6341715616E+000  +7.1286938429E-002 -1.8573464281E+001  +1.2567503888E+000 +9.8926399108E-001 
7017130.163 +1.9187102481E+000 +1.9817926407E+000  +7.1243276790E-002 -1.1694590306E+001  +6.0064175305E-002 -1.5582300224E+001  +1.4692854620E+000 -7.6361889890E+000 
7142275.344 +1.5099534444E+000 +1.1917440045E+001  +5.0380404833E-002 +6.3600436683E+000  +4.6308426313E-002 -8.4988607166E-001  +1.3257706379E+000 -1.2962460082E+001 
7267420.526 +1.4434207979E+000 -9.7030409171E-001  +3.8901513916E-002 -2.6007419123E+001  +5.1861894819E-002 +8.4546036454E+000  +1.3540851241E+000 -8.1338007987E+000 
7392565.707 +1.3296519329E+000 +2.8588038117E-001  +3.5474217358E-002 +1.5110240991E+001  +3.2241897246E-002 +1.5438638574E+001  +1.4199803892E+000 -1.3634238983E+001 
7517710.889 +1.1380954581E+000 +2.7227422637E+000  +2.7698614050E-002 -8.6012379480E+000  +3.4334104985E-002 +8.5467228932E+000  +1.1907255208E+000 -3.7980547226E+000 
7642856.070 +9.6617780522E-001 +1.3931764913E+000  +2.7049705267E-002 +8.3608183496E+000  +3.8100109356E-002 +4.0566795004E+000  +1.0393698842E+000 -1.5407811898E-001 
7768001.252 +7.1371466206E-001 +2.8725796316E+000  +2.6815054475E-002 +9.3772275896E+000  +2.0711734688E-002 +3.1542513270E+000  +1.0255239318E+000 +7.0067292416E-001 
7893146.433 +7.4713844574E-001 +9.2195749363E+000  +2.1237405687E-002 -1.3193786999E+001  +3.1995825454E-002 +1.2639572811E+001  +8.6778707001E-001 -6.3553227501E+000 
8018291.615 +7.5325451808E-001 +1.2820884768E+001  +1.8898681746E-002 -4.5456385217E+000  +2.8055410783E-002 +3.3555179602E+000  +7.3718051639E-001 -4.6600563221E+000 
8143436.796 +7.4916162963E-001 +5.1305865492E+000  +2.7291402290E-002 -3.3686057055E+000  +2.8757359015E-002 +1.8723883016E+001  +7.3664482533E-001 +2.7598126245E+000 
8268581.977 +6.7076668265E-001 +7.0611841363E+000  +2.3530839972E-002 +6.6500633445E+000  +2.7299002406E-002 +1.5025578821E+001  +7.4245119539E-001 -1.9940674397E+000 
8393727.159 +6.6885374384E-001 +9.2481070164E+000  +2.7221998000E-002 +2.9517421934E+000  +2.1332240536E-002 -4.3164309768E+000  +7.1008049487E-001 -1.4318492962E+000 
8518872.340 +6.4957490432E-001 +1.3140324564E+001  +2.5428295383E-002 -3.9775099076E+000  +2.0659066985E-002 +1.0937299919E+001  +6.6212190719E-001 -2.6990562345E-001 
8644017.522 +6.6506649824E-001 +3.9153381957E+000  +2.3852864103E-002 +3.1683014384E+000  +2.5393211872E-002 +8.0764190150E+000  +6.6952554846E-001 -1.2348614944E+000 
8769162.703 +6.2977695138E-001 +9.7524541685E+000  +2.2902676833E-002 -1.7547441606E+000  +2.0532494874E-002 +2.1231831889E+001  +6.3563763566E-001 +5.0480993466E-001 
8894307.885 +6.1057185367E-001 +1.3304750044E+001  +1.6371455678E-002 -6.0883642353E+000  +2.3968265925E-002 +9.4610935341E+000  +6.1019894414E-001 +3.3333681333E+000 
9019453.066 +5.3521718833E-001 +8.3265087763E+000  +2.3600283842E-002 -5.2422381710E+000  +2.2825270497E-002 +5.8651428218E+000  +5.8832465022E-001 -2.8887587994E+000 
9144598.248 +5.2810864834E-001 +6.1744566970E+000  +2.4116139453E-002 -1.0936836356E+001  +2.4344199484E-002 +7.8056087660E+000  +5.5947145448E-001 -5.1354059049E+000 
9269743.429 +5.5617489944E-001 +7.2046613520E+000  +2.2761050337E-002 -9.8603393750E+000  +2.3822940159E-002 +2.0055457440E+001  +5.9299669446E-001 -1.0475033598E+000 
9394888.611 +5.4416726095E-001 +5.4840497373E+000  +2.3705868963E-002 -1.1202300444E+000  +2.0109498456E-002 +1.3209529964E+001  +5.9344623595E-001 +3.6314861076E+000 
9520033.792 +5.2957846017E-001 +1.0574529694E+001  +2.2672772615E-002 +1.3750285231E+000  +1.9849909915E-002 +1.6578129647E+001  +5.4744832072E-001 -1.6374895859E+000 
9645178.974 +5.3544720999E-001 +5.7183452285E+000  +2.1120379184E-002 +2.8601892132E+000  +2.2502630049E-002 +1.2567493842E+001  +5.6676196506E-001 -3.9959572816E+000 
9770324.155 +4.7550609564E-001 -1.3632312439E+000  +2.2931758124E-002 -2.6388161699E+000  +2.2661445992E-002 +1.6677487376E+001  +5.6966639480E-001 -4.1866770625E+000 
9895469.337 +5.0172517342E-001 +5.1386045065E+000  +2.2264305532E-002 +4.1770830521E+000  +2.0795324758E-002 +6.1985724300E+000  +5.3532626224E-001 -7.1061024995E+000 
10020614.518 +5.3257903083E-001 +3.2497900373E-002  +1.9307204184E-002 -1.0093333048E+000  +2.5496817393E-002 +1.0327679111E+001  +5.5941916428E-001 -5.9628244613E+000 
10145759.700 +5.1287544049E-001 +5.1204765441E+000  +2.4341613636E-002 -1.8750507489E+000  +2.3339879425E-002 +1.6972061392E+001  +6.0648822714E-001 -8.0968191527E-001 
10270904.881 +5.1547718943E-001 +3.8955326615E+000  +2.3635232007E-002 -3.5198320934E+000  +2.2691887080E-002 +1.0855966026E+001  +5.5757745650E-001 -3.2210416252E+000 
10396050.063 +5.6478514552E-001 +4.5286176791E+000  +2.3110930362E-002 +4.7701130440E+000  +2.3680377228E-002 +1.7355728342E+001  +5.6124406175E-001 -3.3215162519E+000 
10521195.244 +5.5781429051E-001 +7.8229662638E+000  +2.2849593420E-002 +2.0385940658E+000  +2.2959584800E-002 +1.6901120467E+001  +5.6874147204E-001 +1.0839523715E+000 
10646340.426 +5.7726390684E-001 +6.0328758455E+000  +2.3581939735E-002 +1.9617809262E+000  +2.3237834134E-002 +1.4357493910E+001  +5.8646000651E-001 +2.0188413171E+000 
10771485.607 +5.7467773263E-001 +6.1080354673E+000  +2.3403161355E-002 +2.8725573253E+000  +2.3762479931E-002 +1.4790722629E+001  +5.8170010644E-001 -1.3915835857E+000 
10896630.788 +5.6406682121E-001 +5.9530755779E+000  +2.4790855046E-002 +5.9426537714E+000  +2.2511159623E-002 +6.2580143602E+000  +5.8159936534E-001 +6.4076119489E-001 
11021775.970 +5.9044555759E-001 +6.5250514453E+000  +2.3533388680E-002 -2.1120919090E-001  +2.2972780014E-002 +1.2615658535E+001  +5.8749079838E-001 +3.2086811758E+000 
11146921.151 +5.7447727363E-001 +6.9921495931E+000  +2.2319374716E-002 +3.7310394848E-001  +2.0726128287E-002 +1.6672733360E+001  +6.0576707719E-001 +3.0617295247E+000 
11272066.333 +6.1147782776E-001 +5.8247795086E+000  +2.6490508031E-002 +2.9710418910E-001  +2.5308902707E-002 +1.6809473130E+001  +6.2047270004E-001 +1.4597911945E+000 
11397211.514 +6.0384730710E-001 +1.0780032102E+001  +2.4723525624E-002 +5.3329509897E-002  +2.3667339672E-002 +1.4384402924E+001  +6.1636232373E-001 +2.5861196982E+000 
11522356.696 +6.1637834502E-001 +7.6922999589E+000  +2.4801246882E-002 +3.5224656975E+000  +2.4733960544E-002 +1.6403888904E+001  +6.4830145366E-001 -5.8220253360E-001 
11647501.877 +6.2740207719E-001 +7.4195976318E+000  +2.6102835047E-002 -2.6230541709E-001  +2.3673515063E-002 +1.7488221432E+001  +6.5216398864E-001 +3.7648247045E+000 
11772647.059 +6.3043491418E-001 +6.3738193716E+000  +2.4988159587E-002 +6.1971827326E+000  +2.6571642690E-002 +1.2136367682E+001  +6.5277573182E-001 -3.7570583676E-001 
11897792.240 +6.7146726114E-001 +7.0254554115E+000  +2.5724687030E-002 +4.7321264160E+000  +2.6105147797E-002 +1.3897263744E+001  +6.3577420604E-001 -2.0335397922E-001 
12022937.422 +6.6823448477E-001 +5.7477435073E+000  +2.6066047115E-002 +3.8548351788E+000  +2.5511967209E-002 +1.4284239963E+001  +6.5457752267E-001 +8.0929021029E-001 
12148082.603 +6.6831281273E-001 +3.6307330340E+000  +2.5528981637E-002 +2.1876989281E+000  +2.6914906591E-002 +1.1148370610E+001  +6.6577467814E-001 +6.6760523554E-002 
12273227.785 +6.9293774476E-001 +4.3715652488E+000  +2.7013679340E-002 +3.3485267610E+000  +2.6312013158E-002 +1.2918830888E+001  +6.8148580205E-001 -6.7800514884E-001 
12398372.966 +6.7167921223E-001 +5.8542442604E-001  +2.5318904962E-002 +1.3731664188E+000  +2.8069943712E-002 +9.5523822859E+000  +7.3175568051E-001 +8.4689771596E-001 
12523518.148 +7.0855842020E-001 +3.0382576318E+000  +2.7275275928E-002 +5.3905440873E+000  +2.5603781703E-002 +1.0046965395E+001  +7.3966919647E-001 +2.3872379920E+000 
12648663.329 +7.2124625525E-001 +1.4280317540E+000  +2.6776469255E-002 +5.6823470018E+000  +2.4760096800E-002 +1.0304409291E+001  +7.1720839420E-001 -1.0047629938E+000 
12773808.511 +7.3732255976E-001 +2.6491150307E+000  +2.6049233204E-002 +5.2821920334E+000  +2.7789258195E-002 +8.1464454619E+000  +7.5453697904E-001 -7.8227459777E-001 
12898953.692 +7.3977376196E-001 +3.1969372677E+000  +2.7134488638E-002 +3.3716954312E+000  +2.6819565249E-002 +8.7017892854E+000  +7.6870286797E-001 -1.3732436071E+000 
13024098.874 +7.7687644743E-001 +1.3630295510E+000  +2.7692935910E-002 +5.9730579431E+000  +2.7935860448E-002 +8.7325640910E+000  +7.8304046045E-001 -3.3884451121E+000 
13149244.055 +7.9083428895E-001 -1.1320498286E+000  +2.7938685467E-002 +4.9496538008E+000  +2.8210197585E-002 +1.0689302185E+001  +7.8659410079E-001 -1.1465340166E+000 
13274389.237 +7.8818728642E-001 +7.0511383688E-001  +2.8715081613E-002 +5.0267683216E+000  +2.7798129483E-002 +9.4249066803E+000  +8.0431052477E-001 -2.8410994558E+000 
13399534.418 +8.2418466314E-001 -9.5733145554E-001  +2.9438986160E-002 +6.9248984906E+000  +2.9010600061E-002 +5.8039527793E+000  +8.1551094226E-001 -1.3976002063E+000 
13524679.599 +8.4307627447E-001 -7.5523330455E-001  +2.9990106503E-002 +4.9037112841E+000  +2.8839228976E-002 +7.3043170850E+000  +8.4797517574E-001 -2.0676553507E+000 
13649824.781 +8.3461194886E-001 -2.0985254525E+000  +2.9070938525E-002 +3.6671797168E+000  +2.9454848163E-002 +7.6077919862E+000  +8.4125195118E-001 -2.6805867216E+000 
13774969.962 +8.7923656575E-001 -2.7186665452E+000  +2.9275363248E-002 +5.1592438032E+000  +2.8971312574E-002 +6.8197438475E+000  +8.7832776657E-001 -1.6530608100E+000 
13900115.144 +9.0333967475E-001 -3.3888589905E+000  +2.8455104427E-002 +6.3429558576E+000  +2.9656394328E-002 +4.3063371764E+000  +9.0358936455E-001 -2.3125107709E+000 
14025260.325 +8.9179362901E-001 -4.3025953969E+000  +3.1303663989E-002 +8.1746886777E+000  +2.9664916606E-002 +5.9407614563E+000  +9.2358062570E-001 -4.3553705541E+000 
14150405.507 +9.2879195917E-001 -4.5475293028E+000  +3.1372438368E-002 +2.1765636739E+000  +2.8649570376E-002 +5.9047586063E+000  +9.1697472382E-001 -4.3833523880E+000 
14275550.688 +9.1953200832E-001 -4.8564713649E+000  +3.0446107672E-002 +4.8580929404E+000  +3.0901018833E-002 +3.7990010513E+000  +9.5003093357E-001 -4.5302268828E+000 
14400695.870 +9.3751173056E-001 -5.1689670466E+000  +3.0565867888E-002 +4.5065834252E+000  +2.9988032508E-002 +2.6461781883E+000  +9.5632394779E-001 -4.7648033193E+000 
