!  2-Port S-parameters saved by WinCal
! VAR MeasName=S-Parameters (CALIBRATED_DATA) read from VNA (P5004A)
! VAR MeasDate=29/08/2024 13:44:00
! VAR NAME=S2_r9c6_RESET2_9k-100M_2
! VAR FILENAME=S2_r9c6_RESET2_9k-100M_2.S2P
! VAR DATE=29/08/2024 13:44:00
! VAR PHYS_PORTS=1,2
! VAR ObjTypeName=DATASET
! VAR IndexType=Frequency
!
# Hz S MA R 50
9000.000 +7.4635969470E-002 -1.6607180309E+002  +7.4511785261E-003 -1.6783020822E+002  +3.5256687312E-003 -7.0377338076E+001  +2.3704268383E-001 -1.4496280184E+002 
134145.181 +1.1149133062E-001 +1.6971894785E+002  +2.1429109854E-004 -5.8782014169E+001  +8.2542356391E-004 +1.6598213441E+002  +2.3678407635E-001 -1.7111801260E+002 
259290.363 +1.1243760914E-001 +1.6955472064E+002  +4.4440694959E-004 -9.6240464365E+001  +1.4419861615E-003 +6.1192768490E+001  +2.4524950580E-001 -1.6831251944E+002 
384435.544 +1.1358784093E-001 +1.6932285080E+002  +5.2684417451E-004 +2.7284080354E+001  +7.4616965600E-004 +9.3914274936E+001  +2.4339475389E-001 -1.6900281574E+002 
509580.726 +1.1400869141E-001 +1.7100755060E+002  +2.2087949191E-003 -5.4093824597E+001  +6.4745074782E-004 +1.1060604189E+002  +2.4951117423E-001 -1.6366450231E+002 
634725.907 +1.1760098209E-001 +1.7107990296E+002  +1.3273392026E-003 -1.0076431336E+002  +1.7153796554E-003 -4.2051396657E+000  +2.5054547564E-001 -1.6300137322E+002 
759871.089 +1.2230189726E-001 +1.7145991931E+002  +4.1649348182E-004 -1.0559754379E+002  +1.8757380779E-003 +6.1345046759E+001  +2.5053268514E-001 -1.6593037087E+002 
885016.270 +1.2183202031E-001 +1.6921057419E+002  +3.5997258999E-004 -7.5941472734E+001  +5.9235204575E-004 +1.0795638192E+002  +2.5270045948E-001 -1.6667785237E+002 
1010161.452 +1.1738694608E-001 +1.7036993166E+002  +8.4688136853E-004 -7.7302013658E+001  +3.6957607175E-004 +2.3017212068E+001  +2.1234719949E-001 -1.6785147202E+002 
1135306.633 +1.1685906683E-001 +1.6836005921E+002  +8.7920182285E-004 +1.4691008962E+001  +1.7875454848E-003 +1.7499641484E+002  +2.0872419858E-001 -1.7622703776E+002 
1260451.815 +1.1829527014E-001 +1.6814401289E+002  +5.5656970588E-005 -1.6911656486E+002  +1.9149325499E-003 +1.2571395319E+002  +2.1555340147E-001 -1.5584598984E+002 
1385596.996 +1.2643763031E-001 +1.7215963456E+002  +6.0733911042E-004 -1.1945127555E+002  +1.6827216876E-003 +1.5845607669E+002  +2.6722554095E-001 -1.6000639012E+002 
1510742.178 +1.2587775184E-001 +1.7163867956E+002  +1.1601788358E-003 -1.3620991777E+002  +6.6982418330E-004 -1.6693354139E+000  +2.4622471349E-001 -1.5160840266E+002 
1635887.359 +1.2651796690E-001 +1.7152764424E+002  +8.0392920316E-004 -4.9042853587E+001  +2.5008329283E-003 -1.5322295660E+002  +2.4007484158E-001 -1.5819303602E+002 
1761032.541 +1.2822232619E-001 +1.6986994353E+002  +1.1366218446E-003 +9.6662619404E+001  +8.2649391430E-004 -7.3348816701E+001  +2.1981021815E-001 -1.6240190694E+002 
1886177.722 +1.2795309777E-001 +1.6908817314E+002  +2.4492452745E-003 +9.0861591046E+001  +2.5220083261E-003 -1.0214469801E+002  +2.0190679823E-001 -1.6158656383E+002 
2011322.904 +1.3367255987E-001 +1.6775877210E+002  +2.7517805321E-003 +1.3464896242E+002  +4.4978717859E-003 -5.1366362259E+001  +1.9337754419E-001 -1.7386772547E+002 
2136468.085 +1.3032474071E-001 +1.6165381561E+002  +1.4099847529E-002 +7.3463190666E+001  +1.5729103166E-002 -3.5288822973E+001  +1.0323069736E-001 +1.7495288277E+002 
2261613.267 +1.3665327322E-001 +1.6454946042E+002  +3.6576006632E-003 +7.1174916363E+001  +4.1089375571E-003 -9.1017444435E+001  +2.0379562999E-001 -1.6736844772E+002 
2386758.448 +1.3054732422E-001 +1.6332937350E+002  +7.6726480847E-003 +9.2652628190E+001  +5.9109430565E-003 -1.9072822122E+001  +2.1273278133E-001 -1.7439952975E+002 
2511903.630 +1.4120590721E-001 +1.6483563643E+002  +3.5491496566E-003 +9.8911657433E+001  +6.9459456272E-003 +2.3889147979E-001  +2.5544660183E-001 +1.6963290787E+002 
2637048.811 +1.2638576522E-001 +1.5278436131E+002  +1.5827709064E-002 +8.5109324725E+001  +1.8508561070E-002 -4.8893540881E+001  +1.4872006120E-001 +1.7199033445E+002 
2762193.992 +1.2182636342E-001 +1.6869712132E+002  +2.9099184044E-002 +7.0520821521E+001  +3.2242318881E-002 -5.1788414244E+001  +2.3646531455E-001 +1.0413268861E+002 
2887339.174 +1.2976089186E-001 +1.7304869688E+002  +3.4695411974E-002 -5.9320528792E+001  +2.2450457697E-002 -1.6644635816E+002  +4.2791449755E-001 -9.7442722744E+001 
3012484.355 +1.1017067430E-001 +1.6502058931E+002  +2.9046346362E-002 -5.2669879040E+001  +2.6952272350E-002 -1.3998240606E+002  +3.1962570803E-001 -1.0272397473E+002 
3137629.537 +1.3780044418E-001 +1.6794062451E+002  +3.2156779174E-002 +1.9010455170E+001  +3.3785511674E-002 -9.6214781158E+001  +2.6320338293E-001 -2.0321940932E+001 
3262774.718 +1.4345377013E-001 +1.5693290149E+002  +2.8539883141E-002 +4.0513945971E+001  +1.5113605020E-002 -4.1624841717E+001  +8.4072372839E-002 +4.8822699490E+001 
3387919.900 +1.1446471512E-001 +1.6052206518E+002  +8.2029832394E-002 +8.2428854145E+001  +6.6572293015E-002 -2.4968610646E+001  +6.5614576580E-001 +8.9069958597E+001 
3513065.081 +1.2485591840E-001 +1.4572885310E+002  +3.4360914484E-002 +9.7253685844E+001  +4.4961623875E-002 +3.0646220777E+001  +3.9276347866E-001 +1.5195687699E+002 
3638210.263 +1.6208388530E-001 +1.4422723592E+002  +2.2862609335E-002 +1.0924292609E+002  +2.2963454896E-002 +1.8835589716E+001  +3.9371725404E-001 +1.5182562949E+002 
3763355.444 +1.7563348750E-001 +1.5032783889E+002  +3.5051723188E-002 +7.7428585957E+001  +2.9454451142E-002 +7.6315031900E+000  +3.6972393808E-001 +1.2803039570E+002 
3888500.626 +1.8962429643E-001 +1.4794876417E+002  +5.6773978008E-002 +1.1458801718E+002  +5.6791957232E-002 +4.5058697246E+001  +7.0887551351E-001 +1.0941765922E+002 
4013645.807 +1.6411713605E-001 +1.4478084776E+002  +5.8489219226E-002 +1.1459041205E+002  +5.6941706352E-002 +2.8947701155E+001  +6.5169140354E-001 +1.2467631079E+002 
4138790.989 +1.7484073509E-001 +1.4849232186E+002  +2.6555662246E-002 +9.3254725866E+001  +2.7258159742E-002 +1.3008329213E+001  +2.8973436080E-001 +1.4498002271E+002 
4263936.170 +1.8771173731E-001 +1.4389241471E+002  +4.8635026992E-002 +1.2213428572E+002  +3.9707450794E-002 +7.2685832014E+001  +7.6762112935E-001 +1.5131556071E+002 
4389081.352 +2.4430774365E-001 +1.4789617176E+002  +5.7314991509E-002 +9.8583063051E+001  +6.1081590886E-002 +5.7171791245E+001  +6.1250443894E-001 +9.6734133198E+001 
4514226.533 +2.3400940023E-001 +1.4166916100E+002  +6.4813971139E-002 +1.5133956811E+002  +5.4696452411E-002 +9.9498698086E+001  +1.1269980268E+000 +1.5728866318E+002 
4639371.715 +2.4837147925E-001 +1.3303930863E+002  +1.8518339323E-001 +7.7825325228E+001  +1.8872975830E-001 +1.8950910026E+001  +2.0324901607E+000 +5.7295828967E+001 
4764516.896 +3.0675764553E-001 +1.2906716956E+002  +1.0060162316E-001 -1.7930014031E+002  +1.0717459895E-001 +1.4263053919E+002  +1.6450967827E+000 +1.7078293986E+002 
4889662.078 +4.0853662814E-001 +1.3995743100E+002  +4.1394242355E-001 -1.6403335868E+002  +3.9644120690E-001 +1.4883022088E+002  +4.7684706416E+000 +1.4825027324E+002 
5014807.259 +3.7703816634E-001 +1.3119655438E+002  +2.4299224642E-001 +1.2360146270E+002  +2.0302686405E-001 +8.2627358752E+001  +2.6162239841E+000 +8.8549802143E+001 
5139952.441 +3.7884149620E-001 +1.3458312569E+002  +4.5428675062E-001 +1.4943832152E+002  +5.2017631752E-001 +1.0691170179E+002  +6.5040796426E+000 +1.2197841704E+002 
5265097.622 +3.8947806932E-001 +1.2600815803E+002  +1.2959458789E-001 +1.0253587367E+002  +1.1750821338E-001 +6.8706131853E+001  +9.8933048003E-001 +9.9655509098E+001 
5390242.804 +3.6451179136E-001 +1.3145599383E+002  +1.1148605979E-001 +1.1730007612E+002  +1.4348633933E-001 +8.3757191758E+001  +1.7871984968E+000 +1.1246863482E+002 
5515387.985 +3.5022741746E-001 +1.2722708972E+002  +1.4486964220E-001 +9.3703804411E+001  +1.4168288336E-001 +4.9095952107E+001  +1.7218802933E+000 +8.5666148846E+001 
5640533.166 +4.1724986329E-001 +1.1755067036E+002  +1.6551133390E-001 +1.0207950470E+002  +1.8345222291E-001 +8.0651414756E+001  +1.9409271251E+000 +1.1524393886E+002 
5765678.348 +4.5102276027E-001 +1.2308744295E+002  +2.0053447916E-001 +7.7827625688E+001  +1.6000581450E-001 +3.3257780234E+001  +1.7588247123E+000 +5.7575996436E+001 
5890823.529 +4.6149445258E-001 +1.2252392856E+002  +1.6570286266E-001 +6.0982186410E+001  +1.5918721498E-001 +2.5879765471E+001  +1.5132452535E+000 +4.6359187222E+001 
6015968.711 +5.7846656726E-001 +1.1372608773E+002  +2.2858127129E-001 +5.6112720012E+001  +1.9308417096E-001 +2.7740163234E+001  +1.8455080132E+000 +3.6615097622E+001 
6141113.892 +6.5383763448E-001 +1.0590378671E+002  +2.2298832263E-001 +5.6903148927E+001  +2.2048468148E-001 +3.8439823198E+001  +1.9098669685E+000 +4.4768634330E+001 
6266259.074 +7.8420148710E-001 +1.0885640549E+002  +1.9767932339E-001 +5.6891952360E+001  +1.7124667963E-001 +3.7448575322E+001  +1.2605609512E+000 +3.7051439447E+001 
6391404.255 +8.3300672532E-001 +1.0018417434E+002  +1.8558939750E-001 +4.5222370785E+001  +2.0135191238E-001 +3.0068202344E+001  +1.4092936285E+000 +2.6178685479E+001 
6516549.437 +9.6765746130E-001 +9.3891347778E+001  +1.7692710541E-001 +4.4445670634E+001  +1.7120753971E-001 +2.6779106318E+001  +1.3990769262E+000 +2.0324882327E+001 
6641694.618 +9.6140692222E-001 +7.0518085259E+001  +2.1532171278E-001 +2.7974100452E+001  +2.2233159063E-001 +1.5806825414E+001  +1.4193411398E+000 +1.6571756631E+001 
6766839.800 +1.2448024146E+000 +6.6440672796E+001  +1.8452788575E-001 +2.4391506289E+001  +1.9939303318E-001 +2.0316473792E+001  +1.1567047935E+000 +2.8891046874E+000 
6891984.981 +1.0429987155E+000 +4.0806382814E+001  +1.7690949127E-001 +7.6809144786E+000  +1.8384042407E-001 -6.4605353703E+000  +1.0945715298E+000 -1.2546938479E+000 
7017130.163 +1.4690648114E+000 +1.8739338730E+001  +1.9015884825E-001 +8.3496246850E+000  +1.9971399476E-001 -1.6971593549E+000  +1.0345025074E+000 -4.2571228236E+000 
7142275.344 +1.1898231256E+000 +2.0956975499E+001  +1.5411075131E-001 +3.0908081279E+000  +1.5913564884E-001 -7.6609290077E-001  +1.2069208449E+000 -1.4054082554E+001 
7267420.526 +1.2866499029E+000 +2.8944791023E+000  +1.3015210749E-001 +2.5464750277E+000  +1.3948240810E-001 +5.2299427257E-001  +1.2573167547E+000 -1.1271896021E+001 
7392565.707 +1.3779808963E+000 -9.4927342005E+000  +1.2544693085E-001 +1.2495964145E-001  +1.3321631087E-001 +6.6144175696E+000  +1.1952023765E+000 -8.8729138481E+000 
7517710.889 +1.0089437319E+000 -7.6807002809E-001  +1.0209726106E-001 -4.7222249514E-001  +1.0627059605E-001 +8.3660812707E+000  +1.0743733249E+000 -5.9635970274E+000 
7642856.070 +8.6164321738E-001 -4.9304409826E+000  +1.0311295645E-001 -5.9530832016E+000  +1.0333604488E-001 +1.7605585607E+000  +9.1282056461E-001 +2.7470582871E+000 
7768001.252 +8.0148507761E-001 +3.4244679685E+000  +9.7762833759E-002 +1.9830577747E+000  +9.8475122562E-002 +5.8330649087E+000  +9.3863988072E-001 -3.3817459837E+000 
7893146.433 +7.5262556231E-001 +7.6571369408E+000  +9.0981471147E-002 -1.0491994420E+000  +9.2672536836E-002 +8.3126902810E+000  +7.7752315896E-001 -2.4260376990E+000 
8018291.615 +7.7497175852E-001 +9.6766941032E+000  +9.4925084711E-002 -3.7695822102E+000  +9.0673387057E-002 +9.7537964024E+000  +7.3284735537E-001 -5.2052000269E-001 
8143436.796 +6.4111656781E-001 +8.9193510971E+000  +8.8829022759E-002 -1.2807710076E+000  +8.9820897378E-002 +6.2868081084E+000  +7.9843467680E-001 -6.7986758607E-001 
8268581.977 +6.6513538294E-001 +1.2082387373E+001  +8.2003724833E-002 +3.8589498098E-001  +8.3276269976E-002 +9.0508608576E+000  +7.7527031142E-001 -1.8860916782E-001 
8393727.159 +6.6250001171E-001 +1.3934596637E+001  +8.4910130045E-002 +1.3856838561E+000  +8.0174982707E-002 +8.1249987801E+000  +6.2200009043E-001 +4.2480264925E+000 
8518872.340 +5.6616525333E-001 +1.1296479471E+001  +8.3294417476E-002 -6.6503170056E+000  +8.1707657229E-002 +8.7224563998E+000  +6.3666293725E-001 +5.5851065051E+000 
8644017.522 +5.6176251426E-001 +1.1034156704E+001  +8.0151425862E-002 -1.5498078518E+000  +8.0603587592E-002 +9.8568945610E+000  +6.2278646126E-001 +6.0837903639E+000 
8769162.703 +5.3743949916E-001 +8.8565557532E+000  +8.5793275420E-002 -4.1639578175E+000  +8.4363548707E-002 +1.3297777413E+001  +6.2621689300E-001 +1.1939691172E+000 
8894307.885 +5.0570047123E-001 +5.1506830570E+000  +8.0314828351E-002 -5.5223756031E+000  +7.9791607209E-002 +1.3084582021E+001  +6.1953876743E-001 +3.1922697713E+000 
9019453.066 +5.6383179090E-001 +1.0185784024E+001  +8.1025892893E-002 -4.7794119164E+000  +8.0408957511E-002 +5.8530608808E+000  +5.0938490702E-001 -5.1463476298E+000 
9144598.248 +4.7817655524E-001 +5.8374411088E+000  +8.3683502287E-002 -4.0751606227E+000  +7.9657328357E-002 +8.1918411985E+000  +5.1159246383E-001 +1.1471524495E+000 
9269743.429 +4.4200746988E-001 +2.0574832496E+000  +7.8949328031E-002 -4.4135268280E+000  +8.2446559442E-002 +1.1007301514E+001  +5.0316991163E-001 -9.8058714529E-001 
9394888.611 +4.0329939428E-001 +7.1986296136E+000  +7.6461144905E-002 -7.8551534493E+000  +7.6378932718E-002 +9.6220770949E+000  +5.3217736889E-001 +5.3802483410E+000 
9520033.792 +4.6825338621E-001 +3.9674469314E+000  +8.3222944803E-002 -5.0367294611E+000  +8.2713686277E-002 +1.1276690137E+001  +5.3597079179E-001 +9.9641695075E-001 
9645178.974 +4.3693767998E-001 +3.4240617444E+000  +7.9216007258E-002 -3.0472471104E+000  +7.7733997561E-002 +1.2684642858E+001  +5.3077877209E-001 -2.3440216254E+000 
9770324.155 +4.5106682566E-001 +2.2335836262E+000  +8.1006986596E-002 -3.8785447984E+000  +7.9029269196E-002 +1.0623817619E+001  +5.1708921505E-001 -2.9940922581E+000 
9895469.337 +4.5194748242E-001 -6.2390246697E-001  +8.3360188647E-002 -3.0455254343E+000  +7.9812493108E-002 +1.2871628377E+001  +4.9526619977E-001 -7.1921052362E+000 
10020614.518 +4.7521191299E-001 +3.4669012194E+000  +8.3188551665E-002 -3.0056460233E+000  +8.2998095612E-002 +1.3308144706E+001  +5.1371398885E-001 -2.9101117821E+000 
10145759.700 +4.6064135183E-001 +2.5985669293E+000  +7.8745554460E-002 -2.7692484336E+000  +8.3589278521E-002 +1.2403341846E+001  +4.9300137513E-001 -5.0756648482E+000 
10270904.881 +4.7235162409E-001 +7.2890526837E+000  +8.1081582081E-002 -2.8401735062E+000  +8.3397101462E-002 +1.3145831773E+001  +5.1605519830E-001 -4.7549326637E+000 
10396050.063 +4.4849291319E-001 +4.8412396531E+000  +8.1877966045E-002 -3.7256287378E+000  +8.0685301743E-002 +1.2771032627E+001  +5.1614504695E-001 +3.9341908440E+000 
10521195.244 +4.8212277833E-001 +1.0444380550E+001  +8.2293716676E-002 -2.0061141189E+000  +7.9482138842E-002 +1.1865173668E+001  +4.8431634692E-001 +1.1893168722E+000 
10646340.426 +5.0324766062E-001 +9.3717955052E+000  +8.4981257364E-002 -1.3970116942E+000  +8.4844679608E-002 +1.3198582186E+001  +5.1992105893E-001 -2.2087869111E+000 
10771485.607 +5.1336244951E-001 +5.9980218144E+000  +8.6427274224E-002 -2.8054032694E+000  +8.4677202154E-002 +1.4506237086E+001  +5.1045168115E-001 -5.5177078831E-001 
10896630.788 +5.0391881243E-001 +9.6404835814E+000  +8.2746099956E-002 -2.4931416510E+000  +8.3798219656E-002 +1.3727155463E+001  +5.2386457888E-001 +2.9401357166E+000 
11021775.970 +5.1446889280E-001 +5.7265792610E+000  +8.5262745947E-002 -1.9761592388E+000  +8.6262561687E-002 +1.2748952580E+001  +5.3123932978E-001 +5.0468691258E+000 
11146921.151 +5.1392752828E-001 +8.6740112185E+000  +8.9044727968E-002 -4.5874723906E-001  +8.6725795912E-002 +1.3561711250E+001  +5.6221642649E-001 -2.3808611796E+000 
11272066.333 +5.1132325453E-001 +9.0444696673E+000  +8.7078188519E-002 -3.7221517833E-001  +8.6780457703E-002 +1.2401140597E+001  +5.2441600197E-001 +3.2922350119E+000 
11397211.514 +5.2686849451E-001 +7.2787675591E+000  +8.8379946103E-002 +3.8049404535E-001  +8.9132684706E-002 +1.2106627553E+001  +5.5394805929E-001 +2.4969869303E+000 
11522356.696 +5.3049379950E-001 +5.0053210910E+000  +8.7173004950E-002 +1.8752632423E-001  +8.6842839849E-002 +1.1319051266E+001  +5.6416118755E-001 +4.8464954879E+000 
11647501.877 +5.5867890156E-001 +7.5876583438E+000  +9.0847948791E-002 +3.7651740089E-001  +9.1629007442E-002 +1.1634951811E+001  +5.6412584280E-001 +1.4009604160E+000 
11772647.059 +5.7984510282E-001 +7.2175481213E+000  +8.9667857733E-002 +5.7123833575E-001  +9.0417521057E-002 +1.0920773163E+001  +5.5660880348E-001 +1.5660733130E+000 
11897792.240 +5.8203994586E-001 +3.8728916961E+000  +9.3466899109E-002 +7.1794274695E-001  +9.0889779662E-002 +1.2021551684E+001  +5.7777807627E-001 +5.0758478909E+000 
12022937.422 +5.7675672719E-001 +4.5666865168E+000  +9.1782804125E-002 +1.6912620316E+000  +9.2107324388E-002 +1.2272932420E+001  +6.2114496116E-001 +3.5341252806E+000 
12148082.603 +5.8914104235E-001 +4.9121254948E+000  +9.3668642698E-002 +1.1860264733E+000  +9.3487207533E-002 +9.8930329783E+000  +5.9647845442E-001 -7.8526706649E-001 
12273227.785 +6.4954352093E-001 +4.8291147806E+000  +9.7231778682E-002 +2.3297931886E+000  +9.3854310836E-002 +9.8523160938E+000  +6.3621814744E-001 -3.9704088342E-001 
12398372.966 +6.2490769381E-001 +5.5572418753E+000  +9.6979507771E-002 +2.9567701392E+000  +9.4435213446E-002 +9.6234519942E+000  +6.3813711123E-001 -4.5268312782E-001 
12523518.148 +6.1251614635E-001 +5.1770322961E+000  +9.7807466322E-002 +1.4325310861E+000  +9.6530723198E-002 +9.2168867930E+000  +6.4066913390E-001 +7.1351282005E-001 
12648663.329 +6.5527440794E-001 +3.1693741976E+000  +9.8953456018E-002 +1.9096292983E+000  +9.6041317614E-002 +9.6203438133E+000  +6.6630825312E-001 +1.0131003990E+000 
12773808.511 +6.5415121500E-001 +2.7260066765E+000  +9.7940776240E-002 +3.3505710835E+000  +9.8052226999E-002 +8.0382781168E+000  +6.8306697074E-001 +3.4529779693E-001 
12898953.692 +6.5687062443E-001 +3.1299261258E+000  +1.0048180234E-001 +2.7357999660E+000  +9.9561029814E-002 +7.7519560902E+000  +6.8278892998E-001 -1.2569302666E+000 
13024098.874 +6.9952592717E-001 +1.1445566364E+000  +1.0120372079E-001 +2.8725295026E+000  +9.9368266060E-002 +8.2419014413E+000  +7.1411025542E-001 -1.2780715877E-003 
13149244.055 +7.1360639996E-001 -3.1913018834E-001  +1.0161864895E-001 +2.8645330397E+000  +9.9827819589E-002 +6.2311968155E+000  +7.2181294285E-001 +7.3693157175E-001 
13274389.237 +7.2128063938E-001 -1.2870754695E+000  +1.0224733470E-001 +3.3222663303E+000  +1.0167748776E-001 +5.8263976485E+000  +7.1205225811E-001 -1.3541908372E+000 
13399534.418 +7.5207081788E-001 +4.9377797507E-001  +1.0206624710E-001 +3.2661257548E+000  +1.0016927262E-001 +5.6871919120E+000  +7.4610112762E-001 -3.8918861585E-001 
13524679.599 +7.5835850546E-001 -1.8242588739E+000  +1.0504580873E-001 +2.4207321139E+000  +1.0409886525E-001 +4.9168690887E+000  +7.8463340980E-001 -4.1591565746E+000 
13649824.781 +7.9020979194E-001 -2.7607724797E+000  +1.0546653014E-001 +2.6831668526E+000  +1.0448800517E-001 +5.2309610836E+000  +7.7138557539E-001 -2.8136339516E+000 
13774969.962 +7.7637804872E-001 -2.5626333909E+000  +1.0594943230E-001 +2.3549788782E+000  +1.0516309983E-001 +4.3467491924E+000  +7.8068815605E-001 -3.5540298372E+000 
13900115.144 +7.8703177054E-001 -2.8895301198E+000  +1.0683505799E-001 +2.5034833430E+000  +1.0669893082E-001 +3.4559274811E+000  +8.1331261366E-001 -4.0063494539E+000 
14025260.325 +8.0872281621E-001 -2.7579227064E+000  +1.0549523040E-001 +2.3845862577E+000  +1.0808137466E-001 +3.5078272863E+000  +8.4381493211E-001 -3.9893083341E+000 
14150405.507 +8.3101894099E-001 -3.9945653430E+000  +1.0797013787E-001 +1.7533145310E+000  +1.0700612339E-001 +3.3808397149E+000  +8.5282176883E-001 -4.1147491925E+000 
14275550.688 +8.5047473488E-001 -5.5340621139E+000  +1.0827760067E-001 +1.3305650380E+000  +1.0877246575E-001 +2.3245170531E+000  +8.6760570748E-001 -4.7458523903E+000 
14400695.870 +8.5750658905E-001 -5.0922328639E+000  +1.0755443784E-001 +1.8182460722E+000  +1.0758739968E-001 +2.0560393505E+000  +8.6968871951E-001 -4.3965866860E+000 
