!  2-Port S-parameters saved by WinCal
! VAR MeasName=S-Parameters (CALIBRATED_DATA) read from VNA (P5004A)
! VAR MeasDate=29/08/2024 12:19:31
! VAR NAME=S2_r9c5_RESET2_9k-100M_3
! VAR FILENAME=S2_r9c5_RESET2_9k-100M_3.S2P
! VAR DATE=29/08/2024 12:19:31
! VAR PHYS_PORTS=1,2
! VAR ObjTypeName=DATASET
! VAR IndexType=Frequency
!
# Hz S MA R 50
9000.000 +7.7964877582E-002 -1.7156706031E+002  +6.2141208021E-003 -1.4411880645E+002  +1.0046184875E-002 -1.6406567958E+002  +2.1209797023E-001 -1.4198121101E+002 
134145.181 +1.1153877154E-001 +1.6952337075E+002  +2.0108767628E-004 -1.4643233111E+002  +4.9075613541E-004 +1.3803109395E+002  +2.4054096142E-001 -1.7111888671E+002 
259290.363 +1.1257388172E-001 +1.6951069770E+002  +2.6061369467E-004 +1.6139399877E+001  +3.6112670308E-004 -9.2979460773E+001  +2.4012090513E-001 -1.6860264256E+002 
384435.544 +1.1459797606E-001 +1.7022977156E+002  +6.0244571002E-004 -1.4928861537E+002  +1.7582256657E-004 +1.4129063053E+002  +2.3738031302E-001 -1.6946767365E+002 
509580.726 +1.1430741797E-001 +1.7053476150E+002  +1.0292796272E-003 -5.0911762839E+001  +1.0452728579E-003 -6.2923663053E+001  +2.4800624249E-001 -1.6525961655E+002 
634725.907 +1.1433397343E-001 +1.7186871936E+002  +7.3218715590E-004 +1.5315708167E+002  +7.3029016592E-004 -1.0197425169E+002  +2.5592897762E-001 -1.6547045895E+002 
759871.089 +1.1998179802E-001 +1.7086389182E+002  +2.5587386228E-004 +9.7108494835E+001  +5.5715358049E-004 +3.3748751714E+001  +2.6085714104E-001 -1.6734527216E+002 
885016.270 +1.2122406812E-001 +1.6863208228E+002  +1.1464341074E-004 -9.9649552301E+001  +6.9411668246E-004 +9.1025174565E+001  +2.4873900942E-001 -1.6643818378E+002 
1010161.452 +1.1493126736E-001 +1.6991580147E+002  +8.9988473507E-004 +1.2757033783E+002  +4.4797117906E-004 +1.2844036669E+002  +2.1344774640E-001 -1.6913287552E+002 
1135306.633 +1.1557744761E-001 +1.6900659635E+002  +5.1257905848E-004 -9.1262338152E+001  +6.6227262438E-004 -1.7587039103E+002  +1.9888586172E-001 -1.7250718049E+002 
1260451.815 +1.1620620466E-001 +1.7160674035E+002  +1.7790656876E-003 -8.4258068808E+000  +2.9791712064E-004 +6.1563475463E+001  +2.1900687417E-001 -1.6165593287E+002 
1385596.996 +1.2733237931E-001 +1.7389455610E+002  +2.0903194861E-003 +1.6466066292E+002  +3.2256135874E-003 +1.0419697696E+001  +2.5538240421E-001 -1.5627698925E+002 
1510742.178 +1.2839657309E-001 +1.7203406623E+002  +3.6104058748E-004 +1.4527812729E+002  +8.8456174951E-004 +2.2808778224E+001  +2.6191166099E-001 -1.6031639207E+002 
1635887.359 +1.3071369531E-001 +1.7048658400E+002  +1.1153765523E-003 -1.6160340855E+002  +4.0944247530E-004 +1.2675779390E+002  +2.3631255599E-001 -1.5422108659E+002 
1761032.541 +1.2952565591E-001 +1.6975347261E+002  +2.6666768242E-005 +5.9374353797E+001  +1.8673860926E-003 +5.6470212432E+001  +2.4985216508E-001 -1.5619750525E+002 
1886177.722 +1.3155621084E-001 +1.6742808885E+002  +5.6477490139E-004 -1.0618227742E+002  +2.2943728346E-003 -4.0732841691E+001  +1.9433681677E-001 -1.6142636615E+002 
2011322.904 +1.2799702128E-001 +1.6915474716E+002  +2.6393030833E-003 +1.0504539845E+002  +8.2688697058E-004 +7.5595308200E+001  +1.9367445467E-001 -1.7505645650E+002 
2136468.085 +1.3198466147E-001 +1.6606609583E+002  +2.6972251251E-003 +2.0472755043E+001  +1.6113369656E-003 -1.1370495067E+001  +1.6425248161E-001 -1.6750494488E+002 
2261613.267 +1.2733513855E-001 +1.6481090122E+002  +1.3981930826E-003 -1.6308653967E+002  +4.4936065013E-003 -1.5325509214E+002  +1.9351084784E-001 -1.5029450164E+002 
2386758.448 +1.3603001870E-001 +1.6350272286E+002  +2.1980618663E-003 -1.3591635106E+002  +2.8018712818E-003 +2.2381633864E+001  +2.2129468914E-001 -1.7978331980E+002 
2511903.630 +1.3721503946E-001 +1.6046114561E+002  +2.3600212634E-003 +1.5207286022E+002  +1.2972602681E-003 -1.1615517155E+002  +2.0649192485E-001 +1.7029084600E+002 
2637048.811 +1.2785238198E-001 +1.6400815734E+002  +1.3063192279E-002 -1.7029104182E+002  +1.6534160198E-002 +4.3655005911E+001  +1.2810524473E-001 +7.5058128676E+001 
2762193.992 +1.0985509947E-001 +1.6549983417E+002  +1.1622868827E-002 +1.5457754668E+002  +9.3472819749E-003 +5.7211619964E+001  +1.6329173867E-001 +5.6317578049E+000 
2887339.174 +1.1240193006E-001 +1.6497959657E+002  +2.3373535059E-002 -2.9447636820E+001  +4.3069084082E-003 +1.4903066003E+002  +3.1936060390E-001 -7.0540774096E+001 
3012484.355 +1.0584127446E-001 +1.7259919243E+002  +1.3698931847E-002 +1.0091968149E+001  +4.8329992018E-003 -1.5623641096E+002  +6.2031078162E-001 +2.5527269421E+001 
3137629.537 +1.2825625945E-001 +1.7121075410E+002  +9.6769698278E-003 +6.2175534613E+001  +4.8491021892E-003 -6.0153481479E+001  +4.1751375567E-001 -9.7569218515E+001 
3262774.718 +1.2466148260E-001 +1.6844512230E+002  +6.6441492171E-003 +3.9178573138E+001  +1.1383315970E-002 +1.7103482048E+002  +4.8947418960E-001 +9.8549312944E-001 
3387919.900 +1.3950980723E-001 +1.5457097589E+002  +1.5958917166E-002 -5.4135103221E+001  +5.9013693476E-003 -5.9450504446E+001  +4.3932533326E-001 -8.3859320024E+001 
3513065.081 +1.4966112487E-001 +1.4884377670E+002  +2.9257435542E-002 +1.5600424849E+002  +1.4017488626E-002 -5.5207242720E+001  +4.9750415410E-001 +1.1192269956E+002 
3638210.263 +1.8091379704E-001 +1.4313093199E+002  +5.0568700043E-003 -8.3829686820E+001  +6.1029558278E-003 -3.1349726986E+001  +8.0124627203E-001 +1.3059037503E+002 
3763355.444 +1.7976572062E-001 +1.4926092499E+002  +3.9218345317E-003 -7.6729783203E+001  +9.2535847531E-004 -9.0087537399E+001  +4.6945865549E-001 +1.4980435032E+002 
3888500.626 +1.7015886882E-001 +1.5018306478E+002  +1.1874944219E-002 -1.9309441079E+000  +5.0656934905E-003 -4.9982768785E+001  +4.2559225045E-001 +1.2639592208E+002 
4013645.807 +1.7863580269E-001 +1.5415483054E+002  +3.7289371692E-003 +3.4832314259E+001  +6.3024620962E-003 +4.9202260219E+000  +4.9302718376E-001 +1.3851492181E+002 
4138790.989 +1.7354955755E-001 +1.5192538004E+002  +8.9581054392E-003 +1.0379405509E+002  +5.6938925578E-003 -1.7308845427E+002  +6.5879780797E-001 +1.4842357711E+002 
4263936.170 +1.8420836087E-001 +1.3318565284E+002  +7.7613787421E-003 +8.5567505394E+001  +1.5035885728E-002 -1.1871975512E+002  +5.0627326094E-001 +1.3043758515E+002 
4389081.352 +2.4836865243E-001 +1.3863539615E+002  +9.5010990914E-003 +3.7745064687E+001  +6.1246347044E-003 +1.1576191189E+002  +2.9635271404E-001 +6.8205433400E+001 
4514226.533 +2.3771085393E-001 +1.4054248508E+002  +1.7710593782E-002 +9.8004436280E+001  +4.3126958017E-002 +2.5898987833E+001  +1.4322807812E+000 +8.9141080164E+001 
4639371.715 +2.9486525437E-001 +1.3716452352E+002  +1.9193434947E-002 -1.5532955860E+002  +1.4905283342E-002 -8.4947503019E+000  +8.6330105215E-001 +1.1597876412E+002 
4764516.896 +2.6538017595E-001 +1.1685112305E+002  +5.8426621671E-002 +1.4605779285E+002  +2.2804740570E-002 -1.5626711921E+002  +1.6805296864E+000 +1.3298288200E+002 
4889662.078 +4.6679950207E-001 +1.2187489570E+002  +4.8160962148E-003 -1.5434113746E+002  +1.0840525448E-002 -7.6352401447E+001  +4.0537035982E+000 -1.5616151687E+002 
5014807.259 +4.4340712467E-001 +1.2954612375E+002  +6.9156071182E-002 -1.5279872707E+002  +4.3151365566E-002 -6.7121436640E+000  +3.1553222063E+000 +1.4265889891E+002 
5139952.441 +3.7538589023E-001 +1.2439561479E+002  +1.1429953320E-001 -1.1899358697E+002  +9.3115527117E-002 -1.6263891528E+002  +6.3226536271E+000 -1.4087432537E+002 
5265097.622 +4.3985211371E-001 +1.3547184461E+002  +1.0084720637E-002 +1.0081641759E+002  +3.2746416196E-002 +1.2961665376E+002  +2.2600311192E+000 +1.0528476464E+002 
5390242.804 +3.8926692471E-001 +1.3637049161E+002  +5.6893517695E-002 -1.4182745356E+002  +5.6808457367E-002 +1.4434087442E+002  +4.6327603450E+000 +1.1732220913E+002 
5515387.985 +4.8551564107E-001 +1.2492831238E+002  +4.5710066352E-003 +1.2961420784E+002  +1.7239387679E-002 +6.6376729809E+001  +1.7846499987E+000 +9.7763216538E+001 
5640533.166 +5.4328935636E-001 +1.2150314271E+002  +1.9308100030E-002 -1.7281613230E+002  +6.6900135775E-003 -1.2588764014E+002  +1.3716218303E+000 +8.2459764933E+001 
5765678.348 +5.4108883171E-001 +1.2468158794E+002  +2.0866417846E-002 +7.5648920989E+000  +4.4325005766E-002 +8.0341033978E+001  +2.5025085832E+000 +9.1209800269E+001 
5890823.529 +5.4599400957E-001 +1.1945030265E+002  +3.1433120630E-002 +7.2189258954E+000  +3.0315899759E-002 +3.9245968906E+001  +1.9656709352E+000 +3.3559282125E+001 
6015968.711 +5.6552239775E-001 +1.1794614488E+002  +9.0201937148E-003 -1.1733386569E+002  +5.2622144958E-003 +1.0033985347E+002  +1.2266335957E+000 +4.5457417417E+001 
6141113.892 +6.9149233303E-001 +1.0519222843E+002  +6.2437939413E-003 +8.2538358549E+001  +2.0063015148E-002 +1.3937146122E+002  +1.5026004394E+000 +2.7094716428E+001 
6266259.074 +8.9286113814E-001 +9.5366185819E+001  +5.7833090839E-002 +7.9480358784E+001  +5.0017016672E-002 -1.5892887101E+001  +2.6119573920E+000 +2.4123246689E+001 
6391404.255 +9.9505060882E-001 +8.8609074215E+001  +1.3748362696E-002 +7.3737101637E+000  +1.2991904018E-002 +1.5076516508E+002  +1.9103522043E+000 +2.0422701202E+001 
6516549.437 +1.1012528431E+000 +9.1510103250E+001  +3.2476170351E-002 +6.0188778971E+001  +1.4622571410E-002 +4.4913435890E+001  +1.4915484406E+000 +4.0606279639E+000 
6641694.618 +1.6001527880E+000 +7.7320765661E+001  +2.1539062969E-002 +1.8660754056E+001  +2.1826770339E-002 -3.1657954721E+001  +1.6315475648E+000 +2.2741004042E+000 
6766839.800 +1.9128183017E+000 +4.9576945818E+001  +2.6789471218E-002 +1.2981645481E+002  +7.8704005606E-003 -2.6375081532E+000  +1.2491683053E+000 -1.6305932305E+000 
6891984.981 +1.6021480207E+000 +1.3704333833E+001  +1.1468669421E-002 +8.5789692460E+001  +2.0482976341E-002 -1.7876787742E+000  +1.2312335115E+000 -9.1567468327E+000 
7017130.163 +1.5579399931E+000 +1.7253605308E+001  +1.7270804267E-002 -5.6001857498E+001  +2.0254502310E-002 +3.0831201695E+001  +1.3344502576E+000 -5.8566451777E+000 
7142275.344 +1.5948469475E+000 +1.4479367842E+001  +1.2541324129E-002 +7.3476573243E+001  +1.1651511354E-002 +1.3954686459E+002  +1.3516353636E+000 -1.0289942916E+001 
7267420.526 +1.6382803839E+000 +3.2732169703E+000  +6.7578989616E-003 +4.2719455640E+001  +1.2423963101E-002 +4.0733327180E+001  +1.2678180018E+000 -9.0488717020E+000 
7392565.707 +1.3200181112E+000 +1.4151766750E+000  +1.1442290564E-002 +3.1878152593E+001  +8.0557701801E-003 -2.1579276075E+001  +1.3054714915E+000 -1.2804721639E+001 
7517710.889 +1.1701881265E+000 -1.8420171910E+000  +6.2501811354E-003 -2.7027515553E+001  +9.0468814502E-003 -9.6946521126E+000  +1.2319943119E+000 +1.2193715071E+000 
7642856.070 +1.1010766562E+000 +7.3183495131E-001  +9.9447891837E-003 -2.6741435404E+001  +9.3712308211E-003 +5.3060264034E+001  +1.1224556676E+000 -7.2390691871E+000 
7768001.252 +1.0128843475E+000 +6.2135528726E+000  +4.4202282079E-003 +2.9238886472E+001  +1.4754431526E-003 -5.1946957519E+001  +9.6097772939E-001 -7.1759427049E+000 
7893146.433 +8.6503533480E-001 +4.1240617202E+000  +1.3606649780E-002 -9.9926752605E+000  +5.4795937731E-004 +8.6669112616E+001  +8.9603840054E-001 +2.5904324696E+000 
8018291.615 +7.2638581250E-001 +4.8313668756E+000  +1.1041247913E-002 -3.9255965371E+001  +5.0446561182E-003 +1.6477241624E+001  +8.5408404802E-001 +4.9279491152E+000 
8143436.796 +6.9975855508E-001 +4.7944906695E+000  +6.8839794157E-003 +4.4285423388E+001  +3.3441901631E-003 +5.4734951255E+001  +7.7861312452E-001 -3.9888977675E-001 
8268581.977 +7.3126575855E-001 +8.8207722151E+000  +7.6534007529E-003 -5.7768673370E+001  +4.8420200643E-003 +1.6459052697E+001  +7.3251153258E-001 +2.7133595594E+000 
8393727.159 +7.0468035983E-001 +1.1883054143E+001  +2.2077020977E-003 -4.5417938302E+001  +1.9827067703E-003 +7.6579918698E+000  +7.6504246518E-001 -1.9428768719E+000 
8518872.340 +6.7906987513E-001 +1.0033458426E+001  +6.3311249701E-003 +1.4616519180E+001  +5.5513664270E-003 -4.6283361631E+001  +7.0817457902E-001 -2.7690644567E+000 
8644017.522 +6.8358219992E-001 +4.8931440814E+000  +7.6515124590E-003 +3.7429419433E+001  +4.7227838282E-003 +1.5523878753E+001  +7.1814342350E-001 +3.8107080391E+000 
8769162.703 +6.7336072297E-001 +9.7727160460E+000  +3.0806998680E-003 -6.5749098288E-001  +1.9742260660E-003 -9.0307843683E+001  +6.4708706139E-001 +2.3190549304E+000 
8894307.885 +6.5177557351E-001 +6.4397802250E+000  +4.9951791451E-003 +5.4268889140E+001  +6.0460091122E-003 -1.7463572065E+001  +6.2323427961E-001 +1.9983557216E+000 
9019453.066 +5.8646116989E-001 +3.1101860322E+000  +4.9464171193E-003 +2.0478093580E+000  +3.4459558798E-003 +1.4058267676E+002  +5.9721639990E-001 -3.8569583169E+000 
9144598.248 +5.8290064357E-001 +1.1875417924E+001  +2.0030521732E-003 -8.0736614944E+000  +2.0470228428E-003 +2.6798019125E-001  +5.4268069921E-001 -5.6668055008E-001 
9269743.429 +5.4610664505E-001 +9.4815217490E+000  +3.0162039410E-003 -1.1645025031E+001  +5.7833934194E-003 +1.3547796787E+000  +5.5824411278E-001 -4.6858349202E+000 
9394888.611 +5.9798875387E-001 +5.2898602688E+000  +6.1264300412E-003 -5.9937670786E+001  +2.9783274390E-003 -2.0409089478E+001  +6.0972625062E-001 -2.4295107124E+000 
9520033.792 +5.7927976219E-001 +1.5958814675E+000  +6.5144778100E-003 -2.6099228849E+000  +3.8880264306E-003 +5.2702259238E+001  +5.8981723383E-001 -5.6864337613E+000 
9645178.974 +5.0735758953E-001 +3.8083052562E+000  +3.5708623716E-003 +3.8497902868E+001  +4.8594560659E-003 +5.4427537707E+001  +5.8069669043E-001 -3.0406374214E+000 
9770324.155 +5.1072454771E-001 +2.3493239765E+000  +4.0983210496E-003 +4.3412523842E+001  +3.8624353236E-003 +1.7316435999E+001  +6.0222776907E-001 -4.7509731560E+000 
9895469.337 +5.2002438043E-001 -1.3177489343E+000  +6.5434636240E-003 +2.0527947135E+001  +3.6093038443E-003 +3.9865051675E+001  +5.7939831076E-001 -5.0046268345E+000 
10020614.518 +5.2124259080E-001 +2.1104050078E+000  +4.3582238906E-003 +3.4841923020E+000  +2.8673933003E-003 -8.8730712951E+000  +6.2701946937E-001 -1.0015222627E+000 
10145759.700 +4.9819317001E-001 +3.4434015369E+000  +5.5019472850E-003 -2.3293525354E+001  +4.6978895240E-003 +1.3175255057E+001  +5.8915548999E-001 -5.1599825510E+000 
10270904.881 +5.5679701307E-001 +3.1036336685E+000  +4.7398958992E-003 +7.1178618293E+001  +2.6104434941E-003 +2.8748270717E+001  +5.5755562892E-001 -3.2907497519E+000 
10396050.063 +5.6311033698E-001 +6.4934796292E+000  +2.3969222638E-003 +1.7936587112E+001  +4.5700753124E-003 +3.3724106664E-001  +5.8301674150E-001 -2.2623054264E+000 
10521195.244 +5.5934295964E-001 +6.6817923348E+000  +2.0223427369E-003 +9.2659788911E+000  +2.2099635776E-003 +1.1889502728E+001  +5.7170361576E-001 -2.5237692000E-001 
10646340.426 +5.7010435238E-001 +7.8923308281E+000  +4.4868105474E-003 -2.2778510863E+001  +4.3513599473E-003 +2.6093276347E+001  +6.0775473811E-001 -3.2290480264E+000 
10771485.607 +5.7258229541E-001 +9.9601127556E+000  +5.3494737925E-003 +2.5388570938E+001  +4.7958277919E-003 +4.1106478408E+001  +5.8646188146E-001 +1.4068614371E-001 
10896630.788 +5.8553991367E-001 +8.0214175136E+000  +4.4047987585E-003 -3.8410571878E+001  +3.9431762031E-003 +4.1099272146E+001  +6.3050215482E-001 +2.4466388694E+000 
11021775.970 +5.9050339655E-001 +7.3603891409E+000  +4.4771813941E-003 +3.1561620449E+001  +5.4963770960E-003 +4.5046463047E+001  +6.1840305038E-001 +6.0701103293E+000 
11146921.151 +5.8683702160E-001 +8.0396191453E+000  +1.6898617728E-003 +9.3925425508E+001  +3.0795341377E-003 +6.1090910783E+001  +6.2628356996E-001 +7.2910669732E-001 
11272066.333 +6.1113647701E-001 +7.8824006101E+000  +4.3852662074E-003 +3.4937636556E+001  +3.3137939326E-003 +3.5729079376E+001  +6.2791496256E-001 +1.1632157819E+000 
11397211.514 +6.3690591532E-001 +7.3312499734E+000  +3.7361767347E-003 +1.2084385439E+001  +1.9041692007E-003 +5.7859774582E+001  +6.2574557297E-001 +2.0652992392E+000 
11522356.696 +6.1577538327E-001 +7.7841522652E+000  +5.1007708516E-003 +3.8412648528E+000  +3.8877667557E-003 +2.1506116327E+001  +6.7126437359E-001 +1.0500920326E+000 
11647501.877 +6.4122023502E-001 +7.8702322771E+000  +4.3240432653E-003 +4.6676391355E+001  +2.7423142202E-003 +2.7962914156E+001  +6.3377045146E-001 +3.3773934879E+000 
11772647.059 +6.7413470414E-001 +6.8336620155E+000  +3.3515869940E-003 +3.5758570676E+001  +2.9131603387E-003 +2.9210197684E+000  +6.8566793915E-001 +2.4357147367E+000 
11897792.240 +6.8797077648E-001 +5.6762876896E+000  +2.3799529337E-003 +4.1354521456E+000  +2.7933091962E-003 +2.9826464953E+001  +6.9521845605E-001 +3.0941060494E+000 
12022937.422 +6.7775482275E-001 +3.5731211442E+000  +2.5915643783E-003 +1.1348997798E+001  +4.8530933677E-003 +2.6617535069E+001  +6.6835274050E-001 -8.5836012220E-001 
12148082.603 +6.6840979897E-001 +5.3478022447E+000  +3.1511620820E-003 +2.6360809269E+001  +4.5118147294E-003 +2.8513759440E+001  +7.0759946547E-001 +1.5301174077E+000 
12273227.785 +7.0219912354E-001 +4.7356326218E+000  +4.0976271791E-003 +1.1671249586E+001  +3.2771885569E-003 -1.2882282258E+001  +7.1851628540E-001 +1.3866038043E+000 
12398372.966 +7.2542361566E-001 +3.7947587629E+000  +4.9722607744E-003 +2.8933521629E+001  +3.5678368334E-003 +3.2816245767E+001  +7.3833290082E-001 +6.2056678954E-001 
12523518.148 +7.2345758248E-001 +3.9245487991E+000  +3.9967835253E-003 +1.3102879648E+001  +3.5857868964E-003 +1.2768218697E+001  +7.3572259720E-001 -2.5492927702E+000 
12648663.329 +7.3450749084E-001 +4.6696793015E+000  +3.4975488931E-003 +5.1576887379E+001  +2.1615036779E-003 -6.8880072991E+000  +7.6353833912E-001 +1.0032991064E-001 
12773808.511 +7.2980682827E-001 +1.9351251004E+000  +4.4421065255E-003 +3.1970128059E+001  +3.1845170923E-003 +1.3377180701E+001  +7.9017158094E-001 -2.6450803374E+000 
12898953.692 +7.7711822925E-001 +1.2677479370E+000  +3.4889034299E-003 -3.5691893199E+000  +3.7066068735E-003 +4.1420984711E+001  +8.0594129832E-001 -4.9824385247E-001 
13024098.874 +7.8208102390E-001 +1.2259057811E+000  +3.8355193283E-003 +2.4130356385E+001  +2.7497926314E-003 +6.3366183451E+000  +8.1499761779E-001 -3.9663016308E+000 
13149244.055 +8.0801201290E-001 +5.4223822655E-001  +5.4350160372E-003 +1.3054889831E+001  +3.6767944109E-003 +9.2879711168E-002  +7.9799838089E-001 -1.7575272173E+000 
13274389.237 +8.2746482016E-001 -8.3664378933E-001  +3.7431101730E-003 +2.8994581800E+001  +3.4428488327E-003 +2.1573295751E+001  +8.4100413386E-001 -1.8694685397E+000 
13399534.418 +8.3868504570E-001 +2.9314699475E-001  +5.1318569278E-003 +2.7259190067E+001  +4.2877426316E-003 +2.2215576027E+001  +8.4906244866E-001 -2.4842845395E+000 
13524679.599 +8.4627092363E-001 -1.4738352522E+000  +5.9554747108E-003 +2.1960982059E+001  +2.8364336280E-003 +3.3738373579E+001  +8.6206128777E-001 -2.1823857237E+000 
13649824.781 +8.6277867311E-001 -2.9215776767E+000  +3.8979143478E-003 +4.5063730730E+001  +2.6002649288E-003 +9.2298250338E+000  +8.9252292686E-001 -3.1390205790E+000 
13774969.962 +8.9236058461E-001 -2.7395384098E+000  +3.7149516144E-003 +2.0300555221E+001  +5.5392219148E-003 +1.8889259211E+001  +8.9814094789E-001 -3.5343533813E+000 
13900115.144 +9.1601126051E-001 -4.4224969901E+000  +3.9468024194E-003 +1.1390733973E+001  +4.7687231471E-003 +2.3798804524E+001  +9.0320557574E-001 -3.4064755004E+000 
14025260.325 +9.2311695221E-001 -5.7453923919E+000  +5.0799039089E-003 +1.6517515002E+001  +4.2389883100E-003 +2.0715110214E+001  +9.2183804845E-001 -4.1851067668E+000 
14150405.507 +9.4374616164E-001 -4.1420466651E+000  +4.9413100213E-003 +1.6453986232E+001  +5.0391749658E-003 +1.8575970248E+001  +9.6031813061E-001 -4.2119280857E+000 
14275550.688 +9.5519669753E-001 -5.0895421892E+000  +4.8353165713E-003 +2.5394182717E+001  +6.3944109074E-003 +3.1857386452E+001  +9.5042831319E-001 -2.9205633502E+000 
14400695.870 +9.8580793161E-001 -5.0196085064E+000  +5.7416989815E-003 +1.2673734286E+001  +5.4444920692E-003 +1.9114322459E+001  +9.8888289592E-001 -5.5838799220E+000 
