!  2-Port S-parameters saved by WinCal
! VAR MeasName=S-Parameters (CALIBRATED_DATA) read from VNA (P5004A)
! VAR MeasDate=29/08/2024 14:05:42
! VAR NAME=S2_r9c6_RESET4_9k-100M_1
! VAR FILENAME=S2_r9c6_RESET4_9k-100M_1.S2P
! VAR DATE=29/08/2024 14:05:42
! VAR PHYS_PORTS=1,2
! VAR ObjTypeName=DATASET
! VAR IndexType=Frequency
!
# Hz S MA R 50
9000.000 +8.5835950026E-002 -1.7194776569E+002  +8.4251045934E-003 -1.1409321144E+002  +2.5128877050E-003 +8.6761239295E+001  +2.8183887177E-001 -1.4225971974E+002 
134145.181 +1.1158820405E-001 +1.6925390157E+002  +3.7737075376E-004 +1.4115830706E+002  +3.3664965062E-004 -1.4541312161E+002  +2.3799796899E-001 -1.7075414638E+002 
259290.363 +1.1125626088E-001 +1.7012980117E+002  +5.0371880424E-004 -1.3662710630E+002  +4.5045117054E-004 -8.9033637123E+001  +2.4224620365E-001 -1.6748929217E+002 
384435.544 +1.1417161795E-001 +1.6968614879E+002  +5.1512564092E-004 +6.8627883824E+001  +1.4808699037E-003 +1.7900097938E+002  +2.4982663488E-001 -1.6826173922E+002 
509580.726 +1.1526146466E-001 +1.7139669057E+002  +6.4189933098E-004 +1.3269201921E+002  +6.2349417817E-004 +1.2379684005E+002  +2.3358453671E-001 -1.6448246587E+002 
634725.907 +1.1909428978E-001 +1.7102139260E+002  +2.7074214414E-004 +7.9634526149E+001  +2.7739871387E-004 +1.6711890483E+002  +2.5054861711E-001 -1.6718856943E+002 
759871.089 +1.1936335000E-001 +1.7055341723E+002  +3.6070435412E-004 -3.8904076381E+001  +5.2058061594E-004 +1.2110452748E+002  +2.5544282976E-001 -1.6751203614E+002 
885016.270 +1.2062897172E-001 +1.6910175531E+002  +3.1976891054E-004 +6.7317864871E+001  +2.7646278181E-004 +3.9996319937E+001  +2.4430162335E-001 -1.6655407933E+002 
1010161.452 +1.1687196779E-001 +1.7044835454E+002  +8.2069975440E-004 +2.6522503875E+001  +3.8663704888E-004 -1.3370987010E+002  +1.9992990711E-001 -1.6639085439E+002 
1135306.633 +1.1114670924E-001 +1.6750308856E+002  +1.7779990654E-003 +1.7796115896E+002  +3.1088838791E-004 -3.9641624725E-001  +2.0895552376E-001 -1.6510759120E+002 
1260451.815 +1.2242976303E-001 +1.7134415416E+002  +7.8188763167E-004 -5.6722861158E+001  +1.1813229817E-003 +1.7999033071E+002  +2.2655604511E-001 -1.6523121455E+002 
1385596.996 +1.2726407795E-001 +1.7213780459E+002  +5.0401694312E-004 +6.3031307724E+001  +7.1874033882E-004 -1.7799110997E+002  +2.7812975720E-001 -1.5984893358E+002 
1510742.178 +1.2737108847E-001 +1.7091337344E+002  +4.6324437998E-004 +1.9758466358E+001  +3.4644203119E-004 -3.5579381530E+001  +2.5154724770E-001 -1.5895345315E+002 
1635887.359 +1.2945774241E-001 +1.7148157180E+002  +8.6170137467E-004 -1.1469089897E+002  +7.8872212292E-004 +1.4846905043E+002  +2.4236832543E-001 -1.5696562641E+002 
1761032.541 +1.3104051570E-001 +1.6932067379E+002  +1.4747282124E-003 +4.3565799178E+001  +5.3799260405E-004 -3.1326510080E+001  +2.2496528074E-001 -1.5382216769E+002 
1886177.722 +1.2843057072E-001 +1.6741184849E+002  +2.2830792074E-003 +1.2468444050E+002  +8.6285096075E-004 -1.7361978318E+002  +2.2593520866E-001 -1.6180823291E+002 
2011322.904 +1.2645351054E-001 +1.6540766057E+002  +2.0797969509E-003 +6.6458561455E+001  +2.5190096326E-003 -1.0775878940E+002  +2.1749227484E-001 -1.6371741911E+002 
2136468.085 +1.2413900824E-001 +1.6628933400E+002  +1.0776604091E-004 -1.7197322742E+002  +4.4330016871E-003 -4.1034676406E+001  +1.8397065526E-001 -1.5993971856E+002 
2261613.267 +1.3600925737E-001 +1.6437374273E+002  +2.2452409699E-003 +1.0756426239E+002  +2.0304667777E-003 +3.4152886360E+000  +1.5615292711E-001 +1.7066948575E+002 
2386758.448 +1.3915217688E-001 +1.6455369655E+002  +1.0049732697E-003 -6.0949176624E+001  +4.1544940688E-004 -1.5305756937E+001  +2.3599847700E-001 -1.7845030319E+002 
2511903.630 +1.3341544151E-001 +1.6548878101E+002  +4.7370813916E-003 +1.0782808466E+002  +7.3958435534E-003 -6.6779149060E+001  +7.4102800454E-002 +1.7317469388E+002 
2637048.811 +1.2213217859E-001 +1.6268591486E+002  +1.4481265225E-002 +1.3544454184E+002  +2.0873938011E-002 +5.8168984955E+001  +5.1145592691E-001 +1.0571315046E+002 
2762193.992 +1.3229570121E-001 +1.7534986576E+002  +3.9735687780E-002 -6.0991119103E+001  +2.0942473721E-002 +1.6825005687E+002  +1.3617536669E+000 -6.3015090057E+001 
2887339.174 +1.1345941682E-001 +1.7699186310E+002  +1.3983112667E-002 -5.9913408390E+001  +1.4653167816E-002 -1.3219486283E+002  +1.0754975063E-001 -8.8819235231E+001 
3012484.355 +1.1612422066E-001 +1.7711055098E+002  +3.5362411365E-003 -9.8467345203E+000  +8.1886244443E-003 -1.2941917022E+002  +5.2711720486E-002 -3.8696172465E+001 
3137629.537 +1.1433907305E-001 -1.7801977797E+002  +4.4561590079E-003 +6.2511950624E+001  +1.2743913703E-002 -1.2771556207E+002  +2.2354734093E-001 -2.9465290651E+001 
3262774.718 +1.1867506812E-001 +1.7256134069E+002  +8.5674137228E-003 +2.9469139698E+001  +1.0972636259E-002 -9.6057354136E+001  +1.7057019946E-001 +1.1256835659E+002 
3387919.900 +1.0793083773E-001 +1.4838166385E+002  +2.3109581831E-002 +1.2984150044E+002  +3.9882793972E-002 -6.5455703577E+001  +3.9278906742E-001 -3.6619011692E+001 
3513065.081 +1.2788984422E-001 +1.3931203661E+002  +2.1541721476E-002 +1.1089008577E+002  +2.4953717563E-002 -5.7162093195E+001  +3.2524839571E-001 +9.1155989957E+001 
3638210.263 +1.5754126244E-001 +1.4280465255E+002  +1.2734734792E-002 -1.7846648906E+002  +1.5302803061E-002 +3.5170765454E+001  +6.7847125661E-001 +1.3912345848E+002 
3763355.444 +1.5891394904E-001 +1.4089862208E+002  +9.3740917649E-003 +1.4210950901E+002  +1.7579769192E-002 +4.2501461923E+001  +5.2733336964E-001 +1.4241677649E+002 
3888500.626 +1.7671080904E-001 +1.4889988876E+002  +1.3772726157E-002 +1.4227843763E+002  +1.0770836562E-002 +2.3159975761E+001  +4.5071989263E-001 +1.3246788842E+002 
4013645.807 +1.8821629052E-001 +1.4687773255E+002  +1.9936119972E-002 +6.0896978678E+001  +1.2319690592E-002 -4.5305682816E+001  +3.7999747702E-001 +5.2210044603E+001 
4138790.989 +1.7230471497E-001 +1.4922541657E+002  +1.6221671840E-002 +3.3203284054E+001  +1.7411141659E-002 +1.4823352217E+001  +4.0382536970E-001 +1.1868576190E+002 
4263936.170 +1.8090183861E-001 +1.3113106025E+002  +2.1567670613E-002 +8.1455688257E+001  +4.1059469276E-002 +4.6437435622E+001  +4.9922224811E-001 +1.1740352386E+002 
4389081.352 +1.7365942279E-001 +1.3624379965E+002  +2.5769608115E-002 +1.0473434591E+002  +3.0570560883E-002 +2.5488874260E+001  +4.9427515416E-001 +1.0569739681E+002 
4514226.533 +2.3459014198E-001 +1.3799361005E+002  +4.6974106031E-002 +1.3563086064E+002  +4.2623391669E-002 +3.9340865608E+001  +1.2373886846E+000 +1.1574454193E+002 
4639371.715 +3.0237791572E-001 +1.2716028614E+002  +6.8982469126E-002 +1.1258176430E+002  +2.4275795504E-002 +6.6185335452E+001  +1.3347284964E+000 +9.9587367174E+001 
4764516.896 +3.5277158637E-001 +1.2796698955E+002  +1.0190016110E-001 -1.7080630981E+002  +9.1180099188E-002 +1.5226764082E+002  +2.6757545806E+000 +1.7327519872E+002 
4889662.078 +4.6115173870E-001 +1.1842324251E+002  +1.9971349929E-001 -6.4685059012E+001  +2.7677230255E-001 -9.6966914512E+001  +5.2407037612E+000 -9.6952419410E+001 
5014807.259 +5.0861380302E-001 +1.3036683189E+002  +1.6795728245E-001 -1.5648842123E+002  +1.5502096553E-001 +1.5801691234E+002  +3.8733077867E+000 +1.4419864828E+002 
5139952.441 +4.0686655977E-001 +1.1788299197E+002  +9.1930689041E-002 +9.8744200087E+001  +8.2889335878E-002 +2.1258027484E+001  +2.1737647359E+000 +7.1556017684E+001 
5265097.622 +4.1912634070E-001 +1.3284165674E+002  +2.0787842881E-001 +1.6030110986E+002  +2.2745681444E-001 +1.5971441346E+002  +1.0149341123E+001 +1.3781815377E+002 
5390242.804 +3.6755239066E-001 +1.2375443546E+002  +8.0641534223E-002 +1.2081811440E+002  +6.3176194874E-002 +9.0181063110E+001  +5.4423234012E+000 +1.1279336523E+002 
5515387.985 +3.9692363223E-001 +1.2525055126E+002  +5.8790569797E-002 +8.3679474505E+001  +6.0156570997E-002 +5.8757956995E+001  +1.4534060329E+000 +6.9646291589E+001 
5640533.166 +4.5082421628E-001 +1.3504435444E+002  +6.6334232347E-002 +7.4701402371E+001  +4.9561107506E-002 +4.2079444914E+001  +1.9936895825E+000 +4.4878548876E+001 
5765678.348 +5.2186459173E-001 +1.2707368096E+002  +6.4062434890E-002 +1.0418853134E+002  +3.7748589024E-002 +6.5912337993E+001  +1.9359708928E+000 +7.6108599562E+001 
5890823.529 +5.8288330508E-001 +1.2072087039E+002  +8.5962894989E-002 +7.6796638538E+001  +1.3545365002E-001 +5.5125022580E+001  +3.3110642481E+000 +5.7666686514E+001 
6015968.711 +6.0521745888E-001 +1.1726386325E+002  +5.1889934272E-002 +6.8428377712E+001  +6.8520299294E-002 +4.1176156736E+001  +1.7189121564E+000 +4.9168024252E+001 
6141113.892 +7.1780113031E-001 +1.0843533586E+002  +6.1298588619E-002 +6.8041533669E+001  +1.1912115839E-001 +5.0181430500E+001  +2.6458956541E+000 +3.3276780724E+001 
6266259.074 +6.5949794714E-001 +9.5392990357E+001  +4.1313017106E-002 +4.3844241351E+001  +8.2137028411E-002 +1.3982870576E+001  +1.4665256308E+000 +2.5142080650E+001 
6391404.255 +1.0793167309E+000 +1.0209532481E+002  +7.0247258071E-002 +5.1023217102E+001  +5.4981115650E-002 +4.4269485566E+001  +1.7154979442E+000 +2.0947672190E+001 
6516549.437 +1.1964443180E+000 +8.1275794427E+001  +6.6554862586E-002 +4.2264058470E+001  +5.5212777565E-002 +2.8347437221E+001  +1.2165524137E+000 +1.6790149677E+001 
6641694.618 +1.6945106923E+000 +6.9361556036E+001  +1.0179759787E-001 +2.7768174078E+001  +5.3416289421E-002 +3.9832009001E+000  +1.6142840561E+000 -4.7976665761E+000 
6766839.800 +1.6376210311E+000 +5.1021063350E+001  +6.9418236850E-002 -8.6306604260E-001  +1.0488583610E-001 -3.3189987127E+000  +1.4121540822E+000 -1.6508296932E+001 
6891984.981 +1.1443982221E+000 +2.3056512187E+001  +7.6255668242E-002 +2.7438010978E+000  +9.0048493365E-002 -1.1500144516E+001  +1.2799175518E+000 +7.4827466966E-001 
7017130.163 +1.6860978610E+000 +1.9845498040E+001  +6.7854911830E-002 +2.8427871732E-001  +8.0915624306E-002 -8.5608592934E-001  +1.3265161579E+000 -7.1720683185E+000 
7142275.344 +1.6631215014E+000 +8.8356920069E+000  +3.8239787372E-002 -1.2352907672E+001  +6.2092086451E-002 -1.6647150055E+001  +1.3749438471E+000 -1.3461693430E+001 
7267420.526 +1.4450132582E+000 +3.9806447633E+000  +4.9928366487E-002 -6.5425473471E+000  +4.3605146066E-002 -1.8960027802E+000  +1.3981678635E+000 -1.5893349400E+001 
7392565.707 +1.2439595031E+000 -4.7538013752E+000  +3.5659944766E-002 +9.6348257332E-002  +4.1885323003E-002 +5.3065278454E+000  +1.3197975159E+000 -1.4303644879E+001 
7517710.889 +1.0912251012E+000 +4.3294699556E-002  +2.7686596840E-002 -1.2741641352E+001  +3.2902001406E-002 +8.6142348112E+000  +1.2135945848E+000 -5.1241803430E+000 
7642856.070 +9.4716650628E-001 -1.6880327220E+000  +3.3295440478E-002 -4.4306598985E+000  +3.7388960305E-002 +1.2140879820E+001  +1.1802674553E+000 -4.7985830722E+000 
7768001.252 +9.3258448081E-001 +3.5692581543E+000  +3.3797380611E-002 +8.2268773967E+000  +3.7354738678E-002 -2.3262249779E+000  +9.8865967385E-001 -6.1291416643E+000 
7893146.433 +7.8732839598E-001 +5.6394857105E+000  +2.8962447318E-002 +3.7887145797E+000  +3.0932369910E-002 +6.5031824976E+000  +9.5013986847E-001 +1.5501476053E+000 
8018291.615 +9.1214662583E-001 +6.0690552086E+000  +2.9864684151E-002 +1.3197481477E+001  +2.2834448419E-002 +2.0015789028E+001  +8.0393978340E-001 +3.5326768403E+000 
8143436.796 +7.2416068482E-001 +8.2316337561E+000  +2.2548285277E-002 +2.1355218417E+000  +2.8951317495E-002 -1.0493104937E+001  +7.9494741160E-001 +2.0762089566E+000 
8268581.977 +7.6591088371E-001 +1.4064675464E+000  +2.8925613847E-002 -3.5773243929E-001  +2.6780851593E-002 +7.3856097557E+000  +7.9508561041E-001 +6.1555699475E+000 
8393727.159 +6.3907486137E-001 +6.5088256172E+000  +2.7150675501E-002 -6.6205778589E+000  +2.6237254416E-002 +9.6673427511E+000  +7.7876326684E-001 -5.7911210916E+000 
8518872.340 +6.8269516511E-001 +8.4558551137E+000  +2.4178055965E-002 -6.7191392050E+000  +2.5936988119E-002 +6.0521235688E+000  +6.9004015952E-001 +4.3106949522E+000 
8644017.522 +6.2867224661E-001 +5.9657840215E+000  +2.6807802513E-002 -4.6682909481E+000  +1.9827865857E-002 +8.6577243329E+000  +6.4304945568E-001 +2.3161257841E+000 
8769162.703 +6.4624961939E-001 +7.7883507779E+000  +2.5263846768E-002 -8.1088721016E+000  +2.4121206009E-002 +1.3497044211E+001  +6.4566806414E-001 -2.9418299170E+000 
8894307.885 +6.3125496954E-001 +1.0917498151E+001  +2.5844567067E-002 -7.9305553431E-002  +2.1894658005E-002 +1.1586808848E+001  +6.5471140234E-001 +3.9821311508E+000 
9019453.066 +4.9800330103E-001 +8.1676870018E+000  +2.2112728042E-002 -1.2545923970E+001  +2.6781614205E-002 +1.5479670157E+001  +6.2164718047E-001 -8.3367830458E-001 
9144598.248 +5.5553828945E-001 +2.6673190686E+000  +2.5153331872E-002 -5.7351430539E+000  +2.2368880329E-002 +5.4949802555E+000  +5.9031818165E-001 +2.1889169905E+000 
9269743.429 +5.4705189879E-001 +5.5372696979E+000  +2.7287677883E-002 -3.1293708538E-001  +2.7929788822E-002 +8.3466850246E+000  +6.1115540899E-001 -2.2840782243E+000 
9394888.611 +5.1114836050E-001 +4.0818790929E+000  +2.5158919102E-002 -8.4597591795E+000  +2.7277790073E-002 +9.4725210309E+000  +5.6660158049E-001 -3.8333100492E+000 
9520033.792 +5.5397416072E-001 +8.1655219016E+000  +2.5713324956E-002 -1.0216317051E-002  +2.3694591405E-002 +1.2874668955E+001  +5.7341880123E-001 +1.5093955936E+000 
9645178.974 +5.1671741438E-001 +3.4869943289E+000  +2.4594313677E-002 -2.3655034893E+000  +2.7360549931E-002 +1.6808431613E+001  +5.9510330153E-001 -7.2664262678E+000 
9770324.155 +5.3990168032E-001 +5.2755121115E+000  +2.7255443889E-002 +7.8580470818E+000  +2.3976692860E-002 +1.1350257454E+001  +5.6103768374E-001 -2.3354511784E+000 
9895469.337 +5.0575358642E-001 +1.0720165023E+000  +2.6275988000E-002 -8.6796585895E-001  +2.5653499448E-002 +2.2880880910E+001  +5.2531930693E-001 -3.3405494929E+000 
10020614.518 +5.3895362246E-001 +5.4593310805E+000  +2.5659841123E-002 +3.4146350018E+000  +2.6547962223E-002 +1.0359921560E+001  +5.4976721522E-001 -3.5775444975E+000 
10145759.700 +5.3914750700E-001 +4.5647075073E+000  +2.6775324378E-002 +4.6363133883E+000  +2.5062175962E-002 +1.1982945334E+001  +5.5523335764E-001 -5.3028878364E-001 
10270904.881 +5.0658049071E-001 +4.3506582628E+000  +2.3647179012E-002 -1.9062225113E+000  +2.6212512095E-002 +1.3167478136E+001  +5.3942134181E-001 -1.5757617915E+000 
10396050.063 +5.6436387982E-001 +6.1070454616E+000  +2.6680923113E-002 +1.5531472976E+000  +2.7850822370E-002 +1.4068756671E+001  +5.6926867220E-001 -5.9816523474E-001 
10521195.244 +5.7278678186E-001 +6.8958945125E+000  +2.7086583445E-002 -2.2232872207E+000  +2.4652956116E-002 +2.2691354108E+001  +5.4469063069E-001 -4.1214452619E-002 
10646340.426 +5.5509484649E-001 +9.1537418275E+000  +2.6488214937E-002 +1.1619318734E+000  +2.4955514476E-002 +1.6655105843E+001  +5.9130682949E-001 +2.1125311014E+000 
10771485.607 +5.3895766439E-001 +6.4461840864E+000  +2.5999178648E-002 -6.9698530695E-001  +2.9022830354E-002 +1.5534442424E+001  +6.0474485296E-001 +3.5456588214E+000 
10896630.788 +5.4934842886E-001 +8.9209068182E+000  +2.6374125252E-002 -1.7723472316E-002  +2.6959296596E-002 +9.9810997316E+000  +5.8557532037E-001 +2.4069580524E+000 
11021775.970 +5.5729284675E-001 +8.2908448665E+000  +2.6145304444E-002 -1.1075555293E+000  +2.6955430528E-002 +1.7337539593E+001  +5.6908582226E-001 +1.0919184171E+000 
11146921.151 +5.9926919191E-001 +6.7837807325E+000  +2.7744166786E-002 +3.0223337887E+000  +2.7173652528E-002 +1.3200240835E+001  +5.9137569040E-001 +2.5198454311E+000 
11272066.333 +5.8174478116E-001 +8.3856898430E+000  +2.7637767520E-002 -9.3778787899E-001  +2.6681009551E-002 +1.8461470899E+001  +6.1294003081E-001 +3.6905514330E+000 
11397211.514 +5.8545184304E-001 +9.3169340666E+000  +2.7720205631E-002 +3.8344176594E+000  +2.6509827909E-002 +1.1821608705E+001  +6.2684163118E-001 +1.4886450356E+000 
11522356.696 +6.0494928537E-001 +7.3317672241E+000  +2.8880022815E-002 +1.1105046731E+000  +2.4671343872E-002 +1.6358078499E+001  +6.2134564325E-001 -4.5178306395E-001 
11647501.877 +6.0064079494E-001 +7.0702065129E+000  +2.7266890426E-002 +1.0999137745E+000  +2.7541636993E-002 +1.2827946843E+001  +6.2092439725E-001 +2.0777209168E+000 
11772647.059 +6.1179299464E-001 +7.5354003839E+000  +2.8198984390E-002 +3.2505088258E+000  +2.7582195884E-002 +1.1434531517E+001  +6.3188623809E-001 +2.6089462486E-001 
11897792.240 +6.3460730719E-001 +6.1757115971E+000  +2.7879630802E-002 +2.8307342798E+000  +2.7938279846E-002 +1.0794450196E+001  +6.7164620647E-001 +3.6712816104E+000 
12022937.422 +6.7452563982E-001 +7.1636774713E+000  +2.7167237133E-002 +4.8339944136E+000  +2.8266138413E-002 +9.6187643315E+000  +6.5858316437E-001 +2.0604713334E+000 
12148082.603 +6.6977592572E-001 +6.2084878148E+000  +2.9639067950E-002 -1.4071209066E+000  +2.7984645105E-002 +1.2453218119E+001  +6.7618991084E-001 +2.1995110946E+000 
12273227.785 +6.8610555929E-001 +3.3101803649E+000  +2.9482410302E-002 +1.8401433188E+000  +3.0603414031E-002 +1.0732886882E+001  +6.8586444323E-001 +9.3858690439E-001 
12398372.966 +6.9984946662E-001 +3.9472502587E+000  +3.1255204721E-002 +1.3959775150E+000  +3.1807904793E-002 +1.3048729915E+001  +7.1355631737E-001 -1.1278840250E+000 
12523518.148 +7.0651706378E-001 +2.0587793127E+000  +2.9865559219E-002 +1.8434154274E+000  +3.0590289791E-002 +1.2177282368E+001  +7.0833104210E-001 -2.3341334117E+000 
12648663.329 +7.1381807345E-001 +3.2236348149E+000  +2.9455772623E-002 +4.2700503839E+000  +2.9112208173E-002 +1.1669005836E+001  +7.4086797840E-001 +1.7993825728E+000 
12773808.511 +7.4365918052E-001 +8.5456055288E-001  +2.9444063681E-002 +2.2024303016E+000  +3.1008301674E-002 +6.1205766262E+000  +7.6821297574E-001 -1.9848759540E+000 
12898953.692 +7.1664729635E-001 +1.5102299359E+000  +3.1261800388E-002 +6.3441978487E+000  +2.9363238938E-002 +9.5320401349E+000  +7.6303103269E-001 -5.5586436985E-001 
13024098.874 +7.6610714700E-001 +5.6416758258E-001  +3.3184683019E-002 +2.2847612268E+000  +3.1856826011E-002 +1.1019522002E+001  +7.6884000563E-001 -2.6652025393E+000 
13149244.055 +7.9432178742E-001 -6.1158935041E-001  +3.2510513105E-002 +1.0402868466E+000  +3.1995263434E-002 +6.3428846574E+000  +7.8259648408E-001 -2.7227814771E-001 
13274389.237 +7.8863024993E-001 +3.1110813286E-001  +3.1218118465E-002 +3.6923789226E+000  +3.0549686296E-002 +5.3629629266E+000  +8.3144871717E-001 -1.2816349577E+000 
13399534.418 +8.0315076887E-001 -7.6017192113E-001  +3.1695403416E-002 +7.2336818274E-001  +3.1510949937E-002 +5.4222957241E+000  +8.4216739888E-001 -1.9164812462E+000 
13524679.599 +8.4177979397E-001 -1.7258491143E+000  +3.2937301247E-002 +3.7179652749E+000  +3.3006297921E-002 +5.4094999377E+000  +8.3046578510E-001 -2.5905463769E+000 
13649824.781 +8.5807802735E-001 -2.2668151802E+000  +3.3527516852E-002 +1.3004952217E+000  +3.1520835839E-002 +7.0527885814E+000  +8.6571437645E-001 -3.8446779444E+000 
13774969.962 +8.6266370354E-001 -2.9112789369E+000  +3.2135908297E-002 +3.9558316096E+000  +3.1980696787E-002 +5.4719655120E+000  +8.9135200463E-001 -3.8069529385E+000 
13900115.144 +8.7703142395E-001 -3.4963490609E+000  +3.4752690690E-002 +2.1497038518E+000  +3.3362031027E-002 +4.1874608424E+000  +8.9716088134E-001 -4.0801953042E+000 
14025260.325 +9.1463033500E-001 -3.6464367366E+000  +3.3500517034E-002 -4.5098013029E-001  +3.2144428319E-002 +4.3954402003E+000  +9.2358278749E-001 -4.9430465322E+000 
14150405.507 +9.0414881428E-001 -2.8928804810E+000  +3.3365088763E-002 +3.2134624698E+000  +3.3433067589E-002 +3.0224028724E+000  +9.3954437439E-001 -3.1511009159E+000 
14275550.688 +9.3580288625E-001 -5.6353246656E+000  +3.4761514029E-002 -9.6879128247E-001  +3.4226120257E-002 +2.6915032570E+000  +9.4216343522E-001 -5.8152042174E+000 
14400695.870 +9.2579496594E-001 -6.4011185151E+000  +3.3237685345E-002 +5.7174726963E-001  +3.3757123158E-002 +2.2616584366E+000  +9.6817043602E-001 -4.9518593783E+000 
