!  2-Port S-parameters saved by WinCal
! VAR MeasName=S-Parameters (CALIBRATED_DATA) read from VNA (P5004A)
! VAR MeasDate=29/08/2024 11:51:15
! VAR NAME=S2_r9c4_RESET2_9k-100M_3
! VAR FILENAME=S2_r9c4_RESET2_9k-100M_3.S2P
! VAR DATE=29/08/2024 11:51:15
! VAR PHYS_PORTS=1,2
! VAR ObjTypeName=DATASET
! VAR IndexType=Frequency
!
# Hz S MA R 50
9000.000 +7.3771958058E-002 -1.6370543323E+002  +9.3652192989E-003 +1.0233578620E+002  +1.7480059225E-002 -1.1958400650E+002  +2.6320779759E-001 -1.4214401909E+002 
134145.181 +1.1181893188E-001 +1.6971755925E+002  +2.4086562648E-004 -1.6888287818E+002  +9.1914389402E-005 +1.0250117372E+002  +2.3657422901E-001 -1.7070812961E+002 
259290.363 +1.1217811345E-001 +1.7004492368E+002  +3.6723175913E-004 +8.9803555445E+001  +6.6593731575E-004 -7.6714461100E+001  +2.4476372987E-001 -1.6794883042E+002 
384435.544 +1.1421221763E-001 +1.7003359548E+002  +2.7272342003E-004 -1.5064990423E+002  +1.0433164589E-003 -1.5494041639E+002  +2.4807120476E-001 -1.6943644744E+002 
509580.726 +1.1419786535E-001 +1.6994900801E+002  +2.6847370412E-004 -1.2533788378E+002  +1.3224028535E-003 -8.4645275069E+001  +2.4812739093E-001 -1.6128832935E+002 
634725.907 +1.1615476302E-001 +1.7134976119E+002  +4.4560112189E-004 +1.3603669731E+002  +1.3391603015E-003 -2.6720705943E+001  +2.5146801181E-001 -1.6686789251E+002 
759871.089 +1.1813713333E-001 +1.7217117810E+002  +1.9217087529E-004 +9.6548329835E+001  +2.6390263489E-004 +1.7485285211E+002  +2.4839719276E-001 -1.6664735329E+002 
885016.270 +1.2018872976E-001 +1.6939914010E+002  +3.9189635100E-004 -1.1735603109E+002  +6.6151035355E-004 -1.8203916279E+001  +2.4658210469E-001 -1.6714545737E+002 
1010161.452 +1.1766447072E-001 +1.6952945718E+002  +7.2714313139E-004 -9.1770959061E+001  +1.3822310694E-003 +1.1940119637E+002  +2.1932926433E-001 -1.6616601511E+002 
1135306.633 +1.1680275368E-001 +1.6984729297E+002  +1.3216343438E-003 -1.7909775153E+002  +4.6936166423E-003 +8.3032498700E+000  +1.5577730334E-001 -1.6798040184E+002 
1260451.815 +1.1827677577E-001 +1.7096698681E+002  +8.5830666585E-004 -1.1156256847E+002  +9.4146399280E-004 -1.3624488987E+002  +2.4363243804E-001 -1.6016645814E+002 
1385596.996 +1.2289114679E-001 +1.7239443030E+002  +4.4431752099E-004 -1.7910039031E+002  +6.5764010348E-004 +2.6573286028E+001  +2.5399701624E-001 -1.6018584201E+002 
1510742.178 +1.3098910354E-001 +1.7127289051E+002  +3.7834492412E-004 -1.6568957752E+002  +3.2220020063E-004 +4.7024212478E+001  +2.6045849436E-001 -1.5848565651E+002 
1635887.359 +1.2644920032E-001 +1.7171941086E+002  +1.3207434526E-003 -1.4911537380E+002  +1.4196165524E-003 -1.1912886049E+002  +2.4359731002E-001 -1.6152428613E+002 
1761032.541 +1.2948057904E-001 +1.7099001852E+002  +1.4660551450E-003 -9.7015480554E+001  +1.8914254484E-003 -1.3629857635E+002  +2.0325774920E-001 -1.6401193932E+002 
1886177.722 +1.3069779280E-001 +1.6777626229E+002  +7.0664763253E-004 +7.7166975743E+001  +1.0832035628E-003 +7.0933718076E+001  +2.2057842895E-001 -1.6287404674E+002 
2011322.904 +1.2754675063E-001 +1.6656441236E+002  +1.8048114867E-003 +2.2037207357E+001  +3.6400090213E-003 -7.4022007504E+001  +1.7929577142E-001 -1.6883726204E+002 
2136468.085 +1.2988114665E-001 +1.6613863802E+002  +8.0417537166E-004 -7.9035011061E+001  +4.9509151283E-003 -2.5049592799E+001  +2.2054886741E-001 +1.7661078579E+002 
2261613.267 +1.3015934943E-001 +1.6541646425E+002  +1.7874795355E-003 +1.2850569678E+001  +8.5109914365E-003 -2.5347257722E+001  +1.7118542574E-001 -1.3726374401E+002 
2386758.448 +1.3188527870E-001 +1.6320530597E+002  +1.4065692262E-003 -1.0224235835E+002  +2.4332639915E-003 +3.0854656883E+001  +1.8189531102E-001 +1.7180729878E+002 
2511903.630 +1.2562424264E-001 +1.6271354337E+002  +4.4063616299E-003 -1.6088713066E+002  +2.9759491498E-003 -6.7998550713E+001  +2.0079020143E-001 +1.7206954821E+002 
2637048.811 +1.0419781302E-001 +1.6544141784E+002  +6.0570015327E-003 +8.6435263371E+001  +3.8237022299E-002 +6.4820906464E+001  +6.0935346596E-001 +1.4441315640E+002 
2762193.992 +1.2160954012E-001 +1.6069874114E+002  +5.5473190888E-003 +9.9413071419E+001  +4.5132745300E-003 -8.8471149148E+001  +2.1864840968E-001 +8.5280599694E+001 
2887339.174 +1.2361207047E-001 +1.7299674294E+002  +5.8405082869E-002 +2.3136736760E+001  +2.2053234665E-002 -1.2951524855E+002  +9.2682745794E-001 -1.1743308031E+001 
3012484.355 +1.3431288000E-001 +1.6980586813E+002  +1.1806377738E-002 +1.8550022975E+001  +3.9089955619E-003 -3.6700130109E+001  +1.3041432086E-001 -1.5315275310E+002 
3137629.537 +1.3074340193E-001 +1.6581386458E+002  +6.3159686409E-002 +1.1055757593E+002  +7.7513352556E-002 -3.9525313984E+001  +2.4547855244E+000 +7.6348199568E+001 
3262774.718 +1.3368575062E-001 +1.6704960786E+002  +8.4507214094E-003 +2.9734041035E+001  +5.7108652448E-003 +8.7920607627E+001  +1.2723328734E-001 +7.7704680369E+001 
3387919.900 +1.3618017250E-001 +1.5401721133E+002  +2.6257780076E-002 +2.7953275593E+001  +1.5123984094E-002 -3.6032819238E+001  +2.0494509680E-001 -1.8361152320E+000 
3513065.081 +1.4166669421E-001 +1.5415641060E+002  +7.1081517703E-003 +2.5265824520E+001  +9.3208188257E-003 +4.1867181673E+001  +1.8154118332E-001 +1.3052135786E+002 
3638210.263 +1.4848206615E-001 +1.5104185285E+002  +1.9836263380E-002 +9.0418300871E+001  +1.0321189046E-002 +6.0341856003E+001  +8.8551609796E-001 +1.3530847318E+002 
3763355.444 +1.5110672736E-001 +1.4548346223E+002  +6.8816057439E-003 -5.7469855139E+001  +1.2870819612E-002 +4.4445943507E+001  +6.4698569399E-001 +1.3035448058E+002 
3888500.626 +1.6189859112E-001 +1.4933368772E+002  +1.2556682768E-002 +7.9008433587E+001  +7.7378200825E-003 +1.3830986590E+001  +3.8489832131E-001 +1.4322347356E+002 
4013645.807 +1.5390965209E-001 +1.3709771637E+002  +1.9811186651E-002 +1.2364851299E+002  +1.3953610645E-002 -6.2643499706E+000  +5.3826916697E-001 +1.4166534544E+002 
4138790.989 +2.0421558111E-001 +1.5061367422E+002  +1.1070265687E-002 +9.8147359562E+001  +4.4406519777E-003 +7.9366895369E+001  +5.0857305763E-001 +1.4502258160E+002 
4263936.170 +1.9765600429E-001 +1.4756514840E+002  +1.1000594086E-002 +1.0865987165E+002  +8.0262805666E-003 +1.0307533890E+002  +5.1387042810E-001 +1.1630535521E+002 
4389081.352 +1.9336933686E-001 +1.4487056774E+002  +4.3922961925E-002 +8.5254759393E+001  +3.2260223362E-002 +6.4729563215E+001  +1.6561922249E+000 +7.1901060444E+001 
4514226.533 +2.4447154479E-001 +1.3585633677E+002  +6.2095618770E-002 +1.4384274823E+002  +7.2443185122E-002 +5.7383371278E+001  +2.0057581905E+000 +9.1652458965E+001 
4639371.715 +3.6520050144E-001 +1.2819813497E+002  +1.7602764194E-001 -1.0751558603E+002  +1.2034737098E-001 +1.3745322911E+002  +5.9925502204E+000 +1.7660845979E+002 
4764516.896 +3.6768061218E-001 +1.3348426754E+002  +1.3944812491E-001 -1.4149504570E+002  +1.3873900505E-001 +1.2749977876E+002  +4.4213186869E+000 +1.7317695743E+002 
4889662.078 +3.9328668139E-001 +1.3822817794E+002  +8.6899612443E-002 -4.1483335088E+001  +2.0321540260E-001 -8.5485629967E+001  +5.8686935420E+000 -8.2984742727E+001 
5014807.259 +3.7643701413E-001 +1.4040185678E+002  +2.7676377801E-002 +8.6189077436E+001  +1.9646007668E-002 +5.6777735915E+001  +1.2145328385E+000 +6.8405738420E+000 
5139952.441 +3.8705951125E-001 +1.2455802238E+002  +2.5574378227E-001 -7.0276248492E+001  +1.1934762022E-001 -1.4634927463E+002  +7.6923218710E+000 -1.2324732894E+002 
5265097.622 +3.8556727290E-001 +1.3295577168E+002  +1.9821172903E-001 -9.9185267684E+001  +1.2512359270E-001 -1.6643243900E+002  +7.6264750858E+000 -1.5412006850E+002 
5390242.804 +3.8873518174E-001 +1.3137079197E+002  +6.3311556247E-002 +1.1126080317E+002  +7.7014440854E-002 +1.2289152302E+002  +4.1528577146E+000 +1.1869880048E+002 
5515387.985 +4.2639834647E-001 +1.3684171926E+002  +3.4910730764E-002 +1.4551474172E+002  +3.2878884652E-002 +8.9208373465E+001  +1.6884125246E+000 +1.0131270763E+002 
5640533.166 +5.0978591352E-001 +1.3131071385E+002  +3.3941737723E-002 +1.0341931621E+002  +8.0669816398E-002 +1.0607752203E+002  +2.9270943811E+000 +8.3802492432E+001 
5765678.348 +5.0409419257E-001 +1.3054283080E+002  +3.9687163082E-002 +1.0551434001E+002  +3.4885321776E-002 +4.4136215612E+001  +2.1170323267E+000 +7.3712254530E+001 
5890823.529 +5.2988126489E-001 +1.2795319579E+002  +1.0359272472E-001 +5.3343513448E+001  +6.6034555302E-002 +5.8600768929E+001  +5.3907886906E+000 +5.2857791246E+001 
6015968.711 +7.8302065732E-001 +1.1104280939E+002  +8.3298796490E-002 +8.1864833627E+001  +7.7669312180E-002 +7.4747062330E+001  +2.3900369908E+000 +6.0160553489E+001 
6141113.892 +7.6494530007E-001 +1.0217455822E+002  +7.7243527325E-002 +4.4633507533E+001  +4.2182342463E-002 +5.9124516423E+001  +1.8271739608E+000 +3.5326461727E+001 
6266259.074 +6.7127874116E-001 +1.0296637907E+002  +5.5235475739E-002 +5.1408423361E+001  +5.1222181072E-002 +3.8144570730E+001  +1.9294676938E+000 +1.9854968541E+001 
6391404.255 +1.0294348375E+000 +9.6491197256E+001  +5.9167874562E-002 +4.6378967285E+001  +5.9294791529E-002 +4.2657457840E+001  +1.4460477807E+000 +2.6499124839E+001 
6516549.437 +1.0023557701E+000 +9.8331923980E+001  +3.9689281675E-002 +4.1163983999E+001  +4.3225122102E-002 +1.7121496680E+001  +1.5375811777E+000 +3.3821848768E+000 
6641694.618 +1.5394210647E+000 +6.6899968809E+001  +4.7505567453E-002 +3.1126466480E+001  +6.2505750862E-002 +1.6296974929E+001  +1.4083781511E+000 -1.6882326096E+000 
6766839.800 +1.6016980469E+000 +5.2792710737E+001  +4.8055834015E-002 +6.9411826206E+000  +6.7591859372E-002 +1.8777930495E+001  +1.2752238044E+000 -1.3602698616E+000 
6891984.981 +1.3751262294E+000 +1.8885246397E+001  +2.7512512757E-002 +6.0505374414E+000  +6.7654975406E-002 -2.0623956519E+000  +1.2102273547E+000 -1.1326798140E+001 
7017130.163 +1.6347457522E+000 +2.4032042864E+001  +5.3035089732E-002 +2.4122387152E+000  +4.7361975135E-002 +1.3807880181E+001  +1.1603625374E+000 -2.5043169917E+000 
7142275.344 +1.3422673197E+000 +1.7748327015E+001  +3.3138860623E-002 +4.2431097452E+000  +4.0677451530E-002 +1.2042979644E+001  +1.4567003658E+000 -1.3149326080E+001 
7267420.526 +1.5230881200E+000 -5.6068265520E+000  +3.0693214840E-002 +1.1646323978E+001  +3.7843887214E-002 +3.7422039884E+000  +1.4058929541E+000 -6.0077539152E+000 
7392565.707 +1.3436855985E+000 -8.4188049576E-001  +2.1303766986E-002 +2.1268152350E+000  +2.3147318642E-002 +3.1536811807E+000  +1.2352334715E+000 -3.5289880282E+000 
7517710.889 +1.1156232291E+000 -3.7822150892E+000  +2.5618693485E-002 -1.0292989871E+000  +2.2254011880E-002 +1.3413787086E+001  +1.2394164403E+000 -5.9036963389E+000 
7642856.070 +8.8785979747E-001 -1.1029579703E-001  +2.0322618393E-002 +1.0549227852E+001  +1.9551595546E-002 +3.7730247713E+000  +1.0884547032E+000 +8.2252102522E-001 
7768001.252 +8.6220295493E-001 +2.6840481614E+000  +2.6163311333E-002 +2.0947861166E+000  +2.0786582593E-002 +2.3335092608E-001  +1.0391420734E+000 -3.8413318456E+000 
7893146.433 +8.9178286417E-001 +4.7958419194E+000  +1.6203261698E-002 -3.9558906425E+000  +2.3118762455E-002 +2.8766199384E+001  +8.9269640351E-001 +2.3162675827E-001 
8018291.615 +8.0774223742E-001 +7.4366548984E+000  +2.1697274999E-002 -6.2692294390E+000  +1.7424390168E-002 +6.5209704644E+000  +8.3231688632E-001 -2.1485721206E-001 
8143436.796 +7.2307315990E-001 +1.1302916503E+001  +1.4814090377E-002 -1.7085129905E+001  +2.4595431226E-002 +1.9397127398E+001  +8.2977597019E-001 +2.7917756196E+000 
8268581.977 +6.3465644980E-001 +1.7980965648E+001  +1.9374525089E-002 -3.2751380425E+000  +2.4847654849E-002 -6.4149984488E-001  +7.9292106552E-001 +4.9023407419E+000 
8393727.159 +7.0126273633E-001 +1.4329901892E+001  +1.9421191874E-002 +1.2627879258E+001  +2.1584918792E-002 -4.1977279364E+000  +6.8945021543E-001 +1.6620182231E+000 
8518872.340 +6.5188109946E-001 +7.1283556554E+000  +1.6583235784E-002 +7.0500874899E+000  +1.7098869442E-002 +1.9684365701E+001  +6.3026543442E-001 +1.5478499635E+000 
8644017.522 +5.7764312486E-001 +1.0395793990E+001  +2.1970965891E-002 -7.2781702695E+000  +1.4552092232E-002 +7.5252244591E+000  +6.4944526315E-001 -2.1056917746E+000 
8769162.703 +5.8473215451E-001 +7.6841714097E+000  +1.8281135997E-002 +1.0239030860E+001  +1.7800553777E-002 +2.4015930761E+001  +6.4846346464E-001 -4.8523922486E+000 
8894307.885 +6.4060638380E-001 +1.1422377570E+000  +2.0344873611E-002 +9.9601204139E+000  +1.5628414815E-002 +1.9373521071E+001  +6.8041792787E-001 -2.6445471984E+000 
9019453.066 +5.0600063779E-001 +1.0337454316E+001  +1.8715450820E-002 +3.1636613810E+000  +1.7842135023E-002 +1.5021487117E+001  +5.9857770622E-001 +3.2390293341E-001 
9144598.248 +5.5003529392E-001 +5.2369930245E+000  +1.4257919849E-002 -3.4139692497E+000  +2.0079377566E-002 +1.7708248010E+001  +5.7174865464E-001 +2.5342574901E+000 
9269743.429 +5.6657500383E-001 +3.5230724490E+000  +1.7006411713E-002 -2.7712702950E+000  +1.5763351559E-002 +1.5355062889E+000  +5.6789940848E-001 -6.3262723350E+000 
9394888.611 +5.4373134046E-001 +4.5458090563E+000  +2.1590515055E-002 -3.9428065903E+000  +1.7307316952E-002 +2.2088837990E+001  +5.7257059863E-001 +2.1188076550E+000 
9520033.792 +5.0306197342E-001 +5.6623170307E+000  +1.6899577097E-002 -1.1569333743E+001  +1.9394963215E-002 +7.3911854870E+000  +5.6540342452E-001 -3.5633689231E+000 
9645178.974 +5.2956685303E-001 +1.0344180635E+001  +1.8754103604E-002 +5.0190225953E+000  +1.9949746974E-002 +1.5390264619E+001  +5.8472041027E-001 -4.1322834854E+000 
9770324.155 +5.4500065878E-001 +3.5904047431E+000  +1.8727602337E-002 +9.5430752940E-002  +2.0411167517E-002 +1.4227561327E+001  +5.8981485775E-001 -3.7276548439E+000 
9895469.337 +4.9039520058E-001 +4.8516808315E+000  +1.8051258293E-002 -2.2011211032E+000  +2.0656786906E-002 +1.0239481865E+001  +5.9643215674E-001 -3.0071687071E+000 
10020614.518 +5.3040709376E-001 -4.5533125352E+000  +2.0416834395E-002 -1.2046158142E+000  +1.7987550213E-002 +1.5658638172E+001  +5.4863067113E-001 -5.2035180574E+000 
10145759.700 +5.3487123023E-001 +8.6522554072E-001  +1.7232563186E-002 -7.5403480953E+000  +1.7520839405E-002 +1.3279305324E+001  +5.6254494355E-001 -1.9557962685E+000 
10270904.881 +5.0020417320E-001 +2.5749625335E+000  +1.9096548857E-002 +8.3733880920E+000  +1.8039856748E-002 +1.7819263851E+001  +5.6933508891E-001 -1.2316290444E+000 
10396050.063 +5.2492894318E-001 +3.4059951825E+000  +2.0415986033E-002 -2.3319521663E+000  +1.6707734358E-002 +1.6959946414E+001  +5.5789595660E-001 -2.6077090651E-002 
10521195.244 +5.7680280809E-001 +9.3039618050E+000  +1.7072063777E-002 +3.0513354459E+000  +1.9679456106E-002 +2.4790306829E+001  +5.6167950371E-001 +1.9398375053E+000 
10646340.426 +5.7809375070E-001 +8.8210242094E+000  +1.7137538339E-002 -1.3165496681E+000  +1.9133487538E-002 +2.1027825431E+001  +6.1182670843E-001 +8.4596375545E-001 
10771485.607 +5.5855827208E-001 +8.9036764055E+000  +1.6165655882E-002 -2.7598499122E+000  +1.6839054765E-002 +5.5356243635E+000  +5.6512041320E-001 +2.8371203386E+000 
10896630.788 +5.7985925897E-001 +1.0317865581E+001  +1.6298664271E-002 +5.4780405052E+000  +2.0004294743E-002 +2.1122505656E+001  +5.8548727378E-001 -6.0396877973E-002 
11021775.970 +5.7360713593E-001 +9.8205559565E+000  +1.7102689556E-002 +5.2627815516E+000  +1.5056219412E-002 +1.4404081012E+001  +5.9376809107E-001 +4.5827146831E+000 
11146921.151 +5.7149041664E-001 +9.2131261642E+000  +2.0042119457E-002 -1.2602963083E+000  +1.8898525231E-002 +1.3339842562E+001  +5.9525631883E-001 -2.5231639791E-001 
11272066.333 +6.2390753714E-001 +6.6635770657E+000  +2.0202553625E-002 +4.9103712242E+000  +1.8354877467E-002 +1.3760095286E+001  +6.1908130178E-001 +2.0178716704E+000 
11397211.514 +6.2149182679E-001 +6.7211444531E+000  +1.7020240416E-002 +1.3110202939E+000  +1.8403166970E-002 +1.0781751929E+001  +6.3270028647E-001 +4.8959460572E+000 
11522356.696 +6.3026845584E-001 +8.0196809162E+000  +1.9487163773E-002 +4.9063779798E+000  +2.0770528109E-002 +1.4548796639E+001  +6.5576800859E-001 +2.6044476021E+000 
11647501.877 +6.2041014804E-001 +8.5486058940E+000  +2.0522338366E-002 +5.4331047849E+000  +2.0576908854E-002 +1.2371760819E+001  +6.1506393615E-001 +2.1295165269E+000 
11772647.059 +6.4197790161E-001 +4.9661037882E+000  +2.0059165143E-002 -5.7816386780E-001  +1.9492654714E-002 +1.7813347465E+001  +6.3600193564E-001 +3.0849327794E+000 
11897792.240 +6.4508176285E-001 +7.9030449302E+000  +1.9703308084E-002 +4.2093202935E+000  +1.7563097589E-002 +1.1255617410E+001  +6.6021706540E-001 +2.4623427567E+000 
12022937.422 +6.3575231011E-001 +7.1102535374E+000  +2.1589834547E-002 -1.0355663919E+000  +1.9699714193E-002 +9.0292127207E+000  +6.6292397046E-001 +4.4446585702E-001 
12148082.603 +6.9800402625E-001 +5.1854204222E+000  +2.0608850953E-002 +3.1668743647E+000  +1.7780651849E-002 +1.2497489484E+001  +6.9297447483E-001 +2.6180909546E+000 
12273227.785 +6.7361461543E-001 +3.9172597222E+000  +2.1946058755E-002 +7.7127950579E+000  +2.0275036347E-002 +1.0317373388E+001  +7.2340507119E-001 -1.0971643975E+000 
12398372.966 +7.1935111204E-001 +2.6019974057E+000  +2.3358914460E-002 +7.6155723065E+000  +1.9961907621E-002 +1.1846212224E+001  +7.2045662669E-001 +2.5749530851E+000 
12523518.148 +7.2802679731E-001 +3.9095064084E+000  +2.1848959994E-002 +9.7940777378E+000  +2.0773658923E-002 +1.2441474139E+001  +7.2330033003E-001 +2.4069178185E+000 
12648663.329 +7.3895920050E-001 +1.8941472313E+000  +2.1597222463E-002 +1.0150990712E+001  +1.8767988542E-002 +9.0652317650E+000  +7.6940288615E-001 -3.0208344771E-001 
12773808.511 +7.6274436000E-001 +2.7618260884E+000  +2.2111899271E-002 +7.2012048413E+000  +2.1789101662E-002 +1.0889584498E+001  +7.5448750471E-001 -1.1699448321E+000 
12898953.692 +7.7666339272E-001 +2.0565071652E+000  +2.2525407333E-002 +6.0502814935E+000  +2.3827986578E-002 +1.1222016135E+001  +7.5791466591E-001 -1.2256094939E+000 
13024098.874 +7.6748729984E-001 +1.5234147501E+000  +2.2571514231E-002 +2.2189429610E+000  +2.0170521637E-002 +1.2181930674E+001  +7.7023288010E-001 -1.0061447538E+000 
13149244.055 +7.9788311787E-001 +5.3032575698E-001  +2.0736039976E-002 +3.9038383357E+000  +1.9935041116E-002 +1.1563920457E+001  +8.1033443602E-001 -4.3724041417E-001 
13274389.237 +7.9195027618E-001 -8.8485430589E-002  +2.2174678470E-002 +4.6785208050E+000  +2.2051996267E-002 +9.0755937772E+000  +8.1123061204E-001 -2.0601613948E+000 
13399534.418 +7.9545901736E-001 -8.8937076623E-001  +2.2453353547E-002 +5.2941073906E+000  +2.0896451217E-002 +1.1266394497E+001  +8.2819696335E-001 -1.5514067175E+000 
13524679.599 +8.2851551228E-001 -2.1414651395E+000  +2.2769337762E-002 +8.7175567657E+000  +2.3531884463E-002 +9.0528672962E+000  +8.4670876218E-001 -3.3704109176E+000 
13649824.781 +8.4277249963E-001 -1.1783790416E+000  +2.3230701524E-002 +4.4625608462E+000  +2.3208640847E-002 +1.0935227277E+001  +8.3434506902E-001 -2.7637156662E+000 
13774969.962 +8.6627788182E-001 -2.2629323423E+000  +2.3917337329E-002 +6.2815208572E+000  +2.3512038693E-002 +4.0232815326E+000  +8.8393646233E-001 -3.5378326230E+000 
13900115.144 +8.8062142327E-001 -3.0391700063E+000  +2.3819403091E-002 +4.8121679859E+000  +2.2087558998E-002 +1.0293621080E+001  +9.2239295211E-001 -5.2344907262E+000 
14025260.325 +9.0580513702E-001 -2.9895093765E+000  +2.4145055309E-002 +5.2451223629E+000  +2.3899240887E-002 +7.8974005260E+000  +8.9509071689E-001 -3.1130447429E+000 
14150405.507 +9.2243380410E-001 -5.0986760624E+000  +2.4704574657E-002 +5.1755681201E+000  +2.3384550144E-002 +7.1571570112E+000  +9.0345201058E-001 -4.0750982493E+000 
14275550.688 +9.5243394546E-001 -4.3850840625E+000  +2.3981999245E-002 +5.2547275854E+000  +2.2391151875E-002 +5.2347417370E+000  +9.5183405406E-001 -3.4715498107E+000 
14400695.870 +9.4888176844E-001 -7.0818346550E+000  +2.4009008075E-002 +1.4739753254E+000  +2.3690824880E-002 +5.4963044873E+000  +9.5819612499E-001 -5.0529975299E+000 
