!  2-Port S-parameters saved by WinCal
! VAR MeasName=S-Parameters (CALIBRATED_DATA) read from VNA (P5004A)
! VAR MeasDate=29/08/2024 11:10:26
! VAR NAME=S2_r9c3_RESET1_9k-100M_2
! VAR FILENAME=S2_r9c3_RESET1_9k-100M_2.S2P
! VAR DATE=29/08/2024 11:10:26
! VAR PHYS_PORTS=1,2
! VAR ObjTypeName=DATASET
! VAR IndexType=Frequency
!
# Hz S MA R 50
9000.000 +1.0620881162E-001 -1.7013261220E+002  +4.7627555858E-003 +7.3918770995E+001  +8.2530523726E-004 -1.0566170794E+002  +2.3442982189E-001 -1.4625406968E+002 
134145.181 +1.1118864029E-001 +1.6965891306E+002  +2.1927786524E-004 -1.4866073618E+002  +4.0315613847E-004 +3.8709537715E+001  +2.3740503329E-001 -1.7044484555E+002 
259290.363 +1.1239702443E-001 +1.6961889296E+002  +5.5169822509E-004 -1.0304603799E+002  +9.3440174579E-004 +1.7484737687E+002  +2.2943649013E-001 -1.6899101562E+002 
384435.544 +1.1368515199E-001 +1.7010494752E+002  +1.1034259697E-003 -3.0552289591E+001  +3.9868799680E-004 +1.7133193603E+002  +2.3994658015E-001 -1.6870268545E+002 
509580.726 +1.1510718871E-001 +1.7169011996E+002  +1.4532723623E-003 -5.8608997311E+001  +1.7015739653E-003 +8.7712338939E+001  +2.4438427041E-001 -1.6688198564E+002 
634725.907 +1.1555506328E-001 +1.7223056451E+002  +8.9891976830E-004 -8.8102179612E+001  +1.3142556072E-003 +1.3303779264E+002  +2.5137498048E-001 -1.6700006857E+002 
759871.089 +1.1858041100E-001 +1.7071341390E+002  +5.8837425438E-004 -1.1358991831E+002  +5.3092483146E-004 -1.7891375655E+002  +2.4915993653E-001 -1.6576515005E+002 
885016.270 +1.2045582095E-001 +1.6877337857E+002  +1.2246080996E-003 -6.2939714745E+001  +9.3946131101E-004 +1.3266691714E+002  +2.4850775080E-001 -1.6675764973E+002 
1010161.452 +1.1892141050E-001 +1.6890249923E+002  +1.9024236364E-003 +1.4053197028E+001  +1.1481658329E-003 -1.4730091250E+002  +2.1731976751E-001 -1.6920770730E+002 
1135306.633 +1.1946945740E-001 +1.6785244577E+002  +2.4214700610E-003 -3.3950377803E+001  +2.2872425723E-003 +1.7367439631E+002  +2.1035325377E-001 -1.6485842590E+002 
1260451.815 +1.1559668170E-001 +1.7373105535E+002  +3.5988636346E-003 -5.9428470324E+001  +8.7786210043E-004 +1.2749634824E+002  +2.3107846499E-001 -1.6127448841E+002 
1385596.996 +1.2620028461E-001 +1.7244485093E+002  +2.6904175033E-003 -4.7939670712E+001  +2.9704468755E-003 +1.5521927042E+002  +2.3823622354E-001 -1.5711787973E+002 
1510742.178 +1.2725920321E-001 +1.7229173767E+002  +1.0596219258E-003 -8.5130188494E+001  +1.2732930096E-003 +1.4372065281E+002  +2.5494767046E-001 -1.5883446983E+002 
1635887.359 +1.2734301080E-001 +1.7060100288E+002  +1.1068663913E-003 +1.7830460311E+001  +2.0651738546E-003 +1.6023724404E+002  +2.5289013519E-001 -1.5857332906E+002 
1761032.541 +1.2929722685E-001 +1.6864112429E+002  +2.4917232664E-003 +4.6289288767E+001  +3.5561605383E-003 -9.1593439242E+001  +2.1541487432E-001 -1.5771313627E+002 
1886177.722 +1.3318119083E-001 +1.6948875468E+002  +4.3160379120E-003 +1.7623983319E+001  +3.6599882899E-003 -9.8991550140E+001  +2.2323242156E-001 -1.5881828737E+002 
2011322.904 +1.3060818895E-001 +1.6899533987E+002  +8.9937635953E-003 +7.2113493368E+001  +9.1419441146E-003 -4.7385617395E+001  +1.7485515665E-001 -1.6928802167E+002 
2136468.085 +1.3108029651E-001 +1.6955047692E+002  +1.2196284951E-002 +6.7236059454E+001  +1.5437243026E-002 -4.7420993901E+001  +1.5571609979E-001 +1.7711195264E+002 
2261613.267 +1.3514304072E-001 +1.6545599876E+002  +2.1846458147E-002 +1.0504295861E+002  +2.0726892805E-002 -3.5470884037E+001  +1.5844862003E-001 +1.5525225152E+002 
2386758.448 +1.3610618961E-001 +1.6300200851E+002  +1.5774727931E-002 +1.0181489939E+002  +1.6267372927E-002 -1.5082116111E+001  +2.0404023914E-001 -1.7840269974E+002 
2511903.630 +1.3867261055E-001 +1.6613394205E+002  +1.9688881207E-002 +5.7119620027E+001  +1.6401364323E-002 -4.5214064759E+001  +1.8482957046E-001 -1.6654951340E+002 
2637048.811 +1.3228451471E-001 +1.6903925524E+002  +2.6397934252E-002 +5.7940895449E+001  +2.6821331162E-002 -5.4519918663E+001  +1.7796981749E-001 -1.7542842384E+002 
2762193.992 +1.3145948165E-001 +1.7462561569E+002  +5.0430041070E-002 +4.5881140144E+000  +5.1321186629E-002 -9.7936754403E+001  +1.2109021197E-001 -1.2056571153E+002 
2887339.174 +1.0894418340E-001 +1.7260500618E+002  +1.0261149026E-001 +4.3463094973E+001  +1.1732496642E-001 -7.1135677490E+001  +1.9590157864E-001 +3.1978753652E+001 
3012484.355 +1.4071901615E-001 +1.7500961773E+002  +4.3663141605E-002 -1.9758113586E+001  +4.9864816796E-002 -1.1820164847E+002  +1.9241692421E-001 -1.1419650027E+002 
3137629.537 +1.3288121852E-001 +1.7378201195E+002  +4.6914930540E-002 +1.3382481972E+001  +4.6782177709E-002 -9.0139471021E+001  +1.1592354475E-001 -1.3064925241E+002 
3262774.718 +1.3399542124E-001 +1.5509218929E+002  +4.9135762431E-002 +3.4871985366E+001  +4.0538412446E-002 -6.3449027426E+001  +1.8444870847E-001 -1.2913337961E+002 
3387919.900 +1.3620846136E-001 +1.5526149073E+002  +1.1868038040E-001 +8.3427134185E+001  +1.0735723107E-001 -5.0255348597E+000  +4.3572294554E-001 +9.9586970590E+001 
3513065.081 +1.6162389878E-001 +1.3936259427E+002  +8.1741042726E-002 +1.0857495211E+002  +8.4914442415E-002 +2.1207968584E+001  +3.2537560905E-001 +1.4404627718E+002 
3638210.263 +1.5310331220E-001 +1.3846620953E+002  +1.7470396618E-001 +8.7590960420E+001  +1.8112414766E-001 +1.2985114156E+001  +6.2603913329E-001 +7.7617994058E+001 
3763355.444 +1.5758833379E-001 +1.5592633141E+002  +5.8856391776E-002 +7.0812589217E+001  +5.7719156823E-002 -8.9761867602E+000  +1.8382975783E-001 +1.4168122457E+002 
3888500.626 +1.6329288250E-001 +1.5419650340E+002  +8.9242677798E-002 +7.1182908343E+001  +9.1080395213E-002 -1.7279204130E+000  +2.6937886544E-001 +1.0249695007E+002 
4013645.807 +1.8029665823E-001 +1.5628598282E+002  +6.4463419087E-002 +7.4277289944E+001  +5.6892350921E-002 +3.4049273997E+000  +2.0337510506E-001 +1.3817533918E+002 
4138790.989 +2.0185042221E-001 +1.5212180802E+002  +8.0784335199E-002 +7.8772539634E+001  +7.9473709571E-002 +1.1019377025E+001  +2.3096571646E-001 +1.0259946371E+002 
4263936.170 +1.7105350715E-001 +1.3051679079E+002  +1.1906522215E-001 +9.8066215340E+001  +1.2939894767E-001 +3.9335860608E+001  +4.6901364910E-001 +1.4345421407E+002 
4389081.352 +1.9057714391E-001 +1.4143115975E+002  +8.9748375622E-002 +7.6163681092E+001  +9.2828905735E-002 +2.1005766493E+001  +2.7216958770E-001 +1.4155197980E+002 
4514226.533 +1.9389824286E-001 +1.4921095748E+002  +1.5539845125E-001 +5.4201266880E+001  +1.6523118885E-001 -4.1028580633E+000  +5.6108723578E-001 +4.2634828511E+001 
4639371.715 +2.0936500652E-001 +1.3170322089E+002  +2.1479654887E-001 +7.2936717112E+001  +1.9131855565E-001 +2.0319289936E+001  +5.8727958363E-001 +7.6496698290E+001 
4764516.896 +3.1770939346E-001 +1.2830155830E+002  +2.5270567370E-001 +1.2578367782E+002  +2.5483237046E-001 +7.6808846939E+001  +1.0052331270E+000 +1.2364108392E+002 
4889662.078 +3.8463191001E-001 +1.4738913051E+002  +3.8805167709E-001 -1.4968984891E+002  +3.7895918415E-001 +1.6032806731E+002  +1.9271782936E+000 +1.7021520505E+002 
5014807.259 +4.6388868956E-001 +6.4068551754E+001  +1.9034598965E+000 +5.5079009446E+001  +1.8096569601E+000 +1.0623300940E+001  +7.3076478332E+000 +3.4998816604E+001 
5139952.441 +3.7931165408E-001 +1.3525214708E+002  +3.9314977849E-001 +1.3318404070E+002  +3.7716349770E-001 +9.0022041354E+001  +1.9864259342E+000 +1.2032154897E+002 
5265097.622 +4.0393363479E-001 +1.2476191945E+002  +3.9844651489E-001 +1.1344637733E+002  +4.0218602393E-001 +7.7681344013E+001  +1.6158205610E+000 +1.0742530566E+002 
5390242.804 +3.2914821187E-001 +1.2391543857E+002  +3.1066475400E-001 +1.0034148155E+002  +2.9393508072E-001 +6.5972368307E+001  +1.3664533180E+000 +1.1467961262E+002 
5515387.985 +3.7969025568E-001 +1.2687569635E+002  +2.7340153716E-001 +1.0161511772E+002  +2.5531419368E-001 +6.9743388697E+001  +1.1622260885E+000 +1.1641860552E+002 
5640533.166 +4.0590605177E-001 +1.3257342636E+002  +2.3755529601E-001 +9.9540725355E+001  +2.1419849118E-001 +6.8841869281E+001  +1.0346244335E+000 +1.1619286152E+002 
5765678.348 +4.5248454283E-001 +1.3363881292E+002  +2.2010149272E-001 +9.7461960864E+001  +2.1584275769E-001 +6.9042699102E+001  +1.0739350533E+000 +1.0705643611E+002 
5890823.529 +4.9795386097E-001 +1.1959827340E+002  +3.4781314874E-001 +8.4146656267E+001  +3.1652126652E-001 +5.8128113628E+001  +1.1972379331E+000 +9.0252730350E+001 
6015968.711 +4.2152542343E-001 +1.1391729322E+002  +3.6039739308E-001 +6.0592786550E+001  +3.5473672398E-001 +3.8022883301E+001  +1.2653680479E+000 +7.0748500901E+001 
6141113.892 +5.6521435814E-001 +1.0803357803E+002  +4.8727958298E-001 +5.2419569630E+001  +4.8090425389E-001 +3.4614382707E+001  +1.6743648476E+000 +4.2805541926E+001 
6266259.074 +6.3698877143E-001 +1.0449205982E+002  +3.6887186054E-001 +4.7076871822E+001  +3.5552431098E-001 +2.9238439452E+001  +8.5895382412E-001 +2.7826527449E+001 
6391404.255 +6.9075706546E-001 +9.6046496218E+001  +4.3733328580E-001 +4.6221565589E+001  +4.2550974512E-001 +3.0083665663E+001  +1.1452248306E+000 +3.9102183042E+001 
6516549.437 +6.5861345196E-001 +8.8007746186E+001  +3.9126100206E-001 +3.2204663132E+001  +3.9057896054E-001 +2.0911586526E+001  +9.0577484642E-001 +2.8655456739E+001 
6641694.618 +8.6323471501E-001 +7.2212495232E+001  +5.0660983912E-001 +2.9101183255E+001  +4.8757193720E-001 +1.7444541951E+001  +1.1888508851E+000 +2.1769413366E+001 
6766839.800 +1.1481972718E+000 +6.6090310402E+001  +5.0001549699E-001 +2.7692156545E+001  +4.8152360197E-001 +1.8160593941E+001  +9.5725441846E-001 +6.4607953971E+000 
6891984.981 +9.4247277441E-001 +1.8551267503E+001  +4.8669138914E-001 +3.4448637874E+000  +4.8924310571E-001 -4.2883423941E+000  +8.7399313180E-001 +1.6957524853E+001 
7017130.163 +8.5422787288E-001 +2.5759880026E+001  +4.2020419810E-001 +4.8133610464E+000  +4.2939815502E-001 -7.1419862793E-002  +8.8690820720E-001 -9.9519877812E-001 
7142275.344 +1.0207732051E+000 +1.3605521413E+001  +4.1526615786E-001 +9.0912932648E-001  +4.0842983589E-001 -1.5822217363E+000  +8.7512288389E-001 -3.0359713071E+000 
7267420.526 +8.9209505749E-001 -2.3264699201E+000  +3.5930622575E-001 -3.8297001242E-001  +3.6375508506E-001 -3.5510976006E+000  +9.4004326742E-001 -1.2156516733E+001 
7392565.707 +8.8786066491E-001 -3.0673693936E+000  +3.1703895822E-001 +4.1300264640E+000  +3.1898619400E-001 +2.9972285978E+000  +9.5590550060E-001 +4.1764389065E-001 
7517710.889 +9.0199663717E-001 +4.1828233157E+000  +2.8830039407E-001 +5.5882128040E+000  +2.8766858971E-001 +7.4782846879E+000  +9.1852424325E-001 +1.0825673745E+000 
7642856.070 +6.4274521014E-001 +9.4213318958E+000  +2.7297007211E-001 +1.3776911793E+000  +2.6477100408E-001 +5.7398048503E+000  +7.1564795974E-001 +1.3450764755E+000 
7768001.252 +5.5285848018E-001 +5.8151110158E+000  +2.6926106660E-001 +5.4912757717E-002  +2.7023215138E-001 +5.4503604449E+000  +7.0624120196E-001 -4.2234447541E+000 
7893146.433 +5.7782864576E-001 +4.6791538804E+000  +2.6439984713E-001 +1.1245295087E+000  +2.6301222678E-001 +6.9796195247E+000  +7.1418483937E-001 -6.2890215097E+000 
8018291.615 +5.7652741580E-001 +1.3081611143E+001  +2.4867729348E-001 +9.9169069031E-001  +2.5576391705E-001 +5.9000305677E+000  +6.2553416189E-001 +7.0559400017E+000 
8143436.796 +4.8422797293E-001 +1.6331019625E+001  +2.4335412097E-001 -3.3040476190E+000  +2.3435289278E-001 +7.8415581348E+000  +5.9901250551E-001 +6.2308984983E+000 
8268581.977 +4.1484589614E-001 +2.1097828487E+001  +2.3247930931E-001 -2.8520955680E+000  +2.3493824310E-001 +6.7766872349E+000  +4.9326379111E-001 +2.6531834504E+000 
8393727.159 +3.7027294719E-001 +1.5895825527E+001  +2.2661490730E-001 -4.1540125441E+000  +2.3005489680E-001 +6.1542022180E+000  +4.9911103616E-001 +9.5469382336E+000 
8518872.340 +3.2243154015E-001 +1.2440022360E+001  +2.2473279460E-001 -5.8582654890E+000  +2.2239543858E-001 +5.9611331843E+000  +4.7189654788E-001 +1.5676320895E+001 
8644017.522 +4.4659031116E-001 +9.6003132660E+000  +2.2428124284E-001 -3.0633536029E+000  +2.2484619169E-001 +7.3728042472E+000  +4.4014518755E-001 +9.7313986768E+000 
8769162.703 +3.9292608597E-001 +1.3036115294E+001  +2.2333770709E-001 -4.0655518219E+000  +2.2196952491E-001 +9.1046239693E+000  +4.3260389662E-001 +8.9963334925E+000 
8894307.885 +4.0492283289E-001 +1.1180034647E+001  +2.2704799140E-001 -4.7278140590E+000  +2.2301434251E-001 +9.2592289506E+000  +4.1843575900E-001 +7.6072511985E+000 
9019453.066 +3.9006268629E-001 +1.8802264211E+001  +2.2252787279E-001 -4.8345638646E+000  +2.1834259318E-001 +1.1074175213E+001  +4.0912299608E-001 +6.4872269952E+000 
9144598.248 +3.3304107480E-001 +1.0052939476E+001  +2.1768812071E-001 -4.7319962213E+000  +2.1968973741E-001 +1.0520168816E+001  +4.2373053292E-001 +9.8313277679E+000 
9269743.429 +3.6559494672E-001 +1.5301007244E+001  +2.2280190196E-001 -4.8071308797E+000  +2.1354444358E-001 +1.0437524294E+001  +3.6621793360E-001 +6.0084476525E+000 
9394888.611 +2.8985818739E-001 +1.0761803581E+001  +2.2222633724E-001 -5.7503742246E+000  +2.1720620326E-001 +9.3156124093E+000  +3.5550237018E-001 +3.6108140813E+000 
9520033.792 +3.1756376923E-001 +5.2180819023E-001  +2.2006064881E-001 -5.8974423124E+000  +2.1825147757E-001 +1.0005243723E+001  +3.3527500344E-001 +7.1567153492E+000 
9645178.974 +3.2118569904E-001 +9.3662220829E+000  +2.1808493822E-001 -5.2514869998E+000  +2.2107820464E-001 +1.0384381347E+001  +3.2874256633E-001 +2.5638731778E+000 
9770324.155 +3.1399080946E-001 +1.5849720698E+001  +2.2111245390E-001 -5.5902127034E+000  +2.1992549973E-001 +1.0715097846E+001  +3.4046914575E-001 -4.5299854602E+000 
9895469.337 +3.4612780165E-001 +8.9288179987E+000  +2.2407192009E-001 -4.9765069118E+000  +2.2083429664E-001 +1.0977258544E+001  +3.4081521904E-001 -1.0425455059E+000 
10020614.518 +3.5476969158E-001 +8.1465345836E+000  +2.2323884119E-001 -3.5501888612E+000  +2.2211444425E-001 +1.1887694974E+001  +4.0059927117E-001 +3.7437972746E+000 
10145759.700 +3.2762507229E-001 +8.5187240356E+000  +2.2508811229E-001 -4.6176153016E+000  +2.2487533607E-001 +1.1192122859E+001  +3.6396467241E-001 +1.3289444118E-001 
10270904.881 +3.2856090910E-001 +1.1769503011E+001  +2.2463024634E-001 -4.4798726442E+000  +2.2431560239E-001 +1.1010604152E+001  +3.4571471005E-001 -3.4949725487E+000 
10396050.063 +3.1538766653E-001 +1.5305875891E+001  +2.2428753452E-001 -3.9424249280E+000  +2.2306727141E-001 +1.1687498641E+001  +3.5235881302E-001 +4.2131046552E+000 
10521195.244 +3.4642141126E-001 +1.0397020493E+001  +2.2730227519E-001 -3.4594464455E+000  +2.2697248012E-001 +1.1039889123E+001  +3.1824853368E-001 +1.9433342734E+000 
10646340.426 +3.3230064146E-001 +1.3845056880E+001  +2.2763684415E-001 -3.1019089097E+000  +2.2423113045E-001 +1.1998732597E+001  +3.7866952509E-001 +6.7618200002E+000 
10771485.607 +3.7706280970E-001 +1.5714312148E+001  +2.2923380250E-001 -2.5587619862E+000  +2.2636967976E-001 +1.1849360457E+001  +3.6794600862E-001 +8.5359920316E+000 
10896630.788 +3.2167680653E-001 +1.1431482006E+001  +2.2864068904E-001 -3.0350940872E+000  +2.2653264380E-001 +1.1037454665E+001  +3.6559533715E-001 +1.1531941787E+001 
11021775.970 +3.5916034679E-001 +1.8534281507E+001  +2.3160657190E-001 -2.1340541083E+000  +2.3095740692E-001 +1.1062972674E+001  +3.5709684924E-001 +8.3135054065E+000 
11146921.151 +3.7917184698E-001 +1.4084866063E+001  +2.3351096143E-001 -1.9167846306E+000  +2.3035883176E-001 +1.2344724762E+001  +3.7842266765E-001 +6.7790610593E+000 
11272066.333 +3.8017350080E-001 +1.4846439986E+001  +2.3577861577E-001 -1.5932386833E+000  +2.3337881529E-001 +1.1489208617E+001  +3.7682450513E-001 +8.5398643981E+000 
11397211.514 +3.8104289192E-001 +1.2416873001E+001  +2.3780189977E-001 -1.3958116580E+000  +2.3506748469E-001 +1.0771882717E+001  +3.9531691742E-001 +9.7306735732E+000 
11522356.696 +3.8164923687E-001 +1.0123412611E+001  +2.4309061628E-001 -1.1014116208E+000  +2.3988925139E-001 +1.0641257633E+001  +4.1059642089E-001 +7.8002951510E+000 
11647501.877 +4.0749665162E-001 +1.4796330086E+001  +2.4334153973E-001 -4.8881228285E-001  +2.3833916964E-001 +1.0759306715E+001  +4.0121728784E-001 +3.8620549436E+000 
11772647.059 +3.6863962125E-001 +1.1773818950E+001  +2.4508977531E-001 -7.7132901819E-001  +2.4126473338E-001 +9.6145029602E+000  +4.2392057852E-001 +9.0833797120E+000 
11897792.240 +4.0604687791E-001 +1.0048487018E+001  +2.4840253116E-001 -1.0057177507E-001  +2.4613977442E-001 +1.0256281203E+001  +4.1439854773E-001 +5.1148702953E+000 
12022937.422 +4.1602334762E-001 +1.2963327949E+001  +2.4893812422E-001 -3.2376696842E-001  +2.4533722910E-001 +9.6710896514E+000  +4.3583410076E-001 +9.8276379579E+000 
12148082.603 +4.2661823749E-001 +1.0110851582E+001  +2.5452724779E-001 -2.3726564182E-001  +2.5001496454E-001 +8.7524265981E+000  +4.0966231410E-001 +3.3655959118E+000 
12273227.785 +4.4124508115E-001 +8.7607225423E+000  +2.5682806369E-001 +6.6577928134E-001  +2.5215587137E-001 +9.0435191277E+000  +4.4475631145E-001 +3.3133411977E+000 
12398372.966 +4.4203069747E-001 +8.3968332643E+000  +2.5821809124E-001 +1.0067067065E+000  +2.5367974008E-001 +8.5968038549E+000  +4.6389515062E-001 +7.4198584262E+000 
12523518.148 +4.4733705706E-001 +5.5424958314E+000  +2.6129673951E-001 +9.9448809033E-001  +2.5998773600E-001 +8.4201816364E+000  +5.0478526279E-001 +5.8079389781E+000 
12648663.329 +4.9118985109E-001 +6.5867710977E+000  +2.6434744259E-001 +1.4977156500E+000  +2.6101479053E-001 +8.3579321843E+000  +4.9484286729E-001 +2.8655104150E+000 
12773808.511 +4.8380242190E-001 +4.0399216850E+000  +2.6697294632E-001 +1.1687181962E+000  +2.6527426702E-001 +7.1528693588E+000  +4.8825098010E-001 +2.9636958339E+000 
12898953.692 +4.8851289140E-001 +4.8389552559E+000  +2.6823799795E-001 +1.6213958211E+000  +2.6444307547E-001 +7.3781312479E+000  +5.2648448189E-001 +3.6623811367E+000 
13024098.874 +5.2735830002E-001 +3.0952240230E+000  +2.7069886023E-001 +2.2834477000E+000  +2.6871108362E-001 +6.6667645654E+000  +5.3880193680E-001 +2.1313209473E+000 
13149244.055 +5.4317113146E-001 +1.7777912176E+000  +2.7444546071E-001 +1.9475695399E+000  +2.7277112955E-001 +6.2642374061E+000  +5.3041346105E-001 +8.0266095986E-001 
13274389.237 +5.3666780389E-001 +1.7362378672E+000  +2.7720615108E-001 +1.8243912276E+000  +2.7289678852E-001 +5.5310655135E+000  +5.6187805783E-001 +4.9128768514E-001 
13399534.418 +5.6880301272E-001 +7.8603110920E-001  +2.8035887444E-001 +1.8763046022E+000  +2.7581236765E-001 +5.7366583870E+000  +5.7581273629E-001 -1.2730882439E+000 
13524679.599 +5.6764953877E-001 -1.5737352742E-001  +2.8213768354E-001 +1.6094417210E+000  +2.7913941338E-001 +4.7405135142E+000  +5.8461820128E-001 -9.1688184446E-001 
13649824.781 +5.6334415967E-001 -2.5094177747E-001  +2.8345305213E-001 +1.5804470306E+000  +2.7824829279E-001 +3.7693107357E+000  +5.9390789540E-001 -9.6323342904E-001 
13774969.962 +6.0492016460E-001 -8.5511139267E-001  +2.8822892459E-001 +2.0706136439E+000  +2.8498788718E-001 +4.0895865116E+000  +6.1299764866E-001 -2.9047667786E+000 
13900115.144 +6.1593860956E-001 -1.5044377127E+000  +2.8884770422E-001 +1.6245486054E+000  +2.8468240065E-001 +3.3903239605E+000  +6.2218622680E-001 -2.3246738955E+000 
14025260.325 +6.3043307809E-001 -3.6454211665E+000  +2.9114038347E-001 +1.2143885311E+000  +2.8703101590E-001 +2.9286232984E+000  +6.4344260611E-001 -3.0051851522E+000 
14150405.507 +6.5395851663E-001 -4.6834021328E+000  +2.9416583831E-001 +1.4207894396E+000  +2.9047340292E-001 +2.2002963686E+000  +6.5259241732E-001 -2.9019224390E+000 
14275550.688 +6.5418960082E-001 -4.3487209982E+000  +2.9650715606E-001 +1.3839478533E+000  +2.9169037882E-001 +2.2329624146E+000  +6.8683272690E-001 -6.0445986198E+000 
14400695.870 +6.5120780124E-001 -6.3372452038E+000  +2.9599315209E-001 +7.2225262667E-001  +2.9211935162E-001 +1.4604118356E+000  +6.6477937826E-001 -4.1845534353E+000 
