!  2-Port S-parameters saved by WinCal
! VAR MeasName=S-Parameters (CALIBRATED_DATA) read from VNA (P5004A)
! VAR MeasDate=28/08/2024 16:48:20
! VAR NAME=S2_r9c9_RESET1_9k-100M_1
! VAR FILENAME=S2_r9c9_RESET1_9k-100M_1.S2P
! VAR DATE=28/08/2024 16:48:20
! VAR PHYS_PORTS=1,2
! VAR ObjTypeName=DATASET
! VAR IndexType=Frequency
!
# Hz S MA R 50
9000.000 +8.0271034189E-002 -1.5611701162E+002  +4.9952577025E-003 +8.0641535815E+001  +1.0562718794E-002 +3.6188371131E+001  +2.5145523999E-001 -1.5158608160E+002 
134145.181 +1.1159216106E-001 +1.6956858602E+002  +5.9093586325E-004 -8.4677130989E+001  +4.4130994182E-004 +1.0769152519E+002  +2.4260747780E-001 -1.7111695195E+002 
259290.363 +1.1182236442E-001 +1.6965061391E+002  +2.3859231872E-004 +5.5262512896E+001  +9.8348895793E-004 +1.6696300096E+002  +2.4416236859E-001 -1.7115486295E+002 
384435.544 +1.1374038944E-001 +1.6973974774E+002  +2.5094857376E-004 -3.1922936039E+001  +9.6725852027E-004 +1.0539489287E+002  +2.4519086458E-001 -1.6876684079E+002 
509580.726 +1.1434117377E-001 +1.7034354405E+002  +2.0737258117E-003 -8.0829556131E+001  +1.9486949668E-003 +1.6009358957E+002  +2.4518101778E-001 -1.6486317076E+002 
634725.907 +1.1785345587E-001 +1.7091197682E+002  +5.4386319171E-004 -1.0418970125E+002  +1.3986104874E-003 +8.8979223701E+001  +2.5210923962E-001 -1.6660846112E+002 
759871.089 +1.2041392015E-001 +1.7010764394E+002  +9.0122396720E-004 -4.8718613613E+001  +1.6226037986E-003 +1.1007920629E+002  +2.4941858207E-001 -1.6621709350E+002 
885016.270 +1.2043368894E-001 +1.6862052026E+002  +4.4640423206E-004 -2.4999109856E+001  +5.3142892160E-004 +1.2173890376E+002  +2.4543818970E-001 -1.6748948096E+002 
1010161.452 +1.1927663327E-001 +1.6999304738E+002  +1.7542170835E-003 -2.7566801214E+001  +1.5928727606E-003 -1.5811045568E+002  +2.0572670376E-001 -1.6988385051E+002 
1135306.633 +1.1846899836E-001 +1.6864971446E+002  +1.9345352295E-003 -2.2842994995E+001  +2.8356558779E-003 -1.6866868167E+002  +2.0609628771E-001 -1.6712747931E+002 
1260451.815 +1.1917578942E-001 +1.7031383957E+002  +3.3534934179E-003 -7.4410348036E+001  +3.4516265311E-003 +1.5868513837E+002  +2.3395839870E-001 -1.5493550898E+002 
1385596.996 +1.2342935898E-001 +1.7235507011E+002  +1.5617348721E-003 -5.8397738126E+001  +2.5927815716E-003 +1.0622108480E+002  +2.6747719883E-001 -1.6089404143E+002 
1510742.178 +1.2553566677E-001 +1.7159289589E+002  +9.8046865007E-004 -1.0153321185E+002  +1.5009396026E-003 +1.2492836342E+002  +2.6988987957E-001 -1.6116678631E+002 
1635887.359 +1.2956863843E-001 +1.7132276362E+002  +1.6868014672E-003 -1.7728657746E+001  +1.3946034883E-003 -1.2093191880E+002  +2.4461944777E-001 -1.5818972947E+002 
1761032.541 +1.3232503837E-001 +1.6900578273E+002  +1.8091376066E-003 +3.1007595644E+001  +2.4209808793E-003 -1.1785728032E+002  +2.3318402391E-001 -1.5767706442E+002 
1886177.722 +1.2904290296E-001 +1.6814120096E+002  +2.7797931574E-003 +4.0390764042E+001  +3.0980939320E-003 -5.5954896557E+001  +2.2724567314E-001 -1.6393839522E+002 
2011322.904 +1.3018078114E-001 +1.6893918475E+002  +7.8816240374E-003 +6.0276296376E+001  +9.3760164034E-003 -5.1734318644E+001  +1.9137875439E-001 -1.6431410129E+002 
2136468.085 +1.3486511562E-001 +1.6820216884E+002  +5.4642138746E-003 +6.9912136937E+001  +7.2169105107E-003 -4.9396412502E+001  +2.1954055972E-001 -1.6875327277E+002 
2261613.267 +1.3359693912E-001 +1.6560719883E+002  +1.4301391731E-002 +8.0477349915E+001  +1.0366659930E-002 -2.9736429170E+001  +1.9382861470E-001 -1.7670443142E+002 
2386758.448 +1.3319646556E-001 +1.6409951024E+002  +1.3362966528E-002 +8.7185888576E+001  +1.0951619877E-002 -3.1936579927E+001  +2.3353592810E-001 -1.7028003932E+002 
2511903.630 +1.3408636597E-001 +1.6535932515E+002  +2.8997382507E-002 +6.8709603086E+001  +2.9971842226E-002 -5.4528460262E+001  +1.4431882524E-001 -1.5993882274E+002 
2637048.811 +1.1101618445E-001 +1.6707093634E+002  +4.8883410591E-002 +4.5121610343E+001  +4.9649586719E-002 -5.6547137103E+001  +1.2994865294E-001 -1.6492674627E+002 
2762193.992 +1.3623970752E-001 +1.7125937472E+002  +5.2169048916E-002 +4.2574135997E+001  +3.9919670277E-002 -7.6730933587E+001  +7.3654186163E-002 +1.6328009514E+002 
2887339.174 +1.3433662089E-001 +1.7449715407E+002  +6.2756346638E-002 -2.2065266429E+001  +7.4413879002E-002 -1.2272486133E+002  +3.0830486633E-001 -9.0446892457E+001 
3012484.355 +1.2422919264E-001 +1.7604102058E+002  +5.2566481491E-002 +4.7946200815E+000  +5.5412807678E-002 -9.0709143189E+001  +1.2223676217E-001 -1.2757385585E+002 
3137629.537 +1.3789197049E-001 +1.7285729872E+002  +1.6881621847E-001 -3.1852856821E+000  +1.8035716005E-001 -9.8951579986E+001  +9.8057370038E-001 -4.0977009982E+001 
3262774.718 +1.2813739955E-001 +1.7039684153E+002  +4.5439022298E-002 +9.7088483920E+000  +4.3409594133E-002 -7.6673344879E+001  +1.4811234671E-001 -1.3634357988E+002 
3387919.900 +1.2920968308E-001 +1.6419898262E+002  +5.4082337654E-002 +3.5363316765E+001  +5.7034454062E-002 -5.7886420124E+001  +1.0679402996E-001 -1.3019684473E+002 
3513065.081 +1.6505291663E-001 +1.4976586942E+002  +7.4326652121E-002 +1.0451856163E+002  +6.5881746292E-002 +1.9590637857E+001  +2.8807061151E-001 +1.3516616607E+002 
3638210.263 +1.6853435332E-001 +1.5461772418E+002  +9.8692384601E-002 +9.9833050791E+001  +1.0665301332E-001 +1.7267254963E+001  +5.1984501360E-001 +1.1082567794E+002 
3763355.444 +1.9634213369E-001 +1.4800994638E+002  +6.6615698014E-002 +1.1524267339E+002  +5.7125313097E-002 +3.8046178734E+001  +3.0354074734E-001 +1.5418463160E+002 
3888500.626 +1.6326070340E-001 +1.5482013003E+002  +7.2081115404E-002 +6.6143364688E+001  +6.9499603158E-002 -2.5130013340E+000  +1.6191276861E-001 +1.3734329430E+002 
4013645.807 +1.8421553142E-001 +1.5744213022E+002  +4.5088096865E-002 +7.4260093689E+001  +3.8743417118E-002 +7.5999800520E+000  +2.3191425130E-001 +1.6793333820E+002 
4138790.989 +1.8924429984E-001 +1.4819710047E+002  +6.1700341201E-002 +7.3315056998E+001  +6.1645630929E-002 +1.0013304210E+001  +2.0670584197E-001 +1.6811849634E+002 
4263936.170 +1.8718956320E-001 +1.4614408736E+002  +9.5796799497E-002 +9.7532396981E+001  +9.1578114111E-002 +4.0269608405E+001  +4.4193850180E-001 +1.4140292018E+002 
4389081.352 +1.8981567645E-001 +1.4920019117E+002  +7.4536642872E-002 +5.0668828842E+001  +7.6526588697E-002 -4.8927836796E+000  +8.6215815737E-002 +1.7794158511E+002 
4514226.533 +2.3287620645E-001 +1.4233677169E+002  +1.1806213609E-001 +1.2159880599E+002  +1.1432054466E-001 +6.5411172018E+001  +6.4756469466E-001 +1.4455831964E+002 
4639371.715 +3.4215853981E-001 +1.3956275278E+002  +3.7635398924E-001 +1.4721439603E+002  +3.4852964991E-001 +8.9412190207E+001  +1.7020887968E+000 +1.2024988721E+002 
4764516.896 +2.6913419372E-001 +1.4021940355E+002  +1.8270636300E-001 +1.1368793273E+002  +1.6372528293E-001 +6.4555562306E+001  +8.9666158414E-001 +1.2041240527E+002 
4889662.078 +3.3263130893E-001 +1.2843829984E+002  +2.4262536933E-001 +9.7782565962E+001  +2.1922237628E-001 +5.0523662700E+001  +5.8440740122E-001 +9.1302459150E+001 
5014807.259 +3.2750567796E-001 +1.3358996598E+002  +2.8170259046E-001 +1.2592914246E+002  +2.5885089315E-001 +8.1689681523E+001  +1.3092761755E+000 +1.2672177885E+002 
5139952.441 +3.3643600391E-001 +1.2964136711E+002  +2.7502520061E-001 +1.3258535710E+002  +2.8359040308E-001 +9.3732839018E+001  +1.3759934812E+000 +1.3990729652E+002 
5265097.622 +3.7331776046E-001 +1.3868293243E+002  +2.0336893702E-001 +1.2258006996E+002  +1.7904323253E-001 +8.2763603853E+001  +9.7272389338E-001 +1.2729589282E+002 
5390242.804 +4.1106956642E-001 +1.3656376235E+002  +1.6770560054E-001 +1.2079950226E+002  +1.6326922990E-001 +8.4099119735E+001  +7.5270970661E-001 +1.3517660478E+002 
5515387.985 +3.4922025487E-001 +1.3450752931E+002  +2.5707931985E-001 +1.0620687685E+002  +2.5297908578E-001 +6.6098429516E+001  +1.3518010079E+000 +1.1711882430E+002 
5640533.166 +3.4755338365E-001 +1.2717705517E+002  +2.6895105577E-001 +9.1005961812E+001  +2.7823964477E-001 +6.1156285573E+001  +1.2535370967E+000 +1.1437688776E+002 
5765678.348 +4.5977416111E-001 +1.2589272626E+002  +2.9327020651E-001 +9.3568819172E+001  +2.9914853640E-001 +6.7739303455E+001  +1.1827778461E+000 +1.0360610591E+002 
5890823.529 +5.4677355942E-001 +1.2662020439E+002  +4.2991307664E-001 +9.7965170830E+001  +4.4061547585E-001 +7.3508254576E+001  +2.0393676474E+000 +8.9697923552E+001 
6015968.711 +5.0433436199E-001 +1.0255794381E+002  +4.8934148252E-001 +7.4071136939E+001  +4.7042263174E-001 +4.9949706493E+001  +1.5834398893E+000 +8.4673016295E+001 
6141113.892 +5.8349076563E-001 +1.1271335511E+002  +3.3453866611E-001 +8.0451190624E+001  +3.2446171963E-001 +5.9715780701E+001  +1.0574642959E+000 +9.9911543418E+001 
6266259.074 +5.7019889988E-001 +1.0674178684E+002  +3.8737199443E-001 +5.3546857916E+001  +3.6825080635E-001 +3.4864745525E+001  +1.0390500908E+000 +5.5451704749E+001 
6391404.255 +8.0785592458E-001 +1.0217947904E+002  +4.6782523439E-001 +6.4167396882E+001  +4.4506465536E-001 +4.6285230018E+001  +1.2032812333E+000 +6.1734281652E+001 
6516549.437 +6.5383927366E-001 +8.7484113489E+001  +4.4970354565E-001 +4.0074158417E+001  +4.3659399089E-001 +2.4150096840E+001  +1.1387030002E+000 +4.4990774997E+001 
6641694.618 +6.9671087440E-001 +7.6194058067E+001  +4.2761173254E-001 +2.2377092480E+001  +4.3205159684E-001 +1.5105129545E+001  +9.4950875111E-001 +1.7433689197E+001 
6766839.800 +8.7778802893E-001 +5.9924663153E+001  +4.9250948555E-001 +2.3437738118E+001  +4.6933960550E-001 +1.4304057175E+001  +9.6946899757E-001 +2.4905801843E+001 
6891984.981 +7.7217623619E-001 +2.9678953960E+001  +4.8290534160E-001 +6.2297532390E+000  +4.8441709813E-001 -1.3168055510E+000  +9.8282968147E-001 +1.3524306694E+001 
7017130.163 +8.9509753176E-001 +2.9096055457E+001  +4.4433583383E-001 +5.4013030639E+000  +4.3742912798E-001 -3.5638124053E-001  +9.8757780942E-001 -5.9460873719E-001 
7142275.344 +1.0667428358E+000 -3.0265403152E+000  +4.5531961597E-001 -4.6065805381E+000  +4.3087999537E-001 -7.0538470952E+000  +8.1679222410E-001 -4.7149274904E+000 
7267420.526 +7.9656026480E-001 +1.2511423281E+001  +3.6146808834E-001 +3.1406906388E+000  +3.5623128287E-001 -1.9096205249E+000  +1.0126687907E+000 -1.0513609260E+001 
7392565.707 +9.0047073963E-001 -2.3645392669E+000  +3.3270268520E-001 +3.8888711039E+000  +3.4315707394E-001 +3.3749302012E+000  +8.9732541893E-001 -1.2194059869E+000 
7517710.889 +8.3672226921E-001 -4.4285910865E+000  +3.1366925057E-001 +2.0149184398E+000  +3.1256239443E-001 +4.8037349764E+000  +8.4428616665E-001 -3.7969889068E+000 
7642856.070 +7.0803473828E-001 +1.8803998922E+001  +2.8686095934E-001 +2.3703055565E+000  +2.8219875814E-001 +5.5284967945E+000  +7.4212769764E-001 -2.9789329112E+000 
7768001.252 +6.5284408199E-001 +1.3758504955E+001  +2.7628381303E-001 +1.3041517338E+000  +2.7214370771E-001 +6.8182141315E+000  +6.4421226429E-001 +3.9226765661E+000 
7893146.433 +5.7470406026E-001 +1.9711948417E+001  +2.5863282450E-001 -9.1082356835E-001  +2.5887417755E-001 +4.0142917522E+000  +5.5772894476E-001 +1.2917760033E+001 
8018291.615 +5.2137919308E-001 +1.7828201783E+001  +2.5630579172E-001 -1.5177579240E+000  +2.5818155509E-001 +6.3618589695E+000  +5.2271189711E-001 +6.7959911135E+000 
8143436.796 +5.2425157051E-001 +1.7805396493E+001  +2.4698128095E-001 -2.7852675644E+000  +2.5684362241E-001 +6.0916669462E+000  +5.1004612240E-001 +3.9053106613E+000 
8268581.977 +4.0943127208E-001 +1.8903757082E+001  +2.4127279246E-001 -3.7607341786E+000  +2.4384153574E-001 +6.1091196355E+000  +4.5756210764E-001 +1.4667238243E+001 
8393727.159 +4.2884223582E-001 +2.0034223887E+001  +2.3953185668E-001 -1.8800253690E+000  +2.4143830910E-001 +9.0828115183E+000  +5.0600352157E-001 +7.8164801317E+000 
8518872.340 +3.7480538164E-001 +1.3496081968E+001  +2.3510861058E-001 -5.2966419153E+000  +2.3756925343E-001 +8.6525611775E+000  +4.7314589569E-001 +1.7454691858E+001 
8644017.522 +4.0457783017E-001 +1.7679734259E+001  +2.3286395171E-001 -3.6955169620E+000  +2.2985203543E-001 +8.6327748763E+000  +4.0632744482E-001 +1.1027277440E+001 
8769162.703 +3.5093741403E-001 +1.8682933353E+001  +2.2706367435E-001 -4.5566551866E+000  +2.2925472071E-001 +8.0551454540E+000  +3.4168884527E-001 +1.1719747817E+001 
8894307.885 +3.1286389459E-001 +2.1463172364E+001  +2.2680979659E-001 -5.3820781771E+000  +2.2635215634E-001 +7.2516249699E+000  +4.0982240167E-001 +1.1951501679E+001 
9019453.066 +3.9913811664E-001 +1.2186919236E+001  +2.3438955690E-001 -4.4914372935E+000  +2.2852434955E-001 +9.8118870704E+000  +3.8585329631E-001 +9.2939459961E+000 
9144598.248 +3.3167004433E-001 +1.7162944508E+001  +2.2561339236E-001 -6.3524539364E+000  +2.2230509503E-001 +9.7688819208E+000  +3.4692624757E-001 +9.8243699680E+000 
9269743.429 +2.8658464897E-001 +1.7414412531E+001  +2.2499457628E-001 -6.4496938734E+000  +2.2611095583E-001 +9.6043362160E+000  +3.9299669449E-001 +8.8932923480E+000 
9394888.611 +3.4357717858E-001 +8.2008701816E+000  +2.3376502821E-001 -5.0074548553E+000  +2.2893838997E-001 +9.9950959311E+000  +3.6371154370E-001 +3.3648196352E+000 
9520033.792 +2.9396865463E-001 +1.6982418167E+001  +2.2622447467E-001 -6.0487876576E+000  +2.2916901465E-001 +1.0296474968E+001  +2.9391207346E-001 +6.4862820610E+000 
9645178.974 +2.7027128290E-001 +8.5987010919E+000  +2.3313024650E-001 -5.5078671591E+000  +2.2911111625E-001 +9.9234431278E+000  +3.6738214635E-001 +4.7479079077E-001 
9770324.155 +3.0625665475E-001 +1.9592418529E+001  +2.3035634389E-001 -5.3434324125E+000  +2.2671494660E-001 +9.7442608490E+000  +3.1922440309E-001 +2.0473271925E+000 
9895469.337 +3.3600949999E-001 +7.8331975414E+000  +2.3399999036E-001 -5.3600728904E+000  +2.3328903787E-001 +1.1197281821E+001  +3.2433075929E-001 -2.7713922573E+000 
10020614.518 +3.0950659831E-001 +7.4677346855E+000  +2.3196675539E-001 -5.8460112147E+000  +2.3228832806E-001 +1.0108065934E+001  +3.1613907220E-001 -5.5095991124E+000 
10145759.700 +3.2716739418E-001 +1.1804109585E+001  +2.3117268394E-001 -4.6031569690E+000  +2.3138014816E-001 +1.1146664162E+001  +3.2119368384E-001 +2.7264238364E+000 
10270904.881 +3.4851127597E-001 +1.1284357206E+001  +2.3330156170E-001 -3.8544007873E+000  +2.3148492802E-001 +1.1398793684E+001  +3.3366516099E-001 +6.2034330260E+000 
10396050.063 +3.0545225197E-001 +1.4221923231E+001  +2.3284550182E-001 -5.0501279906E+000  +2.3205656600E-001 +1.1461809333E+001  +3.2466507786E-001 +9.3900459037E+000 
10521195.244 +3.3041018258E-001 +1.1816731636E+001  +2.3510902617E-001 -3.2929909172E+000  +2.3394509711E-001 +1.1740301336E+001  +3.4364867525E-001 +7.9498178100E+000 
10646340.426 +3.3340775476E-001 +1.8106396601E+001  +2.3363480985E-001 -3.1645496420E+000  +2.3236350186E-001 +1.2072294745E+001  +3.5634273870E-001 +6.3048485253E+000 
10771485.607 +3.5375468428E-001 +1.3266212615E+001  +2.3846204765E-001 -3.2680849385E+000  +2.3621605488E-001 +1.2087833181E+001  +3.6794787527E-001 +4.9951325141E+000 
10896630.788 +3.1832087056E-001 +1.0615041636E+001  +2.3930529460E-001 -3.0713755635E+000  +2.3794758788E-001 +1.2118614888E+001  +3.4531600336E-001 +6.7074330110E+000 
11021775.970 +3.4188688951E-001 +1.1375029200E+001  +2.3931968620E-001 -2.5130732735E+000  +2.3896101103E-001 +1.1671557964E+001  +4.0230313095E-001 +9.1312747330E+000 
11146921.151 +3.5811348762E-001 +1.0427450791E+001  +2.4407425380E-001 -2.0849877027E+000  +2.4325822578E-001 +1.0544054718E+001  +3.7717664261E-001 +2.9174198639E+000 
11272066.333 +3.6363393083E-001 +8.1487568199E+000  +2.4647370231E-001 -1.3653515555E+000  +2.4553276529E-001 +1.1189575306E+001  +4.1237585256E-001 +8.4802438352E+000 
11397211.514 +3.3705653511E-001 +1.1875746131E+001  +2.4756057520E-001 -1.8274815585E+000  +2.4351997600E-001 +1.0131230251E+001  +3.8574753453E-001 +7.4459395946E+000 
11522356.696 +3.5427011370E-001 +1.2051373035E+001  +2.4722101490E-001 -1.0814948872E+000  +2.4675695020E-001 +1.0470015089E+001  +3.9168204688E-001 +9.6197207696E+000 
11647501.877 +3.7912197810E-001 +1.3841617915E+001  +2.5026934672E-001 -8.5535984265E-001  +2.4875344421E-001 +1.0139886214E+001  +3.6819596970E-001 +7.7008862878E+000 
11772647.059 +3.8687928500E-001 +1.3145010481E+001  +2.5473211502E-001 -2.0259108506E-001  +2.5152859284E-001 +1.0647065936E+001  +4.0766325318E-001 +6.0487069404E+000 
11897792.240 +4.1321603136E-001 +1.4536856985E+001  +2.5517612564E-001 -5.1206966862E-001  +2.5359973076E-001 +9.9775277392E+000  +3.9029927254E-001 +5.4596736463E+000 
12022937.422 +3.9632813117E-001 +1.2731901671E+001  +2.6018304920E-001 -4.2766940425E-002  +2.5561509675E-001 +1.0185534636E+001  +4.3339363740E-001 +4.9026570227E+000 
12148082.603 +4.1736947975E-001 +8.9347496732E+000  +2.6248420250E-001 +3.0197247669E-001  +2.5570693852E-001 +9.2570011742E+000  +4.3019693070E-001 +9.8570496633E+000 
12273227.785 +4.1827044045E-001 +8.1497064627E+000  +2.6479260663E-001 +4.0822215186E-001  +2.6315084993E-001 +9.0865641775E+000  +4.4937686322E-001 +7.3128793464E+000 
12398372.966 +4.3683816574E-001 +1.0267939454E+001  +2.6684600394E-001 +3.7138130118E-001  +2.6397747573E-001 +8.3295104906E+000  +4.2296056432E-001 +6.6458703873E+000 
12523518.148 +4.4597874513E-001 +1.0225128729E+001  +2.6855576296E-001 +5.3652892402E-001  +2.6615832780E-001 +7.9778733382E+000  +4.5598895677E-001 +3.7554927718E+000 
12648663.329 +4.4466993809E-001 +6.6318823229E+000  +2.7282865007E-001 +1.0605970717E+000  +2.7002225893E-001 +7.9303566538E+000  +4.8017596984E-001 +3.3993990855E+000 
12773808.511 +4.6494315896E-001 +3.7200564893E+000  +2.7632628223E-001 +1.1824479656E+000  +2.7208250972E-001 +7.2558988822E+000  +4.7600964727E-001 +5.0680739372E+000 
12898953.692 +4.7081166821E-001 +4.0610121952E+000  +2.7959312772E-001 +1.3614984766E+000  +2.7612602378E-001 +6.8560477994E+000  +4.9643448550E-001 +1.2642877404E+000 
13024098.874 +4.9324534048E-001 +3.8575099527E+000  +2.8180624794E-001 +1.0731548661E+000  +2.7728627725E-001 +6.3241494921E+000  +4.8396778910E-001 +3.8534329969E-001 
13149244.055 +5.0975901338E-001 +3.2747336513E+000  +2.8293716811E-001 +1.9140423532E+000  +2.7986236499E-001 +6.2136344449E+000  +5.1933159119E-001 +3.8146183351E+000 
13274389.237 +5.4697085093E-001 +1.2978317925E+000  +2.8991927892E-001 +2.1221114616E+000  +2.8504156314E-001 +5.7612065148E+000  +5.2882367878E-001 -8.1523827575E-001 
13399534.418 +5.5016106390E-001 +1.5021456616E+000  +2.9027963442E-001 +1.4323027397E+000  +2.8793386405E-001 +5.3263610733E+000  +5.3764200919E-001 +9.3920508973E-002 
13524679.599 +5.4047132146E-001 -2.0808137067E+000  +2.9570983345E-001 +1.5009588187E+000  +2.9036900416E-001 +4.6452455095E+000  +5.5844330939E-001 -5.8779338177E-001 
13649824.781 +5.8012191943E-001 +7.3267092083E-001  +2.9517928918E-001 +1.9206521666E+000  +2.9264767057E-001 +4.7717848908E+000  +5.9644439222E-001 -2.0675379211E+000 
13774969.962 +5.8865995854E-001 -2.1541511261E+000  +2.9801152753E-001 +2.1770416961E+000  +2.9330982382E-001 +4.3152734676E+000  +6.1617247047E-001 +5.9798705243E-002 
13900115.144 +5.6428817898E-001 -1.1484219661E+000  +2.9838677562E-001 +1.3364974781E+000  +2.9391742348E-001 +3.1207185730E+000  +6.0688086399E-001 -1.2611342476E+000 
14025260.325 +6.1806592564E-001 -1.6559463361E+000  +3.0169697306E-001 +2.1990961183E+000  +2.9773278944E-001 +3.2329618256E+000  +6.3426140121E-001 -2.2202614145E+000 
14150405.507 +6.2078090869E-001 -2.7406238299E+000  +3.0517199555E-001 +1.4795595312E+000  +3.0108494789E-001 +2.8597489108E+000  +6.5783279583E-001 -4.0125055657E+000 
14275550.688 +6.4384329271E-001 -4.4050526519E+000  +3.0744949961E-001 +1.3148506838E+000  +3.0345295628E-001 +2.4890619434E+000  +6.7247477086E-001 -3.8560683600E+000 
14400695.870 +6.6536804077E-001 -4.9525848049E+000  +3.0803983839E-001 +9.1389320602E-001  +3.0332127671E-001 +1.6947753459E+000  +6.4200028411E-001 -4.4279029556E+000 
