!  2-Port S-parameters saved by WinCal
! VAR MeasName=S-Parameters (CALIBRATED_DATA) read from VNA (P5004A)
! VAR MeasDate=29/08/2024 11:16:40
! VAR NAME=S2_r9c3_RESET3_9k-100M_2
! VAR FILENAME=S2_r9c3_RESET3_9k-100M_2.S2P
! VAR DATE=29/08/2024 11:16:40
! VAR PHYS_PORTS=1,2
! VAR ObjTypeName=DATASET
! VAR IndexType=Frequency
!
# Hz S MA R 50
9000.000 +6.7404736687E-002 -1.6913200783E+002  +2.7622754994E-003 +7.7473997636E+001  +6.1634236605E-003 +3.9663433493E+001  +2.1214689073E-001 -1.4057665994E+002 
134145.181 +1.1092284359E-001 +1.6958970375E+002  +2.0302891133E-004 -6.0908550830E+001  +5.3362860949E-004 +6.8310845286E+001  +2.3807886094E-001 -1.7152662896E+002 
259290.363 +1.1280289918E-001 +1.6963104153E+002  +1.2509779284E-003 -6.4485739586E+001  +1.1144727498E-003 +1.0010628191E+002  +2.4602902474E-001 -1.6701402301E+002 
384435.544 +1.1454592588E-001 +1.6992156403E+002  +8.6707761371E-004 -2.7524252713E+001  +2.2017562209E-004 +1.3216700715E+002  +2.4618671189E-001 -1.6899495646E+002 
509580.726 +1.1314516076E-001 +1.7104161514E+002  +5.7974751844E-004 +5.3146872323E+001  +1.6711412453E-003 +8.2198138679E+001  +2.6486605782E-001 -1.6620908247E+002 
634725.907 +1.1833291844E-001 +1.7202676192E+002  +9.0090865589E-004 -9.1627136400E+001  +2.5381684797E-003 +3.9566676788E+001  +2.4364053551E-001 -1.6293883527E+002 
759871.089 +1.2060403698E-001 +1.7081688549E+002  +4.6916885788E-004 -1.4021716423E+002  +1.0184995113E-003 +6.9548567698E+000  +2.5804781634E-001 -1.6614828028E+002 
885016.270 +1.2174800758E-001 +1.6880254395E+002  +5.1953467680E-004 -1.5269558196E+002  +2.8744349190E-004 +1.1676925607E+002  +2.4924847417E-001 -1.6702510898E+002 
1010161.452 +1.1686849595E-001 +1.6835116384E+002  +7.4844856612E-004 +8.6897314980E+001  +7.5509605182E-004 +1.3065488964E+002  +2.0364032433E-001 -1.6673691120E+002 
1135306.633 +1.1461802382E-001 +1.7095603743E+002  +2.1672785316E-003 -1.4406043232E+001  +2.1250416139E-003 -1.1845672438E+002  +1.9541873794E-001 -1.7105568249E+002 
1260451.815 +1.1914673187E-001 +1.6929208358E+002  +1.5008960941E-003 -1.4012375592E+001  +1.9443009213E-003 -1.7391126506E+002  +2.2310727721E-001 -1.6361618551E+002 
1385596.996 +1.2114435677E-001 +1.7224489641E+002  +8.7631304505E-004 -1.5763653823E+002  +1.2881819371E-003 +1.2215041599E+002  +2.8085579492E-001 -1.5379808596E+002 
1510742.178 +1.2649094571E-001 +1.7146877515E+002  +1.1552146325E-003 -8.7507366970E+001  +1.4720141469E-003 -3.3265275005E+001  +2.6595005906E-001 -1.5845727347E+002 
1635887.359 +1.2942962999E-001 +1.7120890297E+002  +1.4798809898E-003 -4.4607315401E+001  +5.1519773321E-004 -1.4318291710E+002  +2.5577901529E-001 -1.5810559728E+002 
1761032.541 +1.3030052254E-001 +1.7062069428E+002  +1.1068130175E-003 +6.6505772254E+001  +1.8215986007E-003 -1.0967398191E+002  +2.3437209433E-001 -1.5609051530E+002 
1886177.722 +1.3159776264E-001 +1.6756218605E+002  +1.1077443633E-003 -7.9360993179E+000  +7.4012260835E-004 -1.1240418081E+002  +2.3818834017E-001 -1.6015511138E+002 
2011322.904 +1.2731408286E-001 +1.6845908283E+002  +3.0143682938E-003 +5.1910039601E+001  +2.6629605063E-003 -4.4092514601E+001  +1.9885802051E-001 -1.6557693834E+002 
2136468.085 +1.3275858466E-001 +1.6783029457E+002  +4.8075366180E-003 +1.1743220979E+002  +3.3411934449E-003 -4.6557872012E+001  +1.9444736617E-001 -1.7988162256E+002 
2261613.267 +1.3247414056E-001 +1.6534562700E+002  +5.2002269474E-003 +3.3122324793E+001  +5.3145978572E-003 -8.5479540011E+001  +1.7556767092E-001 -1.7660292489E+002 
2386758.448 +1.3403543040E-001 +1.6561004155E+002  +6.8324057781E-003 +1.0272483944E+002  +8.5366377688E-003 -1.3674246436E+001  +2.0999634599E-001 -1.7860844001E+002 
2511903.630 +1.2768127406E-001 +1.6589505319E+002  +1.3117697155E-002 +7.6541852226E+001  +1.5453694267E-002 -2.2020622755E+001  +2.1037469547E-001 +1.6242957409E+002 
2637048.811 +1.2860198141E-001 +1.6251372077E+002  +2.8663036100E-002 +7.2299184148E+001  +2.3730015243E-002 -1.6356103836E+001  +1.9574615192E-001 +1.3900527311E+002 
2762193.992 +1.2926979496E-001 +1.7189120030E+002  +1.8290572020E-002 +5.1414878496E+001  +2.5254475408E-002 -5.3273467109E+001  +1.9375469678E-001 +1.3074283109E+002 
2887339.174 +1.2294252124E-001 +1.7328919605E+002  +7.4534703437E-002 -5.7280763238E+000  +8.1605397783E-002 -1.0549472175E+002  +5.5001353988E-001 -1.1202299015E+001 
3012484.355 +1.3168225167E-001 +1.7521407958E+002  +3.5300740593E-002 -1.8154976464E+001  +4.6468183042E-002 -1.4082487487E+002  +3.7169029323E-001 -5.4058307579E+001 
3137629.537 +1.3469000414E-001 +1.6995650554E+002  +5.7949695111E-002 +1.8510413967E+001  +3.9038638019E-002 -8.7660639587E+001  +4.6111552345E-001 +8.2890281216E+000 
3262774.718 +1.3038275305E-001 +1.6961973483E+002  +2.3835976003E-002 +9.9472212899E+000  +2.8774876337E-002 -9.8584714251E+001  +6.8651348747E-002 -1.0483681438E+002 
3387919.900 +1.0802572947E-001 +1.5769074284E+002  +5.7280593494E-002 +1.0853012676E+002  +5.0155560500E-002 +4.0943294042E-001  +6.2231007044E-001 +1.3302956101E+002 
3513065.081 +1.6436101017E-001 +1.5552099933E+002  +2.4425390875E-002 +9.9485696652E+001  +3.3824441225E-002 +2.9939389714E+001  +4.6162473680E-001 +1.2514901989E+002 
3638210.263 +1.6056791752E-001 +1.4700804233E+002  +2.9924646069E-002 +5.8773864869E+001  +3.3240604603E-002 +6.9943796909E-001  +1.8495378779E-001 +1.1303021079E+002 
3763355.444 +1.7067394097E-001 +1.5065044478E+002  +4.1081693438E-002 +1.2287750306E+002  +3.5108220599E-002 +5.1185323235E+001  +6.7541118816E-001 +1.3901189161E+002 
3888500.626 +1.7564405503E-001 +1.3996954212E+002  +4.0487131237E-002 +1.0704832417E+002  +3.6633220075E-002 +4.8767549532E+001  +4.9128664088E-001 +1.3702307175E+002 
4013645.807 +1.7967829873E-001 +1.4796428989E+002  +2.2382872195E-002 +8.6814457609E+001  +3.2536796696E-002 +2.6088339331E+001  +3.0772258236E-001 +1.4163243839E+002 
4138790.989 +1.6093941062E-001 +1.4758166056E+002  +4.6310551116E-002 +6.4199816918E+001  +3.6633341437E-002 -2.2484109561E+000  +3.2498249202E-001 +1.0492085764E+002 
4263936.170 +2.0048646620E-001 +1.4965895751E+002  +1.0355155868E-001 +8.5139580487E+001  +9.7578597884E-002 +3.1182747196E+001  +1.5603982302E+000 +7.8062909757E+001 
4389081.352 +2.2455160646E-001 +1.4269026574E+002  +4.5334150198E-002 +9.9307910687E+001  +5.4189729623E-002 +3.1208727556E+001  +5.1771449014E-001 +1.1873752587E+002 
4514226.533 +2.2121463488E-001 +1.3812802244E+002  +6.6899906558E-002 +9.6218528740E+001  +7.6904300114E-002 +3.1855625381E+001  +6.6375799704E-001 +9.2917543941E+001 
4639371.715 +1.9889482311E-001 +1.2907888466E+002  +1.5308808371E-001 +8.0902388077E+001  +1.4334238615E-001 +3.4614688228E+001  +1.6046464289E+000 +8.3883904519E+001 
4764516.896 +3.1681032039E-001 +1.3064339073E+002  +2.4490442559E-001 +1.2458563402E+002  +2.2446311645E-001 +7.5159032493E+001  +2.6573357096E+000 +9.8843247047E+001 
4889662.078 +3.7361152160E-001 +1.3385255583E+002  +6.7731296718E-001 -7.2757492804E+001  +6.4087871838E-001 -1.1541001408E+002  +6.2729701698E+000 -1.3821791331E+002 
5014807.259 +5.5968291341E-001 +1.2751606245E+002  +1.9336325992E+000 +1.5270510437E+002  +2.1848831809E+000 +1.0367925030E+002  +1.8615714761E+001 +1.1683331091E+002 
5139952.441 +3.8029972006E-001 +1.3599718871E+002  +1.1818088023E-001 +1.3337620642E+002  +9.8455436351E-002 +9.6645849832E+001  +1.6244904171E+000 +1.1548185009E+002 
5265097.622 +4.0950963070E-001 +1.3712264054E+002  +8.3995409280E-002 +1.0554703003E+002  +8.6505142692E-002 +7.1709856378E+001  +7.7235912063E-001 +9.5397724288E+001 
5390242.804 +4.0955191155E-001 +1.2220380170E+002  +2.0277333775E-001 +1.1700003057E+002  +2.0633707518E-001 +8.3992201045E+001  +2.2944473716E+000 +1.0954329236E+002 
5515387.985 +4.6744858082E-001 +1.2870477759E+002  +1.1608136082E-001 +9.2179172681E+001  +1.5554445726E-001 +5.9532957826E+001  +1.4108728439E+000 +7.1712451848E+001 
5640533.166 +4.1854670513E-001 +1.2831192224E+002  +1.5851006985E-001 +7.5157491633E+001  +1.3468259001E-001 +5.7929715244E+001  +1.7191324619E+000 +7.1825574573E+001 
5765678.348 +5.6790712186E-001 +1.2928589402E+002  +1.8796798619E-001 +8.8993824969E+001  +1.7270533850E-001 +6.9903771248E+001  +2.0259690695E+000 +6.5495815919E+001 
5890823.529 +5.2805435455E-001 +1.2256747711E+002  +1.5154330723E-001 +8.4102062277E+001  +1.3423564058E-001 +5.2704399204E+001  +1.4866836893E+000 +7.7061874794E+001 
6015968.711 +5.9076698242E-001 +1.1416704156E+002  +2.1631224154E-001 +5.9400466938E+001  +2.1497247069E-001 +3.7730165838E+001  +2.2111272425E+000 +5.6504206438E+001 
6141113.892 +5.7161569833E-001 +1.2541408497E+002  +1.2108964450E-001 +7.0792189269E+001  +1.1003995969E-001 +6.0268452623E+001  +1.5703656912E+000 +6.4707887164E+001 
6266259.074 +7.2551496833E-001 +1.0563517257E+002  +1.6363822576E-001 +4.4640372870E+001  +1.6925713420E-001 +2.9273118814E+001  +1.3937259070E+000 +2.0908805974E+001 
6391404.255 +9.5153663628E-001 +1.0336666432E+002  +1.8930917332E-001 +5.5848876624E+001  +1.8538177491E-001 +3.5311093804E+001  +1.4340700162E+000 +3.1368677236E+001 
6516549.437 +1.0986102528E+000 +6.5546518911E+001  +2.5297555247E-001 +2.1745907596E+001  +2.4390975317E-001 +4.9634130382E+000  +1.4585302419E+000 +1.1257237347E+000 
6641694.618 +1.0207649041E+000 +7.0547334105E+001  +1.7469915938E-001 +2.3689772568E+001  +1.9103373039E-001 +1.9307566168E+001  +1.1733995837E+000 +8.5680631262E+000 
6766839.800 +1.0746065957E+000 +3.6535111745E+001  +2.1059435999E-001 +9.2360974657E+000  +1.8793001523E-001 -1.2639416566E+001  +1.1844113469E+000 -3.8862836132E+000 
6891984.981 +1.4453247779E+000 +2.6667963383E+001  +2.3314329402E-001 +4.2410039057E-001  +2.5030782597E-001 -4.3276646000E+000  +1.2327867151E+000 -5.3076148347E+000 
7017130.163 +1.2971392003E+000 +2.6165163369E+001  +1.7262217391E-001 -1.0644716152E-001  +1.5338029470E-001 +2.2856834462E+000  +1.0775948202E+000 -1.1969088291E+001 
7142275.344 +1.6419826807E+000 +1.1135899267E+001  +1.5410039629E-001 -1.6338779237E+000  +1.7226661558E-001 -2.0580169564E+000  +1.1128130427E+000 -1.4213034650E+001 
7267420.526 +1.3747694065E+000 -1.1744451181E+001  +1.2529177088E-001 -3.1192772111E+000  +1.4026856647E-001 -4.0054857807E+000  +1.2281888155E+000 -1.2336930996E+001 
7392565.707 +9.2698224838E-001 -2.1847987021E+000  +1.0810100595E-001 +5.4379949947E+000  +1.0310991917E-001 +2.0133170399E+000  +1.0496997983E+000 +1.2163339175E+000 
7517710.889 +9.7391313028E-001 -1.6525620590E+000  +1.0758469917E-001 +2.2655460047E+000  +1.0430540549E-001 +6.5713336798E+000  +1.2607563146E+000 -7.5954987217E+000 
7642856.070 +9.1952978887E-001 +1.4206315992E+000  +9.8843325617E-002 +4.9119870501E+000  +9.4113386197E-002 +6.7335326381E+000  +9.5896826782E-001 -6.1798427890E+000 
7768001.252 +8.5924226788E-001 +8.3164516113E+000  +9.2099682018E-002 +1.5629752319E+000  +9.5066767197E-002 +9.9001510110E+000  +9.0064537114E-001 -5.2064753003E+000 
7893146.433 +7.2632723042E-001 +1.2132396198E+000  +9.0683110535E-002 +6.7796631320E-001  +9.2292433901E-002 +5.4352531722E+000  +8.5907958697E-001 -2.7962290582E+000 
8018291.615 +6.9802962421E-001 +6.1519200576E+000  +8.1432205592E-002 -2.1593508406E-001  +8.5219364360E-002 +7.5051877276E+000  +8.3712814914E-001 -2.1379725951E-001 
8143436.796 +5.8886702612E-001 +5.2851771221E+000  +9.0711971595E-002 -9.9008040705E-001  +8.8861645750E-002 +8.6999998003E+000  +7.2701279914E-001 +2.4748554014E+000 
8268581.977 +5.9917224332E-001 +1.2352600179E+001  +7.8637697824E-002 -4.6478492097E+000  +7.7211356712E-002 +8.9575429115E+000  +7.3502210664E-001 -5.4684113533E-001 
8393727.159 +6.2342639717E-001 +8.3308999874E+000  +8.0439120421E-002 -3.6851889299E+000  +7.9180560237E-002 +1.0165226657E+001  +5.9265716488E-001 -9.8398412922E-001 
8518872.340 +5.7315675224E-001 +1.2618091798E+001  +8.0323422154E-002 -3.5892114360E+000  +8.0359012553E-002 +9.7979230492E+000  +6.0125341015E-001 +5.0770188322E+000 
8644017.522 +5.6445156051E-001 +8.7083044504E+000  +7.6091460730E-002 -4.5509985617E+000  +8.0585124193E-002 +5.6985896375E+000  +6.1571879635E-001 +6.5501852484E+000 
8769162.703 +5.6806922052E-001 +6.6667895299E+000  +7.6191457526E-002 -1.0712412552E+000  +7.4988371994E-002 +9.7169339911E+000  +5.7700556949E-001 +9.8373293143E+000 
8894307.885 +5.4429349942E-001 +1.3605656928E+001  +7.6562911152E-002 -3.2027077585E+000  +7.3800942554E-002 +1.1958118413E+001  +5.9353999274E-001 +5.8895003503E+000 
9019453.066 +5.2297595750E-001 +8.9619801214E+000  +7.8724885451E-002 -4.2760718568E-001  +7.6857203578E-002 +9.0528593372E+000  +5.4319259764E-001 +3.3558933850E+000 
9144598.248 +4.9669579335E-001 +7.0756954082E+000  +7.8551427685E-002 -3.6317934750E+000  +7.6809198750E-002 +9.3515372824E+000  +5.4889176471E-001 +3.3531025120E-001 
9269743.429 +4.7745126129E-001 +9.7867448146E+000  +7.7490652884E-002 -3.4358052139E+000  +7.3888048730E-002 +1.2642028199E+001  +5.2171331003E-001 +7.5250154009E-001 
9394888.611 +4.5308793138E-001 +7.7555995160E+000  +7.8705435807E-002 -4.4143310037E+000  +7.3676554461E-002 +1.0205719661E+001  +5.8070527053E-001 -1.1764726871E+000 
9520033.792 +4.9643765662E-001 +7.3651593745E+000  +7.6175286761E-002 -5.2295773651E+000  +7.5388698276E-002 +1.2561018790E+001  +5.2362615369E-001 +4.5915273071E-001 
9645178.974 +4.8498930108E-001 +6.0040528821E+000  +7.7388801380E-002 -5.3201315240E+000  +7.4302395512E-002 +1.3598343754E+001  +4.5282562634E-001 -8.1465698290E+000 
9770324.155 +4.8742764986E-001 +4.0727169024E+000  +7.8753181937E-002 -4.0775764959E+000  +7.6443069922E-002 +1.0051339674E+001  +5.3530623233E-001 -3.4549846976E+000 
9895469.337 +4.6688868431E-001 +2.1947845124E+000  +7.5209263042E-002 -3.1032468391E+000  +7.6460175523E-002 +1.0888648695E+001  +5.0650836104E-001 -6.5873912764E+000 
10020614.518 +4.9187475359E-001 +6.8410598803E+000  +7.7371584846E-002 -3.0227423598E+000  +7.6013507522E-002 +1.2652062474E+001  +4.8798360679E-001 -6.3592683789E+000 
10145759.700 +4.6927708894E-001 +5.8813156650E+000  +7.8402236935E-002 -4.0454576892E+000  +8.1274741086E-002 +1.1615335568E+001  +5.1440239287E-001 -6.4571515909E-001 
10270904.881 +4.3971218998E-001 +5.9892619280E+000  +7.8571904208E-002 -3.4888160035E+000  +7.6018081698E-002 +1.2928677428E+001  +4.8638788983E-001 +1.3644226465E+000 
10396050.063 +4.3434638995E-001 +5.7079925777E+000  +8.0049149429E-002 -2.9927225142E+000  +7.7937323317E-002 +1.1201988528E+001  +5.1030879530E-001 +1.9252398293E+000 
10521195.244 +4.7591220544E-001 +7.2557426690E+000  +8.0247304025E-002 -1.3666575068E+000  +8.0248480718E-002 +1.4192314574E+001  +5.3155495616E-001 -4.9404537640E-002 
10646340.426 +4.9304441048E-001 +1.0677972260E+001  +7.6996485234E-002 -1.0644301379E+000  +7.6429102810E-002 +1.3424095934E+001  +5.3283505608E-001 +5.6899339210E+000 
10771485.607 +5.2281553520E-001 +8.2459679560E+000  +8.2564109929E-002 -1.1957654000E+000  +8.1616208212E-002 +1.2814430023E+001  +5.2922220260E-001 -1.5347595301E+000 
10896630.788 +4.8910684770E-001 +1.1016477856E+001  +8.1000714148E-002 -2.4491414636E+000  +7.7185369266E-002 +1.2058059433E+001  +5.3081217306E-001 +3.4896394951E+000 
11021775.970 +5.2896421437E-001 +7.7580801890E+000  +8.1557877173E-002 -8.2362575892E-001  +7.8426145325E-002 +1.3068464151E+001  +5.5877989292E-001 +3.9906571713E+000 
11146921.151 +5.2035110506E-001 +8.1155421295E+000  +8.1876115964E-002 +7.0258765440E-002  +8.0148400949E-002 +1.3141342288E+001  +5.2122390079E-001 +4.6491060596E+000 
11272066.333 +5.3596457139E-001 +1.1709015569E+001  +8.2402818596E-002 +1.6024095300E+000  +8.0867125660E-002 +1.2904039881E+001  +5.3796291495E-001 +4.6760528830E+000 
11397211.514 +5.0759355883E-001 +8.2083493559E+000  +8.3721051639E-002 -7.5103102190E-001  +8.2995177429E-002 +1.3327321907E+001  +5.6914224242E-001 +5.1060690709E+000 
11522356.696 +5.5183018005E-001 +6.4464371059E+000  +8.3988037774E-002 +1.2645970062E+000  +8.1436765878E-002 +1.0737684243E+001  +5.5487284414E-001 +5.2649583637E+000 
11647501.877 +5.6476703413E-001 +6.7127861220E+000  +8.5000426735E-002 +1.2261114032E+000  +8.5336897866E-002 +1.1513181527E+001  +5.6821362888E-001 +2.7200737189E+000 
11772647.059 +5.6864812156E-001 +6.8469576101E+000  +8.5829961972E-002 +2.4403458031E-001  +8.6450935066E-002 +1.1941106622E+001  +5.7990620834E-001 +1.1057341577E+000 
11897792.240 +5.7087392789E-001 +7.0755158172E+000  +8.4033109635E-002 +1.1765916673E+000  +8.7142410417E-002 +1.2471792634E+001  +5.8685021935E-001 +2.9557171221E+000 
12022937.422 +5.9873414997E-001 +6.0524886477E+000  +8.7760256362E-002 +2.6634122543E+000  +8.5788658105E-002 +1.1047662963E+001  +6.0332220648E-001 +3.1714071031E+000 
12148082.603 +6.0247680033E-001 +3.9119306774E+000  +8.7365150497E-002 +1.2492263495E+000  +8.7160145848E-002 +9.6071125654E+000  +6.0886835017E-001 +3.4390685277E+000 
12273227.785 +6.1517015782E-001 +5.0358404680E+000  +9.0073671096E-002 +1.8579208465E+000  +8.9191874441E-002 +1.0045742900E+001  +5.9672572805E-001 +5.4651718465E-001 
12398372.966 +6.1132900334E-001 +4.4609325010E+000  +8.9474147773E-002 +2.2667461368E+000  +9.0400329009E-002 +1.1133909108E+001  +6.3025608344E-001 +1.9625554227E+000 
12523518.148 +6.5951038204E-001 +4.9900934950E+000  +9.2742519182E-002 +2.6827199469E+000  +9.1083476397E-002 +1.0545147860E+001  +6.5579756391E-001 +1.3591271646E+000 
12648663.329 +6.5455428127E-001 +1.9559920356E+000  +9.2805867418E-002 +2.4194157819E+000  +9.4848260315E-002 +8.6481783687E+000  +6.6774933940E-001 +9.7736507232E-001 
12773808.511 +6.7675372569E-001 +1.2139679712E+000  +9.2836804098E-002 +1.9966262058E+000  +9.0726867257E-002 +7.5785627438E+000  +6.6708186491E-001 -3.9245013476E-001 
12898953.692 +6.8533873829E-001 +2.5787761551E+000  +9.3164685106E-002 +2.2281815460E+000  +9.2600772662E-002 +8.0078598421E+000  +7.0457043186E-001 +5.3914029083E-001 
13024098.874 +7.2397463167E-001 +4.7748219713E-001  +9.6200919038E-002 +3.2592422123E+000  +9.5300360248E-002 +7.2572429390E+000  +6.8269030756E-001 -1.2899707959E+000 
13149244.055 +7.2251632204E-001 +1.3629284621E+000  +9.6130471771E-002 +3.1163004524E+000  +9.4237620478E-002 +6.2785931170E+000  +6.9369213268E-001 -5.8312795755E-001 
13274389.237 +7.3580078712E-001 -1.3533892832E+000  +9.6403768911E-002 +2.7005471119E+000  +9.5980177905E-002 +6.4591491699E+000  +7.2876104639E-001 -8.3921088004E-001 
13399534.418 +7.3656113701E-001 -5.0463238199E-001  +9.7206502985E-002 +2.4940811967E+000  +9.7777836345E-002 +6.5750122026E+000  +7.6047994759E-001 -2.8528359146E+000 
13524679.599 +7.7784158957E-001 -1.7012618485E+000  +9.8375718186E-002 +3.4301933765E+000  +9.6145171888E-002 +5.2982876489E+000  +7.6231643090E-001 -1.8628759543E+000 
13649824.781 +7.7296673558E-001 -1.5582781464E+000  +9.8166894217E-002 +1.3761993511E+000  +9.7481710215E-002 +5.6109412942E+000  +7.5970398807E-001 -3.0934858730E+000 
13774969.962 +8.0084987901E-001 -2.2754585247E+000  +9.9962276744E-002 +2.2941509508E+000  +9.8909020612E-002 +4.1510855263E+000  +8.1316288074E-001 -3.6973885809E+000 
13900115.144 +8.0805877538E-001 -2.9178193893E+000  +1.0076899977E-001 +2.4970275881E+000  +9.8988274119E-002 +3.5819192146E+000  +8.1561762267E-001 -4.0736929862E+000 
14025260.325 +8.0977371390E-001 -4.2095292661E+000  +1.0368878551E-001 +2.4163381791E+000  +1.0235537169E-001 +3.8419457571E+000  +8.4057538226E-001 -5.3997536069E+000 
14150405.507 +8.3739490769E-001 -5.0107491760E+000  +1.0300251714E-001 +1.8232229557E+000  +1.0028094583E-001 +3.0016231242E+000  +8.2914564927E-001 -3.8335006321E+000 
14275550.688 +8.5902820457E-001 -4.8809165029E+000  +1.0172168992E-001 +1.5748628654E+000  +1.0015395707E-001 +2.7453833595E+000  +8.8479700382E-001 -5.0281270543E+000 
14400695.870 +8.7831160146E-001 -6.6057154528E+000  +1.0252065295E-001 +1.7479919008E+000  +1.0190530136E-001 +2.0910786657E+000  +8.8845020717E-001 -4.0671842959E+000 
