!  2-Port S-parameters saved by WinCal
! VAR MeasName=S-Parameters (CALIBRATED_DATA) read from VNA (P5004A)
! VAR MeasDate=29/08/2024 11:54:01
! VAR NAME=S2_r9c4_SET2_9k-100M_2
! VAR FILENAME=S2_r9c4_SET2_9k-100M_2.S2P
! VAR DATE=29/08/2024 11:54:01
! VAR PHYS_PORTS=1,2
! VAR ObjTypeName=DATASET
! VAR IndexType=Frequency
!
# Hz S MA R 50
9000.000 +8.6922960002E-002 -1.7322386700E+002  +8.3055411016E-003 -3.0808483976E+001  +8.3133836504E-003 -7.1511178263E+001  +2.6208165854E-001 -1.3533827320E+002 
134145.181 +1.1076186117E-001 +1.6958652677E+002  +4.5237997294E-005 +6.8842361539E+001  +4.1970498437E-004 +1.2636448673E+002  +2.3858567592E-001 -1.7100784805E+002 
259290.363 +1.1239352110E-001 +1.6963820789E+002  +5.5391659397E-004 +1.8941950682E+001  +5.2613819830E-004 +1.5900630018E+002  +2.3705772899E-001 -1.6795326394E+002 
384435.544 +1.1445915906E-001 +1.7019146085E+002  +1.1170310091E-003 -5.3293682251E+001  +1.1055469539E-003 -1.5230723192E+002  +2.4411577714E-001 -1.6870418847E+002 
509580.726 +1.1303437177E-001 +1.7022335531E+002  +8.8163566002E-004 -4.3255356940E+001  +1.6494864545E-003 +8.6859816998E+001  +2.3773635212E-001 -1.6447961492E+002 
634725.907 +1.1740196444E-001 +1.7152088083E+002  +2.0143953182E-003 -7.0201925883E+001  +1.6928975227E-003 +6.8460787555E+001  +2.5628301387E-001 -1.6568681845E+002 
759871.089 +1.2058974255E-001 +1.7046219959E+002  +6.8444478686E-004 -1.2179825536E+002  +1.0602699724E-003 +1.2195400389E+002  +2.5286873321E-001 -1.6692228127E+002 
885016.270 +1.1998269452E-001 +1.6870330687E+002  +7.5543101892E-004 -7.7601395971E+001  +5.3293209084E-004 +1.4981469051E+002  +2.4391566741E-001 -1.6741876879E+002 
1010161.452 +1.1884904626E-001 +1.6959055634E+002  +1.4716245477E-003 -6.7183638824E+001  +1.3833152483E-003 -1.7571839273E+002  +2.1989737683E-001 -1.7024516353E+002 
1135306.633 +1.1911183006E-001 +1.6842665187E+002  +1.5230289882E-003 -4.3785967288E+001  +2.0162568866E-003 -1.5678043226E+002  +2.0831792824E-001 -1.6794038962E+002 
1260451.815 +1.1591123095E-001 +1.7315417921E+002  +2.1126337985E-003 -1.1661598919E+002  +6.4504401882E-003 +1.6867088740E+002  +2.0255549796E-001 -1.5355599861E+002 
1385596.996 +1.2530771609E-001 +1.7290293534E+002  +2.7460514856E-003 -8.6004024389E+001  +2.5232901890E-003 +1.7307737765E+002  +2.7186305577E-001 -1.5208164271E+002 
1510742.178 +1.2439529369E-001 +1.7169646566E+002  +1.7305000222E-003 -7.6012967385E+001  +5.5565072498E-004 -1.5421738036E+002  +2.5163060164E-001 -1.5923115905E+002 
1635887.359 +1.2722388816E-001 +1.7197694414E+002  +2.7042104727E-003 -9.8929929643E+000  +2.9081934924E-003 -1.6251616061E+002  +2.3445877226E-001 -1.5982264384E+002 
1761032.541 +1.3065319189E-001 +1.7110779453E+002  +1.9674936751E-003 -9.5946727970E+000  +1.1193817985E-003 -1.1336919162E+002  +2.3950953477E-001 -1.6025615761E+002 
1886177.722 +1.3206388680E-001 +1.6822853920E+002  +2.3511946928E-003 +7.8295050670E+001  +3.9057412142E-003 -5.9358331259E+001  +2.1372033657E-001 -1.6282616508E+002 
2011322.904 +1.2963328103E-001 +1.6589217419E+002  +5.3540704303E-003 +7.6092155162E+001  +2.9115641679E-003 -3.2260354073E+001  +2.0518282866E-001 -1.6594295894E+002 
2136468.085 +1.3683703916E-001 +1.6770339030E+002  +9.2889597629E-003 +7.1285584844E+001  +7.9088859151E-003 -4.6706230730E+001  +1.9340433149E-001 -1.6836831526E+002 
2261613.267 +1.3177064126E-001 +1.6771858006E+002  +1.0010534780E-002 +6.7873393294E+001  +1.0340053551E-002 -6.4976532530E+001  +2.0082536366E-001 -1.6790255367E+002 
2386758.448 +1.3935984010E-001 +1.6556060117E+002  +1.3096054673E-002 +7.8214444989E+001  +1.2113158027E-002 -3.5220750795E+001  +2.0972296013E-001 -1.7858916214E+002 
2511903.630 +1.3986468725E-001 +1.6815815727E+002  +1.1331623547E-002 +7.7025299106E+001  +1.3494730706E-002 -4.5609372285E+001  +2.2233107242E-001 -1.7439309130E+002 
2637048.811 +1.2266356646E-001 +1.6181657813E+002  +2.4392613524E-002 +8.2493993334E+001  +2.3641582066E-002 -3.5199901485E+001  +2.2205767742E-001 -1.7765086694E+002 
2762193.992 +1.2493358353E-001 +1.7144034826E+002  +5.0755091329E-002 +4.4926815768E+001  +5.7886807697E-002 -5.6217827540E+001  +1.0431931305E-001 +1.2241544983E+002 
2887339.174 +1.2260400449E-001 +1.7185652735E+002  +6.5895377799E-002 -1.9137541476E+001  +5.3723599122E-002 -1.1303202849E+002  +2.6529387777E-001 -9.9076316402E+001 
3012484.355 +1.1118205411E-001 +1.6449874434E+002  +5.2992924697E-002 +1.7604751316E+001  +5.5220352679E-002 -8.3573741759E+001  +9.9903789809E-002 -1.1734433897E+002 
3137629.537 +1.4060343958E-001 +1.7549304955E+002  +4.9755008654E-002 -6.8563855511E+000  +5.2188551691E-002 -1.1068697317E+002  +1.8710358058E-001 -7.4115984181E+001 
3262774.718 +1.2900870374E-001 +1.6411001454E+002  +5.7175542045E-002 +2.0410185436E+001  +6.2003928332E-002 -6.9425656066E+001  +9.3303944635E-002 -8.8993690911E+001 
3387919.900 +1.4215132074E-001 +1.5325002510E+002  +6.3152875083E-002 +6.8912785272E+001  +5.0765218593E-002 -1.1887077486E+001  +1.6461820418E-001 +1.3061264844E+002 
3513065.081 +1.5648220305E-001 +1.5118044807E+002  +7.2533495237E-002 +8.2708988591E+001  +7.2912510805E-002 -2.5869812850E+000  +2.2230904081E-001 +1.1515476172E+002 
3638210.263 +1.8792379383E-001 +1.4920493453E+002  +9.3219922348E-002 +1.5774151911E+002  +9.5231478158E-002 +7.3720266833E+001  +7.6462095419E-001 +1.5164164315E+002 
3763355.444 +1.5259554119E-001 +1.5010518822E+002  +6.3852783132E-002 +7.4451077629E+001  +6.0044752316E-002 -9.4700777202E+000  +1.6656963831E-001 +1.2988300562E+002 
3888500.626 +1.7400754455E-001 +1.5583474892E+002  +4.6294417710E-002 +6.9577731373E+001  +4.1258166533E-002 +9.4473109641E+000  +2.2458976650E-001 +1.5815306238E+002 
4013645.807 +1.8253539319E-001 +1.5782661025E+002  +4.9052807857E-002 +7.7394565631E+001  +5.0943882554E-002 +2.3042327610E+000  +2.3682880507E-001 +1.4170000720E+002 
4138790.989 +1.8809118332E-001 +1.5219628125E+002  +8.5158050688E-002 +8.6184564516E+001  +8.3010775625E-002 +1.1822318689E+001  +3.6671205993E-001 +1.1043872252E+002 
4263936.170 +2.1201552751E-001 +1.4957964980E+002  +6.7046093392E-002 +9.9570971951E+001  +6.9114723466E-002 +3.0174487806E+001  +3.3120683485E-001 +1.3315493756E+002 
4389081.352 +1.7715786108E-001 +1.4962283895E+002  +7.9461871352E-002 +1.0035417175E+002  +7.6070034328E-002 +3.7727603676E+001  +5.4024284998E-001 +1.5041097712E+002 
4514226.533 +2.3325981339E-001 +1.4592624879E+002  +1.2207606267E-001 +1.2120129056E+002  +1.1577890398E-001 +6.1597405958E+001  +8.1403098264E-001 +1.2884715016E+002 
4639371.715 +2.7708163340E-001 +1.3533856340E+002  +2.3893074874E-001 +1.1015250310E+002  +2.3386211346E-001 +5.6630143111E+001  +1.1096758832E+000 +9.8505106373E+001 
4764516.896 +2.5214389935E-001 +1.3294709400E+002  +2.1882443709E-001 +8.5973279549E+001  +1.9661069984E-001 +3.2861284140E+001  +8.0258559127E-001 +7.9835014369E+001 
4889662.078 +2.4584942925E-001 +1.5394466709E+002  +7.3731216257E-001 -7.9318578607E+001  +6.6984323793E-001 -1.2695633611E+002  +4.5834722580E+000 -1.3299319850E+002 
5014807.259 +3.6883947077E-001 +1.2857326229E+002  +4.2676917786E-001 +1.2218186920E+002  +4.3403350862E-001 +8.0557359594E+001  +2.1270657627E+000 +1.0881180560E+002 
5139952.441 +2.6429219259E-001 +9.3097530968E+001  +8.7985593448E-001 +4.6493968280E+001  +8.4311890123E-001 +1.6355706015E+000  +3.8331005405E+000 +2.5516328890E+001 
5265097.622 +3.5293630460E-001 +1.2718888412E+002  +2.7293891557E-001 +1.0279280738E+002  +2.4433472259E-001 +6.4699355918E+001  +1.1630562666E+000 +1.0331813384E+002 
5390242.804 +3.5695627226E-001 +1.3198459234E+002  +2.4218376801E-001 +8.6058810219E+001  +2.3129698938E-001 +5.2138829838E+001  +1.0661819669E+000 +8.2547596850E+001 
5515387.985 +3.5327723118E-001 +1.2235614670E+002  +3.8249233000E-001 +6.5707673006E+001  +3.5201623467E-001 +3.4612519529E+001  +1.7055126166E+000 +5.7889511422E+001 
5640533.166 +3.9469157248E-001 +1.2831708317E+002  +2.8255782111E-001 +8.8252745309E+001  +2.9195244263E-001 +5.9637974744E+001  +1.4314169730E+000 +9.0065603337E+001 
5765678.348 +3.8999172993E-001 +1.2073359003E+002  +2.5998996709E-001 +7.7587835142E+001  +2.3632000170E-001 +5.3006581098E+001  +1.0042869797E+000 +1.0033338713E+002 
5890823.529 +5.1239310006E-001 +1.0899741081E+002  +4.3937482147E-001 +7.5857826806E+001  +4.1030343474E-001 +5.1028358325E+001  +1.6995976676E+000 +7.3716771783E+001 
6015968.711 +5.1377178929E-001 +1.0996035728E+002  +3.4789715376E-001 +6.2150700111E+001  +3.5499732846E-001 +3.9865216014E+001  +1.1849758757E+000 +6.1220458499E+001 
6141113.892 +5.9018637689E-001 +1.1273368307E+002  +3.9193033401E-001 +7.3548926752E+001  +4.0359816160E-001 +5.2595649328E+001  +1.8258002315E+000 +7.3892487927E+001 
6266259.074 +5.9363326183E-001 +1.1117587686E+002  +3.5419828624E-001 +5.7708515705E+001  +3.3741958215E-001 +4.1119551678E+001  +1.4866495745E+000 +5.5743232722E+001 
6391404.255 +6.6355912439E-001 +9.4952210768E+001  +3.7805136180E-001 +4.1543838272E+001  +3.7659822084E-001 +2.6490246281E+001  +1.1513874124E+000 +3.4447607351E+001 
6516549.437 +7.7650968144E-001 +9.6762515665E+001  +3.6328466912E-001 +4.2846634963E+001  +3.7652565198E-001 +3.1712954981E+001  +1.2283100773E+000 +3.0735541827E+001 
6641694.618 +7.8460862908E-001 +5.9636967992E+001  +4.6150759011E-001 +2.4062012994E+001  +4.5249878807E-001 +1.1274870881E+001  +1.2229472234E+000 +2.4985576348E+001 
6766839.800 +9.3658055534E-001 +5.6781365755E+001  +4.3672116996E-001 +1.9766426101E+001  +4.1743460357E-001 +1.0097794426E+001  +1.1067975736E+000 +9.9855505504E+000 
6891984.981 +1.1193717306E+000 +2.2286393734E+001  +4.5591249924E-001 +3.6058450828E+000  +4.4757619320E-001 -2.5629661167E+000  +8.8004408208E-001 +4.4638004540E+000 
7017130.163 +1.0609244135E+000 +1.6484054442E+001  +4.2268839675E-001 -1.3902562294E+000  +4.1769567103E-001 -6.5594255345E+000  +1.0622534610E+000 -5.7682755500E+000 
7142275.344 +8.2793291316E-001 +9.3489770433E+000  +3.4188915509E-001 -2.9536030664E+000  +3.2675503511E-001 -7.2434228578E+000  +1.0252838566E+000 -1.1391893715E+001 
7267420.526 +8.9100714046E-001 +9.0153724277E+000  +3.0182903502E-001 -1.4068392753E+000  +2.9942195306E-001 -6.3681910828E-001  +1.0028418379E+000 -1.6084526737E+001 
7392565.707 +9.7693516249E-001 -4.2609802459E-001  +2.9447534381E-001 +5.7458351251E+000  +2.8965151572E-001 +5.4667670879E+000  +1.1488521628E+000 -1.0025496824E+001 
7517710.889 +8.3694618948E-001 +3.8660470290E+000  +2.4754249006E-001 +1.9628458852E+000  +2.5013529245E-001 +5.8121259923E+000  +8.4640539149E-001 -5.1052585347E+000 
7642856.070 +7.6281412389E-001 +5.4617210712E+000  +2.4727096829E-001 +2.6818660802E-001  +2.4323496933E-001 +6.0123835738E+000  +7.9892928226E-001 -4.5601642089E+000 
7768001.252 +6.4600664581E-001 -9.8852207356E-001  +2.3600088349E-001 -2.4567613764E+000  +2.3487495270E-001 +2.6798038376E+000  +7.0027568551E-001 -7.5172372893E+000 
7893146.433 +7.1049660445E-001 +9.8005616188E+000  +2.2407258344E-001 +1.4999454441E-001  +2.2408755647E-001 +6.9684609617E+000  +6.9421044672E-001 -2.0636354553E+000 
8018291.615 +5.5120024020E-001 +2.3811009034E+000  +2.1349086009E-001 -8.5283203842E-001  +2.1547447735E-001 +5.6303477402E+000  +5.9256976735E-001 +3.8316008499E+000 
8143436.796 +5.3076250604E-001 +1.3892143573E+001  +2.1224190311E-001 -1.7869922218E+000  +2.0786760958E-001 +7.5981999245E+000  +5.1829809786E-001 +2.7107403947E+000 
8268581.977 +5.5162922014E-001 +1.2656549189E+001  +2.0548840346E-001 -2.4972560315E+000  +2.0259141969E-001 +1.0344689841E+001  +5.6482523003E-001 +5.9671303835E+000 
8393727.159 +5.2250977837E-001 +1.1250174117E+001  +2.0343967965E-001 -1.6422555613E+000  +1.9799343881E-001 +7.8800183502E+000  +4.9504173264E-001 +5.1472335166E+000 
8518872.340 +4.7805696335E-001 +1.5417257794E+001  +1.9769607166E-001 -3.7374186059E+000  +1.9721749806E-001 +8.1316137889E+000  +5.9174646977E-001 +4.0180430345E+000 
8644017.522 +4.6466488411E-001 +9.8899134695E+000  +1.9992373902E-001 -2.9349100170E+000  +1.9704138821E-001 +8.5039280523E+000  +4.4119814824E-001 +2.3329358187E+000 
8769162.703 +5.1933869290E-001 +1.5958050387E+001  +1.9536473515E-001 -2.5461572210E+000  +1.8918266008E-001 +1.0262844423E+001  +4.5059564449E-001 +9.2694228215E+000 
8894307.885 +4.2503171877E-001 +1.2647446112E+001  +1.9499310843E-001 -3.6398216315E+000  +1.9161099037E-001 +8.3752273254E+000  +4.6977436934E-001 +1.8168206164E+000 
9019453.066 +4.1271036186E-001 +1.1423416845E+001  +1.9168634937E-001 -4.4043049813E+000  +1.9239238965E-001 +9.7294764338E+000  +4.0752278423E-001 -1.7719229252E+000 
9144598.248 +3.5807184016E-001 +1.2599575504E+001  +1.8952921511E-001 -6.1734950778E+000  +1.8927936489E-001 +9.4651308168E+000  +4.1413640357E-001 +1.6353321222E+000 
9269743.429 +3.8243986260E-001 +1.2233351025E+001  +1.8981867904E-001 -4.0849553553E+000  +1.8965295707E-001 +1.0223355540E+001  +4.3130273283E-001 +7.7077383578E+000 
9394888.611 +3.9907380552E-001 +8.2795500081E+000  +1.9365048362E-001 -4.1654739128E+000  +1.9160268503E-001 +1.0075010366E+001  +3.8315216390E-001 -2.9823132676E+000 
9520033.792 +3.2653722196E-001 +1.0394795423E+001  +1.9045155044E-001 -5.5366906569E+000  +1.8681330404E-001 +1.0303963524E+001  +3.6990572303E-001 +4.1005479853E+000 
9645178.974 +3.9565107252E-001 +1.1276964281E+001  +1.8838527409E-001 -4.5421825263E+000  +1.8863616535E-001 +1.1700156838E+001  +3.4634110250E-001 -2.8177835557E+000 
9770324.155 +3.1139247401E-001 +9.6360964061E+000  +1.9080344827E-001 -5.5321108094E+000  +1.8766756261E-001 +1.1643910698E+001  +3.9072615185E-001 -6.8207731437E-003 
9895469.337 +3.5700101461E-001 +1.2979191824E+001  +1.9155247850E-001 -3.8223559192E+000  +1.9202141291E-001 +1.2119925332E+001  +3.7535664393E-001 -1.1977647761E+000 
10020614.518 +3.6070997196E-001 +1.2024735657E+001  +1.9310720547E-001 -4.1229254341E+000  +1.9315124283E-001 +1.0467494089E+001  +3.7450542708E-001 -2.1172580947E+000 
10145759.700 +3.5545353358E-001 +1.0857422408E+001  +1.9372330488E-001 -4.8453006506E+000  +1.9106667679E-001 +1.2095636549E+001  +3.6050396500E-001 -2.7715635277E+000 
10270904.881 +3.4373399890E-001 +4.2897175585E+000  +1.9603956697E-001 -3.6956464001E+000  +1.9486916466E-001 +1.0335559563E+001  +3.5789334853E-001 +4.3521530105E+000 
10396050.063 +3.4904867769E-001 +3.1656504993E+000  +1.9725072138E-001 -3.7499219200E+000  +1.9446863334E-001 +1.1469969496E+001  +3.6309404491E-001 +4.8913502701E-002 
10521195.244 +3.3671011135E-001 +1.2874296296E+001  +1.9711648151E-001 -2.8687956787E+000  +1.9399894773E-001 +1.2263011889E+001  +3.8374926946E-001 +4.1845191062E+000 
10646340.426 +3.7022800922E-001 +1.4257784889E+001  +1.9461007711E-001 -3.0413629223E+000  +1.9262983729E-001 +1.1835896543E+001  +3.8842138776E-001 +5.9941296528E+000 
10771485.607 +3.8911671575E-001 +1.6693172087E+001  +1.9713818207E-001 -1.7952206017E+000  +1.9548639296E-001 +1.2775816519E+001  +4.2613664044E-001 +1.9986789616E+000 
10896630.788 +3.5331388911E-001 +1.1569035762E+001  +2.0025134788E-001 -2.1728516706E+000  +1.9956003107E-001 +1.2055519995E+001  +4.2231999208E-001 +3.5469885803E+000 
11021775.970 +3.9489935979E-001 +1.3500461700E+001  +2.0067272534E-001 -1.6257101093E+000  +1.9954301816E-001 +1.1963963817E+001  +4.1650840749E-001 +3.9881651807E+000 
11146921.151 +3.8906397470E-001 +1.3352907904E+001  +2.0433221958E-001 -1.0610215468E+000  +1.9999211901E-001 +1.1967587412E+001  +4.4309243254E-001 +3.7277781835E+000 
11272066.333 +3.9343915835E-001 +1.7314361280E+001  +2.0324979220E-001 -1.4152231843E+000  +2.0187480375E-001 +1.1681025816E+001  +4.2286106045E-001 +8.9376339318E+000 
11397211.514 +4.2404922374E-001 +1.0287862890E+001  +2.0704980671E-001 -2.4334397287E-001  +2.0623865330E-001 +1.1279447194E+001  +4.2084742441E-001 +8.2375620098E+000 
11522356.696 +4.0488381152E-001 +1.3207729582E+001  +2.0652125963E-001 -3.4215639138E-001  +2.0591625176E-001 +1.1174242418E+001  +4.3125783538E-001 +8.2692365448E+000 
11647501.877 +4.2870192206E-001 +1.1578577966E+001  +2.0935241797E-001 -6.1027422606E-001  +2.0719536559E-001 +1.0965807312E+001  +4.5285031060E-001 +7.1241726297E+000 
11772647.059 +4.3855622062E-001 +1.2043664196E+001  +2.0849732578E-001 -5.2019537487E-001  +2.0930321983E-001 +1.0563871470E+001  +4.3379645762E-001 +7.8344164220E+000 
11897792.240 +4.4094472656E-001 +1.0046383256E+001  +2.1531823465E-001 -3.8553649764E-001  +2.1213401158E-001 +1.0459067693E+001  +4.6874299112E-001 +7.1223473509E+000 
12022937.422 +4.5529997156E-001 +9.5787192754E+000  +2.1722580881E-001 +2.3940819392E-001  +2.1313681758E-001 +9.6461485653E+000  +4.5714480843E-001 +4.1845962049E+000 
12148082.603 +5.0213231672E-001 +6.6155727378E+000  +2.1995852481E-001 +9.0558686346E-001  +2.1843200373E-001 +9.9820146479E+000  +4.8351530427E-001 +4.6569661011E+000 
12273227.785 +4.9296886998E-001 +6.4365871978E+000  +2.2354045399E-001 +9.9012908272E-001  +2.2089785920E-001 +9.7939601638E+000  +4.7809420912E-001 +2.2167948243E+000 
12398372.966 +5.0136745816E-001 +5.8245482961E+000  +2.2413176569E-001 +1.3638646061E+000  +2.2106618332E-001 +9.3248788611E+000  +5.1338905601E-001 +4.4758007785E+000 
12523518.148 +4.8690670747E-001 +3.1515354248E+000  +2.2672026089E-001 +1.2898302331E+000  +2.2467207914E-001 +7.6640760717E+000  +4.9798391005E-001 +3.8359301519E+000 
12648663.329 +5.0760359387E-001 +3.2143598466E+000  +2.2914522216E-001 +1.3612091001E+000  +2.2940543006E-001 +8.3955632433E+000  +5.1534443366E-001 +5.6935423138E-001 
12773808.511 +5.3095449449E-001 +5.3751670542E+000  +2.3118468499E-001 +1.6570087157E+000  +2.3002087880E-001 +8.1094164319E+000  +5.3273036585E-001 +1.1994566182E+000 
12898953.692 +5.4408055802E-001 +4.3232517843E+000  +2.3431197608E-001 +1.6659556245E+000  +2.3265159164E-001 +7.4311632928E+000  +5.6117387598E-001 -1.0841216717E+000 
13024098.874 +5.6596906002E-001 +1.8116364054E+000  +2.3787720237E-001 +2.0949519786E+000  +2.3417684881E-001 +6.9587902098E+000  +5.5873792238E-001 +6.5994125897E-001 
13149244.055 +5.5672616572E-001 +1.4184466934E+000  +2.3911689408E-001 +1.5732671493E+000  +2.3601138656E-001 +6.4756733601E+000  +5.6485588797E-001 -4.6137047684E-001 
13274389.237 +5.9606237212E-001 +1.0211407005E+000  +2.4148228064E-001 +2.2421152066E+000  +2.3943121832E-001 +6.3546470623E+000  +5.8364273718E-001 -1.8555061815E+000 
13399534.418 +5.8527272867E-001 -2.5699011920E-002  +2.4333429079E-001 +1.9100180028E+000  +2.4224918331E-001 +5.2807591697E+000  +5.9551006029E-001 -9.3837423126E-001 
13524679.599 +6.0171021468E-001 -1.4508283373E+000  +2.4667976003E-001 +1.8002061320E+000  +2.4292201601E-001 +4.8145254280E+000  +5.9815552889E-001 -3.6019971887E+000 
13649824.781 +6.0982804199E-001 -2.4091122858E+000  +2.4645340423E-001 +1.9042784722E+000  +2.4406047726E-001 +4.0704356414E+000  +6.2394424489E-001 -2.0638348568E+000 
13774969.962 +6.5418429436E-001 -1.7573671081E+000  +2.4927016610E-001 +2.1940645932E+000  +2.4542083423E-001 +4.1296852702E+000  +6.4482509422E-001 -4.5227222927E+000 
13900115.144 +6.6721353770E-001 -3.1564781133E+000  +2.5095543530E-001 +1.7013337641E+000  +2.4787543334E-001 +3.3886512285E+000  +6.4468665448E-001 -3.8399023770E+000 
14025260.325 +6.7593332013E-001 -3.4577364107E+000  +2.5324649368E-001 +1.7851762221E+000  +2.4933945714E-001 +2.9875351904E+000  +6.7827973152E-001 -3.9330593653E+000 
14150405.507 +6.6868903194E-001 -3.4359279460E+000  +2.5292644014E-001 +1.5396628218E+000  +2.5118892343E-001 +2.5256737573E+000  +6.9224169344E-001 -4.9637020482E+000 
14275550.688 +6.9730886041E-001 -4.9640491116E+000  +2.5390571258E-001 +1.3718503240E+000  +2.5138846921E-001 +2.2816234115E+000  +7.0173568942E-001 -3.8282069669E+000 
14400695.870 +7.1481501065E-001 -6.6509327434E+000  +2.5721344657E-001 +1.1673029072E+000  +2.5397972675E-001 +1.7143381481E+000  +7.2161799393E-001 -4.3837704485E+000 
