!  2-Port S-parameters saved by WinCal
! VAR MeasName=S-Parameters (CALIBRATED_DATA) read from VNA (P5004A)
! VAR MeasDate=29/08/2024 11:58:14
! VAR NAME=S2_r9c4_RESET3_9k-100M_3
! VAR FILENAME=S2_r9c4_RESET3_9k-100M_3.S2P
! VAR DATE=29/08/2024 11:58:14
! VAR PHYS_PORTS=1,2
! VAR ObjTypeName=DATASET
! VAR IndexType=Frequency
!
# Hz S MA R 50
9000.000 +8.7896284905E-002 -1.7012744387E+002  +6.4365800862E-003 +1.1072942359E+002  +6.3717147982E-003 +4.7705657836E+001  +2.5385142036E-001 -1.4564837528E+002 
134145.181 +1.1078395225E-001 +1.6956611965E+002  +2.8207833566E-004 +4.6140764394E+000  +2.4145766637E-004 -8.6490652133E+001  +2.3808876433E-001 -1.7109650427E+002 
259290.363 +1.1276236107E-001 +1.6946505733E+002  +6.6713018830E-004 -1.0649044954E+001  +7.0763148646E-004 +8.8981061204E+001  +2.4471654534E-001 -1.6459389508E+002 
384435.544 +1.1374973562E-001 +1.7007286720E+002  +8.0303188784E-004 -3.8317260215E+001  +1.2773426912E-003 +1.4047997455E+002  +2.5259222372E-001 -1.6584376005E+002 
509580.726 +1.1360945731E-001 +1.7104666778E+002  +1.2489174622E-003 +1.6020296199E+002  +3.4509277929E-004 +7.7380334117E+001  +2.5593472795E-001 -1.6522498538E+002 
634725.907 +1.1894492812E-001 +1.7137650997E+002  +7.4577712912E-004 +9.2747075384E+001  +9.9905512623E-004 -1.3708093720E+002  +2.5094119302E-001 -1.6412752410E+002 
759871.089 +1.2087886640E-001 +1.7059497633E+002  +1.9622285205E-004 +1.6776131174E+002  +4.2952849374E-004 -3.8429162534E+001  +2.4752113374E-001 -1.6732631025E+002 
885016.270 +1.2077962110E-001 +1.6975695799E+002  +6.8062673983E-004 +7.6117309861E+001  +3.7802794404E-004 +1.3428810510E+002  +2.4983834200E-001 -1.6729890431E+002 
1010161.452 +1.1758156244E-001 +1.7062592481E+002  +4.2923573487E-004 +2.7446282633E+001  +1.2301493212E-003 -4.2485130131E+001  +2.1686561845E-001 -1.6093882120E+002 
1135306.633 +1.1129460912E-001 +1.6892519474E+002  +1.0413956316E-003 +2.1115903420E+000  +1.0514754248E-003 -3.1167349011E+001  +1.9059768985E-001 -1.7663214297E+002 
1260451.815 +1.1807906275E-001 +1.7197538761E+002  +6.5107543054E-004 +1.5579341688E+002  +2.0753830292E-003 +8.7103182011E+001  +2.1793520053E-001 -1.5691925538E+002 
1385596.996 +1.2536552345E-001 +1.7291103379E+002  +3.4247221853E-004 +1.3766881077E+002  +8.1294682248E-004 -1.3743698086E+002  +2.6681495596E-001 -1.5991106762E+002 
1510742.178 +1.2563900613E-001 +1.7152959770E+002  +1.2967001444E-003 -1.3381499477E+002  +7.2096277221E-004 -6.7993184898E+001  +2.5728111833E-001 -1.5607543297E+002 
1635887.359 +1.2822907039E-001 +1.7221042870E+002  +5.6216436567E-004 +1.6535597561E+002  +8.8358851205E-004 +2.8822051044E+001  +2.5307899638E-001 -1.6014816638E+002 
1761032.541 +1.2630459821E-001 +1.6955774174E+002  +2.0880742068E-003 -1.7646813131E+002  +9.7194915565E-004 -1.2975981714E+002  +2.4810450109E-001 -1.5639956395E+002 
1886177.722 +1.2358731936E-001 +1.6684368988E+002  +1.9597759806E-003 -1.6790399851E+002  +2.7325095056E-003 +6.5320449275E+001  +2.2909260152E-001 -1.6098401552E+002 
2011322.904 +1.2825839221E-001 +1.6638805527E+002  +8.2077487898E-004 -1.0655667631E+002  +1.9342365738E-003 -9.4412411597E-001  +2.0929209427E-001 -1.6633554442E+002 
2136468.085 +1.2460532249E-001 +1.6297691514E+002  +2.9857165977E-003 -1.2554504932E+002  +8.0298898130E-003 -3.5928437305E+001  +1.5674774184E-001 +1.6897080051E+002 
2261613.267 +1.3057455964E-001 +1.6538078647E+002  +2.2882168843E-003 +1.4992916122E+002  +1.2387719920E-003 +4.4182264713E+001  +2.0177909493E-001 +1.7368224403E+002 
2386758.448 +1.4075897513E-001 +1.6286406110E+002  +3.5836559331E-003 +1.5753152047E+002  +4.0751845420E-003 -1.2932264888E+002  +8.9963615120E-002 +1.4662883145E+002 
2511903.630 +1.2760239572E-001 +1.6500294502E+002  +3.6716031286E-003 +4.6762535224E+001  +4.7396001001E-003 -7.9606000458E+001  +1.5647587991E-001 -1.7501401908E+002 
2637048.811 +1.1968816187E-001 +1.4894339515E+002  +2.0353901357E-002 +1.0353020685E+001  +1.0538952989E-002 -1.5666953415E+002  +3.5741045026E-001 +1.1281302177E+002 
2762193.992 +1.0473272431E-001 +1.6682103879E+002  +3.9761399146E-003 -3.9079928597E+001  +1.5448049649E-002 +9.4326967736E+001  +2.1567788911E-001 -3.4780102137E+001 
2887339.174 +1.1485575568E-001 +1.7391077722E+002  +4.9025881374E-002 -1.1114268874E+002  +2.7454450535E-002 -8.4680337191E+001  +7.8059300910E-001 -5.3150399731E+001 
3012484.355 +1.2315160165E-001 +1.7122955947E+002  +3.7011786950E-003 +3.0893138930E+001  +1.1087724069E-002 -5.7320673281E+001  +3.6911329495E-001 -1.1466423211E+002 
3137629.537 +1.2501836980E-001 +1.6845094011E+002  +9.8656768085E-003 +1.4980353749E+002  +9.5684415568E-003 -1.6434539195E+002  +3.1437869347E-002 +4.3961165102E+001 
3262774.718 +1.2314833668E-001 +1.5295193144E+002  +5.5295509793E-003 +8.8906311563E+001  +6.5358280431E-003 +1.4741235796E+002  +5.8874125273E-002 -1.7047697124E+002 
3387919.900 +1.3041057485E-001 +1.6640182473E+002  +4.5885506704E-003 +1.5638278012E+001  +4.5709488112E-003 -1.4532100411E+002  +7.4576875399E-001 +1.4225077465E+002 
3513065.081 +1.4354735769E-001 +1.4864240660E+002  +4.3376183723E-002 -3.3567038798E+001  +1.9433827920E-002 -1.1023318925E+002  +9.8343442194E-001 +8.5669014985E+001 
3638210.263 +1.7181157686E-001 +1.5272573715E+002  +1.1284031502E-002 -4.6582425353E+001  +1.3350907026E-002 +9.5133442658E+001  +2.9253134712E-001 +1.0192579862E+002 
3763355.444 +2.0047754479E-001 +1.4072760166E+002  +7.0217624425E-003 +1.4988153288E+002  +1.0922423540E-002 +1.7412847362E+002  +7.6949463361E-001 +1.5329293179E+002 
3888500.626 +1.9222592439E-001 +1.4347713131E+002  +7.0070405692E-003 -1.3207408501E+002  +3.2874487664E-003 -1.1747985160E+002  +4.0016012225E-001 +1.0640148745E+002 
4013645.807 +1.8176067123E-001 +1.4126540449E+002  +1.9407173271E-002 +1.1168328710E+002  +3.6842470370E-002 +1.0243946934E+002  +7.6901493437E-001 +1.1048708338E+002 
4138790.989 +1.7882692323E-001 +1.5041625147E+002  +1.7639120961E-002 -9.4600917146E+001  +8.6379170235E-003 -3.5789891822E+001  +4.4981442591E-001 +9.9749805010E+001 
4263936.170 +1.8383325353E-001 +1.4793527086E+002  +7.2923240333E-003 -4.9252518223E+001  +7.1126025545E-003 -1.7837302232E+002  +4.1186169756E-001 +1.2552722590E+002 
4389081.352 +2.0168187013E-001 +1.4710867054E+002  +1.7481494890E-002 +9.9813628076E-001  +1.1896621871E-002 +2.3567054087E+001  +9.5352548654E-001 +8.3834049117E+001 
4514226.533 +2.4039293403E-001 +1.1785191830E+002  +3.3892960715E-002 -1.7351583821E+002  +4.9411047392E-002 +1.4888547601E+002  +1.3736519672E+000 +8.7416303283E+001 
4639371.715 +2.6078832615E-001 +1.3353591012E+002  +3.4740509722E-002 -2.4494633027E+001  +2.9496049241E-002 -1.6441525668E+001  +2.1218396309E+000 +1.1430089123E+002 
4764516.896 +3.6697692130E-001 +1.3878372651E+002  +5.3640522544E-002 +1.4572190053E+002  +6.6888792724E-002 +1.2517154178E+002  +1.8552709151E+000 +3.8182852701E+001 
4889662.078 +4.9523585850E-001 +1.3932034704E+002  +3.4053653944E-002 -1.7537442223E+002  +4.1446697237E-002 +3.7716970350E+001  +2.6069272723E+000 -1.7378170172E+002 
5014807.259 +3.8105259267E-001 +1.3410779232E+002  +1.2149986564E-001 -2.6519047409E+001  +8.2571488722E-003 +1.2835608782E+002  +8.8235109392E+000 +9.7780523698E+001 
5139952.441 +3.7101720057E-001 +1.3692390118E+002  +6.8367985351E-003 -1.1801630301E+002  +8.8666635037E-003 -1.6194936261E+002  +1.9440493213E+000 +1.6114427288E+002 
5265097.622 +4.7819602299E-001 +1.2202653332E+002  +1.9399442560E-002 -1.1315985036E+002  +2.4912469059E-002 +9.8173385752E+001  +2.2842987804E+000 -6.8955012746E+001 
5390242.804 +4.3515612877E-001 +1.3283746003E+002  +1.7857275714E-002 +5.2047036944E+001  +8.9217801187E-003 +1.5503502862E+001  +1.7575362030E+000 +9.3110042367E+001 
5515387.985 +4.6644706767E-001 +1.2381264194E+002  +1.5039318325E-002 +1.0869621970E+002  +9.5952347181E-003 +1.1484015767E+002  +1.7303044108E+000 +8.6455134508E+001 
5640533.166 +4.6174231429E-001 +1.2959908198E+002  +6.8270155962E-003 +8.3732187710E+001  +3.7519376607E-002 -1.4282566935E+002  +2.3816597722E+000 +7.3068253122E+001 
5765678.348 +4.5035296180E-001 +1.2399376715E+002  +1.8282216309E-002 -7.0600233119E+001  +7.1163898900E-003 -4.7908621984E+001  +2.7564189324E+000 +9.6571211558E+001 
5890823.529 +5.3995577691E-001 +1.1076564160E+002  +2.4246531874E-002 +1.4961290448E+002  +2.5405116230E-002 +1.3919749175E+000  +1.3976007598E+000 +6.4842485623E+001 
6015968.711 +6.8726951250E-001 +1.1856035790E+002  +4.5078675855E-002 -7.2284588733E+001  +1.2450477679E-002 +1.4697177468E+002  +2.1700469018E+000 +5.0632445856E+001 
6141113.892 +9.3619793250E-001 +1.0911452931E+002  +2.4070344903E-002 -6.5627311787E+001  +2.2173327107E-002 -5.3771523331E+001  +2.1118153783E+000 +2.6111307235E+001 
6266259.074 +9.1329623200E-001 +1.0263405092E+002  +2.4999237168E-002 +4.5052421671E+001  +2.2344153849E-002 -1.5411241601E+002  +2.1213351646E+000 +3.9852550051E+001 
6391404.255 +1.0311350250E+000 +1.0037149546E+002  +5.9934859558E-003 -1.2836573300E+002  +3.2588341189E-002 +3.8462459815E+001  +1.5190553276E+000 +2.8505467436E+001 
6516549.437 +1.7514826407E+000 +1.0254830888E+002  +5.6567277751E-002 +8.3515457838E+001  +1.1045723219E-002 -1.4109222159E+002  +1.7146295601E+000 +7.9465683320E+000 
6641694.618 +1.9178450620E+000 +5.9387429087E+001  +1.6103269022E-002 -3.6469665851E+001  +3.6862230333E-003 -3.3429680430E+001  +1.5979232204E+000 -1.4002437773E+001 
6766839.800 +1.4424641849E+000 +6.1795353687E+001  +1.7327104027E-002 -3.9690403705E+001  +4.1617318365E-002 +8.5054989050E+001  +1.4794195116E+000 -7.2815258741E+000 
6891984.981 +2.3863702210E+000 +3.7663521684E+001  +1.8532826055E-002 +9.1757635084E+001  +2.4536067940E-002 -7.0880633223E+000  +1.2528191220E+000 -9.9669796167E+000 
7017130.163 +1.9969163450E+000 +2.8341174744E+001  +1.3004131736E-002 +1.4212193353E+002  +4.4028493034E-003 -5.6236039296E+001  +1.2500504660E+000 -9.1034613253E+000 
7142275.344 +2.0418364093E+000 +3.6697911881E+000  +1.0362764825E-002 -5.3173591179E+001  +2.8069017297E-002 +9.7278241313E-001  +1.3696726149E+000 -1.7794098601E+001 
7267420.526 +1.3533151026E+000 +7.2230210828E+000  +1.5094863140E-003 -2.4561522525E+001  +1.4086262611E-002 +9.6088676898E+001  +1.3444632222E+000 -7.8506134052E+000 
7392565.707 +1.3114808904E+000 -3.4233278501E+000  +1.4937045608E-002 +1.3333655769E+002  +1.4345185004E-002 -7.1064000770E+000  +1.4370874113E+000 -7.9753035031E+000 
7517710.889 +1.1142252405E+000 -7.9897981696E-001  +4.9451152672E-003 -1.6323785548E+002  +7.6220079121E-003 -7.2044590206E+000  +1.3494220226E+000 -5.5329281624E+000 
7642856.070 +1.0202381241E+000 +1.8773367429E+000  +1.4380991028E-002 +1.0045516530E+002  +6.0900495615E-003 +8.5485067408E+001  +1.1510965536E+000 -6.9039967264E+000 
7768001.252 +9.2360943287E-001 +6.2232261105E+000  +3.6780777503E-003 -1.0864287343E+002  +2.7161803535E-003 +1.1045831470E+002  +1.0418057406E+000 -6.9037758351E+000 
7893146.433 +8.8306433111E-001 -4.4113518457E+000  +2.9220178475E-003 +3.7600644402E+001  +3.6323942412E-003 -1.5806132819E+002  +9.3492561874E-001 -1.3208856018E+000 
8018291.615 +8.1445582497E-001 +1.1327318888E+001  +7.9984931644E-003 -1.7134689899E+002  +9.7872417467E-003 +1.3170641984E+002  +8.0777669405E-001 -7.5162035173E-001 
8143436.796 +7.6166949706E-001 +1.0604014361E+001  +6.7850046093E-003 +2.9320474539E+001  +3.3333606182E-003 +1.0039225843E+002  +7.8154346321E-001 +3.4291191014E+000 
8268581.977 +7.0972657248E-001 +1.1180673846E+001  +1.3498177552E-003 -4.5558597308E+001  +8.9764859005E-003 +1.6017716608E+002  +7.1778075131E-001 +9.3624568997E-001 
8393727.159 +6.7714342332E-001 +1.0212221885E+001  +3.9987786885E-003 +7.3538027912E+001  +1.5938059219E-003 +1.2499606232E+001  +7.8653726251E-001 +4.9989607156E+000 
8518872.340 +6.2996893073E-001 +1.0980955031E+001  +1.8387164451E-003 +1.8546420911E+001  +2.6426692064E-003 +2.0008711207E+001  +6.3158444589E-001 +6.9728195957E-001 
8644017.522 +6.2645400808E-001 +1.1211696374E+001  +2.9339259730E-003 -5.7466127511E+001  +2.5686479510E-003 +7.9437465631E+001  +7.6729771993E-001 +4.2061048131E+000 
8769162.703 +6.3091096640E-001 +9.0975214728E+000  +4.0379167701E-003 +1.1596355969E+002  +3.0941070531E-003 +2.0551887136E+001  +6.5936685816E-001 -2.9804055770E+000 
8894307.885 +6.3157527375E-001 +2.3151135287E+000  +1.0972779576E-003 -1.5376788404E+002  +1.9992479943E-003 -5.0195275132E+001  +6.5326387683E-001 -2.0416088497E+000 
9019453.066 +6.5433566819E-001 +8.6618421790E+000  +3.4556544660E-003 +1.4653777328E+002  +2.4579809686E-003 +8.6375093408E+001  +6.3441476021E-001 +3.4102139733E+000 
9144598.248 +5.7154309424E-001 +5.1290299845E+000  +2.0512556997E-003 +1.7662742682E+002  +2.9617654381E-003 +3.5610739862E+001  +6.2729893225E-001 +4.1652430063E+000 
9269743.429 +6.1795890693E-001 +4.0625766635E+000  +1.9098130081E-003 +9.9729841391E+001  +3.8455271370E-003 +3.5083573945E+001  +5.8694759581E-001 -1.9596256448E-001 
9394888.611 +5.7841347973E-001 +5.5574719705E+000  +2.5391527310E-003 +1.7911533442E+002  +2.8692628348E-003 +5.0131225325E+001  +6.1487983097E-001 -3.3918287915E+000 
9520033.792 +5.7759997003E-001 +2.4483971934E+000  +2.7066840218E-003 +1.2066157870E+002  +6.5952638690E-004 -1.1596736137E+002  +6.0118908180E-001 -7.0689501938E+000 
9645178.974 +5.9072121190E-001 +1.8234168905E+000  +1.6828541139E-003 +1.0479153689E+002  +1.8680791769E-003 +1.3565733517E+001  +5.6495156303E-001 +1.2224916341E+000 
9770324.155 +5.3125532391E-001 +5.3464672273E+000  +1.4106285113E-003 +1.4850220760E+002  +2.2844924048E-003 -4.5869555219E+000  +5.8711763121E-001 -9.3985907009E+000 
9895469.337 +5.6026227901E-001 +3.8608480652E+000  +2.4166554529E-003 +1.6871010692E+001  +4.3463753537E-004 -1.5547945337E+002  +6.1038716416E-001 -1.0119908163E+001 
10020614.518 +5.8742828353E-001 +1.7088811541E+000  +6.1099148465E-004 +1.1652410932E+002  +1.7928345347E-003 +1.2825872324E+001  +5.6117685863E-001 -7.6400562682E+000 
10145759.700 +5.4983838197E-001 +5.3465073433E+000  +2.3076234181E-003 -5.7735450538E+001  +2.8059580080E-003 -1.6724517753E+002  +6.0305934421E-001 -3.7875803578E+000 
10270904.881 +5.6843725558E-001 +8.5846603236E+000  +4.8391583519E-003 +8.9889201769E+001  +7.8296745140E-004 -1.6599727702E+001  +5.5969652076E-001 -3.7781060935E+000 
10396050.063 +5.3852409415E-001 +4.3375509594E+000  +3.3051468074E-003 +1.7769964961E+002  +3.0722516896E-003 -5.4320652411E+001  +5.7571877755E-001 -3.3874600312E+000 
10521195.244 +5.5945561489E-001 +5.1886870579E+000  +3.2364493193E-003 -1.0649102889E+002  +3.7001956748E-003 -1.1405726615E+002  +6.2087983838E-001 -4.0102186652E+000 
10646340.426 +5.9735586106E-001 +6.9133411914E+000  +1.6988341573E-003 +4.7324505581E+001  +1.4805277765E-003 +1.4948447228E+002  +6.0846210573E-001 -3.2768046967E+000 
10771485.607 +6.0611573086E-001 +6.0951445018E+000  +1.8502960663E-003 +8.0346296914E+001  +1.3209338618E-003 +7.9850818409E+001  +5.9838804227E-001 +7.6568357711E-001 
10896630.788 +5.6292799022E-001 +4.7131413849E+000  +9.0247334039E-004 +7.2283345380E+001  +2.1075968613E-003 +9.2398245718E+001  +6.0283573680E-001 -2.5652565070E-001 
11021775.970 +5.9137052308E-001 +6.9247882540E+000  +1.4308149797E-003 -1.5556418387E+002  +6.9750022300E-005 +1.2377705104E+002  +6.2342287199E-001 +6.5047063042E+000 
11146921.151 +6.0301182981E-001 +5.3156170894E+000  +1.1255577816E-003 +1.3460667418E+002  +1.0853547595E-003 +2.8849819108E+001  +6.2840005695E-001 +5.8763585705E-001 
11272066.333 +5.7391881058E-001 +8.9068548048E+000  +9.9538487350E-004 +8.5038163830E+001  +8.1436320701E-004 +9.6849564806E+001  +6.7640194163E-001 +2.7596440154E+000 
11397211.514 +6.5448923046E-001 +6.5619283303E+000  +9.2157236795E-004 -1.0498536224E+002  +4.1098493086E-003 +4.9749852067E+001  +6.3393882029E-001 +4.1771375757E+000 
11522356.696 +6.1815375246E-001 +8.3978620135E+000  +3.5981764548E-003 +3.0183325118E+001  +4.5154313399E-003 -1.6543560772E+002  +6.5029967319E-001 +3.0729669608E+000 
11647501.877 +6.3796603661E-001 +9.3653879711E+000  +1.0760184239E-003 +1.5112420044E+002  +1.0782778759E-003 -8.8952658395E+001  +6.5207645061E-001 +1.8570050818E-001 
11772647.059 +6.5373735192E-001 +5.6090610114E+000  +2.1513030069E-003 +9.9585956036E+001  +1.5915466292E-003 +1.5434412753E+002  +6.9628886924E-001 -1.8780901757E-001 
11897792.240 +6.4039501504E-001 +4.1489469235E+000  +9.2049922613E-004 +6.5643022217E+001  +1.4473834881E-003 +6.9976190176E+001  +6.6955185377E-001 +6.1735661165E-001 
12022937.422 +6.6323395788E-001 +6.8175047900E+000  +1.0863601662E-003 -6.8711155481E+000  +2.9336660061E-003 +2.6668043276E+001  +6.7431251749E-001 +2.7055652330E+000 
12148082.603 +6.8767120643E-001 +4.7222633498E+000  +1.2581822306E-003 +4.3259111030E+001  +2.9170444879E-003 +5.3463084043E+001  +6.8861825054E-001 +4.8688446851E-001 
12273227.785 +7.1090044517E-001 +3.6232025529E+000  +4.9490291424E-004 -4.6066163599E+001  +1.1440140029E-003 +4.4100289441E+001  +6.8954981468E-001 +5.4238886209E-002 
12398372.966 +7.2863687330E-001 +2.3608706098E+000  +1.9318590982E-003 +5.8253360808E+001  +1.8621765961E-003 -1.8540230923E+001  +7.2526214015E-001 -7.5470860095E-001 
12523518.148 +7.2720891156E-001 +5.4391091811E+000  +1.1259548009E-003 +1.0336128774E+002  +4.9337058864E-004 +7.2019552475E+001  +7.4372943973E-001 -3.2558233772E-001 
12648663.329 +7.5431165281E-001 +2.7193089546E+000  +1.6189276462E-003 +1.2086642125E+002  +1.0801416173E-003 -7.0603346150E+001  +7.2264123267E-001 +4.1436383963E-001 
12773808.511 +7.7212176742E-001 +3.8214806315E+000  +7.7778098296E-004 +1.6059549871E+002  +7.9185947300E-004 +9.0504878751E+001  +7.6940024764E-001 +4.3331242595E-001 
12898953.692 +7.7662694633E-001 +1.5416040112E+000  +1.8557345403E-003 +7.8869899167E+001  +2.1561378432E-003 +8.5937311822E+001  +7.7207900094E-001 -1.1860396235E+000 
13024098.874 +7.6342377386E-001 +1.5633495977E+000  +6.6182006429E-004 +6.2454544380E+001  +1.9286014126E-003 +5.3974438582E+001  +7.9286206582E-001 -3.2054856364E+000 
13149244.055 +8.2249481007E-001 -3.7533744206E-001  +2.1268774592E-003 +4.1243970901E+001  +4.0088412950E-003 +1.0587313564E+002  +8.0208532533E-001 -2.2853038252E+000 
13274389.237 +8.1163611497E-001 +6.8368218365E-001  +1.2613772190E-003 +1.4298536019E+000  +6.7467586247E-004 +1.4296857835E+002  +8.2622292541E-001 -2.0755912756E+000 
13399534.418 +8.3784083253E-001 -1.4337229434E+000  +2.0692587595E-003 +3.0761061570E+001  +1.5666658171E-003 +8.0676083783E+001  +8.8059139450E-001 -2.1554464579E+000 
13524679.599 +8.5233336793E-001 -2.1012238449E+000  +2.1343193310E-003 +6.2528188355E+001  +3.4781779341E-003 +1.0402145666E+002  +8.5330571926E-001 -2.7025231104E+000 
13649824.781 +8.6498034337E-001 -2.1542214479E+000  +1.6276825717E-003 +4.7530277533E+001  +2.2262682903E-003 +1.1030955000E+002  +8.9825109029E-001 -2.2071787967E+000 
13774969.962 +8.7803064051E-001 -4.3546491342E+000  +2.8335286875E-003 +7.1523956313E+001  +3.2769794597E-003 +9.4279630486E+001  +9.1283155517E-001 -3.6013682381E+000 
13900115.144 +9.1693264313E-001 -3.0476828033E+000  +1.2560015801E-003 +1.0883527932E+002  +2.1428630575E-003 +7.0512850378E+001  +9.0083739480E-001 -2.9896939944E+000 
14025260.325 +9.1661887582E-001 -3.9799244829E+000  +2.2800718520E-003 +2.0081692848E+001  +1.8265330396E-003 +1.0195078391E+002  +9.1553319968E-001 -3.8365545257E+000 
14150405.507 +9.3579594921E-001 -4.5037081505E+000  +2.4757299041E-003 +5.5292203934E+001  +2.1465834364E-003 +8.9600013712E+001  +9.5715512517E-001 -4.9546084480E+000 
14275550.688 +9.6078196634E-001 -4.5218433505E+000  +5.4292505783E-004 +1.0964819908E+002  +2.1571775485E-003 +1.2980264937E+002  +9.8888229561E-001 -4.4749867717E+000 
14400695.870 +9.8009384421E-001 -5.2529510505E+000  +1.7239380487E-003 +7.1424242221E+001  +1.3483090512E-003 +7.9905215929E+001  +9.8277551830E-001 -5.1191692883E+000 
