!  2-Port S-parameters saved by WinCal
! VAR MeasName=S-Parameters (CALIBRATED_DATA) read from VNA (P5004A)
! VAR MeasDate=29/08/2024 11:39:11
! VAR NAME=S2_r9c4_pristine_9k-100M_3
! VAR FILENAME=S2_r9c4_pristine_9k-100M_3.S2P
! VAR DATE=29/08/2024 11:39:12
! VAR PHYS_PORTS=1,2
! VAR ObjTypeName=DATASET
! VAR IndexType=Frequency
!
# Hz S MA R 50
9000.000 +9.0692343843E-002 -1.6902138707E+002  +4.2676649261E-003 +2.5448217884E+001  +5.5696519999E-003 +1.1565311177E+002  +3.0251079570E-001 -1.5306534586E+002 
134145.181 +1.1046127147E-001 +1.6963616061E+002  +4.4946371236E-004 -2.4285949949E+001  +7.6038557509E-004 +5.6564547162E+001  +2.3772477487E-001 -1.7103210004E+002 
259290.363 +1.1266230330E-001 +1.6924439557E+002  +2.8620660115E-004 -5.5252240772E+001  +4.5699439026E-004 +1.6188123587E+002  +2.3935328169E-001 -1.6841063705E+002 
384435.544 +1.1532966496E-001 +1.7058946177E+002  +3.5413083883E-004 -7.1014865860E+001  +6.3340606335E-004 +1.6651680469E+002  +2.4033886534E-001 -1.7028236116E+002 
509580.726 +1.1188892569E-001 +1.7182287125E+002  +5.4697063500E-004 -1.0481384240E+002  +2.4487291048E-003 +1.0660961051E+002  +2.8524002743E-001 -1.6123107253E+002 
634725.907 +1.1792246976E-001 +1.7081931217E+002  +1.4194476186E-003 -3.5236527831E+001  +1.2450336717E-003 +1.5232688416E+002  +2.4234582758E-001 -1.6522009914E+002 
759871.089 +1.1856081107E-001 +1.7082407036E+002  +1.4078134843E-003 -5.4056459939E+001  +1.8958440613E-003 +1.2639725807E+002  +2.4233119349E-001 -1.6706282100E+002 
885016.270 +1.2139217948E-001 +1.6831195168E+002  +1.0823566782E-003 -3.5372124795E+000  +7.5916699600E-004 +1.6546029869E+002  +2.4501995712E-001 -1.6557054164E+002 
1010161.452 +1.1842478736E-001 +1.6858683988E+002  +3.0039656814E-003 +6.8455607542E+000  +1.7342963614E-003 -1.7113643076E+002  +2.1702343407E-001 -1.6911958860E+002 
1135306.633 +1.1737083892E-001 +1.6699131037E+002  +4.4833943579E-003 +4.6167032184E+001  +4.3104897558E-003 -1.1481064429E+002  +1.8924634338E-001 -1.7007355952E+002 
1260451.815 +1.2208702414E-001 +1.7074884063E+002  +1.9259402266E-003 -1.0726657965E+001  +2.9429002008E-003 -1.5912299832E+002  +2.2335447135E-001 -1.6670290435E+002 
1385596.996 +1.2470483166E-001 +1.7353187520E+002  +4.0539688437E-003 -4.4084864327E+001  +3.9405009847E-003 +1.4253149808E+002  +2.6232316928E-001 -1.5628319186E+002 
1510742.178 +1.2824420835E-001 +1.7177455032E+002  +1.9531632020E-003 -3.0144584203E+000  +2.0955267891E-003 -1.7163779380E+002  +2.4376332563E-001 -1.6084118696E+002 
1635887.359 +1.2858880737E-001 +1.7080690272E+002  +2.3073329764E-003 -1.2784039252E+001  +3.5335914675E-003 -1.3508763735E+002  +2.5121360066E-001 -1.5976225647E+002 
1761032.541 +1.3071695883E-001 +1.6914767818E+002  +3.0629501536E-003 +3.0168979951E+001  +3.0345851367E-003 -1.1867642215E+002  +2.4358388849E-001 -1.6015463137E+002 
1886177.722 +1.3046518453E-001 +1.6871154520E+002  +7.2706644875E-003 +4.8974978734E+001  +6.9553720018E-003 -8.3960289470E+001  +2.2102914042E-001 -1.5770744054E+002 
2011322.904 +1.3448964461E-001 +1.6956880264E+002  +9.4431214190E-003 +6.1145619804E+001  +1.1837820055E-002 -7.5379084243E+001  +1.9311277704E-001 -1.5889202957E+002 
2136468.085 +1.3278502970E-001 +1.6898490150E+002  +1.0806753429E-002 +5.4717968170E+001  +1.0315866375E-002 -6.7409030535E+001  +2.2177611543E-001 -1.6011521970E+002 
2261613.267 +1.3282702595E-001 +1.6724550248E+002  +1.3865673565E-002 +7.5169536045E+001  +1.6728867447E-002 -4.6446977272E+001  +2.1876821988E-001 -1.6673589223E+002 
2386758.448 +1.3985686167E-001 +1.6626140215E+002  +1.4040071577E-002 +8.7730388417E+001  +1.4202611719E-002 -4.0670755832E+001  +2.3314994741E-001 -1.6817595305E+002 
2511903.630 +1.3690603998E-001 +1.6669984296E+002  +2.5670172862E-002 +5.8415240091E+001  +2.7150127955E-002 -6.0706618441E+001  +1.8346141189E-001 -1.5381483858E+002 
2637048.811 +1.2660573277E-001 +1.6179479526E+002  +6.1222974828E-002 +8.1382465687E+001  +5.8837732047E-002 -2.9035316124E+001  +1.2401001792E-001 +1.6774442697E+002 
2762193.992 +1.3014317379E-001 -1.7404693348E+002  +1.1936735246E-001 +1.2849418853E+001  +1.1952235067E-001 -9.5659679514E+001  +1.5926315373E-001 -5.3851741547E+001 
2887339.174 +1.4342288238E-001 +1.7592862610E+002  +5.0708845857E-002 -2.2044038050E+001  +5.3089701274E-002 -1.2722993914E+002  +2.9077681480E-001 -1.2620631743E+002 
3012484.355 +1.3879118197E-001 +1.7126974416E+002  +4.8742859966E-002 +4.6952148669E+001  +5.0411704765E-002 -5.8047892484E+001  +1.3866799547E-001 -1.7096730614E+002 
3137629.537 +1.3497541040E-001 +1.7103488644E+002  +7.5978826478E-002 +5.1313594122E+001  +7.8870531141E-002 -5.1340223022E+001  +6.4513020087E-002 +1.4636949807E+002 
3262774.718 +1.3972934322E-001 +1.7372617433E+002  +7.0737411750E-002 +3.4970549049E+001  +7.0659521457E-002 -5.8644680300E+001  +8.4524920125E-002 -1.6455153332E+002 
3387919.900 +1.4117939085E-001 +1.5638096621E+002  +6.3424370988E-002 +6.1523537986E+001  +5.9949972528E-002 -2.0914732718E+001  +1.6411382550E-001 -1.6905012912E+002 
3513065.081 +1.2388767424E-001 +1.6034246550E+002  +1.1774980097E-001 +6.4700808039E+001  +1.1426521041E-001 -1.6971564372E+001  +1.6157511655E-001 +1.1293095776E+002 
3638210.263 +1.6718159285E-001 +1.5137046229E+002  +6.8016224265E-002 +8.5193669300E+001  +6.9721065869E-002 +4.7226900789E+000  +2.0382805664E-001 +1.7732292300E+002 
3763355.444 +1.5938404859E-001 +1.5811746945E+002  +6.8403110717E-002 +8.5302265720E+001  +6.8018035572E-002 +8.5895285970E+000  +2.7941435676E-001 +1.6448667196E+002 
3888500.626 +1.7564598283E-001 +1.5752164362E+002  +6.9130829701E-002 +1.0170426307E+002  +6.5482870533E-002 +2.4244698904E+001  +3.4631225098E-001 +1.6338819496E+002 
4013645.807 +1.9369170050E-001 +1.5272950117E+002  +9.6254609300E-002 +1.0035165150E+002  +9.0886071601E-002 +3.0272494236E+001  +3.0849022570E-001 +1.4646456686E+002 
4138790.989 +1.7708163334E-001 +1.5681777638E+002  +8.6881513271E-002 +6.2787143565E+001  +8.2636816512E-002 -4.2337041783E+000  +1.5213621229E-001 +1.7189490216E+002 
4263936.170 +1.8273953524E-001 +1.5507149448E+002  +9.8190104665E-002 +8.8205018543E+001  +9.7765433672E-002 +2.4429878370E+001  +3.5399767276E-001 +1.5048918687E+002 
4389081.352 +1.7841644299E-001 +1.5880045391E+002  +1.2624772125E-001 +6.1508655240E+001  +1.1730293782E-001 +7.3963165976E-001  +1.9980391952E-001 +1.1927744125E+002 
4514226.533 +1.7187860970E-001 +8.7952221843E+001  +3.2615543886E-001 +7.3163995909E+001  +3.2409591404E-001 +1.6746106327E+001  +3.8220987565E-001 +1.0550451034E+002 
4639371.715 +2.4030645632E-001 +1.3447418941E+002  +2.6855752471E-001 +1.0826936292E+002  +2.6056100210E-001 +5.6201158897E+001  +7.9604824052E-001 +1.2437837754E+002 
4764516.896 +3.2080691078E-001 +1.1377835367E+002  +5.2941148698E-001 +9.9639295729E+001  +5.1190306477E-001 +4.8258664656E+001  +1.2350319061E+000 +9.5411013309E+001 
4889662.078 +6.2716119047E-001 +1.7023954440E+002  +1.0591735515E+000 -1.5751130966E+002  +9.9978890486E-001 +1.5564532512E+002  +2.7935349280E+000 +1.7412784838E+002 
5014807.259 +4.7181381285E-001 +1.3205158415E+002  +5.7619260837E-001 +1.3215115392E+002  +5.6125024509E-001 +9.0313097902E+001  +1.5157436556E+000 +1.2239646893E+002 
5139952.441 +3.4526722955E-001 +1.1685319454E+002  +4.6359393206E-001 +8.7799398613E+001  +4.5256512947E-001 +4.6344804430E+001  +9.0664740270E-001 +8.6522053689E+001 
5265097.622 +3.2700184425E-001 +1.3482074157E+002  +2.2522173447E-001 +1.1109529620E+002  +2.2112614439E-001 +6.8828816913E+001  +7.0530161942E-001 +1.4471873910E+002 
5390242.804 +3.0892038288E-001 +1.3190990609E+002  +3.1788204764E-001 +9.2722888183E+001  +2.9728337300E-001 +5.7023594427E+001  +8.7023342633E-001 +1.1875848566E+002 
5515387.985 +3.6019166563E-001 +1.3794904116E+002  +2.9539117054E-001 +1.1473247538E+002  +2.9702149259E-001 +8.1876232068E+001  +1.2104368178E+000 +1.3938029758E+002 
5640533.166 +3.9231949209E-001 +1.3517613055E+002  +2.7601337055E-001 +9.6908707470E+001  +2.6175745477E-001 +6.4201345189E+001  +7.7266794961E-001 +1.2657951425E+002 
5765678.348 +4.1349208232E-001 +1.3001963862E+002  +3.6126134763E-001 +9.9766510176E+001  +3.5260712668E-001 +6.9080759485E+001  +1.1284792453E+000 +1.2393466597E+002 
5890823.529 +3.9212342467E-001 +1.3059542365E+002  +3.6063634157E-001 +8.6923737001E+001  +3.5218191776E-001 +6.0349386269E+001  +1.1239278145E+000 +1.1492573964E+002 
6015968.711 +4.0657242834E-001 +1.2783509885E+002  +3.3872863317E-001 +7.0976426603E+001  +3.2646564431E-001 +4.7960346700E+001  +7.3923359535E-001 +1.0724888427E+002 
6141113.892 +4.2339350005E-001 +1.1527688103E+002  +4.5951246981E-001 +5.8450948940E+001  +4.3982580722E-001 +3.7827816212E+001  +8.4749869402E-001 +8.0301362994E+001 
6266259.074 +4.7804164668E-001 +1.2171167689E+002  +3.7894818069E-001 +6.0386446989E+001  +3.7436508355E-001 +4.3255567610E+001  +6.8268632868E-001 +9.2545430039E+001 
6391404.255 +5.2102681668E-001 +1.0553519246E+002  +5.5357075873E-001 +4.9007421877E+001  +5.2666359075E-001 +3.2876578112E+001  +9.1546481802E-001 +5.9143832134E+001 
6516549.437 +5.0275836452E-001 +8.5780050783E+001  +6.3562632881E-001 +3.8193248926E+001  +6.1475762347E-001 +2.5993754134E+001  +9.3813938771E-001 +5.7350091679E+001 
6641694.618 +5.5450358566E-001 +5.0609724864E+001  +8.0750166955E-001 +2.6539729642E+001  +8.0033106670E-001 +1.5794307268E+001  +1.1456108205E+000 +4.9051781102E+001 
6766839.800 +4.6499029939E-001 +4.5755543937E+001  +7.0385796035E-001 +1.4171925695E+001  +7.1274595015E-001 +2.2883202137E+000  +9.0530159807E-001 +2.0803995213E+001 
6891984.981 +4.9919073524E-001 +1.4968394680E+001  +7.4342056574E-001 +4.1243115041E+000  +7.4043058390E-001 -4.4069716486E+000  +8.9932273075E-001 +1.5832335474E+001 
7017130.163 +5.1731600663E-001 +3.2950798656E+001  +6.3074624502E-001 +5.3369775213E+000  +6.2432093156E-001 +8.2283718557E-001  +6.2993888991E-001 +6.4610546872E+000 
7142275.344 +4.1537116990E-001 +1.6616852317E+001  +6.0723735947E-001 +4.5009225207E-001  +6.0857240276E-001 -3.2562662333E+000  +7.4396624495E-001 -1.0928428297E+000 
7267420.526 +5.6498987218E-001 +7.7826242344E+000  +6.0795282418E-001 +1.5889202388E+000  +6.0527605551E-001 -3.6060554003E-001  +8.3301782950E-001 -7.0367115660E+000 
7392565.707 +4.7387520792E-001 +8.1203180344E+000  +5.4211930122E-001 +1.9114686930E-001  +5.4157890829E-001 +2.4416808284E+000  +5.4063321253E-001 -1.1250826424E+001 
7517710.889 +5.0503543502E-001 +2.0853382064E+001  +5.0381493292E-001 +2.0098524171E+000  +5.0806994796E-001 +3.7564407678E+000  +4.8685851031E-001 -5.1416483167E-001 
7642856.070 +3.9372677328E-001 +2.0807987200E+001  +4.8750884757E-001 -4.2382309805E-002  +4.8944850075E-001 +3.0562709183E+000  +4.1891028002E-001 -4.8515103704E+000 
7768001.252 +3.9601269330E-001 +2.5551403066E+001  +4.6471206279E-001 +4.8874512292E-001  +4.5774019041E-001 +4.0096583297E+000  +4.2594964080E-001 +2.0875464272E+001 
7893146.433 +2.9469829594E-001 +1.4277627836E+001  +4.7291085442E-001 -3.1610014817E+000  +4.6380316508E-001 +2.3996196629E+000  +2.9332325159E-001 -2.5263415868E+000 
8018291.615 +2.9286878265E-001 +2.5713898654E+001  +4.4326925719E-001 -4.0138750070E+000  +4.4963741096E-001 +4.0859633105E+000  +2.3794300854E-001 +4.3222419354E+000 
8143436.796 +2.4404436447E-001 +1.7716982744E+001  +4.4007857012E-001 -4.0156991879E+000  +4.3978204108E-001 +4.3403903408E+000  +3.3047662865E-001 +2.2697936384E+001 
8268581.977 +3.1461532027E-001 +3.3490238651E+001  +4.2131725906E-001 -3.2480883699E+000  +4.2529916838E-001 +6.6862072542E+000  +3.7479736554E-001 +2.8653602514E+001 
8393727.159 +2.1125823642E-001 +4.1584743847E+001  +4.0921805776E-001 -5.3523237162E+000  +4.1530762752E-001 +5.4535905122E+000  +2.8210677255E-001 +2.6135054081E+001 
8518872.340 +3.0205484293E-001 +2.5202606704E+001  +4.1579994945E-001 -4.1770542419E+000  +4.1552152365E-001 +7.7182938883E+000  +2.5858598075E-001 +2.0118610191E+001 
8644017.522 +2.4217273203E-001 +5.1655254908E+001  +4.0423516537E-001 -6.0144905527E+000  +3.9916772885E-001 +6.9179359494E+000  +1.9732894696E-001 +3.5220634920E+001 
8769162.703 +2.7040964476E-001 +3.6833437378E+001  +4.0373655697E-001 -4.3353592155E+000  +4.0144944758E-001 +8.4409883454E+000  +2.6095345890E-001 +2.0415849029E+001 
8894307.885 +1.9918022842E-001 +3.3515200796E+001  +3.9989417710E-001 -6.1640083213E+000  +3.9795427823E-001 +7.3343370660E+000  +2.3462685323E-001 +2.8606106964E+001 
9019453.066 +1.9764434459E-001 +3.5616369370E+001  +3.9756096102E-001 -6.1780279789E+000  +3.9827085874E-001 +8.5650508391E+000  +2.3024653112E-001 +3.0912888064E+001 
9144598.248 +1.2972176952E-001 +3.3890804510E+001  +4.0091529594E-001 -7.1531625327E+000  +3.9646960799E-001 +7.8114203314E+000  +1.9227880930E-001 +3.2129041435E+001 
9269743.429 +1.6253482104E-001 +4.7858908089E+001  +3.9288135565E-001 -6.4445584095E+000  +3.8734935634E-001 +8.3297610083E+000  +2.2669375838E-001 +3.1524922053E+001 
9394888.611 +1.9985223403E-001 +4.2090940804E+001  +3.9369542218E-001 -5.5233464749E+000  +3.8759337595E-001 +9.2923069514E+000  +2.4468351223E-001 +2.9057661750E+001 
9520033.792 +1.3467197502E-001 +3.9376775083E+001  +3.9515224693E-001 -7.5789323184E+000  +3.8835796393E-001 +8.1358032351E+000  +1.6407707498E-001 +4.4361152282E+001 
9645178.974 +1.6278629750E-001 +3.1016792737E+001  +4.0167247921E-001 -6.4200888625E+000  +3.9705009443E-001 +9.3329902231E+000  +1.6865011338E-001 +2.3133639208E+001 
9770324.155 +1.5708849524E-001 +3.2341027533E+001  +3.9837162691E-001 -6.7938674528E+000  +3.9557678590E-001 +8.8393160512E+000  +1.4658783399E-001 +2.4243163542E+001 
9895469.337 +1.2109147730E-001 +3.7293871212E+001  +3.9920759031E-001 -6.6527066589E+000  +3.9496880272E-001 +9.6013987014E+000  +1.8817216017E-001 +1.8556755141E+001 
10020614.518 +1.7076617515E-001 +3.5720433586E+001  +4.0214827116E-001 -5.8599366190E+000  +3.9560506026E-001 +9.4685141268E+000  +1.8213723545E-001 +2.7008942352E+001 
10145759.700 +1.6116529049E-001 +4.1168225369E+001  +4.0106860387E-001 -6.1214113907E+000  +3.9891268621E-001 +1.0109300297E+001  +1.5974267535E-001 +1.0299482052E+001 
10270904.881 +1.5833047119E-001 +3.9314298838E+001  +4.0085642963E-001 -6.3308084686E+000  +3.9837633043E-001 +9.3477535583E+000  +1.2602537874E-001 +2.4691426039E+001 
10396050.063 +1.8143836377E-001 +5.5748461407E+001  +3.9899464492E-001 -5.5381257042E+000  +3.9616093392E-001 +9.4052888764E+000  +1.5691346208E-001 +2.4244308579E+001 
10521195.244 +1.6283986970E-001 +3.6352265537E+001  +4.0371910938E-001 -5.5427145805E+000  +4.0234129665E-001 +9.8674275924E+000  +1.7608480112E-001 +2.7845351169E+001 
10646340.426 +1.7163495627E-001 +3.8449449287E+001  +4.0726572614E-001 -4.7333509299E+000  +4.0133394695E-001 +9.9974451872E+000  +1.9270623104E-001 +2.8911022974E+001 
10771485.607 +1.6817404208E-001 +3.8381238781E+001  +4.0837079201E-001 -4.4747359963E+000  +4.0087456893E-001 +1.0086872888E+001  +2.3105473173E-001 +3.1764603058E+001 
10896630.788 +1.7005230529E-001 +3.6132455797E+001  +4.1221723109E-001 -4.2971051196E+000  +4.0800879312E-001 +9.8200946222E+000  +2.0484816821E-001 +3.1554545347E+001 
11021775.970 +2.0180865139E-001 +3.7542745053E+001  +4.1348198850E-001 -3.6357194229E+000  +4.0746237809E-001 +9.9464438974E+000  +2.1760476165E-001 +3.3342547035E+001 
11146921.151 +2.0256193721E-001 +4.0274360893E+001  +4.2011084635E-001 -3.5975681451E+000  +4.1309868590E-001 +9.6316432622E+000  +1.9008241145E-001 +2.5115920509E+001 
11272066.333 +1.9255506686E-001 +3.9994961300E+001  +4.1814050405E-001 -3.5507027051E+000  +4.1284733339E-001 +9.7492652065E+000  +2.3132733357E-001 +2.6142844522E+001 
11397211.514 +1.8534094013E-001 +3.6684885412E+001  +4.2254510115E-001 -3.4948030881E+000  +4.1888737512E-001 +9.1225595157E+000  +2.1186745241E-001 +3.1300658612E+001 
11522356.696 +2.1609311628E-001 +3.2071369790E+001  +4.2831625268E-001 -2.4365619757E+000  +4.2616858786E-001 +9.1465793070E+000  +2.3683783483E-001 +2.0475157621E+001 
11647501.877 +2.0561445825E-001 +2.8341427740E+001  +4.3501720880E-001 -2.4825239097E+000  +4.3033341700E-001 +9.1953398685E+000  +2.1167345959E-001 +2.4474089519E+001 
11772647.059 +2.3109561450E-001 +2.4502786169E+001  +4.3738542379E-001 -1.9120556476E+000  +4.3149785783E-001 +8.8637704553E+000  +2.3794236766E-001 +2.4387853826E+001 
11897792.240 +2.0479728017E-001 +2.7316084448E+001  +4.4033738784E-001 -2.4834230811E+000  +4.3721095865E-001 +7.9396752086E+000  +1.9841495163E-001 +2.6642254071E+001 
12022937.422 +2.2189966801E-001 +2.0934043248E+001  +4.4437231255E-001 -2.0307443016E+000  +4.4220907513E-001 +7.8110348247E+000  +2.2410323054E-001 +2.2812705244E+001 
12148082.603 +2.4526809716E-001 +1.6033948276E+001  +4.5629440234E-001 -1.1970669755E+000  +4.5196560293E-001 +7.4822815234E+000  +2.1736921617E-001 +1.2916924280E+001 
12273227.785 +2.5389093646E-001 +2.4937251419E+001  +4.5280484918E-001 -1.0368034843E+000  +4.4679888530E-001 +7.4152123076E+000  +2.5856076146E-001 +1.8823510575E+001 
12398372.966 +2.6380801074E-001 +2.0769402701E+001  +4.5797002847E-001 -6.8685705183E-001  +4.5687153377E-001 +7.1401618761E+000  +2.4700666285E-001 +1.4533358133E+001 
12523518.148 +2.6044667633E-001 +2.1825723697E+001  +4.6387226932E-001 -9.4265099038E-001  +4.6043319508E-001 +6.2778474581E+000  +2.3161981442E-001 +9.9374027797E+000 
12648663.329 +2.8497180856E-001 +1.5852863863E+001  +4.6736036037E-001 -5.1902639565E-001  +4.6232203504E-001 +6.3549223606E+000  +2.7203330119E-001 +1.3995992969E+001 
12773808.511 +2.9183748780E-001 +1.3107441202E+001  +4.7335047610E-001 -1.2090448921E-001  +4.7040921762E-001 +5.7556353943E+000  +2.7446096276E-001 +1.0955188899E+001 
12898953.692 +2.6766558547E-001 +1.1913233954E+001  +4.8149220707E-001 -3.0407388754E-001  +4.7712025501E-001 +5.4806462231E+000  +2.8383235534E-001 +7.2411248587E+000 
13024098.874 +2.9593134605E-001 +1.1786461340E+001  +4.8303472611E-001 +3.0315411028E-001  +4.7927401248E-001 +5.4409520332E+000  +3.1311009943E-001 +9.7705609270E+000 
13149244.055 +3.1134125706E-001 +6.1883531252E+000  +4.8853073612E-001 +4.3817842869E-001  +4.8277059387E-001 +4.7399227193E+000  +3.0668992486E-001 +9.6195828662E+000 
13274389.237 +3.2851396926E-001 +7.4532435110E+000  +4.9567088722E-001 +3.4532446598E-001  +4.8974885752E-001 +4.3476025565E+000  +3.1009147028E-001 +3.2501531545E+000 
13399534.418 +3.0270445608E-001 +4.9439830229E+000  +5.0051894961E-001 +1.1707266525E-001  +4.9610166213E-001 +3.5904273952E+000  +3.2680943058E-001 +4.1705491599E+000 
13524679.599 +3.4248455425E-001 +4.8184985471E+000  +5.0359920279E-001 +6.6003217542E-001  +4.9935310564E-001 +3.8540155209E+000  +3.5534124832E-001 +3.5986142635E+000 
13649824.781 +3.4204325442E-001 +1.7742082975E+000  +5.1182775137E-001 +5.4308081641E-001  +5.0472350037E-001 +3.1687936872E+000  +3.5139429144E-001 -1.2473146759E+000 
13774969.962 +3.6751850351E-001 -1.4772524463E+000  +5.1307557914E-001 +7.3735829388E-001  +5.0801559289E-001 +2.6089368784E+000  +3.5552379041E-001 +3.1464748075E+000 
13900115.144 +4.0350641942E-001 +2.9348821953E+000  +5.1732277774E-001 +9.8594133699E-001  +5.1229907947E-001 +2.3645701438E+000  +3.5612513432E-001 -3.8723889671E+000 
14025260.325 +3.8897624129E-001 +1.3604001633E+000  +5.2090138451E-001 +9.2507008987E-001  +5.1658824475E-001 +2.3378171008E+000  +4.1081541077E-001 -1.8967589686E+000 
14150405.507 +3.9106733581E-001 -4.4284458111E+000  +5.2685684415E-001 +3.9313574525E-001  +5.2198816501E-001 +1.3805819396E+000  +3.9290619096E-001 -1.1353064429E+000 
14275550.688 +4.0933074311E-001 -2.7351208660E+000  +5.3030980049E-001 +1.6314919536E-001  +5.2478723576E-001 +8.4822399688E-001  +3.8506651574E-001 -3.8559062979E+000 
14400695.870 +4.4898360401E-001 -4.8278422947E+000  +5.3520346279E-001 +7.5137696603E-001  +5.2775881874E-001 +1.3166298232E+000  +4.3385162758E-001 -4.0548192812E+000 
