!  2-Port S-parameters saved by WinCal
! VAR NAME=S2_r9c9_formed(0)_9k-100M_2
! VAR DATE=30/08/2024 12:17:44
! VAR FILENAME=S2_r9c9_formed(0)_9k-100M_2.S2P
! VAR MeasName=S-Parameters (CALIBRATED_DATA) read from VNA (P5004A)
! VAR MeasDate=28/08/2024 17:04:06
! VAR PHYS_PORTS=1,2
! VAR ObjTypeName=DATASET
! VAR IndexType=Frequency
!
# Hz S MA R 50
9000.000 +8.2991333538E-002 -1.7230683953E+002  +8.2895903335E-003 +1.1281693987E+002  +6.9928804836E-003 -9.3980788548E+001  +2.2043115296E-001 -1.4542463767E+002 
134145.181 +1.1147581621E-001 +1.6977427749E+002  +1.8232195809E-004 +2.9994562427E+001  +2.7783618658E-004 -6.7680801136E+000  +2.3836704898E-001 -1.7149639812E+002 
259290.363 +1.1279334361E-001 +1.6940356315E+002  +6.6721235729E-004 +1.0260645973E+002  +9.1025969208E-004 -6.3562759825E+000  +2.5237690469E-001 -1.6817080290E+002 
384435.544 +1.1478309864E-001 +1.7034694258E+002  +1.0963358272E-003 +1.0293216632E+002  +1.1416842158E-003 +2.6093265159E+001  +2.4843992470E-001 -1.6931868074E+002 
509580.726 +1.1423990688E-001 +1.7159045888E+002  +1.6781990184E-003 -1.5627352517E+002  +2.8507718587E-003 +1.2441356065E+002  +2.5351460873E-001 -1.6109297879E+002 
634725.907 +1.1815144086E-001 +1.7121466843E+002  +9.6175293318E-005 -1.1994324094E+002  +2.6602526213E-004 +9.8699980977E+000  +2.4076389991E-001 -1.6353120353E+002 
759871.089 +1.1932472265E-001 +1.7115137878E+002  +4.3011584780E-004 +3.0710297434E+001  +1.6767552400E-004 -8.0317178393E+001  +2.5086457392E-001 -1.6778038692E+002 
885016.270 +1.2121803222E-001 +1.6993897900E+002  +2.7379535702E-004 +4.1645663419E+001  +3.5068977155E-004 +7.1302371172E+000  +2.5236337169E-001 -1.6637553740E+002 
1010161.452 +1.1676607451E-001 +1.7039815786E+002  +2.3433887714E-003 +2.5731766468E+001  +2.0944323742E-003 +7.8680599075E+001  +1.8878899375E-001 -1.6451034260E+002 
1135306.633 +1.1372070724E-001 +1.6953429049E+002  +1.0709478157E-003 +1.6533605956E+002  +9.3565156563E-004 -1.1307330670E+002  +2.1478385121E-001 -1.7158328901E+002 
1260451.815 +1.2109531486E-001 +1.7105268299E+002  +1.2618138508E-003 +6.6303868617E+001  +4.1257296284E-004 -5.2335956457E+001  +2.4066288953E-001 -1.6156822713E+002 
1385596.996 +1.2815383372E-001 +1.7254880972E+002  +1.5157293286E-003 +1.6322317356E+002  +3.3195212849E-004 +3.7301153144E+001  +2.8307824651E-001 -1.5574500825E+002 
1510742.178 +1.2652833914E-001 +1.7234799720E+002  +6.8454007186E-004 -1.4178390663E+001  +1.1674404918E-003 -1.0488140853E+002  +2.4194074389E-001 -1.5529114669E+002 
1635887.359 +1.2783377373E-001 +1.7098019773E+002  +5.1629186071E-004 -9.2823213235E+001  +1.2258260985E-003 -5.6399373005E+001  +2.5541351565E-001 -1.5814729248E+002 
1761032.541 +1.3036021226E-001 +1.6941690260E+002  +1.6392573068E-003 -7.6432800710E+001  +1.8000052659E-003 +1.0333169817E+002  +2.2194370307E-001 -1.5565593728E+002 
1886177.722 +1.3082508543E-001 +1.6943851315E+002  +3.9165314059E-003 -1.2421707236E+002  +2.4864292004E-003 +1.4641710648E+002  +1.8544415112E-001 -1.5370273816E+002 
2011322.904 +1.3153024536E-001 +1.6904344715E+002  +1.1319218125E-003 +1.0423372020E+002  +7.0062511918E-004 -1.0654951311E+002  +1.8683070147E-001 -1.6246219275E+002 
2136468.085 +1.2564708662E-001 +1.6569561649E+002  +9.2959235296E-004 +1.2730392654E+002  +1.2286208032E-002 +2.4284093951E+001  +8.2643045497E-002 -9.9488302795E+001 
2261613.267 +1.2877425063E-001 +1.6508965561E+002  +1.9939409497E-003 -4.2730320867E+001  +5.1343579269E-003 +9.7978872813E+001  +1.0160203579E-001 -1.4746675963E+002 
2386758.448 +1.3167731129E-001 +1.6770882769E+002  +4.6159191650E-003 -8.2772334723E+001  +3.0016631342E-003 -9.7247796748E+001  +1.8310205576E-001 +1.6990719265E+002 
2511903.630 +1.2858726232E-001 +1.5967632459E+002  +3.8385942873E-003 +8.5707271780E+001  +3.7666656203E-003 -5.7322915663E+000  +1.3882400610E-001 -1.7631982099E+002 
2637048.811 +1.1882979168E-001 +1.5772333311E+002  +6.1812289485E-003 -8.4456317329E+001  +1.2450816646E-002 +6.9138349332E+001  +4.4640757077E-001 +1.5364726933E+002 
2762193.992 +1.1053401596E-001 +1.7272717775E+002  +4.0675065019E-003 -2.4771936072E+001  +6.7848529510E-003 +1.6396201397E+002  +6.3445354961E-001 -1.3718064593E+002 
2887339.174 +1.1619098655E-001 -1.6805654668E+002  +5.6953655684E-003 -1.2314166707E+002  +9.0954528981E-003 +1.7272372672E+002  +2.0667416039E-001 -7.2768165362E+001 
3012484.355 +1.3016142531E-001 +1.6899157732E+002  +1.1482229277E-002 +1.6745279768E+002  +5.8794375601E-003 +9.0764530870E+001  +3.1637462799E-001 -5.0010317683E+001 
3137629.537 +1.2194926643E-001 +1.7313694525E+002  +1.8561349092E-002 +1.8249532191E+000  +1.6365590031E-002 +1.3089664581E+002  +3.1450625695E-001 +9.9452833290E+001 
3262774.718 +1.1199688924E-001 +1.6742662925E+002  +5.9226246256E-003 +4.0085059513E+001  +7.9752960840E-003 +6.8910937315E+001  +2.2504106466E-001 -1.1471974698E+002 
3387919.900 +1.3801167920E-001 +1.6429597316E+002  +4.3882166968E-002 -1.2921616211E+002  +2.9771578990E-002 +1.6159504052E+002  +2.1651352934E+000 -6.6307609962E+001 
3513065.081 +1.6411484821E-001 +1.3876403366E+002  +5.5725385577E-003 -1.9539031154E+001  +7.3142119129E-003 -1.7759663635E+002  +5.3836157015E-001 +1.3163580879E+002 
3638210.263 +1.8106821705E-001 +1.5045868113E+002  +7.8707263722E-003 +2.0408685503E+001  +5.7144308244E-003 +1.5431683410E+002  +3.9767674570E-001 +1.4031530103E+002 
3763355.444 +1.4834035994E-001 +1.3983069204E+002  +1.0328861502E-002 -6.8579238669E+001  +3.3341811679E-003 -1.1272357643E+002  +6.2122182219E-001 +1.5274578631E+002 
3888500.626 +1.8630842854E-001 +1.5291800703E+002  +7.4576179041E-003 +2.1895069212E+001  +5.1909259104E-003 +7.3856817157E+001  +6.5008163589E-001 +1.5473540619E+002 
4013645.807 +1.7625260484E-001 +1.5129909075E+002  +4.0517605452E-003 +1.2538443986E+002  +1.8325332253E-002 -1.0780511694E+002  +3.6044688149E-001 +1.2781091395E+002 
4138790.989 +1.7230827816E-001 +1.3884526616E+002  +3.4865003615E-003 -1.7437218316E+002  +1.6291975937E-002 +9.7549241839E+000  +4.4876698006E-001 +9.1206093127E+001 
4263936.170 +1.6771535646E-001 +1.4312482848E+002  +4.7736427580E-003 +1.6256148842E+002  +7.7854388099E-003 +1.8688017656E+000  +3.8684185691E-001 +9.3340934336E+001 
4389081.352 +2.1304060858E-001 +1.3924519402E+002  +7.3685241641E-003 +6.9936205347E+001  +1.5510776397E-002 -1.6772503568E+002  +7.0326567983E-001 +1.2832204271E+002 
4514226.533 +2.0876830083E-001 +1.4296115440E+002  +1.9403394061E-002 -3.4851286711E+001  +2.0814656618E-002 -1.7725099946E+002  +1.7951217448E+000 +1.5647221801E+001 
4639371.715 +2.7195548931E-001 +1.3909738484E+002  +4.4543355860E-003 -7.2286846584E+001  +1.7804345423E-003 -1.5542497670E+002  +8.2686098589E-001 +1.4777929950E+002 
4764516.896 +2.6030730748E-001 +1.2506318200E+002  +9.1280184722E-002 +9.8190463566E+001  +4.2587093525E-002 +2.2675868197E+000  +4.4374350595E+000 -8.9925769551E+001 
4889662.078 +4.0629068933E-001 +1.3531319455E+002  +3.5132377651E-002 +6.9988200663E+001  +6.0919386674E-002 -1.5070966698E+002  +3.2554609835E+000 +1.6410708046E+002 
5014807.259 +4.2318196895E-001 +1.3756771405E+002  +8.0750133102E-002 -2.6148650147E+001  +4.7523314441E-002 -5.9907935653E+001  +6.4308226810E+000 +1.4455666623E+002 
5139952.441 +4.8161695838E-001 +1.2942550811E+002  +2.7451494972E-002 +8.1065295828E+001  +3.7170318458E-002 -1.6254771797E+001  +2.8802144736E+000 +1.4956338124E+002 
5265097.622 +3.4470434692E-001 +1.2502655057E+002  +1.1798896774E-001 -9.0233208018E+001  +7.9280584851E-002 +6.9758579290E+001  +6.1792853229E+000 +6.3290102590E+001 
5390242.804 +3.2731893701E-001 +1.2352104159E+002  +5.1049850299E-002 -1.7585652414E+002  +2.0477797196E-002 -4.2281552791E+001  +2.7282521695E+000 +2.6781112262E+001 
5515387.985 +4.6501777631E-001 +1.2737742522E+002  +1.5968179672E-002 -1.5805181141E+002  +5.4656981215E-003 +1.5500065561E+002  +2.0662422367E+000 +1.0092745319E+002 
5640533.166 +5.1309785111E-001 +1.2642520421E+002  +1.1831390502E-002 -1.1596021945E+001  +2.1083173827E-002 -4.7861763627E+001  +1.4157050800E+000 +8.4285740133E+001 
5765678.348 +4.8937896335E-001 +1.2238777516E+002  +1.1909251894E-002 +1.4066586597E+001  +1.1035094810E-002 -1.0717273862E+002  +2.1620467276E+000 +8.6643585661E+001 
5890823.529 +5.5220867727E-001 +1.2540089929E+002  +2.3601016593E-002 -6.3669776364E+001  +2.9896390977E-002 +1.3185754922E+002  +4.0807668005E+000 +6.1429062624E+001 
6015968.711 +5.3452475238E-001 +1.1831635055E+002  +2.2919356518E-002 +7.7588699191E+001  +2.2306354259E-002 -1.6524990565E+002  +2.5904922545E+000 +3.9477783955E+001 
6141113.892 +5.9395497486E-001 +1.1437910766E+002  +8.7321793247E-003 +7.5966249414E+001  +1.2602122637E-002 -4.2797404140E+001  +2.1372412059E+000 +3.5294321970E+001 
6266259.074 +7.7121787247E-001 +1.0272414832E+002  +4.4818164292E-002 +7.0133919415E+001  +2.5247769356E-002 +1.6564261853E+002  +2.0014458524E+000 +3.8629635625E+001 
6391404.255 +1.2887707726E+000 +1.0059253528E+002  +8.9278820178E-003 +6.3660444025E+001  +3.6310990134E-002 -4.3463250811E+001  +1.7363984303E+000 +1.2973867387E+001 
6516549.437 +1.0317668271E+000 +8.8714164268E+001  +1.9676586756E-002 -2.1041382399E+001  +1.7698506192E-002 +1.4919151676E+002  +1.5758795590E+000 +1.3809070197E+001 
6641694.618 +1.8206361917E+000 +6.6175208637E+001  +2.0541938008E-002 -5.9319542296E+001  +3.7783657151E-002 +1.4365821138E+002  +1.2600454180E+000 +3.1726850559E+000 
6766839.800 +1.6608478072E+000 +5.6123187762E+001  +1.2374781382E-002 -1.8168675366E+001  +3.4321376596E-002 +9.3955875364E+001  +1.2334597657E+000 -7.2087069632E+000 
6891984.981 +1.9550591535E+000 +3.5128724063E+001  +3.0713924283E-002 +6.1376046736E+000  +7.8839644346E-003 +7.3181059237E+001  +1.2807373439E+000 +3.0977404258E+000 
7017130.163 +1.9454460299E+000 +2.4714377003E+001  +1.3810605703E-002 +1.4831536968E+002  +2.1969798732E-002 -1.3177026435E+002  +1.4687562710E+000 -6.0069300443E+000 
7142275.344 +1.3021899981E+000 +5.2226606477E+000  +7.9899712782E-003 -1.0753080821E+002  +4.4058719980E-003 -1.4942021221E+002  +1.3550305080E+000 -5.3688666860E+000 
7267420.526 +1.4680423115E+000 +4.3600127739E+000  +6.0176498131E-003 +9.1128737793E+001  +9.1063808519E-003 -7.9711756531E+001  +1.3172928517E+000 -9.2611834721E+000 
7392565.707 +1.2730961649E+000 -9.7639947982E-001  +1.0055832828E-002 +6.4206312092E+001  +1.9206929752E-003 -8.8050234120E+001  +1.2721674965E+000 -1.0514708609E+001 
7517710.889 +1.1630386916E+000 -2.8808266349E+000  +5.8693963322E-003 +5.1407795711E+001  +3.3664767872E-003 -6.5425495484E+001  +1.3054272451E+000 -8.0139281045E+000 
7642856.070 +1.0199794809E+000 +1.6793574760E+000  +5.0994970692E-003 -9.3297695985E+001  +9.8906601156E-003 +1.7082935774E+002  +1.0667618346E+000 -1.0010090687E+001 
7768001.252 +1.0309926082E+000 +4.2097442643E+000  +4.2597357544E-003 +5.7646138161E+001  +4.0205661886E-003 +1.7789992206E+002  +1.0260501061E+000 -1.1863952525E+000 
7893146.433 +9.0375290683E-001 +8.9832134563E+000  +2.7438042908E-003 -1.7530487919E+002  +2.4993664844E-003 -5.7124622253E+001  +9.5308613612E-001 -8.0983171573E-002 
8018291.615 +8.4146989110E-001 +7.3388241108E+000  +2.6650081960E-003 -7.1130151089E+001  +5.6980661412E-003 +4.0249594648E+001  +9.0198221276E-001 +2.6213876816E+000 
8143436.796 +7.4580475821E-001 +6.3441124896E+000  +6.8471015086E-003 +8.3207669355E+001  +3.1203095847E-003 -7.5224605552E+001  +8.2353253067E-001 +2.4942725652E+000 
8268581.977 +7.2585944791E-001 +6.9153494108E+000  +4.9478186955E-003 +4.9813614666E+001  +5.9186973103E-003 -2.4919240090E+001  +7.9835155663E-001 -2.5346022798E+000 
8393727.159 +6.5875983481E-001 +9.8207762157E+000  +3.4770831757E-003 +3.8892086782E+001  +5.7804838905E-003 -4.3617201674E+001  +7.0907791125E-001 -1.1124544551E+000 
8518872.340 +6.5952759819E-001 +8.4768156335E+000  +1.9655370527E-003 -1.4253558141E+002  +5.6646631728E-003 +5.0794831048E+001  +7.1432466299E-001 -7.3352866185E+000 
8644017.522 +6.7123600202E-001 +6.2369484081E+000  +5.1092914079E-003 -1.3854503598E+002  +5.0487727637E-003 +1.7536978519E+002  +7.4687683176E-001 +3.7954774109E-001 
8769162.703 +6.1273298744E-001 +6.9597058708E+000  +2.5647085494E-003 -1.7157271802E+002  +5.6135679903E-003 -8.0351442686E+001  +6.6680232310E-001 +1.2970963803E+000 
8894307.885 +5.8011963266E-001 +1.2370371419E+001  +4.4669057698E-004 -1.6893622219E+002  +3.5963037895E-003 +1.0720518531E+002  +6.8229974171E-001 +3.3303603183E+000 
9019453.066 +6.1832852264E-001 +7.0730040657E+000  +3.8360929857E-004 -2.1505086689E+001  +1.6883970699E-003 +1.1715954763E+002  +6.1662953495E-001 -4.2509090847E+000 
9144598.248 +5.5096796898E-001 +6.5792267108E+000  +1.7283097798E-003 -8.2836077626E+001  +3.0558682368E-003 +9.4367263598E+000  +5.7331757670E-001 +1.3747949058E+000 
9269743.429 +5.1649671779E-001 +7.3020440770E+000  +1.3347450045E-003 -6.4366068645E+001  +1.1990058537E-003 +5.3490861172E+001  +5.8726369739E-001 +1.2290954791E+000 
9394888.611 +5.8978886352E-001 +5.8829327273E+000  +4.8582982761E-003 -4.9382689224E+001  +3.8549466359E-003 -1.5284204711E+002  +5.6543654793E-001 -3.6746162243E+000 
9520033.792 +5.3695288485E-001 +1.0436816729E+000  +9.6623621949E-004 -6.4355212601E+001  +8.3291046689E-004 +8.6525928201E+001  +5.9592308897E-001 -1.1755810904E+000 
9645178.974 +5.4546063956E-001 +3.2519482285E+000  +1.3144974533E-003 +8.3631856161E+001  +3.8004623054E-003 -1.2471735437E+002  +5.6491176906E-001 -2.7101702542E+000 
9770324.155 +4.9481841918E-001 -1.3093136444E+000  +2.8137985092E-003 +1.2780299101E+002  +2.8160938120E-003 +4.5233160388E+001  +5.4194378335E-001 -3.7323494871E-001 
9895469.337 +5.3915247176E-001 +7.5218775201E-001  +3.2153319036E-003 -9.9956716508E+001  +2.1229148491E-003 -1.8146922813E+000  +5.9939522008E-001 -5.8351061800E+000 
10020614.518 +5.8441701562E-001 +2.4942893789E+000  +8.2384835939E-004 -1.4372924767E+002  +3.2682563905E-003 -4.5535363933E+001  +5.7592493929E-001 -1.2553468446E+000 
10145759.700 +5.8150827431E-001 +6.9742441942E+000  +3.1173923274E-003 +3.6354977929E+001  +4.2689379053E-004 +9.3030670253E+001  +6.0120431284E-001 -5.1795566637E+000 
10270904.881 +5.4059823771E-001 +5.1314504809E+000  +2.5222487578E-003 +9.8942272710E+001  +1.7573433916E-003 +1.1992448830E+002  +5.6213418208E-001 -3.0260830491E+000 
10396050.063 +5.2130294682E-001 +4.5751966754E+000  +1.7686032385E-003 -1.3378951937E+002  +1.2697226828E-003 +1.1355400482E+002  +5.6043545278E-001 -5.4518072930E-001 
10521195.244 +5.5652806687E-001 +7.2929972760E+000  +2.5302898985E-003 -1.1979573403E+001  +1.1400505891E-003 -4.5639572364E+001  +5.9835139849E-001 -1.7651715465E+000 
10646340.426 +6.0307303789E-001 +9.4790441480E+000  +1.7902444874E-003 +3.5074185412E+001  +3.6273329205E-003 +1.5380973080E+002  +6.0753201428E-001 +1.6389553090E+000 
10771485.607 +5.8592867322E-001 +8.5697515030E+000  +9.4231395851E-004 -4.9186792822E+001  +2.2998195146E-003 -1.6691786713E+002  +6.1102731511E-001 +8.4515611490E-001 
10896630.788 +6.0508212725E-001 +9.4591011041E+000  +5.3378242327E-004 -9.8606419950E+001  +1.0690459238E-003 +1.5681382129E+002  +5.9001342619E-001 +2.4805835755E+000 
11021775.970 +5.7568414731E-001 +6.9219371297E+000  +1.2722784932E-003 +5.8954939937E+001  +2.4945974639E-003 -1.6991207456E+002  +6.1587484754E-001 +1.7348812658E+000 
11146921.151 +5.9592290121E-001 +6.9918224770E+000  +2.6463098276E-003 -1.0242114830E+002  +2.2137987292E-003 +1.4354103084E+002  +6.1440866085E-001 +1.8342527140E+000 
11272066.333 +6.2212347593E-001 +6.8719650779E+000  +2.1061582162E-003 -1.1435717508E+002  +2.0384254628E-003 +5.0814832212E+001  +5.9195755261E-001 +2.3996139598E+000 
11397211.514 +6.1405241681E-001 +3.7965208898E+000  +2.4481947468E-003 +1.7230095694E+002  +7.6841331267E-004 -1.8348796820E+001  +6.3110059317E-001 +9.7084746365E-001 
11522356.696 +6.4855496281E-001 +8.0312699512E+000  +1.5954506076E-003 +4.8846474255E+001  +1.0703011423E-003 +6.8081034789E+001  +6.4383343903E-001 +1.7258019622E+000 
11647501.877 +6.5496218563E-001 +7.2356452028E+000  +6.5240847933E-004 -1.2931037219E+002  +2.5592412101E-003 +3.8876616122E+001  +6.3952708230E-001 +4.3516059591E+000 
11772647.059 +6.4499966949E-001 +5.0444220805E+000  +2.6588011636E-003 +2.2636253637E+001  +1.2062792491E-003 -1.2010420898E+002  +6.6308561436E-001 +2.9907868378E+000 
11897792.240 +6.5551724971E-001 +5.3974011676E+000  +1.4431058974E-003 -1.6455173535E+002  +9.0679840757E-004 +1.6008743775E+002  +6.3760636282E-001 +1.7433879833E+000 
12022937.422 +6.5798803285E-001 +3.8843731088E+000  +1.1697276326E-003 +1.7525414333E+001  +9.6951044639E-004 +1.0537522742E+001  +7.1421194855E-001 +3.6635168375E+000 
12148082.603 +6.7869711387E-001 +4.8555137005E+000  +5.5339494679E-004 +5.2487258403E+001  +1.3276735865E-003 -3.3514248386E+001  +6.9446879750E-001 -1.1634472074E-001 
12273227.785 +7.2904287363E-001 +3.8495673152E+000  +1.5792445645E-003 +1.7324346595E+002  +7.1634315933E-004 +5.0140681242E+001  +7.0848601051E-001 +2.4162238068E+000 
12398372.966 +6.8872399297E-001 +2.7204325262E+000  +5.5633474842E-004 -1.2454209901E+002  +1.6182634239E-003 -4.1941222579E+001  +7.1964767533E-001 +8.5283981243E-001 
12523518.148 +7.4730436803E-001 +4.9099020498E+000  +7.3135023337E-004 +1.0570176489E+002  +9.3496960005E-004 -8.1159662534E+001  +7.1495563897E-001 +1.8385767679E+000 
12648663.329 +7.5829082803E-001 +4.1526148564E+000  +6.3593940070E-004 -1.4245385810E+001  +6.9166563918E-004 +1.2465629395E+002  +7.8301317056E-001 +2.7570752364E-001 
12773808.511 +7.5191663903E-001 +4.0192391419E+000  +1.1014516113E-003 -8.4496279738E+001  +1.4156806028E-003 +5.4870008466E+001  +7.7465240040E-001 -3.3762862513E-001 
12898953.692 +7.6890033620E-001 +1.8998398656E+000  +1.0960202711E-003 +1.7492194827E+002  +1.4575988871E-003 -8.5140518277E+000  +7.7581713154E-001 -1.0737513931E+000 
13024098.874 +7.7443656750E-001 +1.6962622460E+000  +4.0076030699E-004 +6.8784993557E-001  +1.5745041328E-003 +8.4328921490E+001  +7.7304174522E-001 -2.6271375885E-001 
13149244.055 +8.2109328877E-001 +1.5033150857E+000  +2.1906066684E-003 +6.9030134511E+001  +1.7267109251E-003 +1.2643173887E+002  +8.1875423003E-001 -1.2166043929E+000 
13274389.237 +8.2595099941E-001 +4.6294112864E-001  +4.8848924230E-004 +9.2165956856E+000  +1.0919698038E-003 -6.3771584093E+001  +8.1557229309E-001 -2.8387229431E+000 
13399534.418 +8.3144852071E-001 +6.2292774153E-001  +1.5254996307E-003 +9.8774555611E+000  +1.1553099276E-003 +1.8867388044E+001  +8.5032387720E-001 -2.1180265333E+000 
13524679.599 +8.5572004160E-001 -1.3001263543E+000  +2.4189852840E-003 +6.0547822399E+001  +8.7726882863E-004 +4.7251475062E+001  +8.6253631980E-001 -2.2685367038E+000 
13649824.781 +8.9600605941E-001 -3.5663979816E+000  +1.5684973026E-003 +5.5936066126E+001  +1.1432352948E-003 -5.6341403551E+001  +8.9131111653E-001 -3.1500357591E+000 
13774969.962 +8.8624229374E-001 -1.8676262593E+000  +1.6159293161E-003 +4.2726311890E+001  +5.3599826320E-004 -4.2644755745E+000  +8.8145061675E-001 -2.3650078121E+000 
13900115.144 +9.1446175729E-001 -3.7040826280E+000  +1.0555777217E-003 +1.1674399625E+002  +1.0301238879E-003 -1.4461493387E+001  +9.1886173376E-001 -3.8694853090E+000 
14025260.325 +9.0800922062E-001 -4.0390021147E+000  +7.1471107029E-004 -1.7319138728E+002  +1.9214787693E-003 +5.4706953601E+001  +9.2920449567E-001 -2.5347939348E+000 
14150405.507 +9.3668642530E-001 -2.8524219203E+000  +8.5055235058E-004 +7.1401446052E+001  +1.3516878320E-003 +9.2937084120E+001  +9.5498964284E-001 -3.8942056274E+000 
14275550.688 +9.5160418212E-001 -5.0577364461E+000  +1.4568834900E-003 +3.9051998189E+001  +5.9094509589E-004 +7.3618813961E+001  +9.6025573065E-001 -5.0162878120E+000 
14400695.870 +9.5882018928E-001 -5.0608920238E+000  +1.7550871382E-003 +8.1093476750E+001  +4.1654192553E-004 +1.3005230589E+002  +9.9942921101E-001 -4.8160330442E+000 
