!  2-Port S-parameters saved by WinCal
! VAR MeasName=S-Parameters (CALIBRATED_DATA) read from VNA (P5004A)
! VAR MeasDate=29/08/2024 10:07:50
! VAR NAME=S2_r9c1_RESET2_9k-100M_2
! VAR FILENAME=S2_r9c1_RESET2_9k-100M_2.S2P
! VAR DATE=29/08/2024 10:07:50
! VAR PHYS_PORTS=1,2
! VAR ObjTypeName=DATASET
! VAR IndexType=Frequency
!
# Hz S MA R 50
9000.000 +9.5996043426E-002 -1.5856301216E+002  +6.2491479743E-003 +9.4045509583E+001  +5.8863474961E-003 +5.7607081034E+001  +2.5066695073E-001 -1.4368062254E+002 
134145.181 +1.1177068556E-001 +1.6928590847E+002  +3.7845878801E-004 +5.0384389773E+001  +5.2600412031E-004 +9.5866599244E+001  +2.4035667561E-001 -1.7122156141E+002 
259290.363 +1.1137226207E-001 +1.6965142151E+002  +4.7552358985E-004 +1.2533161558E+002  +3.6675039271E-004 +7.5498498271E+001  +2.4973299362E-001 -1.6960289992E+002 
384435.544 +1.1315261853E-001 +1.7009321283E+002  +1.1381373197E-003 -3.1812312426E+001  +1.2485746663E-003 +4.1915671210E+001  +2.3860672876E-001 -1.6824765475E+002 
509580.726 +1.1303576129E-001 +1.7139362315E+002  +1.3030678018E-003 -7.9962623255E+001  +2.4557969760E-003 +9.3879939731E+001  +2.4223212835E-001 -1.6307690721E+002 
634725.907 +1.1655854323E-001 +1.7142056903E+002  +1.4715562259E-003 -1.0234266592E+002  +2.1347853842E-003 +1.0299132455E+002  +2.4500614838E-001 -1.6612746852E+002 
759871.089 +1.1978767075E-001 +1.7074646637E+002  +9.7261127088E-004 -1.2165346433E+002  +8.0881946616E-004 +5.3071685887E+001  +2.4780653136E-001 -1.6771646884E+002 
885016.270 +1.2085588979E-001 +1.6868839218E+002  +3.7443212684E-004 -1.7758158885E+002  +6.1791945976E-004 +3.2279377453E+001  +2.4215345033E-001 -1.6667515775E+002 
1010161.452 +1.1766963981E-001 +1.6959457187E+002  +6.5725224617E-004 -5.5345897805E+001  +6.5353860618E-005 -1.1346596705E+002  +2.0990884373E-001 -1.6716620207E+002 
1135306.633 +1.1756644847E-001 +1.7008549751E+002  +2.0955513408E-003 -3.5961696318E+001  +2.6599077742E-003 +1.1936426910E+002  +1.6320634102E-001 -1.7500893782E+002 
1260451.815 +1.1850250822E-001 +1.7116000848E+002  +6.6683240004E-004 -1.3137511890E+000  +7.7698583144E-004 -1.6518850346E+002  +2.1837995895E-001 -1.5837213737E+002 
1385596.996 +1.2616288517E-001 +1.7200172308E+002  +1.1188628189E-003 -1.4072028684E+002  +2.7578913457E-003 +7.2657995229E+001  +2.8176904327E-001 -1.5770330627E+002 
1510742.178 +1.2851489076E-001 +1.7101710661E+002  +5.5181358915E-004 -4.5328734677E+001  +8.3425102376E-004 -1.0780477818E+002  +2.4992431776E-001 -1.5709354063E+002 
1635887.359 +1.3005845583E-001 +1.7118496644E+002  +1.0261176908E-003 -3.2485177943E+001  +5.8869202051E-004 -1.7159127839E+002  +2.5140293558E-001 -1.5927066807E+002 
1761032.541 +1.2698871791E-001 +1.6881962139E+002  +1.4818388281E-003 +5.7273252432E+001  +1.1656348730E-003 -4.3916088363E+001  +2.2554736358E-001 -1.5899780747E+002 
1886177.722 +1.3072866897E-001 +1.6936454149E+002  +2.4908329602E-003 +6.3333748788E+001  +1.7388897578E-003 -1.1234795406E+002  +2.2063664482E-001 -1.6449085789E+002 
2011322.904 +1.3156160141E-001 +1.6759017178E+002  +1.5662044398E-003 +6.8022465576E+001  +2.2142992651E-003 -6.7783188042E+001  +2.2864902544E-001 -1.7060659699E+002 
2136468.085 +1.2814096826E-001 +1.6691863928E+002  +7.4845851501E-003 +2.2454583882E+001  +1.6064877671E-002 -1.0944722963E+002  +1.4097300580E-001 -1.1004911573E+002 
2261613.267 +1.3803866729E-001 +1.6803104130E+002  +9.2554417443E-003 +1.6670034816E+001  +9.4872903795E-003 -1.0358252736E+002  +1.4593813058E-001 -1.4464992587E+002 
2386758.448 +1.3962254344E-001 +1.6530190237E+002  +6.0498980508E-003 +7.0016585651E+001  +5.9820487779E-003 -6.1172737577E+001  +1.9429585726E-001 -1.6334009759E+002 
2511903.630 +1.3362585001E-001 +1.6375399842E+002  +1.2538162159E-002 +8.1811254875E+001  +8.2866302112E-003 -5.0631535101E+001  +1.9685194035E-001 +1.7721776376E+002 
2637048.811 +1.1954442839E-001 +1.5998122779E+002  +5.2212415104E-002 +8.5996485004E+001  +4.7101971883E-002 -4.0972050206E+001  +2.7469745215E-001 +7.9829708288E+001 
2762193.992 +8.8832471295E-002 +1.6531541530E+002  +1.8420927675E-001 +4.3845083067E+001  +2.1219758107E-001 -6.4995328081E+001  +1.1199094085E+000 +2.9581901341E+001 
2887339.174 +1.3106081805E-001 -1.7398675218E+002  +6.1141292684E-002 -6.4993052270E+001  +7.7648698423E-002 -1.6615149418E+002  +3.9040177034E-001 -7.8584370924E+001 
3012484.355 +1.2926406830E-001 +1.7532465784E+002  +2.3952007573E-002 +6.2195494876E+000  +2.2833324537E-002 -1.0212794061E+002  +9.7943498309E-002 -1.3045599323E+002 
3137629.537 +1.1094959414E-001 +1.7244524001E+002  +7.8902031940E-002 +2.3038681436E+001  +1.0821901883E-001 -5.4170516844E+001  +7.4094094076E-001 +3.3947623869E+001 
3262774.718 +1.3616622338E-001 +1.6402910923E+002  +2.6402609610E-002 +4.7373558574E+001  +3.4716090006E-002 -4.2219710446E+001  +1.5781634382E-001 +1.0760904635E+002 
3387919.900 +1.4595875335E-001 +1.5697626634E+002  +6.0657897762E-002 +1.0013275245E+002  +5.3741632550E-002 +3.3904849767E+000  +6.3614571877E-001 +1.1447612939E+002 
3513065.081 +1.3306560417E-001 +1.5323640134E+002  +6.3091934718E-002 +1.5954007920E+001  +5.6209554016E-002 -5.9786392121E+001  +1.5291330247E-001 -2.8581134785E+001 
3638210.263 +1.9579029342E-001 +1.4448947439E+002  +8.1745648119E-002 +7.0482127473E+001  +8.4385360296E-002 +8.2929043983E-001  +7.6047143737E-001 +3.7408762640E+001 
3763355.444 +1.4680468856E-001 +1.5606999082E+002  +3.7100804482E-002 +6.1370930280E+001  +4.0320064244E-002 -3.2853891942E+001  +1.2891653217E-001 +1.1677182063E+002 
3888500.626 +1.7292726963E-001 +1.4911715013E+002  +6.4088369781E-002 +6.3133219790E+001  +3.9432843006E-002 -2.8507784821E+001  +2.8215134757E-001 +6.7245970708E+001 
4013645.807 +1.7920404637E-001 +1.4522905144E+002  +4.0777322697E-002 +1.1845323025E+002  +3.9768504495E-002 +3.5725793826E+001  +5.7107122081E-001 +1.4607658552E+002 
4138790.989 +1.8140745996E-001 +1.4344198390E+002  +4.4065527169E-002 +8.8454708257E+001  +4.6336453989E-002 +1.5882744343E+001  +3.8544177777E-001 +1.2594530803E+002 
4263936.170 +1.8408538869E-001 +1.5309105406E+002  +4.2577180725E-002 +9.8020092123E+001  +4.0688216044E-002 +2.5979628059E+001  +4.7589844215E-001 +1.4054704797E+002 
4389081.352 +2.1210599239E-001 +1.4686077671E+002  +4.3597477271E-002 +1.1121418063E+002  +4.4513504868E-002 +4.9567165991E+001  +6.1126943746E-001 +1.3843050838E+002 
4514226.533 +2.3228883547E-001 +1.4418982361E+002  +6.5004549703E-002 +1.4059636069E+002  +7.1334903697E-002 +7.4635793749E+001  +9.2068988008E-001 +1.4261633823E+002 
4639371.715 +3.2689670761E-001 +9.4663676128E+001  +6.8681571544E-001 +1.0946196179E+002  +6.0179726139E-001 +4.3192788082E+001  +3.4978213171E+000 +8.9548780496E+001 
4764516.896 +2.7746633978E-001 +1.3743468491E+002  +3.5257628603E-001 -1.1932507650E+002  +3.2113195659E-001 -1.7527876946E+002  +3.9129950263E+000 -1.4908273303E+002 
4889662.078 +3.5623218373E-001 +1.2414812078E+002  +4.0857696100E-001 -1.1925103673E+002  +4.0077471477E-001 -1.6302930943E+002  +3.4313144735E+000 -1.5742043442E+002 
5014807.259 +3.5489825783E-001 +1.2849349470E+002  +5.4974978233E-001 +1.7202908330E+002  +4.9116468081E-001 +1.3227735190E+002  +5.4138046767E+000 +1.4811060579E+002 
5139952.441 +4.1225124702E-001 +1.3046237320E+002  +2.5587235813E-001 +1.7611172622E+002  +2.6504390460E-001 +1.2770740059E+002  +2.8359005956E+000 +1.4591524805E+002 
5265097.622 +3.7090831471E-001 +1.3208045854E+002  +2.1298892306E-001 +1.2355763531E+002  +1.9387227838E-001 +7.8731069557E+001  +2.3370172825E+000 +1.0732826293E+002 
5390242.804 +4.3021411324E-001 +1.3288826795E+002  +2.0424307660E-001 +1.2968576466E+002  +2.0008994080E-001 +9.7127817140E+001  +2.1566777518E+000 +1.1387977398E+002 
5515387.985 +3.8840112246E-001 +1.3517200091E+002  +1.5979511309E-001 +8.0741599046E+001  +1.6976378876E-001 +4.8615686422E+001  +1.6483496595E+000 +6.9743661342E+001 
5640533.166 +5.0331410474E-001 +1.2839899172E+002  +1.3789542459E-001 +1.0293321716E+002  +1.4680269328E-001 +7.1106882001E+001  +1.1503661256E+000 +9.6370909379E+001 
5765678.348 +4.7605480692E-001 +1.2662371772E+002  +1.9205632272E-001 +7.3531328175E+001  +2.1337005184E-001 +4.2837859548E+001  +2.0254432331E+000 +5.5571240224E+001 
5890823.529 +4.5122894903E-001 +1.2576835459E+002  +1.4092485236E-001 +8.5303292337E+001  +1.5110351308E-001 +5.8614309476E+001  +1.4854456376E+000 +8.7332298080E+001 
6015968.711 +5.7409859798E-001 +1.1177470420E+002  +2.4567557636E-001 +6.7835497108E+001  +2.4452963516E-001 +5.2968552828E+001  +1.8319513031E+000 +5.9709966189E+001 
6141113.892 +8.8105621641E-001 +1.0753991106E+002  +2.9923660292E-001 +7.1792348091E+001  +3.1206450643E-001 +5.0638515139E+001  +1.7899459398E+000 +4.3679116394E+001 
6266259.074 +6.4594078151E-001 +9.3372060189E+001  +2.3130126153E-001 +4.0380737844E+001  +2.4966201095E-001 +2.2277401311E+001  +1.5239004110E+000 +3.1552227409E+001 
6391404.255 +1.0067615810E+000 +9.0869854021E+001  +2.8368859251E-001 +4.3597921716E+001  +2.5782792075E-001 +3.2173207695E+001  +1.3383073060E+000 +1.4188834126E+001 
6516549.437 +1.0513337154E+000 +7.6359083287E+001  +2.6728655739E-001 +3.5993648353E+001  +2.4610386562E-001 +1.4290451562E+001  +1.1017663108E+000 +1.3757142305E+001 
6641694.618 +1.4484040313E+000 +8.0044814634E+001  +2.6366475208E-001 +4.5718769181E+001  +2.9746481588E-001 +3.3049682154E+001  +1.2511773148E+000 +1.9051657714E+001 
6766839.800 +1.2171762436E+000 +2.6041375496E+001  +2.9100199609E-001 +1.5173109692E+000  +3.0133498406E-001 -1.0610143178E+001  +1.2201234384E+000 -7.0656028226E-001 
6891984.981 +1.7213613139E+000 +3.6046384864E+001  +2.9461016227E-001 +1.5917767206E+001  +2.8456744726E-001 +8.2391762452E+000  +1.1863068449E+000 +6.2345360918E+000 
7017130.163 +1.6354505609E+000 +2.7601100423E+001  +2.3330840273E-001 +6.7789635599E+000  +2.5634199806E-001 +4.1187088535E+000  +1.3438002785E+000 -1.2641765174E+000 
7142275.344 +1.1526522942E+000 +7.0825100300E+000  +1.9472272985E-001 +2.5477889803E-001  +1.8537966094E-001 -8.0937410058E+000  +1.1772903315E+000 -8.0086753756E+000 
7267420.526 +1.4020224310E+000 +6.1788973261E+000  +1.7541263312E-001 +2.3797781550E-001  +1.8358871282E-001 +3.6813954218E+000  +1.3181499556E+000 -1.2982729131E+001 
7392565.707 +1.1552874056E+000 +7.9660957771E+000  +1.3627827843E-001 +2.1932117303E+000  +1.3557190903E-001 +5.0830484417E+000  +1.1127583856E+000 -1.3410868077E+001 
7517710.889 +1.1104232303E+000 -5.6829575046E-001  +1.3355079932E-001 +4.2365535940E+000  +1.2772982364E-001 +5.7723396022E+000  +1.0785258283E+000 +7.8037202801E-002 
7642856.070 +1.0033036078E+000 -4.6828820338E+000  +1.3189848401E-001 -1.2326681934E+000  +1.3011777086E-001 +4.6085643305E+000  +8.6527177587E-001 -1.0779088100E+001 
7768001.252 +8.6745761194E-001 -5.7991429048E+000  +1.1711065194E-001 +1.4826559787E-001  +1.1765005609E-001 +8.3273994392E+000  +8.3731585652E-001 +2.4552918669E-001 
7893146.433 +7.4230071685E-001 -1.4426410324E+000  +1.1469841283E-001 -9.0571285010E-001  +1.1015085438E-001 +3.2508579059E+000  +7.8570962498E-001 +1.0786933224E+000 
8018291.615 +7.5558155935E-001 +7.8508404473E+000  +1.0242239190E-001 +9.4597815820E-002  +1.1247752226E-001 +5.0190299365E+000  +7.1559288069E-001 -7.1167841946E+000 
8143436.796 +7.0858748518E-001 +7.3022910690E+000  +1.1044931679E-001 -3.6834897930E+000  +1.0641980824E-001 +5.6049636131E+000  +6.2178645954E-001 +1.0619412100E+000 
8268581.977 +6.2929868602E-001 +8.9681661124E+000  +1.0134629587E-001 -1.1110184708E-001  +1.0405419811E-001 +9.4702723336E+000  +6.7421336250E-001 +8.3311353568E+000 
8393727.159 +6.7340491177E-001 +9.8803036876E+000  +1.0056499715E-001 -2.6331570234E+000  +9.4738077947E-002 +6.4678512664E+000  +6.2732935246E-001 +1.3616581976E+000 
8518872.340 +5.7681440005E-001 +9.1600701544E+000  +1.0305696051E-001 +1.7577836674E-001  +1.0487672315E-001 +8.6116362182E+000  +6.2978991747E-001 +7.6562025204E+000 
8644017.522 +5.6426057276E-001 +1.4833294288E+001  +9.5589910918E-002 -6.6903610301E-001  +9.8171045119E-002 +1.0784701737E+001  +6.0253405950E-001 +2.2878686095E+000 
8769162.703 +5.5529191170E-001 +8.3346905422E+000  +9.8682103122E-002 -1.3235381503E+000  +9.6251194819E-002 +9.3428725464E+000  +5.6387057948E-001 -1.5249734817E-001 
8894307.885 +5.5810599121E-001 +8.9124657039E+000  +9.8297520755E-002 -6.7709242452E+000  +9.6995106464E-002 +9.9558822545E+000  +4.8318232116E-001 +2.4732213629E+000 
9019453.066 +4.4557577091E-001 +4.7827721213E+000  +9.4322550733E-002 -5.8934097648E+000  +9.8322783400E-002 +1.1409770312E+001  +5.1528649692E-001 -8.3173141521E-001 
9144598.248 +4.8294435951E-001 +5.4234550856E+000  +9.6705423559E-002 -3.4175162438E+000  +9.6650376547E-002 +1.0900954642E+001  +5.4631853772E-001 +3.5236988418E+000 
9269743.429 +4.9454686807E-001 +8.0787866848E+000  +9.7861099925E-002 -3.5277315661E+000  +9.9400490195E-002 +9.9524653884E+000  +5.4176004017E-001 -3.6484357248E+000 
9394888.611 +4.3486716034E-001 +9.0000318046E+000  +1.0014221130E-001 -3.0273122073E+000  +9.3590852842E-002 +9.8236124808E+000  +5.1185957291E-001 -4.4721902169E+000 
9520033.792 +4.6117476849E-001 +2.9141017532E+000  +9.6677377198E-002 -2.8187900489E+000  +9.6777175994E-002 +1.1706248841E+001  +5.5844703652E-001 -2.6808228055E-001 
9645178.974 +4.4854490850E-001 +7.9452588822E+000  +9.4621621932E-002 -5.2714101309E+000  +9.4345467488E-002 +1.1906605925E+001  +4.6155289372E-001 -8.4172132322E-001 
9770324.155 +4.2899608062E-001 +3.6537428841E+000  +1.0046539425E-001 -4.1781130669E+000  +9.7689550549E-002 +1.1263442025E+001  +4.8195136019E-001 -6.3794151113E+000 
9895469.337 +4.6678621124E-001 +7.7658274986E+000  +9.5181996096E-002 -4.2350905930E+000  +9.8507250437E-002 +1.2313464704E+001  +4.5663760979E-001 -6.0548040441E+000 
10020614.518 +4.3230909279E-001 +6.4348509604E+000  +9.6010550399E-002 -4.8734990461E+000  +9.7246869054E-002 +1.2931550759E+001  +4.3350546137E-001 -4.3116674482E+000 
10145759.700 +4.8449814218E-001 +5.0156227417E+000  +9.9035364622E-002 -6.6624006467E-001  +1.0170227857E-001 +1.3573259877E+001  +4.6798485954E-001 -3.6741366680E+000 
10270904.881 +4.1967743743E-001 +8.8458821624E+000  +9.8293581386E-002 -2.2004544828E+000  +9.8802239282E-002 +1.1692061193E+001  +5.1840914489E-001 -2.7046011544E+000 
10396050.063 +4.6245081175E-001 +6.6680678231E+000  +1.0007423773E-001 -8.1199279117E-001  +9.6723317142E-002 +1.2630345771E+001  +4.9351621506E-001 +8.8205697381E-001 
10521195.244 +4.2749578897E-001 +1.0562119900E+001  +9.9303342163E-002 -2.1696581996E+000  +9.9143843449E-002 +1.2313293380E+001  +4.7865542652E-001 +2.6708555750E+000 
10646340.426 +5.0228252517E-001 +8.5810661399E+000  +1.0109208301E-001 -1.4753034022E+000  +9.9218928472E-002 +1.4030861079E+001  +4.6765689918E-001 +3.3014885343E+000 
10771485.607 +4.9292081050E-001 +5.4183057327E+000  +1.0227001710E-001 -2.3808761821E+000  +1.0193046603E-001 +1.4233341876E+001  +4.8056473455E-001 -5.6605608440E+000 
10896630.788 +4.9275116235E-001 +7.7158826031E+000  +1.0227840914E-001 -1.4667216282E+000  +1.0293756033E-001 +1.3574127723E+001  +5.2299045663E-001 +3.4108321897E+000 
11021775.970 +4.9876661750E-001 +9.1815292185E+000  +1.0186319249E-001 -1.6142718813E-001  +1.0398359399E-001 +1.2957940838E+001  +5.4306545129E-001 +2.9479895939E+000 
11146921.151 +5.0122603326E-001 +1.2298355536E+001  +1.0208732526E-001 +7.8482101718E-002  +1.0152266601E-001 +1.3338367713E+001  +5.2776260411E-001 +1.3627105785E+000 
11272066.333 +5.1211595021E-001 +7.4511113124E+000  +1.0435461700E-001 -1.8320376712E-001  +1.0420197951E-001 +1.2010393163E+001  +5.3426103961E-001 +7.4211809366E-001 
11397211.514 +4.8992258755E-001 +8.0804925358E+000  +1.0622541912E-001 -7.4133802378E-001  +1.0135910460E-001 +1.2129573598E+001  +4.8572344938E-001 +3.4226195263E+000 
11522356.696 +5.0712777988E-001 +1.2253781948E+001  +1.0691951553E-001 +3.1758697865E-001  +1.0288195346E-001 +1.3560721493E+001  +5.5334833080E-001 +6.1977193637E+000 
11647501.877 +5.2330536825E-001 +5.3722592918E+000  +1.0721980518E-001 +1.6483073127E+000  +1.0697718097E-001 +1.2649631058E+001  +5.4157105983E-001 -2.1673389218E-002 
11772647.059 +5.3669889698E-001 +6.5009721391E+000  +1.0732327609E-001 +1.7332219714E+000  +1.0821384853E-001 +1.1490635985E+001  +5.6436783481E-001 +2.8504521230E+000 
11897792.240 +5.5765000317E-001 +7.0983939243E+000  +1.1049324698E-001 +2.8739859201E-001  +1.0804113438E-001 +1.2172834562E+001  +5.6254821316E-001 +5.1176221417E+000 
12022937.422 +5.6907687437E-001 +5.2452810472E+000  +1.0991599193E-001 +9.8402886620E-001  +1.0834566693E-001 +1.1307786668E+001  +5.8225973555E-001 +4.7452368144E+000 
12148082.603 +5.7644092206E-001 +6.6194240177E+000  +1.1109333667E-001 +2.5306073640E+000  +1.1059750159E-001 +1.0666753281E+001  +6.0359188679E-001 +1.9480322872E+000 
12273227.785 +5.9745488986E-001 +5.3938930981E+000  +1.1216131326E-001 +2.0779952782E+000  +1.1395994997E-001 +1.1012776017E+001  +6.0383313428E-001 +1.2708917247E-001 
12398372.966 +6.1598026694E-001 +4.3892085397E+000  +1.1265847827E-001 +2.2797649730E+000  +1.1543171618E-001 +1.0095585708E+001  +6.1820416219E-001 +2.5130024645E-001 
12523518.148 +6.2175363485E-001 +3.9432927212E+000  +1.1585412305E-001 +2.7292594425E+000  +1.1307149377E-001 +9.2729718336E+000  +5.9985393568E-001 +7.3366420353E-001 
12648663.329 +6.5682702520E-001 +2.5576870542E+000  +1.1723080888E-001 +2.3679623603E+000  +1.1555434724E-001 +9.1839642147E+000  +6.1824380739E-001 -9.3865554247E-001 
12773808.511 +6.5747691335E-001 +2.2519800798E+000  +1.1789132554E-001 +2.6311900537E+000  +1.1883667500E-001 +9.3589062737E+000  +6.7626941244E-001 +8.5660899536E-001 
12898953.692 +6.4238318697E-001 +2.1445480415E+000  +1.1895668654E-001 +1.8180624792E+000  +1.1768380577E-001 +7.3953214711E+000  +6.3876534972E-001 -1.6464259141E-001 
13024098.874 +6.8878312739E-001 +2.7200138924E+000  +1.2194468756E-001 +3.3021392135E+000  +1.1687442147E-001 +8.3303417405E+000  +6.7495632608E-001 -2.4529546884E+000 
13149244.055 +6.8879703669E-001 +1.3279421789E+000  +1.2149618266E-001 +2.0755755711E+000  +1.2118419978E-001 +6.7641296237E+000  +6.9329255639E-001 -4.0247453292E-001 
13274389.237 +7.1614055575E-001 -1.3602501084E+000  +1.2246263664E-001 +3.1403217596E+000  +1.2147594844E-001 +7.3206295567E+000  +7.2711226849E-001 -2.2696133885E+000 
13399534.418 +7.2266819012E-001 -1.5529717386E+000  +1.2322531253E-001 +2.3577640555E+000  +1.2164293820E-001 +5.8959564714E+000  +7.1675735306E-001 -1.0378953842E+000 
13524679.599 +7.4075999817E-001 -1.9960010594E+000  +1.2477871785E-001 +2.7770595003E+000  +1.2494644001E-001 +6.1174805661E+000  +7.3703738567E-001 -3.2786209046E+000 
13649824.781 +7.4839598389E-001 -2.4837891815E+000  +1.2764160019E-001 +2.6429677974E+000  +1.2502869971E-001 +4.9152129333E+000  +7.6446108878E-001 -3.6189858473E+000 
13774969.962 +7.5216785423E-001 -9.8468469123E-001  +1.2639789748E-001 +3.3519152800E+000  +1.2389652188E-001 +5.4956683426E+000  +7.8337900211E-001 -2.2190302539E+000 
13900115.144 +7.7901989551E-001 -2.5531551838E+000  +1.2826855946E-001 +2.4305892905E+000  +1.2497411300E-001 +3.5709617677E+000  +7.9638914924E-001 -3.3114871691E+000 
14025260.325 +8.0193070078E-001 -3.9319574463E+000  +1.2726199679E-001 +3.1731498035E+000  +1.2722704080E-001 +4.0926183209E+000  +8.0522385644E-001 -4.3346689105E+000 
14150405.507 +8.1792397078E-001 -3.1611338846E+000  +1.2925937424E-001 +1.6543673480E+000  +1.2632352556E-001 +3.3416722528E+000  +8.4310451882E-001 -4.2740709834E+000 
14275550.688 +8.3181942698E-001 -6.1967035920E+000  +1.2896974683E-001 +1.8730156424E+000  +1.2878919215E-001 +2.5163992310E+000  +8.4547725421E-001 -3.4240869419E+000 
14400695.870 +8.7092921550E-001 -4.7552291432E+000  +1.2815574162E-001 +2.6261182597E+000  +1.2525383948E-001 +3.0555217911E+000  +8.7606478434E-001 -2.8201813671E+000 
