!  2-Port S-parameters saved by WinCal
! VAR NAME=S2_r9c9_formed(0)_9k-100M_1
! VAR DATE=30/08/2024 12:17:38
! VAR FILENAME=S2_r9c9_formed(0)_9k-100M_1.S2P
! VAR MeasName=S-Parameters (CALIBRATED_DATA) read from VNA (P5004A)
! VAR MeasDate=28/08/2024 17:03:58
! VAR PHYS_PORTS=1,2
! VAR ObjTypeName=DATASET
! VAR IndexType=Frequency
!
# Hz S MA R 50
9000.000 +1.0502617666E-001 -1.6436538686E+002  +4.4364398219E-003 -3.2218794719E+001  +5.4082453607E-003 -4.2865644779E+001  +2.2205671867E-001 -1.4972577421E+002 
134145.181 +1.1161304030E-001 +1.6996921091E+002  +1.7141436632E-004 +1.7463829491E+002  +2.0939159287E-004 +6.1358574069E+001  +2.3953273310E-001 -1.7164246792E+002 
259290.363 +1.1290509389E-001 +1.6960380289E+002  +4.2755578591E-004 -4.7667869522E+001  +7.4025247721E-004 +1.4812098690E+002  +2.4262185405E-001 -1.6862741837E+002 
384435.544 +1.1288778367E-001 +1.7053747513E+002  +3.5623503790E-004 -5.8681786020E+001  +2.9621459035E-004 -1.1574473632E+002  +2.4149703465E-001 -1.6991682664E+002 
509580.726 +1.1425642116E-001 +1.7015580396E+002  +5.4926693860E-004 -1.5449178799E+002  +5.6819794665E-004 +7.3015658546E+001  +2.6770553051E-001 -1.6749893924E+002 
634725.907 +1.1619500236E-001 +1.7161566614E+002  +1.3781834660E-003 +5.2621821853E+001  +1.7461102408E-003 +1.4576919860E+002  +2.4766822295E-001 -1.6468048920E+002 
759871.089 +1.1983938161E-001 +1.7079285342E+002  +3.4342741925E-004 -9.2160772433E+001  +3.0083898985E-004 +5.9012753116E+001  +2.5088550028E-001 -1.6496785584E+002 
885016.270 +1.2035880682E-001 +1.6934871243E+002  +3.7817472052E-004 +6.1228950512E+000  +4.9473854563E-004 +8.4722863600E+001  +2.4030931603E-001 -1.6672399032E+002 
1010161.452 +1.1891359611E-001 +1.7063430237E+002  +8.1682376032E-004 -1.6101824824E+002  +9.8326173855E-004 -1.5951279646E+002  +1.9126692094E-001 -1.6740793321E+002 
1135306.633 +1.1694847672E-001 +1.6953578394E+002  +3.5620909719E-004 -9.6289966814E+001  +1.7853604210E-003 -1.1688449786E+002  +1.7050704711E-001 -1.6423969153E+002 
1260451.815 +1.1879131195E-001 +1.7097971261E+002  +2.8169074085E-004 -4.3975243529E+001  +5.8692446210E-003 -8.4041007284E-001  +2.4949183125E-001 -1.5087497858E+002 
1385596.996 +1.2693559501E-001 +1.7345863451E+002  +2.3177344451E-003 -9.6145984858E+001  +2.9247897974E-003 +5.8333319441E+000  +2.6472601764E-001 -1.5106601036E+002 
1510742.178 +1.2957694262E-001 +1.7184080147E+002  +6.7699353496E-004 +1.5133766926E+002  +1.3604480410E-003 +1.3893027376E+002  +2.5963868158E-001 -1.5620109699E+002 
1635887.359 +1.3008389319E-001 +1.7047317238E+002  +8.0653357736E-004 -7.1145913608E+000  +4.4137610258E-004 -1.3461702707E+002  +2.5763236484E-001 -1.5621381055E+002 
1761032.541 +1.3058221758E-001 +1.6994378330E+002  +1.2092757266E-003 +1.4333741254E+002  +9.2251003084E-004 +2.9646214746E+001  +2.2562503011E-001 -1.5967091428E+002 
1886177.722 +1.3012511728E-001 +1.6970175764E+002  +1.1834273907E-003 -1.3880964595E+002  +1.7474546219E-003 +1.0730301539E+002  +2.1328754210E-001 -1.5888217061E+002 
2011322.904 +1.2310423433E-001 +1.6599958809E+002  +1.8707963735E-003 -2.7185040071E+001  +2.2855536625E-003 +1.6952231303E+002  +1.8919557864E-001 -1.6490735184E+002 
2136468.085 +1.3386040318E-001 +1.6697919782E+002  +7.2531037943E-003 -1.3888067353E+002  +4.9912235670E-004 +1.3702836858E+002  +1.6366325392E-001 -1.6410142640E+002 
2261613.267 +1.3684871487E-001 +1.6712938636E+002  +2.6865807174E-003 +1.2455384098E+002  +1.4548499532E-003 -1.8094063303E+001  +1.8716885153E-001 -1.5835968650E+002 
2386758.448 +1.3276952942E-001 +1.6676610941E+002  +2.5749054887E-003 +6.8094718686E+001  +2.1198547067E-003 +2.4338064445E+001  +1.7440396308E-001 +1.7754265454E+002 
2511903.630 +1.3207111937E-001 +1.6301859154E+002  +1.7252717210E-003 +7.3052177838E+001  +9.8421453451E-004 -3.1088029028E+001  +2.3943350414E-001 +1.6998295493E+002 
2637048.811 +1.0325527219E-001 +1.7068196832E+002  +4.1136195428E-002 -3.6286827043E+001  +2.7127495546E-003 -9.2536740812E+001  +5.8393801916E-001 +6.8851497703E+001 
2762193.992 +1.3235268260E-001 +1.7342277907E+002  +9.7099800627E-004 +7.8477860898E+001  +1.6380089701E-002 -1.3668327254E+002  +2.9367427257E-001 -7.9509319428E+001 
2887339.174 +1.1871913712E-001 +1.7324552969E+002  +2.6540913009E-003 +2.4491364851E+001  +2.4923203607E-003 +2.1768293411E+001  +8.7076717077E-002 -1.4585352415E+002 
3012484.355 +1.2862009384E-001 +1.6831155829E+002  +1.1712235563E-002 +1.6912968855E+002  +1.0091780335E-002 -1.1264831566E+002  +3.0914747883E-001 -9.5430266586E+001 
3137629.537 +1.1990159117E-001 +1.7788556829E+002  +2.5748997728E-003 -4.9487050842E+001  +9.2353494059E-003 +8.7238933508E+001  +2.6515210563E-001 -9.5070323672E+001 
3262774.718 +1.2257688332E-001 +1.5878837345E+002  +4.9445410222E-003 +5.6840069172E+001  +1.4250743200E-003 +7.6418274426E+001  +2.1208420404E-001 -1.0071979136E+002 
3387919.900 +1.2734408816E-001 +1.6242108946E+002  +1.0651042889E-002 -3.7986941680E+001  +3.6282464008E-003 -1.6496524925E+002  +3.7804651758E-001 +1.1027343554E+002 
3513065.081 +1.5486598755E-001 +1.4734956702E+002  +2.0841831141E-003 -1.7801762878E+002  +5.2641150881E-003 +5.6760952136E+001  +1.7448177785E-001 +1.3789176525E+002 
3638210.263 +1.5605634951E-001 +1.5454697130E+002  +4.0902245275E-003 +1.6885337908E+002  +1.1123669158E-002 -2.5165445913E+001  +9.0251165592E-001 +1.5871007935E+002 
3763355.444 +1.8026523015E-001 +1.4245240716E+002  +5.3889971878E-003 +1.4485394956E+002  +1.1784076063E-002 +8.0229983759E+001  +5.2089467042E-001 +9.6014243125E+001 
3888500.626 +1.6638440504E-001 +1.5385274638E+002  +5.5217750863E-003 +5.4468010462E+001  +5.6315660104E-003 +9.0599010615E+001  +4.1165549280E-001 +1.2194663791E+002 
4013645.807 +1.5932600901E-001 +1.4534612994E+002  +7.0158408130E-003 +1.0626133584E+002  +1.6711534689E-002 +1.0154305406E+002  +3.0097703286E-001 +8.6677878915E+001 
4138790.989 +1.8107613984E-001 +1.4277602261E+002  +1.3054952019E-002 +1.3857713684E+002  +1.3137064941E-002 -1.5233103959E+002  +3.6366290042E-001 +9.7737774318E+001 
4263936.170 +2.0883677555E-001 +1.4352243854E+002  +7.1632311456E-003 -4.6911180584E+001  +1.2669146632E-002 -1.4042182246E+002  +6.7571454510E-001 +1.2956341215E+002 
4389081.352 +1.9651154285E-001 +1.3966127363E+002  +8.8044145743E-003 +7.3658208883E+001  +1.2136442117E-002 +1.3321436637E+001  +5.3708207866E-001 +1.2322593209E+002 
4514226.533 +2.9210167031E-001 +1.3543411215E+002  +3.4434879008E-002 -1.3470352763E+001  +4.5806483233E-002 -1.7638853788E+002  +1.2408965758E+000 +7.7377084245E+001 
4639371.715 +2.6598450730E-001 +1.2730017218E+002  +4.7368539688E-002 -1.3294546115E+002  +7.4821107360E-002 -5.0705564790E+001  +4.9399066392E+000 -1.3576367484E+002 
4764516.896 +2.5087599526E-001 +1.2632040796E+002  +4.0319506229E-002 +9.5664152761E+001  +9.5309661128E-003 +4.5180005990E+001  +2.9634278947E+000 +1.3828775490E+002 
4889662.078 +3.7422655241E-001 +1.2579930928E+002  +1.0045692758E-001 -1.2500908244E+001  +1.0906238446E-001 +1.1375712231E+002  +7.5927231170E+000 -1.5503141470E+002 
5014807.259 +3.8481606970E-001 +1.1503620024E+002  +4.4821309483E-002 +1.2572918393E+002  +6.2688173348E-002 -8.0702255417E+001  +3.9075246804E+000 -1.6060827552E+002 
5139952.441 +4.3129567262E-001 +1.2871566446E+002  +5.2616995008E-002 -1.4674096756E+002  +2.9389224743E-002 +1.2206968706E+002  +1.4955736638E+000 +2.3463840895E-001 
5265097.622 +4.5188012742E-001 +1.3309568430E+002  +4.2145426456E-002 -3.7759706661E+001  +3.3588077704E-002 -8.6392873852E+001  +3.6057702385E+000 -1.1604875146E+001 
5390242.804 +4.2642637122E-001 +1.3414742369E+002  +1.0647167668E-002 +8.9402689819E+001  +2.4766852344E-002 +7.9043907549E+001  +1.7017529269E+000 +1.2686711862E+002 
5515387.985 +4.2716504648E-001 +1.2540085804E+002  +1.0215971002E-002 +1.1010639754E+002  +1.7700936277E-002 -2.0595339157E+001  +2.1597668794E+000 +8.7513234908E+001 
5640533.166 +4.3486217529E-001 +1.2621310479E+002  +7.9204209417E-003 -6.8595037483E+001  +5.9936110671E-003 +1.5267084010E+002  +2.1880659838E+000 +9.6901872485E+001 
5765678.348 +5.9588570563E-001 +1.2925297146E+002  +1.0480354631E-002 +1.7367709504E+002  +2.8492079586E-002 -1.4225132506E+002  +1.7119997313E+000 +7.8115607410E+001 
5890823.529 +6.1942309731E-001 +1.0749300619E+002  +6.0863292851E-003 +4.7477087793E+000  +5.5466749630E-003 -1.3264307054E+002  +1.7661940038E+000 +6.8474119500E+001 
6015968.711 +5.4523285716E-001 +1.0234845048E+002  +1.5871396072E-002 +1.6068103924E+002  +4.3546303423E-002 -2.3236027886E+001  +2.5387439975E+000 +3.7295450992E+001 
6141113.892 +7.9957608784E-001 +1.1061143344E+002  +3.1130666414E-002 +1.4408405487E+002  +7.2791893407E-003 +1.2212764899E+002  +1.3565406041E+000 +4.9095332336E+001 
6266259.074 +9.9313346760E-001 +1.0839814854E+002  +2.0358482538E-002 -1.4825766855E+002  +4.8749118300E-002 +1.3720735332E+002  +1.6985721129E+000 +1.4375708202E+001 
6391404.255 +1.1034787771E+000 +9.6498130272E+001  +1.5657679198E-002 +6.5731639174E+001  +2.0126794768E-002 -1.4839742396E+001  +1.8745882633E+000 -1.0931730561E+000 
6516549.437 +1.4076616292E+000 +8.9117518654E+001  +1.6753211610E-002 -1.4329838734E+002  +1.6839137270E-002 -1.1839258629E+001  +1.4511193589E+000 +2.0228945630E+001 
6641694.618 +1.2246880399E+000 +8.2099004142E+001  +1.3221489672E-002 +2.3143053904E+001  +2.0267105765E-002 -5.7680626516E+001  +1.7651220976E+000 +3.4051262093E+000 
6766839.800 +1.9915344623E+000 +5.8036807205E+001  +2.5080954714E-002 +8.9977573550E+001  +2.5837922837E-002 +2.6821973166E+001  +1.2876168363E+000 +1.4441572811E+000 
6891984.981 +2.0466845591E+000 +3.6305063266E+001  +1.7464304223E-002 -1.5028591906E+002  +2.0821780070E-002 +8.3263704231E+001  +1.3445383048E+000 -3.5848096117E+000 
7017130.163 +1.7542632167E+000 +3.2026136647E+001  +2.0709357382E-002 +9.7375812637E+001  +1.2559877093E-002 +2.1692812442E+001  +1.4022471536E+000 -1.5346707684E+001 
7142275.344 +1.6324798933E+000 +4.3021451947E+000  +8.7270492424E-003 +1.1782140157E+002  +6.9639981136E-003 +1.3667802768E+002  +1.2966292971E+000 -8.2980217583E+000 
7267420.526 +1.2801326193E+000 +1.5064890997E+000  +6.0192895890E-003 +1.3431472552E+002  +7.1953266200E-003 -1.5693232185E+002  +1.3961819934E+000 -2.7043196879E+000 
7392565.707 +1.3318966230E+000 -6.1236918061E+000  +7.9050962520E-003 +1.1255324503E+002  +6.1792335855E-003 +1.5314355420E+002  +1.3554607361E+000 -9.2950918276E+000 
7517710.889 +1.0463520890E+000 +1.1284995209E+001  +4.8611745860E-003 +2.1035755633E+001  +4.1082387132E-003 +9.6122186008E+001  +1.1840418635E+000 -5.7363981894E+000 
7642856.070 +1.0086644225E+000 +2.0812128282E+000  +1.4464242654E-003 -4.0867273108E+001  +1.0929774554E-002 +6.6189688768E+001  +1.1702739738E+000 -3.6378249220E+000 
7768001.252 +9.9827750226E-001 +7.6486385975E+000  +5.9109512582E-003 +9.9876603239E+001  +5.0795440001E-003 -1.3199928478E+002  +1.0219454838E+000 -5.3738597151E-001 
7893146.433 +9.3223344369E-001 +1.0595695520E+001  +6.5093030644E-003 +1.4028848036E+002  +9.8106285052E-004 -1.3242751252E+002  +8.9652683270E-001 -3.9582618302E+000 
8018291.615 +8.2811357342E-001 +1.1889676836E+000  +3.7133838669E-003 -4.6786014801E+001  +6.8828789189E-003 +2.9127586614E+001  +8.6755289651E-001 +1.3631811087E+000 
8143436.796 +7.1235985177E-001 +1.2092389651E+001  +5.7074262102E-003 -4.3814172169E+001  +3.9007709426E-003 -9.6576124863E+001  +8.0358382216E-001 +4.2181563421E-001 
8268581.977 +7.0413155794E-001 +6.4454117095E+000  +2.6013563798E-003 -2.8064601762E+001  +4.9959519605E-003 +8.3048772835E+001  +7.7324716868E-001 +6.7967580232E-001 
8393727.159 +6.8809606815E-001 +1.2518159515E+001  +1.9202353753E-003 +9.8874366032E+001  +2.2513413432E-003 +1.3709193371E+002  +6.6990631717E-001 -3.4653138384E+000 
8518872.340 +7.5299032125E-001 +4.9713273481E+000  +7.8809346444E-004 -1.4867564615E+002  +5.0615727942E-003 +6.0568889863E+001  +7.3222219808E-001 -2.9974404819E+000 
8644017.522 +6.2066564012E-001 +2.6737936670E+000  +1.9651611753E-003 +1.4083490618E+002  +2.4253485494E-003 +1.2321699641E+002  +6.6140786202E-001 -2.8222951410E+000 
8769162.703 +6.9691423603E-001 +5.2077748239E+000  +4.3450696662E-003 +1.6734948327E+001  +1.9435767038E-003 -1.2330251512E+001  +6.5171080598E-001 -1.4811016338E+000 
8894307.885 +6.3469797508E-001 +9.9584525843E+000  +2.6282431471E-003 +9.8728872567E+001  +3.0743289776E-003 +4.5407068287E+001  +6.5541447902E-001 -3.8914521012E+000 
9019453.066 +6.0361500762E-001 +5.9178557861E+000  +2.9130546795E-003 +4.9700683819E+001  +2.0224244778E-003 +1.7699247363E+002  +6.4262984223E-001 +1.9062509746E-001 
9144598.248 +5.8499922507E-001 +5.9998119817E+000  +4.8049338186E-003 +1.7784338319E+001  +2.9729249173E-003 -4.8906184349E+001  +6.1608751279E-001 +4.8124809706E+000 
9269743.429 +5.6009312839E-001 -2.5131607181E-001  +2.3980770423E-003 +1.7280312736E+002  +3.1685634641E-003 -5.5464556277E+001  +6.0291703457E-001 +2.0829023909E+000 
9394888.611 +5.5454871666E-001 +2.1080720172E+000  +9.6495822594E-004 -1.5018910559E+002  +3.1402473703E-003 -1.1941755339E+002  +6.3854960133E-001 -2.8507387840E+000 
9520033.792 +5.2640189983E-001 +8.0649187330E+000  +3.2873361839E-003 +8.8820152849E+001  +1.5053954399E-004 -1.1408582694E+002  +5.7031681487E-001 -9.2924931917E-001 
9645178.974 +5.6441911821E-001 +8.3859509404E+000  +2.9668484101E-003 +2.1294221157E+001  +2.6841702812E-003 -1.6795852850E+002  +5.9347944249E-001 -4.6479890285E+000 
9770324.155 +5.7648649471E-001 +2.4914858280E-001  +2.3654905813E-003 +5.5048021015E+001  +3.8568979419E-003 +1.0615082680E+002  +5.9510327979E-001 -7.3757717064E-001 
9895469.337 +5.3031178934E-001 -8.0834073941E-001  +3.5702081754E-003 -1.4811311683E+001  +7.7589550868E-004 -1.3243756215E+002  +6.0345794515E-001 -6.2194436173E+000 
10020614.518 +5.4898463234E-001 +2.4561853198E+000  +2.3533331425E-003 +3.9542868024E+001  +1.4359298685E-003 -2.9482074928E+001  +5.6900756867E-001 -5.9285445118E+000 
10145759.700 +5.7542093518E-001 -1.2586593492E+000  +5.2417014374E-003 +1.0573021755E+002  +4.0834786427E-003 +2.8576480159E+001  +5.8698483916E-001 -7.5543478523E+000 
10270904.881 +5.4606896248E-001 +3.6784066963E+000  +8.9672032764E-004 -1.5577173509E+002  +1.8294695058E-003 +1.7346873901E+002  +5.7083945538E-001 -3.1120784571E+000 
10396050.063 +5.7439433438E-001 +6.5851318233E+000  +2.3895706010E-003 -1.7994585356E+002  +3.5012149170E-004 -5.8888439660E+001  +5.8955096162E-001 +3.8717284228E-001 
10521195.244 +5.4068467816E-001 +3.4621399961E+000  +6.1502778762E-004 -9.8633000646E+001  +9.5790179652E-004 -2.4636415169E+001  +6.1153054522E-001 +1.7579899831E+000 
10646340.426 +5.5287738060E-001 +8.4704119410E+000  +1.8285203527E-003 +1.5641432318E+002  +2.5230860383E-003 +1.4975949262E+002  +6.1390703170E-001 +1.1535485513E-001 
10771485.607 +5.7047503693E-001 +6.8754182241E+000  +1.5171569249E-003 +1.4966285987E+002  +1.1726780299E-003 -1.0174396119E+002  +5.9389914906E-001 +2.3710167607E+000 
10896630.788 +5.7227896475E-001 +7.1034193301E+000  +1.4059646939E-003 +2.1640986170E+001  +1.9367247523E-003 +2.8565737380E+001  +6.2904161958E-001 +1.4876464580E+000 
11021775.970 +5.8935957200E-001 +9.4147791187E+000  +2.7188575137E-003 -5.4961631359E+001  +2.3145697210E-003 +1.2467172766E+001  +6.1254185392E-001 +9.4743997759E-001 
11146921.151 +6.2175780184E-001 +6.9816383705E+000  +1.0270651144E-003 +1.4321617118E+002  +1.7716445802E-003 +5.5621231289E+001  +6.0825499004E-001 +1.9572067423E+000 
11272066.333 +6.1058826762E-001 +7.9125021317E+000  +1.4724200691E-003 -1.5028196089E+002  +5.0046266720E-004 -7.1523000598E+001  +5.9462842286E-001 +4.2081595700E+000 
11397211.514 +6.0878410932E-001 +9.2335222280E+000  +2.0444442793E-003 -4.2795854294E+001  +7.6096132630E-004 -1.6943978637E+002  +6.1559015054E-001 +3.0426185532E+000 
11522356.696 +6.2981460882E-001 +4.5534261560E+000  +1.4708608653E-003 -1.2248119414E+002  +1.1542199615E-003 -7.1167948515E+000  +6.3697542287E-001 +1.8450155628E+000 
11647501.877 +6.2750644028E-001 +8.4911650885E+000  +2.2446981978E-003 +1.3089932607E+002  +2.5562519587E-003 -1.4844178693E+002  +6.3455209791E-001 -1.6019239884E-001 
11772647.059 +6.5809656566E-001 +6.0550691636E+000  +8.9623254565E-004 +2.7060020723E+001  +2.6021121087E-003 -2.3634006478E+001  +6.6254396943E-001 +2.5687354610E+000 
11897792.240 +6.6042976720E-001 +6.5904531995E+000  +1.1464822230E-003 +2.4964307264E+001  +7.8054150361E-004 -1.1082946219E+002  +6.7301355235E-001 +3.0620334495E+000 
12022937.422 +6.6844916841E-001 +6.6411899084E+000  +1.1322985055E-003 +7.3752290551E+001  +2.8672798851E-003 -2.2780193667E-001  +6.6864098754E-001 +3.2120059889E-001 
12148082.603 +6.5262157225E-001 +3.2714548037E+000  +2.9089019570E-004 -1.5876956217E+002  +1.2594380821E-003 -5.0471930306E-001  +6.7892217361E-001 +1.5009105767E+000 
12273227.785 +7.1277609964E-001 +5.9758976981E+000  +1.9022546940E-003 +6.8007247308E+001  +2.0498810556E-003 -1.6519384878E+002  +6.9441459934E-001 +8.7952608723E-002 
12398372.966 +6.9986979021E-001 +5.6220792035E+000  +2.1973988671E-003 +2.1764710343E+001  +2.3151931771E-003 +1.9183549203E+001  +7.3152326165E-001 +1.0078719981E+000 
12523518.148 +7.2622545971E-001 +5.7381418633E+000  +2.0160106431E-003 +5.1953173498E+001  +1.8620089018E-004 -1.5967152560E+002  +7.2778938065E-001 -6.2680036668E-001 
12648663.329 +7.4986351072E-001 +2.9027718338E+000  +1.4640087557E-003 -2.4972318398E+001  +1.1768860292E-003 -4.8060253181E+000  +7.5355133796E-001 -2.0706979200E-001 
12773808.511 +7.5671622020E-001 +1.4482505469E+000  +2.0062957892E-003 -1.0362847280E+002  +1.4058576988E-003 -6.3574003874E+001  +7.6870036473E-001 +2.2113970268E-001 
12898953.692 +7.7647509070E-001 +2.1030273273E+000  +1.9272986362E-003 +4.4167695806E+000  +2.7883768821E-003 -4.6401552817E+001  +7.7166709701E-001 -1.2468856904E+000 
13024098.874 +8.0506386202E-001 +9.0135337585E-001  +7.7113947484E-004 -4.4303382338E+001  +3.0018928603E-003 +4.6976166807E+001  +8.0842382510E-001 -9.9621858555E-001 
13149244.055 +7.9878047583E-001 -4.4466167295E-001  +1.4152577539E-003 +3.5463170624E+001  +1.2097092315E-003 +5.8023847525E+001  +8.1465450204E-001 -1.4791656120E-001 
13274389.237 +8.4011656211E-001 +7.2456626800E-001  +1.7914409929E-003 -1.1353966625E+002  +2.2931630875E-003 +1.6064719706E+001  +8.2182492042E-001 -1.0095346780E+000 
13399534.418 +8.3959882006E-001 -3.6431751678E-001  +1.2704933819E-003 +7.8432905820E+001  +1.8597543433E-003 -2.9849650315E+001  +8.4702853384E-001 -1.7598257462E+000 
13524679.599 +8.5247495560E-001 -1.6281984822E+000  +5.6476679555E-004 -1.8939921017E+000  +1.6820483662E-003 -1.3547008812E+001  +8.8061546802E-001 -2.2736313892E+000 
13649824.781 +8.6016173390E-001 -2.9048688661E+000  +1.6669985358E-003 -1.0775036815E+001  +2.3491235472E-003 +1.7283149386E+001  +8.9018472012E-001 -2.2696651952E+000 
13774969.962 +8.9085131766E-001 -1.8026865187E+000  +6.3962511907E-004 -6.2409366730E+000  +6.9134627988E-004 -9.8094563142E+001  +8.9722082977E-001 -1.8576051544E+000 
13900115.144 +9.1197639680E-001 -3.5782320529E+000  +2.1434411115E-003 -7.8298144181E+001  +7.3800048066E-005 +1.2462843369E+002  +9.0308174951E-001 -4.3985823437E+000 
14025260.325 +9.0070719144E-001 -3.0566628986E+000  +1.4961703549E-003 -2.6502334720E-001  +1.2873970173E-003 +4.9111521875E+001  +9.2646102248E-001 -2.7975813209E+000 
14150405.507 +9.4061743194E-001 -2.9525625049E+000  +3.0664302511E-004 -1.0359834255E+002  +2.4355454107E-003 -1.0721764918E+001  +9.6523783410E-001 -4.8521885295E+000 
14275550.688 +9.6940945625E-001 -4.0611249648E+000  +2.1587889589E-003 +2.5105049801E+001  +1.1985596348E-003 +1.2370551932E+002  +9.5423409371E-001 -4.5806505051E+000 
14400695.870 +9.8279026933E-001 -5.3228377428E+000  +1.3346158421E-003 +8.0228637475E+001  +1.1707290967E-003 +1.4871919894E+001  +9.8276523205E-001 -4.7380822876E+000 
