!  2-Port S-parameters saved by WinCal
! VAR MeasName=S-Parameters (CALIBRATED_DATA) read from VNA (P5004A)
! VAR MeasDate=29/08/2024 12:02:11
! VAR NAME=S2_r9c4_SET3_9k-100M_3
! VAR FILENAME=S2_r9c4_SET3_9k-100M_3.S2P
! VAR DATE=29/08/2024 12:02:11
! VAR PHYS_PORTS=1,2
! VAR ObjTypeName=DATASET
! VAR IndexType=Frequency
!
# Hz S MA R 50
9000.000 +8.7956688520E-002 -1.7199490768E+002  +1.5821888325E-003 -2.7335584185E+001  +7.9837751658E-003 +1.5931265527E+002  +2.2504761672E-001 -1.4058969964E+002 
134145.181 +1.1091038247E-001 +1.6961676844E+002  +2.7830408746E-004 -4.8784332126E+001  +5.1614218576E-004 -3.0242494590E+001  +2.3914919915E-001 -1.7023631061E+002 
259290.363 +1.1227399673E-001 +1.6992290642E+002  +9.0276226620E-004 -8.0661935046E+001  +7.9261758879E-004 +9.7292100463E+001  +2.3962915388E-001 -1.6813949196E+002 
384435.544 +1.1468021526E-001 +1.7012527834E+002  +9.1026134704E-004 -5.5609522062E+001  +9.7977264849E-004 +6.8837896414E+001  +2.4209168083E-001 -1.6867839067E+002 
509580.726 +1.1467652178E-001 +1.7074311999E+002  +7.0706259635E-004 +2.7218947085E+001  +6.6131803938E-004 +1.7194534427E+002  +2.4164847956E-001 -1.6762435802E+002 
634725.907 +1.1697117250E-001 +1.7195931227E+002  +2.0326673420E-003 -1.2535805495E+002  +4.6663443306E-004 +3.6396428965E+001  +2.6212466374E-001 -1.6638751828E+002 
759871.089 +1.2096463668E-001 +1.7089031400E+002  +8.1597074181E-004 -1.4595597993E+002  +7.8684273331E-004 +1.5282760131E+002  +2.4437675874E-001 -1.6384304303E+002 
885016.270 +1.2153966791E-001 +1.6878690171E+002  +6.8978744912E-004 -1.2685427415E+002  +3.1544056324E-004 +5.8716347943E+001  +2.4877018154E-001 -1.6667165440E+002 
1010161.452 +1.1564107024E-001 +1.6761422078E+002  +1.0564685855E-003 +2.3007510994E+001  +2.4624619054E-003 +1.6319452584E+002  +2.0851417533E-001 -1.7007243572E+002 
1135306.633 +1.2031616591E-001 +1.6844293707E+002  +1.0743498293E-003 -3.4099272066E+001  +2.1912499952E-003 -1.6548431416E+002  +1.9496977501E-001 -1.7281285883E+002 
1260451.815 +1.1528371453E-001 +1.7091123135E+002  +1.1524404870E-003 -3.7478030791E+001  +2.3782654827E-003 +1.3698122318E+002  +2.2499656292E-001 -1.6054989169E+002 
1385596.996 +1.2693340482E-001 +1.7214078000E+002  +2.4405724315E-003 -9.3423727281E+001  +2.3737085491E-003 +5.6693658697E+001  +2.4105991818E-001 -1.5600389359E+002 
1510742.178 +1.2957629038E-001 +1.7234571657E+002  +1.0345801281E-003 -1.2487933671E+002  +9.1145844048E-004 -1.5690670923E+002  +2.3518513433E-001 -1.5697758480E+002 
1635887.359 +1.2792335509E-001 +1.7117342150E+002  +6.3992525079E-004 -6.0054747825E+001  +1.7583139051E-003 -1.1962712797E+002  +2.2480509091E-001 -1.5936478646E+002 
1761032.541 +1.3061357234E-001 +1.6958581485E+002  +1.8616697751E-003 +5.7883355596E+001  +2.0256233829E-003 +1.7481269472E+002  +2.1625149048E-001 -1.6172645377E+002 
1886177.722 +1.3257874513E-001 +1.6840708940E+002  +2.4446313749E-003 +7.8809715626E+001  +3.1533800186E-003 -3.4439673796E+001  +2.0021332726E-001 -1.6882798869E+002 
2011322.904 +1.3306179225E-001 +1.6838054013E+002  +3.6730668960E-003 +7.5238410697E+001  +6.2173722540E-003 -6.0059857918E+001  +2.0262587210E-001 -1.6571329064E+002 
2136468.085 +1.3596838085E-001 +1.6683457029E+002  +5.5266507295E-003 +6.2761083386E+001  +3.4733609754E-003 -6.0237468001E+001  +2.1683729888E-001 -1.5901420229E+002 
2261613.267 +1.2955232984E-001 +1.6642026254E+002  +1.2953082928E-002 +5.8808586307E+001  +1.1774121451E-002 -7.5443481042E+001  +1.6953505244E-001 -1.6296540130E+002 
2386758.448 +1.3386446952E-001 +1.6492180222E+002  +1.4111736479E-002 +8.5390011971E+001  +1.1150657243E-002 -4.2376148478E+001  +1.9679066895E-001 -1.7705434752E+002 
2511903.630 +1.3171931105E-001 +1.6284505962E+002  +1.1254805131E-002 +8.3538879908E+001  +8.4051072787E-003 -4.0014063891E+001  +2.3184274768E-001 -1.7352213116E+002 
2637048.811 +1.3384316522E-001 +1.6631942776E+002  +2.8259268458E-002 +8.5083730068E+001  +3.1634024490E-002 -5.5086569049E+001  +1.4123866502E-001 +1.4579841166E+002 
2762193.992 +1.2114808935E-001 +1.6521508100E+002  +5.3257858973E-002 +2.4275470748E+001  +4.8633154443E-002 -9.0732202008E+001  +7.9728896934E-002 -5.1076431762E+001 
2887339.174 +1.3065148687E-001 +1.7654904576E+002  +3.5413912492E-002 +6.0012089990E+000  +3.5996149070E-002 -8.4281913178E+001  +9.8820947100E-002 +1.5471047721E+002 
3012484.355 +1.1326961059E-001 +1.6653552267E+002  +6.3594227276E-002 -2.2280918507E+001  +8.3146001404E-002 -1.0229960585E+002  +4.2256056512E-001 -6.9020901580E+001 
3137629.537 +1.2353091994E-001 +1.7116074883E+002  +4.9332046182E-002 +2.8587411198E+001  +4.5430587688E-002 -7.2526543111E+001  +3.3445112794E-002 +1.2181804792E+002 
3262774.718 +1.3202594773E-001 +1.6408206766E+002  +5.6560440820E-002 +2.6240137750E+001  +4.9510417740E-002 -7.0470951760E+001  +1.0293459583E-001 -1.7554453250E+001 
3387919.900 +1.2591624983E-001 +1.5689359945E+002  +5.8105135267E-002 +1.3328895366E+001  +5.3498645510E-002 -7.5959813384E+001  +1.3272130413E-001 -5.1611196225E+001 
3513065.081 +1.1759841095E-001 +1.5670952587E+002  +6.7648440418E-002 +5.3064367195E+001  +5.9571144842E-002 -3.3288477809E+001  +1.7917541332E-001 +1.0140216825E+002 
3638210.263 +1.7952736154E-001 +1.4848647668E+002  +4.6563944221E-002 +1.1075734450E+002  +4.3671347260E-002 +4.1230941905E+001  +3.6669255961E-001 +1.4445844256E+002 
3763355.444 +1.5417560416E-001 +1.4744918863E+002  +8.6034645329E-002 +9.2635460952E+001  +7.0965651060E-002 +2.0247258926E+001  +4.6077733014E-001 +1.1663240317E+002 
3888500.626 +1.7725358908E-001 +1.4721486099E+002  +6.6678044553E-002 +1.2695910543E+002  +6.3327046697E-002 +4.0788377222E+001  +5.5514730981E-001 +1.4008259688E+002 
4013645.807 +1.7703598648E-001 +1.4802014176E+002  +8.0351858805E-002 +7.2743926818E+001  +9.7407627578E-002 +1.5509101778E+001  +4.9359592889E-001 +8.1580819731E+001 
4138790.989 +1.9611694292E-001 +1.5164503052E+002  +4.4831550002E-002 +9.6615553673E+001  +3.8704024343E-002 +4.5845605498E+001  +4.3599518298E-001 +1.4408019811E+002 
4263936.170 +1.9940371918E-001 +1.5523144105E+002  +3.1091586403E-002 +9.2699705146E+001  +3.0373834180E-002 +1.7419833662E+001  +3.0690775548E-001 +1.5652401779E+002 
4389081.352 +1.8015911669E-001 +1.4639979672E+002  +7.9092150608E-002 +6.8830776033E+001  +7.1685934492E-002 +1.6647707107E+001  +3.8443001251E-001 +1.0598046594E+002 
4514226.533 +2.4108374464E-001 +1.3749959095E+002  +1.2123383891E-001 +1.1198194299E+002  +1.2119406031E-001 +5.3987255181E+001  +8.1967696768E-001 +1.1452534773E+002 
4639371.715 +3.1391336018E-001 +1.3557948636E+002  +1.5406293393E-001 +1.4954599998E+002  +1.3079699472E-001 +9.2083298453E+001  +1.1229472783E+000 +1.4176214364E+002 
4764516.896 +2.4053240855E-001 +1.1260735127E+002  +4.7063549249E-001 +8.0836500108E+001  +3.9565828985E-001 +3.6311193958E+001  +2.5359152520E+000 +7.3500384370E+001 
4889662.078 +5.1292476772E-001 +1.3250979002E+002  +6.6233803749E-001 +1.3446466977E+002  +6.0603905941E-001 +8.9802830055E+001  +3.0998936169E+000 +8.8290882533E+001 
5014807.259 +3.5938432672E-001 +1.5200857985E+002  +8.2681760050E-001 -1.2994905367E+002  +8.5385595298E-001 -1.7660130065E+002  +7.8608834265E+000 -1.6643437212E+002 
5139952.441 +3.4921600247E-001 +1.2033579658E+002  +2.7273608547E-001 +1.1765130760E+002  +2.5091043001E-001 +7.0478183657E+001  +1.6147964373E+000 +1.1367496051E+002 
5265097.622 +3.6376028224E-001 +1.3277200982E+002  +1.7189343980E-001 +7.7678102499E+001  +1.7915861703E-001 +4.6531679917E+001  +9.2306864162E-001 +6.5706142325E+001 
5390242.804 +3.5085109498E-001 +1.2888618278E+002  +1.9977085300E-001 +8.8939819849E+001  +1.9682574392E-001 +4.2083439987E+001  +1.1729508388E+000 +8.2549721662E+001 
5515387.985 +4.1971681077E-001 +1.3059877807E+002  +2.3365766143E-001 +1.1133075442E+002  +1.9724022165E-001 +7.8171627711E+001  +1.6794858035E+000 +1.0659009847E+002 
5640533.166 +4.2259475231E-001 +1.2801911981E+002  +2.5005117483E-001 +1.0058330673E+002  +2.4398195062E-001 +7.0605371883E+001  +1.9825726050E+000 +9.9349636504E+001 
5765678.348 +4.8890642444E-001 +1.3275383898E+002  +2.4368934727E-001 +8.8943858006E+001  +2.3851857294E-001 +6.0709580543E+001  +1.7921269530E+000 +7.1230656788E+001 
5890823.529 +4.9516747057E-001 +1.2172529195E+002  +2.1577362425E-001 +7.1441583903E+001  +2.1269420918E-001 +4.7685325126E+001  +1.2180020891E+000 +6.9221934332E+001 
6015968.711 +4.8530101606E-001 +1.1198646914E+002  +2.6837592834E-001 +4.6780121597E+001  +2.7076293975E-001 +3.1349357883E+001  +1.3701589054E+000 +4.1155849800E+001 
6141113.892 +5.8281718840E-001 +1.1521975563E+002  +2.2229059155E-001 +6.2688321938E+001  +2.2015653990E-001 +4.1327446287E+001  +1.0850252670E+000 +5.8865181619E+001 
6266259.074 +6.7419967607E-001 +1.0610805353E+002  +3.2952819783E-001 +5.9904918262E+001  +2.9766634343E-001 +3.8643884837E+001  +1.8007372470E+000 +4.8812664344E+001 
6391404.255 +7.3131574082E-001 +9.2522419970E+001  +2.7307662668E-001 +3.7572996633E+001  +2.6674589481E-001 +1.9820605281E+001  +1.0361273688E+000 +2.1568066775E+001 
6516549.437 +8.9570932804E-001 +9.0263460321E+001  +2.8820833552E-001 +4.3734385890E+001  +2.7219330361E-001 +2.9039466260E+001  +1.0974768178E+000 +2.9862423913E+001 
6641694.618 +1.2786516779E+000 +7.5860745564E+001  +3.5730946440E-001 +3.2259690682E+001  +3.6218011074E-001 +2.0286729608E+001  +1.3781144346E+000 +2.8347035361E+000 
6766839.800 +1.3966200674E+000 +4.5114157645E+001  +4.1755647106E-001 +1.4500488957E+001  +3.9808833485E-001 +4.8715848614E+000  +1.2546980799E+000 +2.8454043129E+000 
6891984.981 +1.0933658897E+000 +3.0752169404E+001  +3.1534352501E-001 +5.7292023704E+000  +3.0221749302E-001 -3.3472773427E+000  +1.0986117268E+000 -1.9898360866E+000 
7017130.163 +1.2229600309E+000 +2.5039962197E+001  +2.9421376994E-001 +5.1821671820E+000  +2.8116973986E-001 -2.5695344096E+000  +1.0882065884E+000 -4.5961134896E+000 
7142275.344 +1.2213027992E+000 +1.0876340878E+001  +2.5585978116E-001 +7.6379560616E-002  +2.4217259738E-001 -3.9694088891E+000  +9.7307845836E-001 -8.1342571264E+000 
7267420.526 +1.2421493579E+000 +7.6557502019E+000  +2.2124343376E-001 -6.3731764714E-001  +2.2327528819E-001 +1.9259026982E+000  +1.0832700112E+000 -1.7193309042E+001 
7392565.707 +9.9970771260E-001 +3.4043216641E+000  +1.8066207762E-001 +1.8095017619E+000  +2.0223769835E-001 +5.9443586634E+000  +1.0932705966E+000 -5.9384030112E+000 
7517710.889 +9.3761170424E-001 +2.6798404669E+000  +1.7803935934E-001 +3.4890397935E+000  +1.8802836840E-001 +7.3694718221E+000  +1.0395955176E+000 -8.9413591526E+000 
7642856.070 +8.1464814575E-001 +2.5136528539E+000  +1.7105675835E-001 +3.8319413461E-001  +1.6434733329E-001 +6.0775246197E+000  +7.7574034445E-001 -1.7689045591E+001 
7768001.252 +7.1389366069E-001 -2.1097968569E+000  +1.6119400368E-001 +1.4069895631E+000  +1.5917419026E-001 +5.0776106163E+000  +8.5056354083E-001 -6.2059078249E+000 
7893146.433 +6.3640830757E-001 +1.3100518220E+001  +1.4438640588E-001 +9.1318960910E-001  +1.5622979803E-001 +5.3752703255E+000  +8.5319212715E-001 +2.2636091883E+000 
8018291.615 +6.5939188154E-001 +7.4305025329E+000  +1.5096052915E-001 -5.7919295067E-001  +1.4345862969E-001 +9.6475842437E+000  +7.7422754925E-001 +8.9080340951E+000 
8143436.796 +5.9819211242E-001 +3.8647302487E+000  +1.4309573565E-001 -2.8025160448E+000  +1.4721522989E-001 +7.3606097340E+000  +6.5213951616E-001 +6.4138867432E-001 
8268581.977 +5.5722187912E-001 +3.5064936669E+000  +1.4614306957E-001 -2.0466484016E+000  +1.4467644064E-001 +9.7548885556E+000  +6.1574399807E-001 -6.8257253858E-001 
8393727.159 +4.8464762157E-001 +1.4896641502E+001  +1.3486282601E-001 -2.8338794348E+000  +1.3320586649E-001 +8.3941013254E+000  +6.0332107067E-001 +3.8429140269E+000 
8518872.340 +5.6333991322E-001 +1.5310330459E+001  +1.3601045403E-001 -2.9781065149E+000  +1.4224436363E-001 +1.0173874300E+001  +5.4508836123E-001 +1.5850425684E+000 
8644017.522 +5.4419665913E-001 +1.0206310927E+001  +1.3458459855E-001 -3.6525856108E+000  +1.3625498731E-001 +9.7362339766E+000  +5.7976123702E-001 +3.2377826675E+000 
8769162.703 +5.1657801774E-001 +1.3328827890E+001  +1.3449946314E-001 -3.3213505769E+000  +1.3474892883E-001 +9.3810747246E+000  +5.7016841912E-001 +6.7748870858E-001 
8894307.885 +4.2186072304E-001 +1.0082185591E+001  +1.3841896186E-001 -4.4500363296E+000  +1.3278609871E-001 +9.8029917220E+000  +5.0192153810E-001 -2.8070437447E-001 
9019453.066 +5.1921141475E-001 +8.5938735099E+000  +1.3483027445E-001 -3.7946037660E+000  +1.3416484215E-001 +1.1799206672E+001  +4.9941819355E-001 +3.3287598784E-001 
9144598.248 +4.4472680042E-001 +1.4327732355E+001  +1.3245780725E-001 -5.0087405528E+000  +1.3287185763E-001 +9.8765050043E+000  +4.2020243619E-001 +4.6761041272E+000 
9269743.429 +4.0460929797E-001 +4.7112083223E+000  +1.3230926061E-001 -4.4554332369E+000  +1.3155391118E-001 +1.1720831993E+001  +5.1839273195E-001 +4.8829338204E-001 
9394888.611 +3.7153112759E-001 +1.2116834269E+001  +1.3369530622E-001 -3.2318099623E+000  +1.3001030942E-001 +1.2493248253E+001  +5.1203489573E-001 -5.8726286284E-003 
9520033.792 +3.9159375203E-001 +9.5455650780E+000  +1.3456534291E-001 -4.4765033616E+000  +1.3360977227E-001 +1.3536376614E+001  +4.9372191622E-001 -2.6849448005E+000 
9645178.974 +4.2030615594E-001 +5.9044030390E+000  +1.3349480461E-001 -5.4486934662E+000  +1.3292808546E-001 +1.0790827896E+001  +4.4571650193E-001 -4.1830706778E+000 
9770324.155 +4.1273531905E-001 +7.1100492994E+000  +1.3254320984E-001 -5.2751290143E+000  +1.3733540132E-001 +1.1303497862E+001  +4.4703050512E-001 -7.6592393035E+000 
9895469.337 +3.6952558992E-001 +4.8030067748E+000  +1.3368708769E-001 -5.0300977891E+000  +1.3056085839E-001 +1.0434269080E+001  +4.1794242328E-001 -3.2133061035E+000 
10020614.518 +4.1035682797E-001 +4.4008010137E+000  +1.3396262691E-001 -3.8334849488E+000  +1.3594568337E-001 +1.1041729794E+001  +4.2049784584E-001 -1.1800007813E+001 
10145759.700 +4.3034270767E-001 +7.8269921543E+000  +1.3682927613E-001 -4.2279866714E+000  +1.3435745483E-001 +1.3921227375E+001  +4.4484305303E-001 +7.1276785387E-001 
10270904.881 +4.1508934143E-001 +6.0718487785E+000  +1.3536542067E-001 -3.7120630416E+000  +1.3697360812E-001 +1.1850103983E+001  +4.0243471683E-001 -4.9453994869E+000 
10396050.063 +4.1205555069E-001 +9.6936518346E+000  +1.3501231156E-001 -3.2638630299E+000  +1.3143929021E-001 +1.2900362827E+001  +4.5174544193E-001 +5.7167109906E+000 
10521195.244 +3.6788874637E-001 +4.9457669509E+000  +1.3774025270E-001 -4.0902376711E+000  +1.3649594750E-001 +1.1978533097E+001  +4.4557323962E-001 -6.0408465980E-001 
10646340.426 +3.9728097942E-001 +8.1588924388E+000  +1.3766970946E-001 -3.6406633489E+000  +1.3713040557E-001 +1.2680510441E+001  +4.5143915497E-001 +3.5375165705E+000 
10771485.607 +4.5588268533E-001 +1.2192856940E+001  +1.3571553887E-001 -5.0917687571E-001  +1.3417721424E-001 +1.2622742655E+001  +4.3689521937E-001 +5.3307556748E+000 
10896630.788 +4.4521897957E-001 +1.6191166113E+001  +1.3463171370E-001 -1.1751683035E+000  +1.3562864550E-001 +1.3493055660E+001  +4.6321769325E-001 +4.2088236908E+000 
11021775.970 +4.6632213375E-001 +1.3111235668E+001  +1.3986367809E-001 -8.2777555668E-001  +1.3939775826E-001 +1.3442834058E+001  +4.6413537226E-001 +3.7688579476E+000 
11146921.151 +4.3338007345E-001 +1.1144739757E+001  +1.4150456165E-001 -8.6187865684E-001  +1.3842012291E-001 +1.3060462960E+001  +4.9938076550E-001 +4.1351714332E+000 
11272066.333 +4.5777207242E-001 +1.4704311225E+001  +1.3973486246E-001 -5.4606100669E-001  +1.3885775784E-001 +1.2902516856E+001  +4.8078930470E-001 +4.1641335711E+000 
11397211.514 +4.9186239561E-001 +1.0533030314E+001  +1.4251049928E-001 -8.3833492339E-001  +1.4169462903E-001 +1.2920729332E+001  +4.8774638087E-001 +7.1171115862E+000 
11522356.696 +4.6933510895E-001 +1.0149068545E+001  +1.4329330146E-001 +3.9686262653E-001  +1.4503842588E-001 +1.1829514870E+001  +4.9451403290E-001 +5.8998188089E+000 
11647501.877 +5.0243567867E-001 +8.8213616950E+000  +1.4586938780E-001 -2.4676252215E-002  +1.4782361330E-001 +1.2395463166E+001  +5.2428638066E-001 +2.7968726312E+000 
11772647.059 +4.9933228513E-001 +9.1477231171E+000  +1.4638800843E-001 +8.2522986268E-001  +1.4445021683E-001 +1.2239934418E+001  +5.1910987729E-001 +4.1876517497E+000 
11897792.240 +4.9337674579E-001 +1.1264488716E+001  +1.4901006727E-001 +1.0609488204E+000  +1.4804757296E-001 +1.1135152309E+001  +5.2903604232E-001 +3.2016837070E+000 
12022937.422 +5.1420173188E-001 +5.6877195007E+000  +1.5028202864E-001 +8.9019133487E-001  +1.5018245353E-001 +1.1335145715E+001  +5.3938960453E-001 +2.8288960144E+000 
12148082.603 +5.2859080390E-001 +5.9138854388E+000  +1.5186765694E-001 +1.7252395071E+000  +1.5222711567E-001 +9.5357973080E+000  +5.3832873410E-001 +2.6228333362E+000 
12273227.785 +5.4153627479E-001 +7.1855649944E+000  +1.5497182986E-001 +1.6985149011E+000  +1.5284613797E-001 +1.0585868118E+001  +5.7716973895E-001 +2.5206719848E+000 
12398372.966 +5.5784473313E-001 +3.7213482800E+000  +1.5603299126E-001 +1.6911232326E+000  +1.5536328573E-001 +9.6799652818E+000  +5.6590744172E-001 +2.5471298779E+000 
12523518.148 +5.4278628330E-001 +3.8261989316E+000  +1.5737695870E-001 +1.3153364476E+000  +1.5666906853E-001 +8.5190135555E+000  +5.9630029441E-001 +7.3486217482E-001 
12648663.329 +5.8764409925E-001 +5.0965811315E+000  +1.6095990276E-001 +1.7633490506E+000  +1.5719707156E-001 +8.9223592869E+000  +6.1046696542E-001 +4.3201455919E-001 
12773808.511 +5.8562402192E-001 +3.5948920559E+000  +1.6213300259E-001 +1.9855344274E+000  +1.5916455805E-001 +7.9447131425E+000  +6.0512312158E-001 -2.8919100879E-001 
12898953.692 +6.1227647142E-001 +2.8946450563E+000  +1.6193313029E-001 +1.4806436323E+000  +1.6094092407E-001 +8.1412529412E+000  +6.0719092019E-001 +1.8693906041E-001 
13024098.874 +6.1215899376E-001 +2.0464980454E+000  +1.6418301433E-001 +1.9562556966E+000  +1.6168860425E-001 +7.8452276504E+000  +6.4840459781E-001 +1.1460158104E+000 
13149244.055 +6.3821889318E-001 +7.9403681993E-001  +1.6722070593E-001 +2.5777723878E+000  +1.6446473172E-001 +6.7319820013E+000  +6.3157685615E-001 -3.2436334377E+000 
13274389.237 +6.5936401981E-001 +1.0215548879E-001  +1.6906818434E-001 +2.3631099898E+000  +1.6520131928E-001 +6.4664234697E+000  +6.6196342765E-001 -2.2182595419E+000 
13399534.418 +6.5650144424E-001 -2.3221093597E+000  +1.6862297435E-001 +2.2497359829E+000  +1.6703507530E-001 +5.2473372269E+000  +6.7487649044E-001 -2.0415116312E+000 
13524679.599 +6.8756167732E-001 -1.1618924135E+000  +1.7069141292E-001 +2.6714386570E+000  +1.6882131463E-001 +5.4977994193E+000  +6.9361512272E-001 -2.5468515952E+000 
13649824.781 +7.0028158162E-001 -2.8918309564E+000  +1.7308452843E-001 +2.5088829795E+000  +1.6995787431E-001 +4.5937816613E+000  +7.1845570500E-001 -2.7229547499E+000 
13774969.962 +7.2131966813E-001 -2.4252605458E+000  +1.7375279843E-001 +2.4295997238E+000  +1.7227501624E-001 +4.2967240347E+000  +7.3017161087E-001 -4.0274528944E+000 
13900115.144 +7.3759802010E-001 -3.5983318022E+000  +1.7393500444E-001 +2.0305599290E+000  +1.7118287244E-001 +3.9457359447E+000  +7.4294896972E-001 -1.8649464571E+000 
14025260.325 +7.3695977590E-001 -3.5016500335E+000  +1.7542552745E-001 +1.8252020850E+000  +1.7238738649E-001 +3.0887904366E+000  +7.6468888013E-001 -3.7180361076E+000 
14150405.507 +7.6605606065E-001 -3.3484004759E+000  +1.7708971184E-001 +2.4381329544E+000  +1.7497404030E-001 +3.4404519930E+000  +7.9580585299E-001 -5.9952064880E+000 
14275550.688 +7.9054647869E-001 -6.0272148939E+000  +1.7887211214E-001 +1.6355224560E+000  +1.7449368208E-001 +2.6929417350E+000  +8.0343872443E-001 -5.3748140757E+000 
14400695.870 +8.1175599767E-001 -5.0360387075E+000  +1.7940605674E-001 +2.0345257277E+000  +1.7604641814E-001 +2.2902507484E+000  +8.4320820289E-001 -4.7120116755E+000 
