!  2-Port S-parameters saved by WinCal
! VAR MeasName=S-Parameters (CALIBRATED_DATA) read from VNA (P5004A)
! VAR MeasDate=28/08/2024 17:13:08
! VAR NAME=WaferThru_9k-100M
! VAR FILENAME=WaferThru_9k-100M.S2P
! VAR DATE=28/08/2024 17:13:08
! VAR PHYS_PORTS=1,2
! VAR ObjTypeName=DATASET
! VAR IndexType=Frequency
!
# Hz S MA R 50
9000.000 +1.2837808825E-001 -1.4303994865E+002  +5.6032125491E-003 -1.6055989373E+002  +1.2924461143E-002 +4.3639391316E+001  +2.8852997208E-001 -1.4593836408E+002 
134145.181 +1.1095062776E-001 +1.6967267399E+002  +3.1502775889E-004 -7.1119890994E+000  +7.0959311233E-004 +1.2075842108E+002  +2.4359125673E-001 -1.7063840785E+002 
259290.363 +1.1332427545E-001 +1.6938859420E+002  +4.3408153756E-004 +1.7744560525E+002  +3.6490543849E-004 +1.3398176337E+002  +2.4019086507E-001 -1.6957365354E+002 
384435.544 +1.1425976525E-001 +1.7022023217E+002  +2.6488421628E-004 +4.2026711558E+001  +4.3358300855E-004 -1.5359531635E+001  +2.4143377367E-001 -1.6929391087E+002 
509580.726 +1.1314855230E-001 +1.7051919017E+002  +2.2382432391E-003 -4.4385193250E+001  +3.5934584079E-003 +9.8740242444E+001  +2.4770811391E-001 -1.6231487378E+002 
634725.907 +1.1808465972E-001 +1.7236255244E+002  +1.6307266356E-003 -4.7193643352E+001  +2.4188038684E-003 +4.3219838932E+001  +2.5034338667E-001 -1.6373389051E+002 
759871.089 +1.2021212908E-001 +1.7010508655E+002  +1.1874430010E-003 -5.5326150171E+001  +1.1070109920E-003 +1.3286174629E+002  +2.4868562074E-001 -1.6743037718E+002 
885016.270 +1.2152775685E-001 +1.6861646810E+002  +1.0744925485E-003 -1.0628378310E+001  +1.0911147783E-003 +1.5454648709E+002  +2.4315243546E-001 -1.6608087228E+002 
1010161.452 +1.1738947486E-001 +1.7084462308E+002  +2.2874439019E-003 +3.9258981682E+001  +1.8519460390E-003 -1.0917599391E+002  +2.1381305410E-001 -1.7094812119E+002 
1135306.633 +1.1830372521E-001 +1.6984091914E+002  +3.7266275107E-003 +3.2425551551E+001  +2.9005443957E-003 -1.3095442043E+002  +2.1087981297E-001 -1.6790642998E+002 
1260451.815 +1.2189782009E-001 +1.6985225775E+002  +3.3031204157E-003 +1.3619731651E+001  +4.1122983123E-003 -1.3886880550E+002  +2.2927585630E-001 -1.6168584163E+002 
1385596.996 +1.2476354809E-001 +1.7167237866E+002  +1.8796731899E-003 -3.1214314368E+001  +2.3293019595E-003 +1.6310114416E+002  +2.6477746084E-001 -1.6147130273E+002 
1510742.178 +1.2977529028E-001 +1.7082084006E+002  +2.5643536255E-003 -5.7980451245E+000  +1.9925714891E-003 -1.6212391368E+002  +2.6212953556E-001 -1.6174839996E+002 
1635887.359 +1.3000490642E-001 +1.7154134524E+002  +3.9055474735E-003 +1.0934456962E+001  +4.0450972786E-003 -1.5789577319E+002  +2.6032605533E-001 -1.5832827098E+002 
1761032.541 +1.2928550483E-001 +1.7078906159E+002  +6.6901195947E-003 +3.2719919490E+001  +6.2739676004E-003 -1.1094530813E+002  +2.3774551565E-001 -1.5774537446E+002 
1886177.722 +1.3210623015E-001 +1.7019507389E+002  +9.3692731333E-003 +3.5893171877E+001  +1.4373903624E-002 -9.0309720385E+001  +2.2491702196E-001 -1.5214992411E+002 
2011322.904 +1.3057308067E-001 +1.6925824911E+002  +1.3924049707E-002 +6.5071426159E+001  +1.6770870402E-002 -6.7149221024E+001  +2.0975231643E-001 -1.5906424637E+002 
2136468.085 +1.2948071883E-001 +1.6923028763E+002  +1.7089193858E-002 +8.2224592889E+001  +1.6903062654E-002 -3.8037508836E+001  +2.2143664946E-001 -1.6838821712E+002 
2261613.267 +1.3282233084E-001 +1.6619537836E+002  +2.1143203669E-002 +8.4844288787E+001  +2.2548052345E-002 -4.8566661671E+001  +2.1155049648E-001 -1.6174253539E+002 
2386758.448 +1.4013674898E-001 +1.6785285215E+002  +2.1356947475E-002 +9.7249177545E+001  +2.6334519183E-002 -2.3340793519E+001  +2.1410064169E-001 -1.7626216853E+002 
2511903.630 +1.2439883505E-001 +1.7013181720E+002  +5.4118592681E-002 +5.3437518451E+001  +5.9920091194E-002 -6.3596616590E+001  +1.4270333514E-001 -1.4278719525E+002 
2637048.811 +9.5999847710E-002 +1.6495264071E+002  +1.0365355304E-001 +7.0397786474E+001  +1.0573230585E-001 -3.9517319487E+001  +8.2287090555E-002 +1.6719327652E+002 
2762193.992 +1.2413300637E-001 +1.7334399473E+002  +6.7628026429E-002 +4.4393624027E+001  +6.5117700278E-002 -6.5512288945E+001  +1.5182497734E-001 -1.4569668958E+002 
2887339.174 +1.5084183104E-001 -1.7726249275E+002  +5.7519381808E-002 -1.5765717453E+001  +5.5284751189E-002 -1.1886783495E+002  +2.7282072078E-001 -1.3491163455E+002 
3012484.355 +1.3994973581E-001 +1.7953463399E+002  +7.1636799803E-002 +1.4427981100E+001  +7.2049634349E-002 -8.8277594565E+001  +2.0756908119E-001 -1.2463744914E+002 
3137629.537 +1.4630535783E-001 -1.7859893215E+002  +6.1852652382E-002 +2.0602570933E+000  +6.0155281983E-002 -9.4100833529E+001  +2.4899336222E-001 -1.3450379955E+002 
3262774.718 +1.4496611649E-001 +1.7986156492E+002  +7.7556320863E-002 +1.4258615106E+001  +7.6743113685E-002 -7.6580185674E+001  +1.9751555031E-001 -1.2487538100E+002 
3387919.900 +9.5787161683E-002 +1.7851735214E+002  +1.4557187588E-001 +3.8086469158E+001  +1.5530437730E-001 -5.0987984893E+001  +7.7371468100E-002 -8.7210200926E+001 
3513065.081 +2.9270176064E-002 +1.5703480277E+002  +3.0180688904E-001 +3.3860734600E+001  +2.8862926674E-001 -4.5719340902E+001  +3.5292335062E-001 -2.6253772382E+001 
3638210.263 +1.5101459250E-001 +1.3424873306E+002  +2.0198019680E-001 +9.6065626718E+001  +1.9868477813E-001 +1.5074423199E+001  +2.8370136615E-001 +1.1905941448E+002 
3763355.444 +1.4978854868E-001 +1.5181947284E+002  +1.4042986622E-001 +9.0136626538E+001  +1.4390140841E-001 +1.2131700054E+001  +2.6147511021E-001 +1.3894217761E+002 
3888500.626 +1.5968580130E-001 +1.5999969078E+002  +9.7050640493E-002 +6.5907943091E+001  +9.3920500993E-002 -8.0416792004E+000  +1.7337787201E-001 -1.7226831669E+002 
4013645.807 +1.6997937602E-001 +1.5692504384E+002  +1.0385167563E-001 +8.4916051849E+001  +1.0154872182E-001 +1.4978220896E+001  +2.6520494010E-001 +1.6828070972E+002 
4138790.989 +1.3304619036E-001 +1.5412092925E+002  +1.7311962284E-001 +6.9526822186E+001  +1.7608632492E-001 +1.9670328836E+000  +2.0785856253E-001 +1.3281142095E+002 
4263936.170 +1.5883406603E-001 +1.4441790585E+002  +1.7511807011E-001 +7.9826466050E+001  +1.7011182061E-001 +1.6395002760E+001  +2.4725468584E-001 +1.4727651516E+002 
4389081.352 +2.2398963125E-001 +1.4424629278E+002  +1.8653086031E-001 +1.1968048293E+002  +1.7538819584E-001 +5.8311961363E+001  +5.2325411743E-001 +1.5827431186E+002 
4514226.533 +1.5787039323E-001 +1.2906648779E+002  +2.5009592995E-001 +7.7635065792E+001  +2.4706138992E-001 +2.0967480031E+001  +2.9591639065E-001 +1.3085618511E+002 
4639371.715 +3.1094841978E-001 +1.3022378870E+002  +3.8997490133E-001 +1.2603335147E+002  +3.8185848731E-001 +7.2816334617E+001  +9.0660095620E-001 +1.4272591285E+002 
4764516.896 +2.6523306722E-001 +1.3359546599E+002  +2.7991064439E-001 +1.1022318781E+002  +2.6886412268E-001 +5.8416121966E+001  +5.8774170772E-001 +1.4573221645E+002 
4889662.078 +1.9029669144E+000 +7.1403264829E+001  +3.0912158367E+000 +1.0213913949E+002  +3.0240903936E+000 +5.3861041699E+001  +4.6448584001E+000 +9.6277119348E+001 
5014807.259 +8.8334723889E-002 +5.7447408356E+001  +5.7859265518E-001 +4.8621799105E+001  +5.5987865214E-001 +3.3244322498E+000  +6.6404013379E-001 +6.1143630494E+001 
5139952.441 +2.9701055721E-001 +1.1692424134E+002  +4.5203956356E-001 +9.3215554421E+001  +4.4272927281E-001 +5.2230694503E+001  +7.5201241002E-001 +1.2292519578E+002 
5265097.622 +2.7574621976E-001 +1.2384389202E+002  +3.4503431230E-001 +9.0733756870E+001  +3.4457365890E-001 +5.1237827760E+001  +5.9484005984E-001 +1.4066224666E+002 
5390242.804 +2.5469797846E-001 +1.3816329240E+002  +2.9128037928E-001 +8.6300049187E+001  +2.8540788225E-001 +5.1104938527E+001  +6.4116069572E-001 +1.4736854541E+002 
5515387.985 +3.1234005752E-001 +1.3764201530E+002  +3.2484509102E-001 +9.5430632097E+001  +3.1630005733E-001 +6.1452176750E+001  +7.6845512275E-001 +1.4500005024E+002 
5640533.166 +3.1902986252E-001 +1.3546680085E+002  +3.0262629054E-001 +9.2443545577E+001  +3.0131785276E-001 +6.1090464172E+001  +7.2600891817E-001 +1.5503146185E+002 
5765678.348 +3.9119914520E-001 +1.3051057347E+002  +4.5767557716E-001 +1.0011315398E+002  +4.5285344059E-001 +7.0770617342E+001  +1.0932546379E+000 +1.3892676126E+002 
5890823.529 +3.5722051955E-001 +1.3014188557E+002  +4.4500355582E-001 +8.9898232860E+001  +4.4037947944E-001 +6.2696217737E+001  +1.0441443331E+000 +1.3956903755E+002 
6015968.711 +4.3077136112E-001 +1.2303676685E+002  +5.3986801930E-001 +9.2582836599E+001  +5.2889391662E-001 +6.9025858385E+001  +1.1898333982E+000 +1.3752107255E+002 
6141113.892 +2.7984823366E-001 +1.1475319575E+002  +5.8695585233E-001 +5.6474537626E+001  +5.8472527116E-001 +3.5024323849E+001  +7.7160152686E-001 +1.0656665338E+002 
6266259.074 +3.7492243077E-001 +1.1770736292E+002  +5.9742025958E-001 +6.2370751352E+001  +5.8404400725E-001 +4.4429503620E+001  +8.8402465578E-001 +1.1306454024E+002 
6391404.255 +3.5512097090E-001 +1.0676653942E+002  +6.6779069994E-001 +5.5751682927E+001  +6.5992699703E-001 +3.9300154262E+001  +8.8681328725E-001 +1.1173026911E+002 
6516549.437 +2.5409073500E-001 +8.6543440131E+001  +8.4697057123E-001 +3.8426332789E+001  +8.4696286768E-001 +2.4338498289E+001  +9.6430210857E-001 +8.1867854192E+001 
6641694.618 +2.2874707244E-001 +8.1211801974E+001  +8.5527487768E-001 +3.1340442841E+001  +8.5583976138E-001 +1.9446484805E+001  +8.0998930392E-001 +7.8040945662E+001 
6766839.800 +1.3066000879E-001 +6.1433225983E+001  +9.1300873199E-001 +1.7348764814E+001  +9.0725266057E-001 +7.2709328579E+000  +6.6676545370E-001 +5.1358421952E+001 
6891984.981 +1.1180940720E-001 +6.8132960006E+001  +8.9225044497E-001 +1.2391381049E+001  +8.9311293854E-001 +5.2981691082E+000  +4.7970395700E-001 +4.8733503036E+001 
7017130.163 +1.2194462441E-001 +6.7180807267E+001  +9.4156516014E-001 +9.6521804433E+000  +9.3595567887E-001 +4.1236571538E+000  +5.2647480228E-001 +3.9195846507E+001 
7142275.344 +5.9857117394E-002 -9.1229350239E+000  +9.4833521941E-001 +3.4663726730E+000  +9.4294556391E-001 -2.9760073343E-001  +2.3702908801E-001 +3.7430732472E+001 
7267420.526 +4.0740440385E-002 -1.4442244117E+002  +9.5810887583E-001 +4.7660646809E-002  +9.5783881491E-001 -1.6802594256E+000  +2.0989507028E-001 +9.8288522516E-002 
7392565.707 +1.1944608393E-001 +9.4019186627E+001  +9.7160851313E-001 +9.5089979638E-001  +9.6619576847E-001 +1.2924663058E+000  +5.2922370002E-002 -1.7700426358E+001 
7517710.889 +1.4035525411E-001 +1.3001786511E+002  +9.2724406398E-001 -7.5816508608E-001  +9.2431647369E-001 +1.6614122927E+000  +1.0977275918E-001 +4.5550083806E+001 
7642856.070 +1.2829426499E-001 +1.0551818397E+002  +8.9281549229E-001 -9.8609422948E-001  +8.9851919402E-001 +2.2731725231E+000  +1.6733631957E-001 +1.0681524377E+002 
7768001.252 +2.5299491006E-001 +1.3670706567E+002  +8.5126104822E-001 -4.3759586441E+000  +8.4772133202E-001 +4.3340446387E-001  +1.9249659411E-001 +1.3914021189E+002 
7893146.433 +2.4485569314E-001 +1.2741315053E+002  +8.2206593386E-001 -3.5304839548E+000  +8.1680505722E-001 +2.4936632730E+000  +2.6501411090E-001 +1.1374541501E+002 
8018291.615 +2.0394600561E-001 +1.2664896236E+002  +8.1535929112E-001 -4.0849308732E+000  +8.1354138324E-001 +3.3223872727E+000  +2.1214849832E-001 +1.1528449232E+002 
8143436.796 +2.8834201326E-001 +1.3393349286E+002  +7.8726893510E-001 -5.5667664851E+000  +7.8119966417E-001 +3.0434304082E+000  +2.5271014687E-001 +1.2635920001E+002 
8268581.977 +2.4831085499E-001 +1.2883202486E+002  +7.8282319511E-001 -5.9491028219E+000  +7.7788370483E-001 +3.7910140542E+000  +2.5129142448E-001 +1.2985848061E+002 
8393727.159 +2.2184165492E-001 +1.3430632143E+002  +7.6885937189E-001 -6.5731234481E+000  +7.6804957782E-001 +4.2266734132E+000  +2.5450460541E-001 +1.2753950018E+002 
8518872.340 +3.5155544809E-001 +1.2601744343E+002  +7.3167071152E-001 -6.9040805941E+000  +7.2691084377E-001 +4.9102829168E+000  +3.1336566631E-001 +1.2492042008E+002 
8644017.522 +3.0683056702E-001 +1.3162377649E+002  +7.3065622860E-001 -7.3013751532E+000  +7.2470247033E-001 +4.8778935558E+000  +3.0976974300E-001 +1.2036343939E+002 
8769162.703 +2.8385535577E-001 +1.3298609970E+002  +7.2850644057E-001 -7.7862110491E+000  +7.2731628281E-001 +5.5198157743E+000  +2.8609741471E-001 +1.2039345914E+002 
8894307.885 +2.8621115089E-001 +1.3530006603E+002  +7.2739676014E-001 -8.6461840939E+000  +7.2258553373E-001 +4.8532830918E+000  +3.1236337480E-001 +1.3711992125E+002 
9019453.066 +2.7951321308E-001 +1.4042664953E+002  +7.2142150490E-001 -8.8987245637E+000  +7.1472996878E-001 +5.4753705841E+000  +3.1154730913E-001 +1.2436184321E+002 
9144598.248 +2.8442676714E-001 +1.3898364421E+002  +7.1520443400E-001 -9.3160360301E+000  +7.1385134938E-001 +5.1987876249E+000  +3.3276651927E-001 +1.3565990350E+002 
9269743.429 +2.5838807631E-001 +1.4180173706E+002  +7.1743393550E-001 -9.4431918396E+000  +7.1332378196E-001 +5.6656369633E+000  +3.1716414973E-001 +1.3421960884E+002 
9394888.611 +3.0589442812E-001 +1.4048016607E+002  +7.1054569802E-001 -9.6788970700E+000  +7.0953514912E-001 +5.9604529350E+000  +2.6063263030E-001 +1.3755778654E+002 
9520033.792 +2.8489068490E-001 +1.4856867549E+002  +7.1432077324E-001 -9.9700626474E+000  +7.0923625045E-001 +5.4155089266E+000  +3.1951692731E-001 +1.3642029265E+002 
9645178.974 +2.8538262386E-001 +1.4572004206E+002  +7.2117557189E-001 -9.8684227004E+000  +7.1518825380E-001 +6.3253237197E+000  +2.4817935787E-001 +1.4320896088E+002 
9770324.155 +3.2498236001E-001 +1.4611266598E+002  +7.0776179910E-001 -1.0069194980E+001  +7.0180194101E-001 +5.9703655527E+000  +2.8714647583E-001 +1.3414591813E+002 
9895469.337 +2.8851735318E-001 +1.4683735272E+002  +7.2042760255E-001 -1.0047777512E+001  +7.1622675237E-001 +6.2838157296E+000  +2.5386750658E-001 +1.4505401559E+002 
10020614.518 +2.8345991157E-001 +1.4790034570E+002  +7.1716140590E-001 -9.9017349617E+000  +7.1227331403E-001 +6.0002794106E+000  +2.8076185381E-001 +1.3778514162E+002 
10145759.700 +2.8977960461E-001 +1.4392363625E+002  +7.1147341854E-001 -9.4485516647E+000  +7.0654230390E-001 +6.5382657660E+000  +2.9173878690E-001 +1.3223018305E+002 
10270904.881 +2.6496180000E-001 +1.3847353610E+002  +7.1509375005E-001 -8.9406982627E+000  +7.1173920342E-001 +6.4196014300E+000  +2.9748808098E-001 +1.3715769276E+002 
10396050.063 +3.0099846309E-001 +1.4543046809E+002  +7.1478332984E-001 -9.3726580716E+000  +7.1006941732E-001 +6.0702363949E+000  +2.9400447137E-001 +1.3539212261E+002 
10521195.244 +2.6996769096E-001 +1.3848777685E+002  +7.1522907352E-001 -8.3494953097E+000  +7.1172831788E-001 +6.8203990905E+000  +3.0730252171E-001 +1.3198049809E+002 
10646340.426 +2.8037007793E-001 +1.3826202724E+002  +7.1870926671E-001 -8.4887584023E+000  +7.1136213509E-001 +6.5237215189E+000  +3.0379109169E-001 +1.3156843660E+002 
10771485.607 +3.1206381742E-001 +1.3735474175E+002  +7.1217170548E-001 -8.0174468003E+000  +7.0789793699E-001 +6.5229032479E+000  +3.0178227641E-001 +1.2551995430E+002 
10896630.788 +2.7292333253E-001 +1.4051949036E+002  +7.2883296452E-001 -7.7756084805E+000  +7.2272508296E-001 +6.4609612277E+000  +2.7919668547E-001 +1.2914388289E+002 
11021775.970 +2.8262106246E-001 +1.3405883759E+002  +7.2912672142E-001 -7.0963334011E+000  +7.2328767463E-001 +6.7939647786E+000  +2.5267845066E-001 +1.2732263763E+002 
11146921.151 +2.8977464750E-001 +1.2625644509E+002  +7.2641667686E-001 -6.7035247503E+000  +7.2260820118E-001 +6.5627886715E+000  +2.9051680722E-001 +1.3139396535E+002 
11272066.333 +2.4000614156E-001 +1.3066613716E+002  +7.3937370984E-001 -6.4023930444E+000  +7.3351897239E-001 +6.3302762289E+000  +2.9295652247E-001 +1.2989449359E+002 
11397211.514 +2.6756476271E-001 +1.3768088814E+002  +7.4511885382E-001 -6.7764100367E+000  +7.3995760483E-001 +5.7382225679E+000  +2.7665957503E-001 +1.2943395270E+002 
11522356.696 +2.4993891781E-001 +1.3024628532E+002  +7.4925166227E-001 -5.8032311751E+000  +7.4215392530E-001 +5.9759736318E+000  +2.8165043854E-001 +1.2793610967E+002 
11647501.877 +2.3129045094E-001 +1.3535188285E+002  +7.5885207238E-001 -5.4688838450E+000  +7.5308626164E-001 +5.9346448657E+000  +2.6640218768E-001 +1.2208124381E+002 
11772647.059 +2.6294750737E-001 +1.2497460788E+002  +7.5325560542E-001 -5.2793320054E+000  +7.5201567881E-001 +5.5357307142E+000  +2.8130870435E-001 +1.2851079042E+002 
11897792.240 +2.2702164345E-001 +1.3421243859E+002  +7.7548838705E-001 -4.9052311733E+000  +7.6966472403E-001 +5.2377200469E+000  +2.4475491847E-001 +1.2923541543E+002 
12022937.422 +2.5649983292E-001 +1.2992654088E+002  +7.7185657048E-001 -4.7732402308E+000  +7.6967572563E-001 +4.7969306847E+000  +2.4270094156E-001 +1.2810048039E+002 
12148082.603 +2.3037447417E-001 +1.2995793197E+002  +7.8763156487E-001 -4.4301435064E+000  +7.8367228459E-001 +4.6134237567E+000  +2.2752922551E-001 +1.3233685605E+002 
12273227.785 +2.0566835206E-001 +1.3697730255E+002  +7.9565780609E-001 -4.3735863685E+000  +7.9174023496E-001 +4.2919103689E+000  +2.4469313990E-001 +1.2631979652E+002 
12398372.966 +2.0474046739E-001 +1.2935440456E+002  +7.9747915113E-001 -3.8107603632E+000  +7.9372336793E-001 +3.9768113001E+000  +2.5790804127E-001 +1.2752237509E+002 
12523518.148 +2.1518559625E-001 +1.3739109892E+002  +8.1372818553E-001 -3.7963870248E+000  +8.0817700241E-001 +3.5112604664E+000  +2.0883931238E-001 +1.2743556031E+002 
12648663.329 +2.0985013157E-001 +1.3173144530E+002  +8.1744904519E-001 -3.1894322527E+000  +8.1208523674E-001 +3.6986121519E+000  +1.9934633637E-001 +1.2214606811E+002 
12773808.511 +1.7200671990E-001 +1.3606205601E+002  +8.3386060984E-001 -2.7556838530E+000  +8.2989208927E-001 +3.4944761341E+000  +1.8548738186E-001 +1.2611749423E+002 
12898953.692 +1.8547250188E-001 +1.3658460544E+002  +8.4383315869E-001 -3.0072802857E+000  +8.3782040266E-001 +2.7326516603E+000  +1.8650771816E-001 +1.3304216101E+002 
13024098.874 +1.5608056776E-001 +1.3818195603E+002  +8.5577329266E-001 -2.3584157790E+000  +8.5114965935E-001 +2.6003095981E+000  +1.6372000981E-001 +1.3142638017E+002 
13149244.055 +1.4294561205E-001 +1.3231665653E+002  +8.6649252234E-001 -1.9323924548E+000  +8.6207683549E-001 +2.4356413423E+000  +1.5019228030E-001 +1.3259017136E+002 
13274389.237 +1.5343062347E-001 +1.3545194660E+002  +8.7005808386E-001 -2.2447480010E+000  +8.6577734136E-001 +1.7721685860E+000  +1.6310040386E-001 +1.3307785594E+002 
13399534.418 +1.4493716941E-001 +1.3518147688E+002  +8.7683491702E-001 -1.5292869263E+000  +8.7912134992E-001 +1.8370829031E+000  +1.1589860127E-001 +1.3778315924E+002 
13524679.599 +1.0485260392E-001 +1.3044370247E+002  +9.0171764260E-001 -1.2952795860E+000  +9.0234304734E-001 +1.4342980949E+000  +1.1390358841E-001 +1.3214032427E+002 
13649824.781 +1.2620718712E-001 +1.3109445093E+002  +9.0943577299E-001 -1.4261597859E+000  +8.9276131329E-001 +1.1881519545E+000  +1.1772076722E-001 +1.3327998443E+002 
13774969.962 +9.3065553613E-002 +1.3567401988E+002  +9.1388839075E-001 -1.6272074263E+000  +9.0492749190E-001 +7.1071295302E-001  +1.1773856903E-001 +1.2903355496E+002 
13900115.144 +8.1693643637E-002 +1.2676596111E+002  +9.3413999492E-001 -2.1609717286E-001  +9.1948023085E-001 +1.7354009552E+000  +1.0203696774E-001 +1.3556812749E+002 
14025260.325 +9.3986481992E-002 +1.3306705912E+002  +9.3591989322E-001 -2.9363698374E-001  +9.4001381892E-001 +7.7799826514E-001  +7.0214691342E-002 +1.3147204352E+002 
14150405.507 +5.6458336030E-002 +1.4011931506E+002  +9.5515204842E-001 -7.9902545663E-001  +9.4577818042E-001 +1.2319567710E+000  +8.0220566276E-002 +1.2786601005E+002 
14275550.688 +6.1560422927E-002 +1.2161958591E+002  +9.6567159739E-001 -6.2986985300E-001  +9.5689691913E-001 +1.3153021777E-001  +6.5965730546E-002 +1.2467095812E+002 
14400695.870 +3.4583643476E-002 +1.2604573365E+002  +9.7793982302E-001 -9.1028859389E-001  +9.6266037352E-001 +5.7103294786E-002  +5.4493530503E-002 +1.5655739399E+002 
