!  2-Port S-parameters saved by WinCal
! VAR MeasName=S-Parameters (CALIBRATED_DATA) read from VNA (P5004A)
! VAR MeasDate=29/08/2024 14:28:29
! VAR NAME=S2_r9c7_pristine_9k-100M_1
! VAR FILENAME=S2_r9c7_pristine_9k-100M_1.S2P
! VAR DATE=29/08/2024 14:28:29
! VAR PHYS_PORTS=1,2
! VAR ObjTypeName=DATASET
! VAR IndexType=Frequency
!
# Hz S MA R 50
9000.000 +9.7730751817E-002 -1.6893286419E+002  +6.7139381789E-003 +1.0210264528E+002  +4.6399497349E-003 +6.7650474689E+001  +2.4861825952E-001 -1.3831410252E+002 
134145.181 +1.1087300259E-001 +1.6983385597E+002  +3.8333054532E-004 -2.9855613315E+001  +4.2609550421E-004 +8.8838141788E+001  +2.3790253023E-001 -1.7114293836E+002 
259290.363 +1.1236831970E-001 +1.7007783772E+002  +3.6405103321E-004 +4.2579236857E+001  +2.4296467540E-004 +1.3180366288E+002  +2.3835213106E-001 -1.7049055251E+002 
384435.544 +1.1514786485E-001 +1.6994191760E+002  +1.3126435651E-003 -4.8128499294E+001  +9.2181706030E-004 +4.4923459685E+001  +2.4595439587E-001 -1.6846703646E+002 
509580.726 +1.1324693529E-001 +1.7086017863E+002  +1.8283867960E-003 -7.1824943040E+001  +3.0619760314E-003 +1.2979637483E+002  +2.5105593584E-001 -1.6734883841E+002 
634725.907 +1.1666620638E-001 +1.7000470585E+002  +1.2801840734E-003 -4.5957970870E+001  +9.3327527716E-004 +1.1158236613E+002  +2.5261513799E-001 -1.6749873671E+002 
759871.089 +1.2044005210E-001 +1.7070119958E+002  +7.4785778817E-004 -5.7361417655E+001  +4.5815829142E-004 +6.0295202112E+001  +2.5155576548E-001 -1.6853874023E+002 
885016.270 +1.2143519639E-001 +1.6901913804E+002  +4.6757559852E-004 -4.3971826432E+000  +1.1736671947E-003 -1.6788341470E+002  +2.4793126921E-001 -1.6783103631E+002 
1010161.452 +1.1990475409E-001 +1.6969269410E+002  +1.6107507035E-003 +2.6356312888E+001  +2.0992814891E-003 -1.5254087419E+002  +2.1966346230E-001 -1.6888753563E+002 
1135306.633 +1.1825905511E-001 +1.6905066721E+002  +4.1356755703E-003 +5.7573396305E+001  +4.5559150727E-003 -1.2036085893E+002  +2.0498104566E-001 -1.7048431021E+002 
1260451.815 +1.2286673874E-001 +1.7070510693E+002  +2.7674230447E-003 +1.1766230608E+001  +2.0077415935E-003 -1.6681005722E+002  +2.2733677853E-001 -1.6134137655E+002 
1385596.996 +1.2669668290E-001 +1.7146069243E+002  +2.7210726032E-003 -2.5258215969E+001  +2.8840354616E-003 -1.6355711883E+002  +2.4801491699E-001 -1.6143066715E+002 
1510742.178 +1.2968469047E-001 +1.7118422299E+002  +3.2926342721E-003 -1.3335153977E+001  +4.1430821197E-003 -1.6222943823E+002  +2.5194030121E-001 -1.5869104777E+002 
1635887.359 +1.3086177952E-001 +1.7028226438E+002  +3.8605722956E-003 +2.1238347061E+001  +3.3864901085E-003 -1.2649469451E+002  +2.5463927638E-001 -1.5897508802E+002 
1761032.541 +1.3098756939E-001 +1.6969003171E+002  +4.8301289327E-003 +5.0003320327E+001  +5.2843944486E-003 -9.0791820351E+001  +2.3257919953E-001 -1.6179333303E+002 
1886177.722 +1.3162904793E-001 +1.6919547562E+002  +7.6338074768E-003 +5.8609512634E+001  +9.1809515172E-003 -8.5269379754E+001  +2.3498282637E-001 -1.5869109878E+002 
2011322.904 +1.3173613529E-001 +1.6887830317E+002  +1.3808566818E-002 +8.2333699171E+001  +1.2734323846E-002 -5.1167864365E+001  +2.1387365102E-001 -1.6343142275E+002 
2136468.085 +1.3099357942E-001 +1.6845266727E+002  +2.7129147851E-002 +8.4040874886E+001  +2.9074201793E-002 -5.4184184961E+001  +1.5197940917E-001 -1.6551694908E+002 
2261613.267 +1.3725909081E-001 +1.6693876735E+002  +2.4055992462E-002 +9.0733951631E+001  +2.6032378841E-002 -3.6822067072E+001  +1.7878822639E-001 -1.7001196917E+002 
2386758.448 +1.3842650786E-001 +1.6515487471E+002  +2.4173273947E-002 +8.5561756209E+001  +2.2477080679E-002 -3.2542823221E+001  +2.1105595077E-001 -1.6306303013E+002 
2511903.630 +1.3047398851E-001 +1.6757888388E+002  +4.0727989202E-002 +7.6815573361E+001  +3.7651124222E-002 -4.1812249573E+001  +1.8565492109E-001 -1.6722342687E+002 
2637048.811 +1.1447009187E-001 +1.6245283873E+002  +6.3767090687E-002 +7.6159497333E+001  +6.4844083400E-002 -3.5580117384E+001  +1.6213134485E-001 -1.6845428613E+002 
2762193.992 +1.4589396157E-001 -1.7510962625E+002  +7.6649054854E-002 -2.0032884540E+001  +7.4519916225E-002 -1.2857335331E+002  +3.1883864844E-001 -1.2757178845E+002 
2887339.174 +1.5109927819E-001 +1.7903609542E+002  +5.0341527580E-002 +5.2917695537E+000  +4.8095546440E-002 -9.7866507149E+001  +2.1221050570E-001 -1.3915430082E+002 
3012484.355 +1.5242673504E-001 -1.7231935814E+002  +1.0767894527E-001 -5.0538651240E+000  +1.1142694384E-001 -1.0268418151E+002  +2.3210904920E-001 -9.3531082882E+001 
3137629.537 +1.4280074051E-001 -1.7923218858E+002  +7.4571738347E-002 +2.8011836175E+000  +7.4010169673E-002 -9.4561062212E+001  +2.5220835236E-001 -1.2472031929E+002 
3262774.718 +1.3812790131E-001 +1.7655131776E+002  +6.5319783588E-002 +2.5873829508E+001  +6.8881937949E-002 -6.3008461864E+001  +1.9362797367E-001 -1.4023464813E+002 
3387919.900 +1.3992490973E-001 +1.7311272334E+002  +7.8312188326E-002 +3.0034939972E+001  +7.8227783203E-002 -5.8242479930E+001  +1.7875702672E-001 -1.2954075629E+002 
3513065.081 +1.3726866266E-001 +1.6417342588E+002  +8.3425941636E-002 +5.4857885191E+001  +8.7777878741E-002 -2.8798318882E+001  +1.5109915944E-001 -1.5673930587E+002 
3638210.263 +1.6614356534E-001 +1.4844044947E+002  +1.0938257786E-001 +1.0920567243E+002  +1.0872440747E-001 +2.8296502312E+001  +2.9646884573E-001 +1.6364181976E+002 
3763355.444 +1.3809226171E-001 +1.5769980114E+002  +1.0496941721E-001 +6.7267178161E+001  +1.0531604469E-001 -9.8570560011E+000  +1.7191354920E-001 -1.7737596696E+002 
3888500.626 +1.6056182431E-001 +1.5528000221E+002  +1.3433166310E-001 +8.4772875621E+001  +1.2745179421E-001 +1.0619235542E+001  +2.3727262271E-001 +1.4206814699E+002 
4013645.807 +1.6974146141E-001 +1.4067515795E+002  +1.8161238648E-001 +1.0813906773E+002  +1.8042063677E-001 +3.7888753064E+001  +4.3365351911E-001 +1.4858536751E+002 
4138790.989 +1.5867145771E-001 +1.6151567441E+002  +1.1195680829E-001 +6.6831830965E+001  +1.0828099586E-001 +1.1495252921E-001  +2.1935500471E-001 +1.7224445702E+002 
4263936.170 +1.9712456656E-001 +1.5191620714E+002  +1.2812899509E-001 +9.4741903318E+001  +1.2459700162E-001 +2.8975772061E+001  +2.9923511904E-001 +1.5880903657E+002 
4389081.352 +1.4218223233E-001 +1.5230387799E+002  +1.8861191764E-001 +6.7252249002E+001  +1.8561167134E-001 +6.4571227167E+000  +2.2459971490E-001 +1.3609802898E+002 
4514226.533 +2.4710835932E-001 +1.0191045616E+002  +5.3439329297E-001 +8.8667441053E+001  +5.2066908986E-001 +3.1211367701E+001  +8.6108308102E-001 +8.9279304938E+001 
4639371.715 +2.9402947795E-001 +1.3238568047E+002  +3.2143421332E-001 +1.2189911714E+002  +3.1556852187E-001 +6.7322307065E+001  +7.0982325895E-001 +1.4279643674E+002 
4764516.896 +2.5480729216E-001 +1.1265242928E+002  +4.0758126217E-001 +8.7878190099E+001  +3.9835733653E-001 +3.7237134159E+001  +5.3778016802E-001 +1.0700976501E+002 
4889662.078 +5.2881124541E-001 +6.8961526413E+001  +1.1471542350E+000 +8.9614164120E+001  +1.1532536781E+000 +4.2616397311E+001  +1.9808755776E+000 +9.6829901788E+001 
5014807.259 +3.6017780018E-001 +1.3217142592E+002  +4.6507122546E-001 +1.2644415540E+002  +4.5504514398E-001 +8.1247711441E+001  +1.1851027830E+000 +1.4268093160E+002 
5139952.441 +3.8802528713E-001 +1.0325435584E+002  +6.6647327047E-001 +9.4393327309E+001  +6.4604788085E-001 +5.2393899363E+001  +1.0623612642E+000 +1.0765386340E+002 
5265097.622 +2.4870114209E-001 +1.1364270747E+002  +4.4974173160E-001 +8.5434977936E+001  +4.4397378699E-001 +4.5242744201E+001  +7.5935242967E-001 +1.2366257847E+002 
5390242.804 +2.7583702381E-001 +1.3910284504E+002  +3.0557935568E-001 +8.3608938833E+001  +3.0426302699E-001 +4.8042332446E+001  +5.9886915366E-001 +1.3205413950E+002 
5515387.985 +3.4950454290E-001 +1.2522444197E+002  +4.2810231079E-001 +9.6612462018E+001  +4.2747472389E-001 +6.4188330477E+001  +8.5839119361E-001 +1.3566980169E+002 
5640533.166 +3.5647736838E-001 +1.3732579294E+002  +3.7367847517E-001 +9.5656629220E+001  +3.5541479700E-001 +6.4973678554E+001  +8.7142953202E-001 +1.3572793206E+002 
5765678.348 +4.1550120732E-001 +1.2253347121E+002  +4.8926975791E-001 +1.0310187663E+002  +4.8404330772E-001 +7.3216458614E+001  +1.0715657940E+000 +1.4410537492E+002 
5890823.529 +3.7659847944E-001 +1.2731287408E+002  +4.6717071023E-001 +9.0163505750E+001  +4.5925655402E-001 +6.2682543387E+001  +1.0217567414E+000 +1.3532381812E+002 
6015968.711 +4.1895605648E-001 +1.2282030517E+002  +5.0421218813E-001 +8.8657856734E+001  +4.9686652970E-001 +6.5581791419E+001  +1.0552223883E+000 +1.3693564284E+002 
6141113.892 +3.1379236482E-001 +1.1978625053E+002  +5.4195075070E-001 +6.3353691417E+001  +5.2569207744E-001 +4.1633346197E+001  +8.3154672121E-001 +1.1832516253E+002 
6266259.074 +3.9385653280E-001 +1.0993034429E+002  +6.6373966114E-001 +6.5172941630E+001  +6.5583762751E-001 +4.6839678592E+001  +1.0390906540E+000 +1.1091642762E+002 
6391404.255 +3.4023540363E-001 +1.1375952110E+002  +6.5090027323E-001 +4.9837235146E+001  +6.3589133621E-001 +3.3178137364E+001  +7.8942738411E-001 +9.5995427765E+001 
6516549.437 +4.0121353145E-001 +1.0708192663E+002  +7.3206256394E-001 +4.8475449356E+001  +7.2393161661E-001 +3.4190585063E+001  +8.9613787453E-001 +8.8816245480E+001 
6641694.618 +3.3108980250E-001 +7.3989545897E+001  +9.0714619757E-001 +3.5550663224E+001  +8.8692594665E-001 +2.3410399231E+001  +8.6532215229E-001 +7.8144646189E+001 
6766839.800 +1.5940450420E-001 +9.5515971989E+001  +8.5941111173E-001 +1.8947544075E+001  +8.4417263616E-001 +9.5056471910E+000  +7.4135060414E-001 +5.1361733211E+001 
6891984.981 +7.9586111190E-002 +1.7345880195E+001  +9.3222780758E-001 +7.5299522001E+000  +9.2899284248E-001 +4.9878397176E-001  +5.9085150948E-001 +3.0468997697E+001 
7017130.163 +1.7789859960E-001 +5.3811690481E+001  +9.2440491831E-001 +9.9514897211E+000  +9.0673648883E-001 +3.5802418801E+000  +3.9961312290E-001 +2.9743599226E+001 
7142275.344 +1.4164129729E-001 +6.7158324252E+001  +9.2193035653E-001 +5.7712819149E+000  +9.2816700237E-001 +2.5557377070E+000  +4.5899980971E-001 +1.4276853007E+001 
7267420.526 +8.5406860975E-002 +9.4206951443E+000  +9.5504128365E-001 +1.2891980672E+000  +9.5533652186E-001 -5.4277510292E-001  +2.0145268989E-001 -1.3749146338E+001 
7392565.707 +7.3958280107E-002 +5.6742217714E+001  +9.7406252292E-001 +8.4645884088E-001  +9.7095492713E-001 +7.9840192719E-001  +1.9124180888E-001 -5.1164579239E+001 
7517710.889 +9.3704485421E-002 +1.1006312203E+002  +9.3109990629E-001 -9.2580389658E-001  +9.2823823814E-001 +1.7674913716E+000  +7.1460833478E-002 -6.8459223603E+001 
7642856.070 +6.6191250459E-002 +1.3947718079E+002  +8.8388537196E-001 -2.0786414627E+000  +8.9025516496E-001 +1.4521980865E+000  +1.0393915119E-001 +1.0191156298E+002 
7768001.252 +1.7767076964E-001 +1.1511520405E+002  +8.4284273255E-001 -2.2018787843E+000  +8.3909366461E-001 +3.0903822105E+000  +1.2504978081E-001 +1.0504212314E+002 
7893146.433 +1.6907796726E-001 +1.2292204648E+002  +8.1154389128E-001 -3.7450707695E+000  +8.1035351752E-001 +2.7794671802E+000  +2.2780187378E-001 +1.1877900543E+002 
8018291.615 +3.2253978115E-001 +1.3232005854E+002  +7.7327597605E-001 -4.4802758881E+000  +7.6111403036E-001 +3.5692156680E+000  +1.9216078959E-001 +1.0167692970E+002 
8143436.796 +3.3833510275E-001 +1.2648587326E+002  +7.4102171278E-001 -5.7627985583E+000  +7.3781695592E-001 +2.5843025269E+000  +3.0909923155E-001 +1.2821921513E+002 
8268581.977 +1.9661628092E-001 +1.2775648921E+002  +7.5224098762E-001 -5.2947407490E+000  +7.4848782319E-001 +4.0491694209E+000  +3.1427147749E-001 +1.1510642824E+002 
8393727.159 +2.5545209327E-001 +1.3489563675E+002  +7.3372605800E-001 -6.7929128592E+000  +7.2975258473E-001 +3.9591961373E+000  +3.1256307012E-001 +1.2220037150E+002 
8518872.340 +2.3860428805E-001 +1.0486179427E+002  +7.2871457812E-001 -5.4069841370E+000  +7.2402857710E-001 +6.4198403017E+000  +3.2576882532E-001 +1.2072909134E+002 
8644017.522 +2.7795183653E-001 +1.3069474774E+002  +7.1888024711E-001 -6.9343909773E+000  +7.1210586783E-001 +5.1220692683E+000  +2.8460847764E-001 +1.1806191611E+002 
8769162.703 +2.4852648275E-001 +1.2633121217E+002  +7.1360134731E-001 -6.7482415315E+000  +7.1290770154E-001 +6.4408267700E+000  +2.3401781829E-001 +1.2005191238E+002 
8894307.885 +2.6501173952E-001 +1.3304822719E+002  +7.0908286721E-001 -7.8241192269E+000  +7.0928631314E-001 +5.8208258413E+000  +2.5696633904E-001 +1.3051309126E+002 
9019453.066 +2.5643985688E-001 +1.5036826746E+002  +7.1161078981E-001 -9.1041343523E+000  +7.0431747495E-001 +5.3176798134E+000  +2.8359291702E-001 +1.2258943622E+002 
9144598.248 +2.6562484091E-001 +1.3776474749E+002  +6.9751670304E-001 -9.0357834387E+000  +6.9146598417E-001 +5.8802783185E+000  +3.3386528889E-001 +1.3296963030E+002 
9269743.429 +2.9945090698E-001 +1.3835167937E+002  +6.9112831033E-001 -8.8598928509E+000  +6.8723733845E-001 +6.3964245289E+000  +2.7759475286E-001 +1.2524541938E+002 
9394888.611 +2.7484989026E-001 +1.4425172455E+002  +6.9855018536E-001 -9.2790703355E+000  +6.9135465452E-001 +6.3452788081E+000  +2.5999049849E-001 +1.2799636868E+002 
9520033.792 +2.6670882339E-001 +1.5169098750E+002  +7.0191367057E-001 -9.3377119166E+000  +6.9422189673E-001 +6.1823173208E+000  +2.5092405998E-001 +1.2475007539E+002 
9645178.974 +2.7488569232E-001 +1.4483384257E+002  +6.9382776134E-001 -9.3891291834E+000  +6.8717635520E-001 +6.2812026827E+000  +2.8912562592E-001 +1.2951450860E+002 
9770324.155 +2.7790716354E-001 +1.5011362984E+002  +7.0187610760E-001 -9.6309361926E+000  +6.9465434437E-001 +6.3649753397E+000  +2.4788689502E-001 +1.3408673906E+002 
9895469.337 +2.7037563714E-001 +1.4590954192E+002  +7.0160638069E-001 -9.2456082389E+000  +6.9626035584E-001 +6.7680402161E+000  +2.2172340711E-001 +1.3329379474E+002 
10020614.518 +2.6494832508E-001 +1.4573711507E+002  +7.0112961110E-001 -9.0913881473E+000  +6.9255948456E-001 +6.9211485375E+000  +2.4290767877E-001 +1.2941487486E+002 
10145759.700 +2.7738767700E-001 +1.4650443967E+002  +6.9892387933E-001 -9.2260865992E+000  +6.9656738089E-001 +6.5490646342E+000  +2.5510706809E-001 +1.3982462271E+002 
10270904.881 +2.5285485561E-001 +1.4076447240E+002  +6.9797505426E-001 -8.5257200267E+000  +6.9440065048E-001 +7.1855103004E+000  +2.7530913488E-001 +1.3381353564E+002 
10396050.063 +2.9790479037E-001 +1.3734174925E+002  +6.9651922036E-001 -8.4575209324E+000  +6.9028649224E-001 +7.0194964752E+000  +2.5332566834E-001 +1.3247140760E+002 
10521195.244 +2.5853481797E-001 +1.3833999761E+002  +7.0056523386E-001 -8.1722291452E+000  +6.9714604751E-001 +6.9600661930E+000  +2.7913978387E-001 +1.2870089849E+002 
10646340.426 +2.4837166163E-001 +1.3760354130E+002  +7.0197263950E-001 -7.8598712993E+000  +6.9679029745E-001 +7.0812645909E+000  +3.0593570403E-001 +1.2358586696E+002 
10771485.607 +2.3828322388E-001 +1.2888024337E+002  +7.1001111982E-001 -7.2575731133E+000  +7.0625914649E-001 +7.2740002352E+000  +2.5467290623E-001 +1.3374148056E+002 
10896630.788 +2.4933721578E-001 +1.3750313239E+002  +7.1444065869E-001 -7.5194056454E+000  +7.1059291487E-001 +6.9258549651E+000  +2.5679443917E-001 +1.2804593592E+002 
11021775.970 +2.5311823245E-001 +1.3324190509E+002  +7.1495756923E-001 -7.2895203925E+000  +7.1077403661E-001 +6.5287619156E+000  +2.7749359975E-001 +1.3346999482E+002 
11146921.151 +2.5330653914E-001 +1.4024902478E+002  +7.2083586828E-001 -7.3943798973E+000  +7.1915691604E-001 +5.6614833872E+000  +2.8248053001E-001 +1.3355460205E+002 
11272066.333 +2.2625288977E-001 +1.3644968382E+002  +7.3210781933E-001 -6.6398760445E+000  +7.2564339068E-001 +6.3664666411E+000  +2.5359014903E-001 +1.3192560937E+002 
11397211.514 +2.3762382239E-001 +1.2841807757E+002  +7.2854084508E-001 -5.8157315868E+000  +7.2351522439E-001 +6.5549623454E+000  +2.6196198548E-001 +1.2389330935E+002 
11522356.696 +2.1461919229E-001 +1.3038609666E+002  +7.3782786480E-001 -5.3668155774E+000  +7.3114109412E-001 +6.2765475461E+000  +2.6290962875E-001 +1.1952780874E+002 
11647501.877 +2.0814020738E-001 +1.3046294722E+002  +7.4893287718E-001 -5.7311281287E+000  +7.4142898600E-001 +5.7871231656E+000  +2.4490483576E-001 +1.3461001943E+002 
11772647.059 +2.2175359813E-001 +1.2830472212E+002  +7.4844524943E-001 -5.0489261920E+000  +7.4440257188E-001 +5.7262106785E+000  +2.4451089914E-001 +1.2487357797E+002 
11897792.240 +2.3016283633E-001 +1.2759411623E+002  +7.5379702518E-001 -4.5986002709E+000  +7.4932553537E-001 +5.7714588422E+000  +2.2724847299E-001 +1.1996793304E+002 
12022937.422 +2.1084338919E-001 +1.2647017732E+002  +7.6213980341E-001 -4.4166654607E+000  +7.5809250516E-001 +5.2382654610E+000  +2.3414609244E-001 +1.2484750014E+002 
12148082.603 +2.0303099878E-001 +1.2572470980E+002  +7.7446640767E-001 -3.8239988271E+000  +7.6992792403E-001 +5.3816760456E+000  +1.9170057222E-001 +1.2330999203E+002 
12273227.785 +1.9918163376E-001 +1.2755090381E+002  +7.8229296291E-001 -3.9473296378E+000  +7.7859644404E-001 +4.6692790315E+000  +1.9186878395E-001 +1.3310966139E+002 
12398372.966 +1.7332194622E-001 +1.2583962101E+002  +7.9053178247E-001 -3.2305351779E+000  +7.8710010316E-001 +4.6469590778E+000  +1.9847628543E-001 +1.2352254251E+002 
12523518.148 +1.7239892661E-001 +1.3676587363E+002  +8.0196072571E-001 -3.5600775960E+000  +7.9627282772E-001 +3.5762072977E+000  +1.9771033584E-001 +1.2651422762E+002 
12648663.329 +1.6433857000E-001 +1.3015121201E+002  +8.0862227924E-001 -2.9650419307E+000  +8.0472779223E-001 +3.6656152883E+000  +1.8511230562E-001 +1.2482482670E+002 
12773808.511 +1.5503420419E-001 +1.2745920955E+002  +8.1446585539E-001 -2.8820657695E+000  +8.0929853543E-001 +3.2175190036E+000  +1.9485084321E-001 +1.2629273502E+002 
12898953.692 +1.3325549062E-001 +1.2253467303E+002  +8.3204524161E-001 -2.1097801843E+000  +8.2689096361E-001 +3.3731922928E+000  +1.3347532067E-001 +1.2907655374E+002 
13024098.874 +1.5413637387E-001 +1.2678652339E+002  +8.3425197441E-001 -2.2838249216E+000  +8.2911889782E-001 +2.7530495193E+000  +1.4071244266E-001 +1.2457901600E+002 
13149244.055 +1.4081142408E-001 +1.2313119821E+002  +8.4166613159E-001 -1.9204608751E+000  +8.3640870312E-001 +2.6137246728E+000  +1.3827277973E-001 +1.2168252674E+002 
13274389.237 +1.2409955183E-001 +1.2644283196E+002  +8.5518440153E-001 -1.9507920674E+000  +8.4855748763E-001 +1.9468003315E+000  +1.3234590707E-001 +1.3058649177E+002 
13399534.418 +1.0118515281E-001 +1.2448017454E+002  +8.7038787125E-001 -1.5670527029E+000  +8.6392378215E-001 +1.8701011733E+000  +1.0230056267E-001 +1.3013658144E+002 
13524679.599 +1.1066345754E-001 +1.2718697685E+002  +8.7409008858E-001 -1.2947606254E+000  +8.6738918346E-001 +1.6103917153E+000  +1.0800499305E-001 +1.1881546597E+002 
13649824.781 +1.0321996146E-001 +1.1668778684E+002  +8.7648492736E-001 -1.6235079956E+000  +8.7566079486E-001 +1.1886397452E+000  +1.0405833721E-001 +1.3162310589E+002 
13774969.962 +7.6774721201E-002 +1.1281199598E+002  +8.8968997882E-001 -1.1002340927E+000  +8.9213046907E-001 +1.0418859990E+000  +8.3291995491E-002 +1.2865965497E+002 
13900115.144 +7.6979981024E-002 +1.3017562213E+002  +9.1205696786E-001 -1.6377503213E+000  +8.9862965238E-001 +4.8618471440E-001  +7.8614576070E-002 +1.3314663148E+002 
14025260.325 +5.3577210384E-002 +9.2971612721E+001  +9.0797201839E-001 -1.1315559654E+000  +9.0399312472E-001 +4.4132841820E-001  +4.9053963675E-002 +1.1719179783E+002 
14150405.507 +4.0078523187E-002 +1.2793548356E+002  +9.3128188568E-001 -1.1129098954E+000  +9.2569759483E-001 +1.6384273541E-001  +5.0850848461E-002 +1.2076567001E+002 
14275550.688 +2.5515807921E-002 +1.1454634387E+002  +9.4188380839E-001 -7.4172428202E-001  +9.3227121155E-001 -1.4266524800E-001  +3.0892767729E-002 +9.1520314313E+001 
14400695.870 +3.7445870260E-002 +1.0847922265E+002  +9.4968753633E-001 -9.7501146133E-001  +9.3901256030E-001 -4.7900710389E-001  +1.3391550312E-002 -1.4126250625E+002 
