!  2-Port S-parameters saved by WinCal
! VAR MeasName=S-Parameters (CALIBRATED_DATA) read from VNA (P5004A)
! VAR MeasDate=29/08/2024 10:35:20
! VAR NAME=S2_r9c2_RESET1_9k-100M_1
! VAR FILENAME=S2_r9c2_RESET1_9k-100M_1.S2P
! VAR DATE=29/08/2024 10:35:20
! VAR PHYS_PORTS=1,2
! VAR ObjTypeName=DATASET
! VAR IndexType=Frequency
!
# Hz S MA R 50
9000.000 +1.0430636192E-001 -1.6726951848E+002  +3.4492567773E-003 +1.6659538140E+002  +3.0675583150E-003 +8.9151512765E+001  +1.7826797214E-001 -1.3249398115E+002 
134145.181 +1.1127740381E-001 +1.6994962265E+002  +1.5644739616E-004 +1.1466908161E+002  +5.8034837229E-005 -7.7423452923E+001  +2.3869404855E-001 -1.7068200253E+002 
259290.363 +1.1213689420E-001 +1.7009687363E+002  +3.7141669157E-004 +4.9216908075E+001  +5.3083951208E-004 +8.5475705134E+001  +2.5021775687E-001 -1.6877342350E+002 
384435.544 +1.1449425612E-001 +1.6994957692E+002  +2.8286394499E-004 -2.2684989187E+001  +3.8583154377E-004 +1.1186329710E+002  +2.4040494579E-001 -1.6982691318E+002 
509580.726 +1.1392921332E-001 +1.7131774180E+002  +9.2700234194E-004 -2.1593908695E+001  +9.6846160588E-004 +1.0701676812E+002  +2.4543161005E-001 -1.6690758172E+002 
634725.907 +1.1619190558E-001 +1.7198944800E+002  +1.6681503309E-003 -7.9798638033E+001  +3.7591555733E-004 +1.3186287657E+002  +2.5513967296E-001 -1.6658781047E+002 
759871.089 +1.2161904111E-001 +1.7031280072E+002  +1.0203412886E-003 -7.0073928293E+001  +9.3381534178E-004 +1.0809028291E+002  +2.4868314473E-001 -1.6612687477E+002 
885016.270 +1.2045239903E-001 +1.6853268148E+002  +8.9016820055E-004 -4.2225175704E+001  +1.1863144782E-003 +1.3519522113E+002  +2.4374925916E-001 -1.6748387196E+002 
1010161.452 +1.1707493631E-001 +1.7166149044E+002  +1.4372997415E-003 -1.4897678763E+001  +2.3154503862E-003 +1.7623486671E+002  +2.1326148011E-001 -1.6881039525E+002 
1135306.633 +1.2080082095E-001 +1.6954591539E+002  +3.3913489996E-003 -7.7455690582E+000  +3.1817387610E-003 +1.4938001483E+002  +1.9638298897E-001 -1.6890832262E+002 
1260451.815 +1.2282436549E-001 +1.7024118066E+002  +1.4493823069E-003 -5.6677973146E+001  +2.1312589425E-003 +1.3565772712E+002  +2.4046914587E-001 -1.6065285619E+002 
1385596.996 +1.2890263588E-001 +1.7138825129E+002  +2.1778455673E-003 -9.1971614265E+001  +2.0466595158E-003 +1.2240116649E+002  +2.4943062744E-001 -1.5660038581E+002 
1510742.178 +1.2341311108E-001 +1.7005475724E+002  +2.2866074349E-003 -6.9774114344E+001  +3.1565204612E-003 -1.7183102397E+002  +2.6240421673E-001 -1.5585604241E+002 
1635887.359 +1.2999413113E-001 +1.7003766666E+002  +3.2558475647E-003 -2.5569321127E+001  +1.7273462283E-003 +1.7769368488E+002  +2.5099351902E-001 -1.5548512065E+002 
1761032.541 +1.2755377771E-001 +1.7040837798E+002  +3.0848784244E-003 +2.7775587074E+001  +3.5125877653E-003 -1.0930741547E+002  +2.3334428644E-001 -1.6061074389E+002 
1886177.722 +1.3143102585E-001 +1.6833277878E+002  +4.8438502939E-003 +7.5726758528E+001  +4.5351497315E-003 -5.8433594044E+001  +2.3299343942E-001 -1.6380600237E+002 
2011322.904 +1.2991287123E-001 +1.6868394982E+002  +7.1198166042E-003 +8.8327618359E+001  +9.3444917704E-003 -5.5548264530E+001  +2.0258580087E-001 -1.7368548719E+002 
2136468.085 +1.2989058114E-001 +1.6942783462E+002  +9.9430836645E-003 +1.1812500757E+001  +1.1095553546E-002 -9.7363433990E+001  +2.4666727148E-001 -1.5076320436E+002 
2261613.267 +1.3288787880E-001 +1.6582619854E+002  +1.8707162339E-002 +8.5910446710E+001  +2.1321399842E-002 -3.2782614530E+001  +1.6285355620E-001 +1.7434329505E+002 
2386758.448 +1.3852780188E-001 +1.6666921697E+002  +1.4805302210E-002 +7.5200688372E+001  +1.3431947476E-002 -5.0214456993E+001  +2.0089952894E-001 -1.7083236526E+002 
2511903.630 +1.3647744575E-001 +1.6343618608E+002  +2.9912939047E-002 +8.2390137766E+001  +3.3532373860E-002 -3.8294457131E+001  +1.2506128477E-001 -1.7634918885E+002 
2637048.811 +1.2915909128E-001 +1.6682438974E+002  +4.1171063544E-002 +6.7328957964E+001  +3.4301075545E-002 -4.6084124215E+001  +1.5063707524E-001 +1.7605952948E+002 
2762193.992 +1.4641630273E-001 -1.7409719154E+002  +1.1935594787E-001 -4.2969534142E+001  +1.3088052725E-001 -1.4727474683E+002  +3.4700811141E-001 -1.0010407834E+002 
2887339.174 +1.3573852035E-001 +1.6451117621E+002  +3.1992814980E-002 +4.9420995550E+001  +3.7327467921E-002 -5.0161758620E+001  +1.7339471634E-001 -1.7463090407E+002 
3012484.355 +1.3995828545E-001 -1.7889157013E+002  +7.7646853350E-002 -3.6258342717E+001  +6.9223444093E-002 -1.2996624356E+002  +2.2939108402E-001 -1.0632325274E+002 
3137629.537 +1.3815735058E-001 +1.7258838127E+002  +5.6274697529E-002 +1.4352819069E+001  +5.4486750873E-002 -8.1237205259E+001  +8.2424752936E-002 -1.1201471977E+002 
3262774.718 +1.3440468524E-001 +1.7158275820E+002  +5.2854422152E-002 +3.6462696838E+001  +5.0301464193E-002 -6.5415577909E+001  +1.0927515094E-001 -1.7441208804E+002 
3387919.900 +9.3932996293E-002 +1.6297020097E+002  +9.7886760470E-002 +7.3785726333E+001  +9.1489699628E-002 -1.5842442750E+001  +2.8346555742E-001 +1.3711843021E+002 
3513065.081 +1.5674446870E-001 +1.5073209128E+002  +7.3891795253E-002 +1.0515869347E+002  +7.7308274840E-002 +1.8992112746E+001  +3.4345774721E-001 +1.4095093800E+002 
3638210.263 +1.1079755131E-001 +1.5219977864E+002  +1.1433549625E-001 +4.9049135223E+001  +1.0868161434E-001 -3.9766154378E+001  +3.3146157859E-002 +6.7833465001E+001 
3763355.444 +1.6938225207E-001 +1.4161736810E+002  +1.3840225553E-001 +1.0959204893E+002  +1.5568699901E-001 +3.6000368244E+001  +5.7558983452E-001 +1.2570670119E+002 
3888500.626 +1.7087042362E-001 +1.4292901719E+002  +9.3890719546E-002 +1.1398301768E+002  +9.2905212360E-002 +3.9996808166E+001  +4.2998062111E-001 +1.4999960452E+002 
4013645.807 +1.6914564873E-001 +1.5700013915E+002  +6.7188414053E-002 +5.8616906116E+001  +7.0346166287E-002 -1.5697267823E+001  +1.0455015188E-001 +1.5744667328E+002 
4138790.989 +1.6299083216E-001 +1.4878219649E+002  +1.3487828326E-001 +9.3144972445E+001  +1.4185357020E-001 +2.7917751715E+001  +5.7150052524E-001 +1.2283113239E+002 
4263936.170 +1.7764859060E-001 +1.4001308691E+002  +1.2267121173E-001 +8.5668622032E+001  +1.0236085138E-001 +2.2102052288E+001  +3.3672084179E-001 +1.3884922528E+002 
4389081.352 +1.8682654698E-001 +1.3020748804E+002  +1.3081075410E-001 +9.3102193099E+001  +1.1786074580E-001 +3.7007049060E+001  +3.7690851010E-001 +1.4830023806E+002 
4514226.533 +2.1799121543E-001 +1.4263888803E+002  +1.3641546475E-001 +9.2872529522E+001  +1.3418622188E-001 +3.5120843599E+001  +4.3426036695E-001 +1.1779195410E+002 
4639371.715 +2.7960480861E-001 +1.2086876045E+002  +3.1302425273E-001 +1.0678664580E+002  +2.9866268194E-001 +5.6237573946E+001  +8.7325714094E-001 +1.0974437294E+002 
4764516.896 +4.2547862734E-001 +1.3680497298E+002  +6.1907811891E-001 +1.6948430192E+002  +6.4477414120E-001 +1.1829626842E+002  +2.4621109313E+000 +1.5370054500E+002 
4889662.078 +3.6358072187E-001 +1.0015910463E+002  +6.6044849781E-001 +6.8184908287E+001  +6.1645775402E-001 +1.9071622478E+001  +1.6261677610E+000 +3.6612841033E+001 
5014807.259 +4.7954812708E-001 +1.2983816885E+002  +4.9132241128E-001 +1.3114209995E+002  +5.1473844308E-001 +8.4278028181E+001  +1.4863693109E+000 +1.0740781754E+002 
5139952.441 +3.5089914993E-001 +1.2804317696E+002  +3.1619587884E-001 +1.1053959977E+002  +3.1031300305E-001 +7.1981746515E+001  +1.0758598757E+000 +1.1504808212E+002 
5265097.622 +4.0103819957E-001 +1.1771890730E+002  +3.0632230176E-001 +1.0896411600E+002  +2.8466168543E-001 +6.7840771030E+001  +7.7342655658E-001 +1.2443684778E+002 
5390242.804 +3.3721989771E-001 +1.3858136368E+002  +1.6573451358E-001 +1.0148172734E+002  +1.6193098168E-001 +6.5400853165E+001  +7.4500882954E-001 +1.3192739746E+002 
5515387.985 +3.5673819806E-001 +1.2896132205E+002  +2.3690120676E-001 +9.0830937842E+001  +2.5471349243E-001 +5.4273455673E+001  +7.6900497394E-001 +1.0751581944E+002 
5640533.166 +3.4887711912E-001 +1.2708048496E+002  +2.9726805031E-001 +8.2808557018E+001  +3.0164183005E-001 +5.1059902518E+001  +1.0864059183E+000 +9.9566889024E+001 
5765678.348 +3.6616761311E-001 +1.1644562767E+002  +4.1888420135E-001 +6.1679162007E+001  +4.0780308838E-001 +3.3184320446E+001  +1.2583865118E+000 +6.2293782504E+001 
5890823.529 +4.3077846244E-001 +1.2655766649E+002  +2.9029529258E-001 +8.2349336341E+001  +2.8217344673E-001 +5.9703183201E+001  +1.0602175503E+000 +1.0541357817E+002 
6015968.711 +4.7345278570E-001 +1.2334108643E+002  +3.2679601990E-001 +7.3946105911E+001  +3.0840521276E-001 +5.3209115525E+001  +1.0776961571E+000 +8.6176446234E+001 
6141113.892 +4.8699308006E-001 +1.1408402322E+002  +4.0757796554E-001 +5.8887998064E+001  +4.0769420708E-001 +3.8432767786E+001  +1.2089105730E+000 +6.4204311442E+001 
6266259.074 +3.8362124443E-001 +9.9758768672E+001  +4.4111577430E-001 +4.6976490831E+001  +4.3954364533E-001 +2.9384521724E+001  +1.3437039309E+000 +7.3808334076E+001 
6391404.255 +6.1851721445E-001 +9.8627645377E+001  +4.7711999312E-001 +5.3053884709E+001  +4.7260129331E-001 +3.7558952866E+001  +1.2884111288E+000 +6.3626682158E+001 
6516549.437 +7.9248171490E-001 +8.3576636933E+001  +5.4987946635E-001 +4.2015348508E+001  +5.6365406851E-001 +2.8142918929E+001  +1.1411053932E+000 +3.6616885929E+001 
6641694.618 +5.1839482054E-001 +6.1918284780E+001  +5.0554247214E-001 +1.5920195413E+001  +4.9323278604E-001 +4.7719624957E+000  +1.0048888123E+000 +2.2545103594E+001 
6766839.800 +7.3056094024E-001 +4.8204605510E+001  +5.2253800768E-001 +1.3424130699E+001  +5.0491947569E-001 +5.2736044351E+000  +8.0110484969E-001 +1.0734676970E+001 
6891984.981 +9.7509487509E-001 +3.3754961781E+001  +5.7871866010E-001 +1.1078094897E+001  +5.7406861858E-001 +3.7983437972E+000  +9.1836246903E-001 +1.9996103008E+001 
7017130.163 +8.2264509531E-001 +1.6500950326E+001  +5.1077805093E-001 -7.9441339634E-001  +5.0277994777E-001 -3.8006788911E+000  +9.5189875054E-001 -2.7875391162E+000 
7142275.344 +7.2214276810E-001 +6.2547548255E+000  +4.5624433729E-001 -3.0026527392E+000  +4.4642551269E-001 -5.5828482319E+000  +8.8843365031E-001 -3.6434945748E+000 
7267420.526 +8.4375805219E-001 +1.3200290533E+001  +4.2200656969E-001 +3.2900424828E+000  +4.1811573320E-001 +6.3364288309E-001  +9.5489709838E-001 -8.8444571716E+000 
7392565.707 +8.7666861516E-001 +2.7010692736E+000  +3.8185693617E-001 +2.9694992562E+000  +3.7685739156E-001 +2.9835804211E+000  +9.0941250596E-001 -1.3817682936E+001 
7517710.889 +7.7494583895E-001 -3.3576014576E+000  +3.5164685913E-001 +3.3298286555E+000  +3.5106612722E-001 +4.9949583654E+000  +8.3868184999E-001 -6.5739951383E+000 
7642856.070 +5.9578496427E-001 -1.0897038261E+001  +3.3601786128E-001 +1.3445770923E+000  +3.2792589496E-001 +2.9556373711E+000  +7.2412288731E-001 +3.6517010609E+000 
7768001.252 +5.3391078826E-001 +3.2249635894E+000  +3.2219277029E-001 -3.3735875221E-001  +3.2797349934E-001 +3.1031360037E+000  +6.7416967456E-001 -1.3883552160E+001 
7893146.433 +4.7146312871E-001 +8.0986883271E+000  +2.9506805872E-001 -1.3519482836E+000  +3.0481509076E-001 +4.2169452364E+000  +5.5015202921E-001 -2.1407706812E-001 
8018291.615 +5.2127739140E-001 +1.1168625917E+001  +2.9373397572E-001 -1.9687163888E+000  +3.0059536083E-001 +5.6644032513E+000  +4.8378489462E-001 +2.2574671704E+000 
8143436.796 +4.1388471390E-001 +1.5459196398E+001  +2.8760199529E-001 -3.3382083184E+000  +2.8100590761E-001 +5.3727093371E+000  +4.4581138498E-001 +1.4385675134E+000 
8268581.977 +4.3825897174E-001 +1.8279460904E+001  +2.7744906469E-001 -2.8713253870E+000  +2.8098383569E-001 +7.7676623967E+000  +4.8405485865E-001 -5.4982072408E-001 
8393727.159 +4.4111539121E-001 +1.7147174363E+001  +2.7414503204E-001 -3.8712327323E+000  +2.7535213397E-001 +7.6165025976E+000  +5.0209124146E-001 +9.9161967959E+000 
8518872.340 +3.4859442579E-001 +2.8301704268E+001  +2.6627007458E-001 -4.6534933195E+000  +2.6471922521E-001 +6.8549837112E+000  +3.3452528480E-001 +3.0847025582E+000 
8644017.522 +3.5861088891E-001 +2.1925370375E+001  +2.6567275500E-001 -3.4050184319E+000  +2.6752915557E-001 +9.0459353238E+000  +4.1154059423E-001 +7.3988361365E+000 
8769162.703 +3.3373423092E-001 +1.5854323394E+001  +2.6438482125E-001 -5.2456102219E+000  +2.6744720551E-001 +7.1212286244E+000  +3.2442587255E-001 +5.0598298258E+000 
8894307.885 +3.5281657864E-001 +1.4471186827E+001  +2.6387426859E-001 -5.1790412261E+000  +2.6610374992E-001 +9.2413835357E+000  +3.1951026998E-001 +1.0098977294E+001 
9019453.066 +3.0893926691E-001 +2.3573687878E+001  +2.6076177529E-001 -5.7816283065E+000  +2.6172808347E-001 +9.3877712301E+000  +3.7492498495E-001 +5.3773849710E+000 
9144598.248 +3.0729997178E-001 +1.9844853530E+001  +2.5944555159E-001 -6.0473650552E+000  +2.5913941992E-001 +9.2604826225E+000  +3.5584962821E-001 +9.1832942864E+000 
9269743.429 +2.8670402734E-001 +1.5389898249E+001  +2.5987953487E-001 -5.5657973820E+000  +2.5897362496E-001 +1.1167148744E+001  +3.8285767745E-001 +1.1583527861E+001 
9394888.611 +2.9884664624E-001 +1.3109352313E+001  +2.6184434154E-001 -5.2281525174E+000  +2.6200774045E-001 +1.0097334805E+001  +3.3748206186E-001 +6.4692876008E+000 
9520033.792 +2.4984080236E-001 +1.7227455258E+001  +2.6065498474E-001 -5.7994797532E+000  +2.5802285491E-001 +1.0309176921E+001  +3.6137018234E-001 +1.8793314667E+000 
9645178.974 +2.8304997416E-001 +1.8739782276E+001  +2.5873276607E-001 -5.7123652164E+000  +2.5721360758E-001 +1.0360595512E+001  +2.7921834747E-001 +6.6032133393E+000 
9770324.155 +2.4744084404E-001 +1.4670471340E+001  +2.6298103308E-001 -5.8883596485E+000  +2.5851850020E-001 +1.0044450823E+001  +3.2879491954E-001 +2.4969968392E-001 
9895469.337 +2.5910172738E-001 +1.9261499231E+000  +2.6663560075E-001 -5.4339789912E+000  +2.6292447017E-001 +1.1019760997E+001  +3.2872409310E-001 +3.7319141054E+000 
10020614.518 +2.8847172936E-001 +1.3155779250E+001  +2.6352502813E-001 -5.1355947220E+000  +2.6202746107E-001 +1.1301202607E+001  +3.1855661534E-001 +3.5121986596E+000 
10145759.700 +2.7813724190E-001 +1.6169595839E+001  +2.6672335296E-001 -4.9505497051E+000  +2.6540561274E-001 +1.1297890416E+001  +2.9863733591E-001 -3.3896866468E+000 
10270904.881 +2.9694177969E-001 +1.4673395969E+001  +2.6428439129E-001 -4.3751450109E+000  +2.6149636881E-001 +1.1217023906E+001  +3.2480481566E-001 +6.2508818892E+000 
10396050.063 +3.0625805673E-001 +1.8061630855E+001  +2.6569385032E-001 -4.3616265168E+000  +2.6216026740E-001 +1.1266344843E+001  +3.0519268451E-001 +6.9560901358E+000 
10521195.244 +3.0407178345E-001 +1.3709881620E+001  +2.7047586145E-001 -3.8420400778E+000  +2.6629792357E-001 +1.1090124528E+001  +3.0976167436E-001 +5.6738676631E+000 
10646340.426 +2.8563038024E-001 +1.6969972859E+001  +2.6957034509E-001 -3.9452295926E+000  +2.6937771764E-001 +1.1031939181E+001  +3.0731814199E-001 +8.2017668443E+000 
10771485.607 +3.1143890054E-001 +1.7231794503E+001  +2.7159149352E-001 -3.1447665633E+000  +2.7101685938E-001 +1.1317993440E+001  +3.3135567815E-001 +4.9975459559E+000 
10896630.788 +3.0011223246E-001 +1.4705551518E+001  +2.7051407377E-001 -2.8922251435E+000  +2.6701206774E-001 +1.1342918307E+001  +3.5321365991E-001 +1.5333589267E+001 
11021775.970 +2.9755361883E-001 +1.5887356099E+001  +2.7404579663E-001 -2.5388407349E+000  +2.6878658835E-001 +1.1191106901E+001  +3.4189236558E-001 +1.0697957093E+001 
11146921.151 +3.4244638561E-001 +1.7150740488E+001  +2.7534123153E-001 -2.0846641943E+000  +2.7285865934E-001 +1.1551571572E+001  +3.4269084492E-001 +1.1733810625E+001 
11272066.333 +3.1220413847E-001 +1.5965150363E+001  +2.8233524220E-001 -2.1757379403E+000  +2.7521794477E-001 +1.0588745256E+001  +3.3934950244E-001 +6.8847783378E+000 
11397211.514 +3.2393292095E-001 +1.8255597577E+001  +2.7998978618E-001 -1.6337847583E+000  +2.7818135563E-001 +1.0469305673E+001  +3.6713508741E-001 +1.0039560110E+001 
11522356.696 +3.3987029943E-001 +1.4281854127E+001  +2.8444239354E-001 -1.4996233240E+000  +2.8057096449E-001 +1.0294983736E+001  +3.4432561005E-001 +1.0994077180E+001 
11647501.877 +3.2537680806E-001 +1.5047693147E+001  +2.8642788056E-001 -1.4507791352E+000  +2.8316869322E-001 +9.7780055615E+000  +3.5135469818E-001 +8.1348367726E+000 
11772647.059 +3.5175922577E-001 +9.2235406177E+000  +2.9034663112E-001 -8.5008908647E-001  +2.8862026678E-001 +1.0057990347E+001  +3.8387599949E-001 +1.0092961186E+001 
11897792.240 +3.8328685885E-001 +1.1792348787E+001  +2.9150798669E-001 -2.4154028149E-001  +2.8973978615E-001 +9.9471587448E+000  +3.8457094125E-001 +7.8472014449E+000 
12022937.422 +3.8973831713E-001 +1.3059148846E+001  +2.9612151257E-001 -3.9586470179E-001  +2.9254729087E-001 +9.6574272471E+000  +3.9315274876E-001 +8.2729745716E+000 
12148082.603 +3.9729186168E-001 +1.2610072928E+001  +2.9562177249E-001 -1.0501861287E-001  +2.9328730186E-001 +9.1904057896E+000  +3.9117899224E-001 +9.4842929546E+000 
12273227.785 +4.1385368043E-001 +1.0238407647E+001  +3.0270734020E-001 +4.1063696371E-001  +3.0070534413E-001 +8.8991962632E+000  +4.1541616921E-001 +4.4220061659E+000 
12398372.966 +3.9562526225E-001 +1.1651804392E+001  +3.0434819108E-001 +1.7324146219E-001  +3.0247180237E-001 +8.5124633428E+000  +4.2344258813E-001 +3.6017686085E+000 
12523518.148 +4.3067069835E-001 +7.2193633739E+000  +3.1037035975E-001 +8.2978148418E-001  +3.0682848654E-001 +7.7845004065E+000  +4.1558305401E-001 +2.8927797925E+000 
12648663.329 +4.1828839473E-001 +5.0256230019E+000  +3.1314197927E-001 +6.7272670912E-001  +3.0801291788E-001 +7.7086049443E+000  +4.4378692451E-001 +3.8355280147E+000 
12773808.511 +4.5781931122E-001 +1.0996328142E+001  +3.1106185865E-001 +1.1624178479E+000  +3.0961068269E-001 +7.1511991038E+000  +4.3560370197E-001 +4.1635008142E+000 
12898953.692 +4.4941869923E-001 +5.6288716253E+000  +3.1726863231E-001 +1.3629147808E+000  +3.1515091815E-001 +6.7397583716E+000  +4.7837036282E-001 +2.9641054371E+000 
13024098.874 +4.6663444380E-001 +2.9070687966E+000  +3.2035558701E-001 +1.2147350613E+000  +3.1857024329E-001 +6.5454518857E+000  +4.8305705541E-001 +3.9950068109E+000 
13149244.055 +4.6439072617E-001 +3.6428912937E+000  +3.2390273655E-001 +1.2378507038E+000  +3.2233106576E-001 +5.9942523222E+000  +5.0901663335E-001 +1.0474433538E+000 
13274389.237 +4.8333518359E-001 -6.0947459498E-001  +3.3193809841E-001 +1.2347706102E+000  +3.2691120379E-001 +4.9448109974E+000  +4.8833117579E-001 -9.3296060733E-001 
13399534.418 +5.0836073631E-001 -1.3963994077E+000  +3.3336592369E-001 +1.3729266564E+000  +3.2725541247E-001 +4.8005630096E+000  +5.0683439821E-001 -6.8695775349E-001 
13524679.599 +5.3533905157E-001 -8.9994973643E-001  +3.3535766174E-001 +1.8348883226E+000  +3.3019322327E-001 +4.6850289702E+000  +5.2406644852E-001 -1.3617065674E+000 
13649824.781 +5.3610623859E-001 +8.4284774672E-001  +3.3531725765E-001 +1.2760131788E+000  +3.3237261040E-001 +4.2006075972E+000  +5.3011871072E-001 -9.6296606949E-001 
13774969.962 +5.5694560021E-001 -3.1319565337E+000  +3.4116081432E-001 +1.3835480194E+000  +3.3833537178E-001 +3.2364781470E+000  +5.3193726493E-001 -2.7299758944E+000 
13900115.144 +5.6045783629E-001 -2.2765186514E+000  +3.4351987372E-001 +1.3878278191E+000  +3.3932008385E-001 +2.9404664253E+000  +5.4771474866E-001 -4.3297080169E+000 
14025260.325 +5.8063986591E-001 -5.6173359425E+000  +3.4627763951E-001 +1.4279912358E+000  +3.4287015822E-001 +2.6847997134E+000  +5.8020058798E-001 -3.8176109807E+000 
14150405.507 +5.9787806457E-001 -2.3368011294E+000  +3.4621728673E-001 +1.4818988367E+000  +3.4208634368E-001 +2.5091330774E+000  +6.0345050165E-001 -4.0027835355E+000 
14275550.688 +6.1425103541E-001 -4.3716944215E+000  +3.4991130036E-001 +1.2664181212E+000  +3.4657490245E-001 +1.9234077786E+000  +6.0875551479E-001 -5.1424397357E+000 
14400695.870 +5.9594166126E-001 -4.9933313737E+000  +3.5302521261E-001 +9.7540688788E-001  +3.4697367401E-001 +1.1205664290E+000  +6.3442144368E-001 -6.1731002639E+000 
