!  2-Port S-parameters saved by WinCal
! VAR MeasName=S-Parameters (CALIBRATED_DATA) read from VNA (P5004A)
! VAR MeasDate=29/08/2024 13:53:47
! VAR NAME=S2_r9c6_SET1_9k-100M_1
! VAR FILENAME=S2_r9c6_SET1_9k-100M_1.S2P
! VAR DATE=29/08/2024 13:53:47
! VAR PHYS_PORTS=1,2
! VAR ObjTypeName=DATASET
! VAR IndexType=Frequency
!
# Hz S MA R 50
9000.000 +1.0308567999E-001 -1.2582343137E+002  +1.7289591009E-002 +1.6307729181E+002  +3.1304704268E-003 -1.0467264021E+002  +2.2248193253E-001 -1.5292588176E+002 
134145.181 +1.1106701705E-001 +1.6933369562E+002  +2.8415167828E-004 -2.3930578543E+001  +5.9537079389E-004 +8.4025070423E+001  +2.3724264986E-001 -1.6975199591E+002 
259290.363 +1.1225770106E-001 +1.6925797047E+002  +4.2118928817E-004 -1.5769485421E+002  +9.8035473813E-004 +1.1117934940E+002  +2.5017058379E-001 -1.6790449567E+002 
384435.544 +1.1366066192E-001 +1.6983187460E+002  +1.2579032147E-004 -1.7379334042E+002  +8.7001444298E-004 -6.9377076091E+001  +2.3693754370E-001 -1.6822681354E+002 
509580.726 +1.1280290986E-001 +1.7043965258E+002  +1.9178856283E-004 -1.0716152823E+002  +1.2481718168E-003 +8.1835221757E+001  +2.6029153251E-001 -1.6576140273E+002 
634725.907 +1.1942353169E-001 +1.7277416174E+002  +6.5348970628E-004 +3.6316816743E+001  +2.0845925413E-004 -1.3608859977E+002  +2.6521329984E-001 -1.6544648485E+002 
759871.089 +1.1826500016E-001 +1.7046728557E+002  +3.4743676972E-004 -1.7165906958E+002  +3.9343149786E-004 +1.2241751319E+002  +2.4451914207E-001 -1.6722559417E+002 
885016.270 +1.2023509761E-001 +1.6947354322E+002  +7.3135059939E-004 -1.6052229054E+002  +2.9937224455E-004 +4.6157024505E+001  +2.4643748039E-001 -1.6711123280E+002 
1010161.452 +1.1904285416E-001 +1.6879451178E+002  +6.4257573094E-004 +1.5975175978E+001  +5.2196962047E-004 +1.8356350574E+001  +2.0568995975E-001 -1.7000386023E+002 
1135306.633 +1.1951010132E-001 +1.7056736631E+002  +4.1383475093E-004 -8.3190969139E+001  +1.2609388570E-003 -2.9466609330E+001  +2.0882506186E-001 -1.7418328016E+002 
1260451.815 +1.2015377326E-001 +1.7084718540E+002  +1.3851479182E-003 -1.0227437835E+002  +1.5002149780E-004 +1.0631366841E+002  +2.2646072920E-001 -1.5478918825E+002 
1385596.996 +1.2470813099E-001 +1.7131668997E+002  +8.7173427716E-004 +1.3211071892E+002  +8.1191484570E-004 -1.5939451986E+002  +2.6622281369E-001 -1.5819034073E+002 
1510742.178 +1.2506511618E-001 +1.7127873185E+002  +5.3291628359E-004 -3.6703438967E+001  +1.3054953392E-003 +1.2696720956E+002  +2.7245880387E-001 -1.5459149360E+002 
1635887.359 +1.2680941235E-001 +1.7160531201E+002  +1.0567669894E-003 -5.8324447552E-001  +2.6207061646E-003 +9.8132524567E+001  +2.3178692667E-001 -1.5900966682E+002 
1761032.541 +1.2850621921E-001 +1.6951757685E+002  +1.4925098391E-003 -8.1897539658E+001  +6.1075424854E-004 -3.6480122859E+001  +2.1177542973E-001 -1.5884886329E+002 
1886177.722 +1.2890811785E-001 +1.6839155974E+002  +6.7639218529E-004 -1.5072187087E+001  +1.7102522084E-003 -1.5577236957E+001  +2.0352971056E-001 -1.5290070863E+002 
2011322.904 +1.2540046401E-001 +1.6822996630E+002  +5.1104349187E-003 +4.9788126564E+001  +1.0219745708E-003 +1.4642189832E+002  +1.6692910676E-001 -1.6001334376E+002 
2136468.085 +1.2343009041E-001 +1.6707389968E+002  +5.8093383683E-003 +4.8880774928E+001  +5.1969925326E-003 -7.9519664703E+001  +1.8651307104E-001 -1.7124476373E+002 
2261613.267 +1.3490970490E-001 +1.6634353986E+002  +7.4313034451E-003 +4.2236926405E+001  +7.5949125361E-003 -7.5180325307E+001  +1.5551331062E-001 -1.2672665972E+002 
2386758.448 +1.3806723289E-001 +1.6711413087E+002  +4.1748972431E-003 +5.7649077046E+001  +2.5195526785E-003 -1.3782270068E+002  +2.4928437794E-001 +1.5652281861E+002 
2511903.630 +1.2886256746E-001 +1.6648806960E+002  +9.4614880852E-003 +6.7180128428E+001  +5.5171339284E-003 -5.6797528582E+001  +2.3509343495E-001 +1.6462737750E+002 
2637048.811 +1.1525232288E-001 +1.6266344298E+002  +1.0880636593E-002 +5.8715202647E+001  +1.2435564197E-002 -9.6383464082E+001  +8.1707882975E-003 -1.7368753364E+002 
2762193.992 +1.2609251372E-001 +1.7112271525E+002  +2.5452487294E-002 -8.3299542426E+000  +1.3528936672E-002 -1.5486201430E+002  +2.3896907460E-001 -4.9639537485E+001 
2887339.174 +1.2183380691E-001 +1.7732377970E+002  +2.0998275263E-001 -3.0010371654E+001  +2.8150441739E-001 -1.2575218817E+002  +4.2404053737E+000 -2.5434153295E+001 
3012484.355 +8.8357093993E-002 +1.7519244710E+002  +2.4298555288E-002 +1.1585943164E+001  +1.1952178373E-002 -7.9366010297E+001  +1.3437018304E-001 +7.4506052536E+001 
3137629.537 +1.2748027853E-001 +1.6895784848E+002  +1.4310270415E-002 -7.1022959287E+001  +2.5683176067E-002 -1.4688021759E+002  +4.3105843207E-001 -8.4567038269E+001 
3262774.718 +1.2813633338E-001 +1.6507151331E+002  +6.4112150717E-002 -7.7623853206E+001  +4.2811694040E-003 +9.8392923675E+000  +1.3634279103E+000 -7.8022678471E+001 
3387919.900 +1.5163415474E-001 +1.6273980664E+002  +6.9888421432E-003 +1.4401488570E+001  +2.4906033041E-003 -1.1805392657E+001  +1.5914577186E-001 +1.3387519894E+002 
3513065.081 +1.4925665403E-001 +1.5312331742E+002  +1.0154809441E-002 +1.1962229925E+002  +1.2538352830E-002 +8.0046252108E+000  +2.6290944634E-001 +1.4849765684E+002 
3638210.263 +1.7054976846E-001 +1.5135360843E+002  +1.8726379458E-002 +8.8383622243E+001  +1.8236143054E-002 -2.0615854306E+001  +2.9315262040E-001 +8.2802399549E+001 
3763355.444 +1.7389075356E-001 +1.4125296134E+002  +3.4500550424E-002 +1.1012854015E+002  +4.1355194455E-002 +2.4998991739E+001  +1.4681889701E+000 +1.0648774433E+002 
3888500.626 +2.0411497325E-001 +1.4410119263E+002  +4.5805509481E-002 -1.7251513925E+002  +3.2005495224E-002 +9.4379759658E+001  +1.3501628475E+000 +1.4237916026E+002 
4013645.807 +1.7046176306E-001 +1.4921472758E+002  +1.5860840865E-002 +4.5575472702E+001  +1.6990937359E-002 +5.1775506846E+000  +4.4375441506E-001 +1.3068138619E+002 
4138790.989 +1.9812746440E-001 +1.5186170844E+002  +1.5836685681E-002 +8.4831024410E+001  +2.4200858214E-002 +1.3764609995E+001  +5.6709219425E-001 +8.2459292546E+001 
4263936.170 +1.8027755064E-001 +1.5131264849E+002  +3.3627494379E-002 +1.6475911012E+002  +4.0343791663E-002 +7.9314803623E+001  +1.7823974934E+000 +1.3896249016E+002 
4389081.352 +1.8995507848E-001 +1.4298037330E+002  +1.9428751245E-002 +5.5903136048E+001  +2.2671877305E-002 +3.5691386266E+001  +4.6908382480E-001 +1.0872357263E+002 
4514226.533 +2.5543889836E-001 +1.4009136447E+002  +4.1652439306E-002 +7.1510100054E+001  +2.7130446206E-002 +3.3758991372E+001  +7.4258781536E-001 +7.3342425121E+001 
4639371.715 +2.7606227470E-001 +1.2627083056E+002  +7.6413531880E-002 -7.9895717295E+001  +1.6227423521E-001 -1.6928419228E+002  +5.4894146430E+000 -1.2844987783E+002 
4764516.896 +3.5348052941E-001 +1.2572178634E+002  +1.1951333943E-001 -1.6784242034E+002  +1.1525881536E-001 +1.4685692335E+002  +3.5920484209E+000 +1.6544062699E+002 
4889662.078 +3.9773639161E-001 +1.3725345916E+002  +7.1656287953E-002 -1.3229737079E+001  +8.2545521899E-002 -1.0059296658E+002  +2.5613641766E+000 -1.0583704875E+002 
5014807.259 +4.0092098951E-001 +1.2878790100E+002  +8.6157679324E-002 -1.7265520774E+002  +3.6851106723E-002 +1.5147763523E+002  +3.6228437521E+000 -1.7895277933E+002 
5139952.441 +4.0955884198E-001 +1.3153517740E+002  +2.6435238068E-001 +1.6709982993E+002  +3.2853919264E-001 +1.2044567538E+002  +9.0444158982E+000 +1.1510263236E+002 
5265097.622 +3.8993367187E-001 +1.2646681746E+002  +6.6441805387E-002 +1.0920740482E+002  +6.5673667077E-002 +5.6987533269E+001  +1.8039513362E+000 +1.0494851335E+002 
5390242.804 +4.9761371244E-001 +1.2710036345E+002  +1.4563885213E-001 +1.2733536490E+002  +6.0044428983E-002 +1.4190711588E+002  +3.4413577441E+000 +1.3302421225E+002 
5515387.985 +3.9978650929E-001 +1.3775986030E+002  +4.6291512306E-002 +8.2534746723E+001  +3.1278110656E-002 +1.5036536611E+001  +1.5216683396E+000 +7.1806662313E+001 
5640533.166 +4.2010047390E-001 +1.2397739938E+002  +7.4179778049E-002 +8.2952704000E+001  +5.6419653687E-002 +5.8683959362E+001  +1.8911036707E+000 +7.2436074501E+001 
5765678.348 +5.2129367117E-001 +1.3354445248E+002  +4.2606276470E-002 +1.1505152790E+002  +7.4871839529E-002 +6.4712164271E+001  +1.6609435442E+000 +7.9042932231E+001 
5890823.529 +6.0033911715E-001 +1.2356675787E+002  +7.2689922575E-002 +7.5705536815E+001  +8.4111615754E-002 +4.9909391486E+001  +2.5547644524E+000 +5.3676900196E+001 
6015968.711 +6.5379692704E-001 +1.1764858330E+002  +9.5621872436E-002 +9.0263250272E+001  +1.3182560120E-001 +6.7839575190E+001  +3.1473236494E+000 +5.8702944125E+001 
6141113.892 +7.2502747792E-001 +1.0915635308E+002  +9.1884805679E-002 +7.0319879868E+001  +1.0250135293E-001 +3.9625134373E+001  +2.3361154414E+000 +3.9100322713E+001 
6266259.074 +8.8684234997E-001 +1.0959220663E+002  +7.8764341909E-002 +4.5397951367E+001  +8.7300394505E-002 +1.6752022047E+001  +1.6463781519E+000 +3.7156475022E+000 
6391404.255 +8.7034760680E-001 +8.9137404007E+001  +8.3002494486E-002 +5.0203675584E+001  +7.7410207713E-002 +1.6882672189E+001  +1.4510704151E+000 +3.5773297275E+001 
6516549.437 +1.3249439841E+000 +8.7963248364E+001  +8.5695851668E-002 +4.6851537624E+001  +9.3108533467E-002 +2.4434470976E+001  +1.9007364464E+000 -2.6610084347E-001 
6641694.618 +1.4328024068E+000 +7.3174924344E+001  +6.5459611702E-002 +3.7203874266E+001  +9.6768532332E-002 +1.4750805228E+001  +1.4818748320E+000 +6.6463875763E+000 
6766839.800 +1.3758761127E+000 +5.8403085897E+001  +7.2337009730E-002 +2.4732409877E+001  +8.8684729500E-002 +2.2952180872E+001  +1.5310616696E+000 +2.8993178293E+000 
6891984.981 +1.9966876336E+000 +3.4371269544E+001  +9.7840187814E-002 +1.6420021716E+001  +1.0074172253E-001 -5.8013212232E+000  +1.4793806372E+000 -6.2339802272E+000 
7017130.163 +1.5099821869E+000 +1.5823958854E+001  +8.9012148502E-002 -6.4125341683E+000  +6.5244619534E-002 -3.7336803736E+000  +1.2480634777E+000 -1.6346929284E+001 
7142275.344 +1.3803042873E+000 +1.5354230857E+001  +4.8171536583E-002 -4.8770494005E+000  +6.0100588681E-002 -1.6495402788E+001  +1.2214561287E+000 -8.5727702010E+000 
7267420.526 +1.4738255480E+000 +4.9300965210E+000  +5.7513386604E-002 +6.2678425817E+000  +6.2166089738E-002 +1.3076247884E+001  +1.3758345413E+000 -2.0031877626E+001 
7392565.707 +1.0442909700E+000 +1.8988942130E+000  +4.3592894631E-002 -5.0778165579E-001  +4.8084235029E-002 +1.0004278895E+001  +1.2773369540E+000 -1.0842479193E+001 
7517710.889 +1.1428676001E+000 +8.8651157224E+000  +3.9381146097E-002 +3.9464787929E+000  +3.7887463449E-002 +1.2690331036E+000  +1.2878075392E+000 -4.8281414838E+000 
7642856.070 +1.1176379759E+000 +9.7246255124E+000  +3.7984535873E-002 +6.8033089947E+000  +3.3125082480E-002 -1.1327231273E+000  +9.1938305775E-001 -5.9841331629E+000 
7768001.252 +9.5515336292E-001 -4.6685660660E+000  +2.9101509882E-002 -9.9843907987E-001  +3.8384561395E-002 +1.1572151372E+001  +9.9558302815E-001 -5.7809063863E+000 
7893146.433 +8.3913418124E-001 +1.2574742370E+001  +3.6900278119E-002 -3.4675899488E+000  +4.0753924555E-002 +8.2201476774E+000  +9.1221588987E-001 -2.0269549825E+000 
8018291.615 +7.2527601797E-001 +1.9058958726E+000  +3.3728380911E-002 +8.4988057790E+000  +3.8292864781E-002 +1.2813422802E+001  +9.1524171303E-001 -1.5078288146E+000 
8143436.796 +7.4244062753E-001 +2.4435076281E+000  +3.2544086000E-002 -4.8998558038E+000  +3.2092890377E-002 -3.0390494935E+000  +7.7683507532E-001 -1.9634411297E+000 
8268581.977 +6.9879724365E-001 +1.3637290694E+001  +3.1599405755E-002 -5.2219182599E+000  +3.4029886802E-002 +7.6502781105E+000  +6.9783097640E-001 +7.6846596126E-001 
8393727.159 +7.1068677267E-001 +1.0729228967E+001  +3.0296140214E-002 +3.3700523680E+000  +3.1942267439E-002 +2.9653470317E+000  +7.5875173138E-001 +7.3191398493E+000 
8518872.340 +6.7066737075E-001 +1.0775915573E+001  +3.1982293686E-002 +4.3078656631E+000  +3.0506915427E-002 +7.9920846576E+000  +6.9088932345E-001 -2.8276669943E-002 
8644017.522 +6.2695320105E-001 +6.4409154751E+000  +2.6637360739E-002 -1.5381782831E+000  +2.9663460716E-002 +9.3889321497E+000  +6.9709492028E-001 +5.9590342819E+000 
8769162.703 +6.6410527718E-001 +1.1048532979E+001  +3.3338687684E-002 +5.3615985437E-001  +2.9323836910E-002 +5.5080019034E+000  +6.4918556993E-001 +4.6687935323E+000 
8894307.885 +6.2156052537E-001 +1.3859735671E+001  +3.2361545780E-002 +1.0395476283E-001  +3.1390547205E-002 +1.0737854306E+001  +6.4390843428E-001 -1.9580721069E+000 
9019453.066 +5.2420066112E-001 +4.2949588666E+000  +3.0124761222E-002 -7.2772971480E+000  +2.8510046430E-002 +1.1385465010E+001  +6.2704620252E-001 -2.5854178057E+000 
9144598.248 +5.2228663252E-001 +8.3003718948E+000  +2.6297962599E-002 +4.7937840092E-001  +3.1165388935E-002 +1.1455258611E+001  +5.7518866786E-001 +1.0941488133E+000 
9269743.429 +5.6782018038E-001 +5.4531121065E+000  +2.6898795409E-002 -3.8841001363E-001  +2.9881757629E-002 +8.4228112148E+000  +6.0436338559E-001 -3.0422625565E+000 
9394888.611 +4.9751413258E-001 +9.7544943284E+000  +2.7419593845E-002 -7.0857676159E+000  +2.9760223062E-002 +4.3678521824E+000  +6.1379003745E-001 +3.9283435272E-001 
9520033.792 +5.4858373233E-001 +5.2332060909E+000  +3.0084919446E-002 -5.8630814385E+000  +3.0163347075E-002 +1.2905116131E+001  +5.5350754560E-001 +2.3631736631E+000 
9645178.974 +6.1663735362E-001 +3.2966702713E+000  +3.0172773706E-002 -2.5322908085E+000  +2.9671643915E-002 +1.3625180267E+001  +5.2146391458E-001 -3.9673175603E+000 
9770324.155 +4.9274394110E-001 +1.1676174216E+000  +2.6827491463E-002 -1.5581842637E+000  +3.2676456222E-002 +1.4414911750E+001  +5.4466269869E-001 -1.1559730486E+000 
9895469.337 +4.9405449355E-001 +3.7280977095E+000  +2.9992371473E-002 -6.3346319254E+000  +3.1161952147E-002 +1.5585862955E+001  +5.6466871285E-001 -2.8736657690E+000 
10020614.518 +5.4606316473E-001 +5.2236089860E+000  +3.0682637121E-002 -5.2706976100E+000  +2.9662738018E-002 +1.8521387215E+001  +5.8030133744E-001 -1.0480981302E+000 
10145759.700 +5.6079329456E-001 +2.2044921981E+000  +3.1328755544E-002 +2.4702342691E+000  +2.8532713108E-002 +9.2997807767E+000  +5.4460690618E-001 -1.7088857780E+000 
10270904.881 +5.3900899724E-001 +5.0382203259E+000  +2.9361390687E-002 -3.4404860640E+000  +2.8099166780E-002 +1.2385577270E+001  +5.5663288042E-001 -3.9244886260E-001 
10396050.063 +5.7987809272E-001 +4.7867469220E+000  +3.1291789885E-002 +2.2251788765E+000  +2.8579581299E-002 +1.7180799806E+001  +5.3034962312E-001 +1.4331073255E+000 
10521195.244 +5.3219814568E-001 +8.3669030330E+000  +2.9657589620E-002 +2.8167563831E+000  +2.8430685094E-002 +1.2981741119E+001  +5.6173870604E-001 +3.2335564934E+000 
10646340.426 +5.3851885785E-001 +6.5422088626E+000  +2.9424593715E-002 -8.3373784316E-001  +2.9897143847E-002 +1.0888740696E+001  +6.2450327507E-001 +1.4764143567E+000 
10771485.607 +5.3472139393E-001 +8.6474614293E+000  +3.1101864112E-002 +2.6204225531E+000  +2.8237050276E-002 +1.0067762390E+001  +5.9766835241E-001 +2.3421958538E+000 
10896630.788 +5.6498313270E-001 +9.9979499895E+000  +3.0622298749E-002 -1.4216405854E+000  +2.9753203600E-002 +1.1942300555E+001  +5.7936186353E-001 +2.7643032706E-001 
11021775.970 +5.6207453077E-001 +9.0177052531E+000  +3.2060734407E-002 +5.0722391319E+000  +3.2548684069E-002 +1.5104772075E+001  +6.0188750390E-001 +2.1019784370E+000 
11146921.151 +5.6117190736E-001 +6.2972979822E+000  +3.2858465520E-002 +5.1200585973E-001  +3.2866406708E-002 +1.4606741953E+001  +5.8359991002E-001 +3.7432007749E+000 
11272066.333 +5.7684018037E-001 +7.8689710618E+000  +3.3300488864E-002 +1.8779055925E+000  +3.1972532475E-002 +1.1180178236E+001  +6.0923545657E-001 +1.8695527751E+000 
11397211.514 +6.1928691215E-001 +8.7139814274E+000  +3.0656265171E-002 +3.5225112276E-001  +3.1064903757E-002 +1.5126552460E+001  +6.2815933491E-001 +3.7513746212E+000 
11522356.696 +5.9896347629E-001 +5.1317484055E+000  +3.1228907529E-002 +2.8339263475E+000  +3.3077234920E-002 +1.2387625305E+001  +6.2938967440E-001 +5.2988017249E-002 
11647501.877 +6.1657186986E-001 +6.7413739828E+000  +3.2801471649E-002 +3.5555987910E+000  +3.2894148331E-002 +1.0996379409E+001  +6.5569098386E-001 +2.7482072672E-002 
11772647.059 +6.2339754355E-001 +7.2612780257E+000  +3.4434205931E-002 +1.1110299266E+000  +3.2050185673E-002 +1.4033991872E+001  +6.7588624772E-001 +6.6011038957E-001 
11897792.240 +6.4049140841E-001 +5.2957124840E+000  +3.3652226854E-002 +7.0346538293E-001  +3.2629380650E-002 +1.3054211575E+001  +6.4603917259E-001 +4.4772728811E+000 
12022937.422 +6.4972330883E-001 +5.1528679810E+000  +3.3230318483E-002 +1.1768814164E+000  +3.3507788107E-002 +8.0860814636E+000  +6.6309145318E-001 +1.8049296483E+000 
12148082.603 +6.6878302186E-001 +3.6245159314E+000  +3.2807851799E-002 +5.1073974586E+000  +3.5186896544E-002 +1.3213156393E+001  +6.7831267738E-001 +1.1592663001E+000 
12273227.785 +6.9280921191E-001 +4.2908156409E+000  +3.5781869427E-002 +2.7604298613E+000  +3.2891582961E-002 +1.0469337951E+001  +6.6649976996E-001 +1.1047661090E+000 
12398372.966 +6.5413789383E-001 +4.1623476636E+000  +3.6465848329E-002 +2.1993160196E+000  +3.4435994195E-002 +8.9254327680E+000  +6.8589732826E-001 +4.2970814848E-001 
12523518.148 +7.0377448564E-001 +3.4056039610E+000  +3.6431527473E-002 +5.6327447381E+000  +3.4739555142E-002 +9.5619327357E+000  +6.9812621799E-001 -7.4358442057E-001 
12648663.329 +6.9787122456E-001 +1.9361448310E+000  +3.5601877012E-002 +3.0055872715E+000  +3.6529222313E-002 +1.0525666252E+001  +7.2792537346E-001 -1.2071041677E+000 
12773808.511 +7.5490015754E-001 +1.4824389584E+000  +3.5589022917E-002 +1.6132380182E+000  +3.4692378325E-002 +1.0301313040E+001  +7.3700977621E-001 -1.9656896877E+000 
12898953.692 +7.4558777060E-001 +3.5669965436E+000  +3.5027405524E-002 +2.9754066635E+000  +3.5033120092E-002 +7.2310534378E+000  +7.5545903878E-001 +2.9011015526E-001 
13024098.874 +7.5551271367E-001 +1.9417049796E+000  +3.6634249013E-002 +1.3400058989E+000  +3.5060996399E-002 +8.6489573891E+000  +7.7532514448E-001 -4.3877112797E-001 
13149244.055 +7.7391796184E-001 +3.2024154121E-001  +3.8351543609E-002 +3.6360217610E+000  +3.5096210698E-002 +6.9947639816E+000  +7.7548931532E-001 -1.6509418894E+000 
13274389.237 +7.9327462782E-001 +1.8133301361E+000  +3.8380836740E-002 +3.0040153683E+000  +3.6627110245E-002 +7.9263258779E+000  +7.9151871670E-001 -2.6362874406E+000 
13399534.418 +8.0579441120E-001 -4.1749003616E-001  +3.6074023836E-002 +2.2523158687E+000  +3.7953616649E-002 +6.8972606727E+000  +8.1167848326E-001 -2.1324164085E+000 
13524679.599 +8.1888637773E-001 -1.7040323419E+000  +3.7861996633E-002 +1.1418770191E+000  +3.7427167696E-002 +8.0740438190E+000  +8.4103665579E-001 -2.2982133427E+000 
13649824.781 +8.5792612147E-001 -2.7978688086E+000  +3.8981117590E-002 +2.8263960463E+000  +3.7875655770E-002 +5.4882458032E+000  +8.3743671928E-001 -3.3755400768E+000 
13774969.962 +8.7762957063E-001 -2.7192769219E+000  +3.7627789650E-002 +3.7797732489E+000  +3.7634038748E-002 +2.7800267951E+000  +8.7636509781E-001 -3.7003590416E+000 
13900115.144 +8.7269249628E-001 -3.1084108140E+000  +3.7607794072E-002 +1.9371485302E+000  +3.7331423998E-002 +5.0804763822E+000  +8.8887294467E-001 -2.3385039292E+000 
14025260.325 +9.0337516544E-001 -2.2933432305E+000  +3.9031158440E-002 +3.6036702153E+000  +3.6535127685E-002 +4.5504962579E+000  +9.0042760545E-001 -4.3795020029E+000 
14150405.507 +9.2314189711E-001 -4.8482691572E+000  +3.7567784540E-002 +1.8876323825E+000  +3.7229598343E-002 +3.9990094456E+000  +9.1781580907E-001 -4.3079652372E+000 
14275550.688 +9.2451878098E-001 -6.1121537555E+000  +4.0678079077E-002 +2.4212703319E+000  +3.8232519900E-002 +3.6501787756E+000  +9.4092334570E-001 -3.6572904087E+000 
14400695.870 +9.5188196370E-001 -5.2938224513E+000  +3.8651130287E-002 -6.0496195334E-002  +3.7220456964E-002 +3.1778941824E+000  +9.5560697689E-001 -3.8009094978E+000 
