!  2-Port S-parameters saved by WinCal
! VAR MeasName=S-Parameters (CALIBRATED_DATA) read from VNA (P5004A)
! VAR MeasDate=28/08/2024 16:51:18
! VAR NAME=S2_r9c9_RESET2_9k-100M_3
! VAR FILENAME=S2_r9c9_RESET2_9k-100M_3.S2P
! VAR DATE=28/08/2024 16:51:18
! VAR PHYS_PORTS=1,2
! VAR ObjTypeName=DATASET
! VAR IndexType=Frequency
!
# Hz S MA R 50
9000.000 +1.0887857409E-001 -1.6651319940E+002  +7.2206679060E-003 +1.1614961633E+002  +6.1841342085E-003 +5.7368515972E+001  +2.2898301155E-001 -1.4231206965E+002 
134145.181 +1.1071786175E-001 +1.7006112274E+002  +1.5573640414E-004 +1.4912560098E+002  +9.5995675746E-004 +4.9672324394E+001  +2.4050613711E-001 -1.7102257747E+002 
259290.363 +1.1274062060E-001 +1.7059750301E+002  +9.6527286003E-004 -2.0274135601E+001  +5.7086967713E-004 -3.4568119027E+000  +2.4271254431E-001 -1.7027956349E+002 
384435.544 +1.1436772680E-001 +1.6988639712E+002  +3.9672386173E-004 +4.5511125932E+001  +6.6400475433E-004 +1.7069390388E+002  +2.4522375326E-001 -1.6986153357E+002 
509580.726 +1.1457539956E-001 +1.7056752897E+002  +5.9564216734E-004 -1.5352442702E+001  +1.2703281433E-003 +1.1153717086E+002  +2.3883718154E-001 -1.6859044569E+002 
634725.907 +1.1732465315E-001 +1.7109163592E+002  +1.4696646682E-003 -6.0247397212E+001  +1.1724403025E-003 +6.2070171576E+001  +2.5993318916E-001 -1.6556046574E+002 
759871.089 +1.1967186532E-001 +1.7063418157E+002  +6.5933683656E-004 -5.3499486575E+001  +4.9979689068E-004 +9.2247510746E+001  +2.4259250337E-001 -1.6637666518E+002 
885016.270 +1.1975781889E-001 +1.6841368221E+002  +7.3254225418E-004 -7.9539835887E+001  +1.2902222100E-003 +1.7046602023E+002  +2.4173900168E-001 -1.6725850913E+002 
1010161.452 +1.1636269217E-001 +1.7022964458E+002  +9.9945722627E-004 +4.0898716441E+000  +2.7092302665E-003 -1.5252090633E+002  +2.1366393920E-001 -1.6998766211E+002 
1135306.633 +1.1756738254E-001 +1.6923636645E+002  +1.1969581021E-003 +3.6560995497E+000  +4.6700582744E-004 -9.1495411910E+001  +2.1781434016E-001 -1.6663258925E+002 
1260451.815 +1.1979885731E-001 +1.7245185303E+002  +2.1402793079E-003 -8.1271634160E+001  +2.0335853556E-003 +1.5276904606E+002  +2.2773271475E-001 -1.6029149467E+002 
1385596.996 +1.2537873156E-001 +1.7103986753E+002  +1.6461341545E-003 -6.9734110366E+001  +1.6337411855E-003 -1.7294388786E+002  +2.6483602830E-001 -1.5688142950E+002 
1510742.178 +1.2882350157E-001 +1.7171616647E+002  +1.0412030162E-003 -4.7521685182E+001  +9.3345881418E-004 +1.0179812979E+002  +2.6539703232E-001 -1.5594526134E+002 
1635887.359 +1.2817367979E-001 +1.6991551852E+002  +8.3303230584E-004 +4.3358244346E+001  +8.6419081815E-004 -1.3440043554E+002  +2.4579152114E-001 -1.5548692079E+002 
1761032.541 +1.2815332488E-001 +1.7022497560E+002  +8.8468067830E-004 +3.5043320385E+001  +1.2990067069E-003 -1.1302895157E+002  +2.3540580751E-001 -1.6063647681E+002 
1886177.722 +1.2971904775E-001 +1.7009260744E+002  +4.0931943359E-003 +1.9779281518E+001  +3.1838343410E-003 -8.4581482773E+001  +2.2297768619E-001 -1.6069125458E+002 
2011322.904 +1.2593368785E-001 +1.6995677554E+002  +4.6487862790E-003 +4.6883983720E+001  +5.2036463641E-003 -9.4129004051E+001  +2.2355850519E-001 -1.6133745138E+002 
2136468.085 +1.2803920241E-001 +1.6698459421E+002  +1.1081639089E-002 +8.9343377053E+001  +9.9014054750E-003 -6.5445920697E+001  +1.7646825766E-001 -1.7004207957E+002 
2261613.267 +1.3295118981E-001 +1.6616154138E+002  +1.0947636306E-002 +7.1238219926E+001  +1.0181222301E-002 -5.5188498444E+001  +1.7908131032E-001 -1.6337736356E+002 
2386758.448 +1.3862793981E-001 +1.6605719437E+002  +1.3212375739E-002 +5.9309039933E+001  +1.4045810366E-002 -5.9471695266E+001  +1.5746550761E-001 -1.5790603873E+002 
2511903.630 +1.3331851897E-001 +1.6527859661E+002  +1.7215162816E-002 +7.9262999054E+001  +2.1607196177E-002 -4.9976982027E+001  +1.8610368322E-001 -1.7455382618E+002 
2637048.811 +1.3378307112E-001 +1.6654920657E+002  +2.9101413831E-002 +7.6825893493E+001  +2.5370526598E-002 -4.1256288704E+001  +1.5427125296E-001 +1.6380562837E+002 
2762193.992 +1.2099359319E-001 +1.5509567783E+002  +5.1622090145E-002 +5.4892337540E+001  +5.2859445844E-002 -5.0285480867E+001  +1.0587022486E-001 -1.6476642896E+002 
2887339.174 +1.1791845118E-001 +1.7783460197E+002  +8.4541944991E-002 -2.9510931778E+001  +7.1068369826E-002 -1.2889890415E+002  +2.4380393799E-001 -9.4492162944E+001 
3012484.355 +1.3360392813E-001 +1.7652411344E+002  +7.5698422407E-002 -3.7978585128E+001  +7.1278658721E-002 -1.2612872869E+002  +3.4163683496E-001 -8.7506505208E+001 
3137629.537 +1.2908335514E-001 +1.7803204271E+002  +3.1444836579E-002 -1.4445902347E+001  +2.6900704913E-002 -1.0889227785E+002  +2.2043950029E-001 -1.4364615788E+002 
3262774.718 +1.3203360278E-001 +1.7219727627E+002  +8.8437134330E-002 -6.7321940132E+000  +8.8388700995E-002 -9.4782552656E+001  +2.7484817882E-001 -4.9578997538E+001 
3387919.900 +5.9554281558E-002 +1.1566101676E+002  +5.8522665478E-001 +9.5422108071E+001  +5.5258819373E-001 +5.7302987017E+000  +3.1170517332E+000 +9.9204599775E+001 
3513065.081 +1.1713867564E-001 +1.5251280885E+002  +7.4655386936E-002 +5.4116116381E+001  +7.1762755785E-002 -2.5980820547E+001  +1.4262967576E-001 +1.3291824548E+002 
3638210.263 +1.7395555562E-001 +1.5242074012E+002  +8.3915898021E-002 +9.3977553917E+001  +8.1191666809E-002 +1.7361266862E+001  +4.3727962551E-001 +1.1133846697E+002 
3763355.444 +1.5832052458E-001 +1.4569466757E+002  +5.6836024342E-002 +7.7919502070E+001  +5.7406385719E-002 +3.2996687768E+000  +2.2956694113E-001 +1.5705995048E+002 
3888500.626 +1.8199020011E-001 +1.4618438826E+002  +8.2421761273E-002 +1.1875690168E+002  +8.1748775793E-002 +3.4128870358E+001  +4.3563399435E-001 +1.3284680339E+002 
4013645.807 +1.7915497886E-001 +1.5690383832E+002  +5.8989107669E-002 +7.0934255959E+001  +5.6627666986E-002 +6.5328871147E+000  +2.4200049283E-001 +1.2530194811E+002 
4138790.989 +1.6315815038E-001 +1.5453239345E+002  +4.6411875596E-002 +6.5303757470E+001  +4.0440297804E-002 +3.7897429559E+000  +2.8678641713E-001 +1.7177443063E+002 
4263936.170 +1.8328351628E-001 +1.4341133284E+002  +8.7374461680E-002 +9.2680542380E+001  +8.5255619342E-002 +2.7629545175E+001  +3.7307764434E-001 +1.3438676365E+002 
4389081.352 +2.1906919277E-001 +1.4759985418E+002  +1.1482021142E-001 +8.6288627966E+001  +1.0467920632E-001 +2.2148681035E+001  +4.5456270683E-001 +8.8742149735E+001 
4514226.533 +2.1359549755E-001 +1.4147229133E+002  +1.1302768071E-001 +9.7635171272E+001  +1.0590901818E-001 +3.2691624257E+001  +4.7673916167E-001 +1.1987884319E+002 
4639371.715 +3.3057635951E-001 +1.2309258348E+002  +3.4000213477E-001 +1.4070545725E+002  +3.7099436837E-001 +8.8898515212E+001  +1.4674565705E+000 +1.3097130843E+002 
4764516.896 +2.2218588094E-001 +1.1629430392E+002  +2.4039926149E-001 +7.5806276304E+001  +2.4340096456E-001 +2.6855812698E+001  +7.5869157487E-001 +8.5843547508E+001 
4889662.078 +4.2090049414E-001 +1.2124915686E+002  +5.3049785439E-001 +1.4278091324E+002  +5.2295402457E-001 +9.0093283420E+001  +2.0308376544E+000 +1.2606499801E+002 
5014807.259 +3.8761104288E-001 +1.2790394817E+002  +4.1218592959E-001 +1.2653800056E+002  +4.0965747856E-001 +8.2302437563E+001  +1.9735186985E+000 +1.0949885264E+002 
5139952.441 +3.5880160362E-001 +1.2246714662E+002  +2.4325011349E-001 +9.4408510710E+001  +2.2582170864E-001 +4.6336109515E+001  +7.2180901120E-001 +8.9253186407E+001 
5265097.622 +3.6309562200E-001 +1.3489712374E+002  +1.8387221323E-001 +8.9544842803E+001  +1.6709314242E-001 +5.1852447285E+001  +6.1924875872E-001 +8.4151172282E+001 
5390242.804 +3.0858235469E-001 +1.2717710588E+002  +1.9084638398E-001 +8.2989143323E+001  +1.9356277798E-001 +4.7366210905E+001  +7.5742221911E-001 +1.0592802552E+002 
5515387.985 +3.6481833477E-001 +1.2855486391E+002  +2.4749706561E-001 +8.9980969246E+001  +2.5673396826E-001 +5.9149085126E+001  +1.2641542883E+000 +9.5709381352E+001 
5640533.166 +4.8031881140E-001 +1.2838062370E+002  +3.3533803305E-001 +1.2137935733E+002  +3.6196728354E-001 +8.7712961858E+001  +2.0127358263E+000 +1.1162646324E+002 
5765678.348 +4.8784711994E-001 +1.1191705784E+002  +3.9748828182E-001 +8.6625283856E+001  +3.8535227904E-001 +5.7355214233E+001  +1.5631736104E+000 +8.6903538510E+001 
5890823.529 +5.3070610262E-001 +1.2302663498E+002  +3.1332462403E-001 +9.2465064884E+001  +3.1139229287E-001 +6.7833497597E+001  +1.4798538118E+000 +9.2170396020E+001 
6015968.711 +4.7831812370E-001 +1.1363674167E+002  +2.9554014154E-001 +7.0944183571E+001  +2.9306487624E-001 +4.4839601149E+001  +1.2375416193E+000 +8.1733248122E+001 
6141113.892 +6.1264205972E-001 +1.0898056999E+002  +3.6314826713E-001 +6.3833194018E+001  +3.4172967113E-001 +3.9413855563E+001  +1.1664728541E+000 +5.6185762036E+001 
6266259.074 +5.7770694577E-001 +1.1064292106E+002  +3.3931345061E-001 +5.6605783613E+001  +3.2548431855E-001 +3.6645000944E+001  +1.4479794885E+000 +5.2405506686E+001 
6391404.255 +6.2136324684E-001 +9.8370195301E+001  +3.8574363909E-001 +3.5843372757E+001  +3.8615276245E-001 +2.1957842479E+001  +1.5144176832E+000 +2.5361570615E+001 
6516549.437 +7.4222595087E-001 +8.7518943681E+001  +3.8371399959E-001 +3.7180187946E+001  +3.7408542003E-001 +2.3652085625E+001  +1.1083065068E+000 +3.3474696872E+001 
6641694.618 +1.0000955497E+000 +8.0594319247E+001  +4.2970071063E-001 +3.1308365608E+001  +4.2733358339E-001 +2.1264943304E+001  +1.3394998544E+000 +1.0106818178E+001 
6766839.800 +8.9931441963E-001 +5.3769560097E+001  +3.8333315081E-001 +2.0347490622E+001  +3.9651560995E-001 +9.4130060905E+000  +8.9607534851E-001 +1.4442158778E+001 
6891984.981 +1.1078188559E+000 +3.6097958910E+001  +4.2766597110E-001 +9.6295142110E+000  +4.3387245840E-001 +3.6666584609E+000  +9.4851648850E-001 +8.4169065506E+000 
7017130.163 +9.2944228047E-001 +2.2027738563E+001  +3.7994048199E-001 +1.9829170971E+000  +3.8013153875E-001 -2.9459076683E+000  +9.3554299977E-001 +2.8938795232E+000 
7142275.344 +9.3812982975E-001 +2.5933898064E+001  +3.2094741969E-001 +3.6586482698E+000  +3.2624359053E-001 +1.0310393072E+000  +9.5477552251E-001 -5.7243273670E+000 
7267420.526 +9.0332565193E-001 +1.0242613137E+000  +3.0196502095E-001 -1.7030965387E-001  +2.9829146480E-001 -2.3893242330E+000  +9.4842841174E-001 -8.0245403835E+000 
7392565.707 +1.0619958834E+000 +6.1688411718E-002  +2.7208405913E-001 +3.7319968211E+000  +2.6980080025E-001 +6.3451173292E+000  +1.1025097222E+000 -9.8815395447E+000 
7517710.889 +7.6669105614E-001 +1.6425685651E+000  +2.4538251451E-001 +1.1498123665E+000  +2.4173442890E-001 +6.0549341056E+000  +8.8624106873E-001 -7.1799577146E+000 
7642856.070 +7.3790995912E-001 -2.6784314188E+000  +2.3781739950E-001 +1.7509004555E-001  +2.3924035901E-001 +4.5206505390E+000  +8.6040325731E-001 -8.4755392753E+000 
7768001.252 +5.7477108549E-001 +7.5994425090E+000  +2.2025081019E-001 -1.4703362586E+000  +2.2885146074E-001 +3.5026182418E+000  +7.0039621417E-001 +2.1256219872E+000 
7893146.433 +6.3402014959E-001 +1.6100276072E+001  +2.1486947424E-001 +6.8758979961E-001  +2.1189564497E-001 +4.2304607605E+000  +6.9724687160E-001 -3.4953837464E+000 
8018291.615 +5.1298659312E-001 +1.0935212239E+001  +2.0186103171E-001 -1.7559778037E+000  +2.0319109343E-001 +6.3790177784E+000  +6.3409576524E-001 +7.8669711271E+000 
8143436.796 +5.7184274721E-001 +1.7450898079E+001  +2.0305807702E-001 -2.0902124868E+000  +2.0360895565E-001 +8.8052807597E+000  +6.6284218500E-001 +7.5725896267E+000 
8268581.977 +4.4092289692E-001 +1.2421022486E+001  +2.0580576427E-001 -3.6615402722E+000  +1.9897693081E-001 +6.0729146166E+000  +5.9487835547E-001 +1.2032292871E+000 
8393727.159 +4.4047510021E-001 +1.7883764399E+001  +1.9648125749E-001 -3.9364207781E+000  +1.9781685358E-001 +7.2950699943E+000  +5.0357223814E-001 +5.7349150031E-001 
8518872.340 +4.0458829723E-001 +1.0412575882E+001  +1.9830710768E-001 -5.1763668790E+000  +1.9185605389E-001 +6.1579144767E+000  +5.1692478196E-001 +5.5291477456E+000 
8644017.522 +4.1741597131E-001 +1.6266874115E+001  +1.8581103213E-001 -4.0753090620E+000  +1.8802163013E-001 +8.5575028002E+000  +4.7076711125E-001 +3.4400548402E+000 
8769162.703 +4.0462504359E-001 +1.7861962506E+001  +1.8798823689E-001 -5.7902259277E+000  +1.8823051655E-001 +8.4810829277E+000  +4.7156610934E-001 +1.8284789402E+001 
8894307.885 +4.4796474056E-001 +8.2326972407E+000  +1.9239319534E-001 -3.7808619669E+000  +1.8478122838E-001 +9.1415292204E+000  +4.6010899324E-001 +4.2278264799E+000 
9019453.066 +3.8150864558E-001 +1.8010040418E+001  +1.8419672297E-001 -5.0518296141E+000  +1.8659546730E-001 +1.0094817122E+001  +3.9317306660E-001 +1.1282930869E+000 
9144598.248 +3.4977432070E-001 +9.8644601859E+000  +1.8608326998E-001 -4.9503151910E+000  +1.8136614403E-001 +8.1367373209E+000  +4.4879885859E-001 +7.3055866514E+000 
9269743.429 +3.7405877708E-001 +1.4683198889E+001  +1.8222643359E-001 -6.0883321116E+000  +1.8091486290E-001 +9.4595856549E+000  +3.7202852249E-001 +1.1003345741E+001 
9394888.611 +3.6602506169E-001 +1.2674662132E+001  +1.8396801577E-001 -5.1377627380E+000  +1.8206333582E-001 +1.0635469429E+001  +4.3696543846E-001 +6.4837493798E+000 
9520033.792 +3.6231771205E-001 +2.8171978805E+000  +1.8540597314E-001 -5.4780945802E+000  +1.8359368122E-001 +8.9723813798E+000  +3.3514938612E-001 +6.6099256343E+000 
9645178.974 +3.7219034502E-001 +1.0064449781E+001  +1.8317573362E-001 -3.5392525161E+000  +1.8411275003E-001 +1.0978309738E+001  +4.3740991128E-001 -1.1087747593E+000 
9770324.155 +3.6828079722E-001 +6.9632814117E+000  +1.8982134634E-001 -4.1900307376E+000  +1.8502929131E-001 +1.1600419138E+001  +3.8935247479E-001 -4.7532370847E+000 
9895469.337 +3.0965530309E-001 +6.8740803516E+000  +1.8709385401E-001 -4.6466334803E+000  +1.8863489820E-001 +1.0340529536E+001  +3.7908221791E-001 -2.4771759782E+000 
10020614.518 +3.7573688154E-001 +5.5388186229E+000  +1.8555161322E-001 -4.3242831641E+000  +1.8727321351E-001 +1.2333264673E+001  +3.5121888214E-001 +1.7413001705E+000 
10145759.700 +3.2480408562E-001 +8.1950839247E+000  +1.8578540878E-001 -4.8543500415E+000  +1.8671711186E-001 +1.0320203109E+001  +3.4628720549E-001 +2.1616396668E+000 
10270904.881 +3.8706486552E-001 +1.0195448779E+001  +1.8629053381E-001 -4.0825542850E+000  +1.8649989339E-001 +1.1511376231E+001  +3.3669495140E-001 +7.3382343102E+000 
10396050.063 +3.2109348098E-001 +1.1326094478E+001  +1.9005284317E-001 -4.0643175573E+000  +1.8556502887E-001 +1.1500426054E+001  +4.1146482093E-001 +3.8202590168E+000 
10521195.244 +3.8728277348E-001 +1.0675604382E+001  +1.9179080822E-001 -2.2109156254E+000  +1.8834203296E-001 +1.1704453309E+001  +4.1939298340E-001 -7.6286597281E-001 
10646340.426 +3.6705501521E-001 +1.2812130631E+001  +1.9134256292E-001 -3.3798557106E+000  +1.8939152578E-001 +1.1684098885E+001  +3.8922690048E-001 +5.8066880688E+000 
10771485.607 +4.0711107895E-001 +1.4224819853E+001  +1.9383664264E-001 -2.1403050002E+000  +1.8957276513E-001 +1.2219859897E+001  +3.8437128990E-001 +6.7497241453E+000 
10896630.788 +3.7660081199E-001 +1.6208895147E+001  +1.9093238199E-001 -1.9891781600E+000  +1.8843977855E-001 +1.1585739596E+001  +3.9814991518E-001 +7.6660785935E+000 
11021775.970 +4.0271155886E-001 +1.4028959443E+001  +1.9219304819E-001 -1.8879159556E+000  +1.9336825476E-001 +1.1859332889E+001  +4.1671276186E-001 +9.9448561718E+000 
11146921.151 +4.2126896709E-001 +1.4905704828E+001  +1.9305926407E-001 -9.7137143310E-001  +1.9344172102E-001 +1.1752962788E+001  +4.2786950637E-001 +1.1736133122E+001 
11272066.333 +4.3795614475E-001 +7.7111795718E+000  +1.9937620258E-001 -1.2809093186E+000  +1.9631480638E-001 +1.1603319741E+001  +4.1963354462E-001 +1.1961954375E+001 
11397211.514 +4.1333235931E-001 +1.3513342157E+001  +1.9917111467E-001 -7.3080515780E-001  +1.9726470691E-001 +1.0941168506E+001  +4.2072918691E-001 +7.4821680463E+000 
11522356.696 +4.2955448271E-001 +1.0256386377E+001  +2.0255866921E-001 -1.1817288547E+000  +1.9943134740E-001 +1.1101855697E+001  +4.3108032135E-001 +5.1695173617E+000 
11647501.877 +4.1594313294E-001 +1.0034937858E+001  +2.0386376087E-001 -4.2782940301E-001  +2.0222762936E-001 +1.1827018274E+001  +4.5964710857E-001 +6.6020198527E+000 
11772647.059 +4.5231940659E-001 +1.0540135575E+001  +2.0497972545E-001 +1.5719319432E-002  +2.0442702653E-001 +1.0478983135E+001  +4.3459637088E-001 +7.3171412938E+000 
11897792.240 +4.2658222569E-001 +9.9858975938E+000  +2.0693252691E-001 -1.1669989558E-001  +2.0524365456E-001 +9.7903596463E+000  +4.4382484869E-001 +6.0387863234E+000 
12022937.422 +4.5007780240E-001 +9.6790209481E+000  +2.0846408070E-001 -3.3536137352E-001  +2.0886014580E-001 +1.0158758255E+001  +4.4767901197E-001 +5.7623210917E+000 
12148082.603 +4.8990141399E-001 +1.1313766569E+001  +2.1049871998E-001 +8.6234918361E-001  +2.0751955904E-001 +1.0451099766E+001  +4.6413906652E-001 +6.8936933442E+000 
12273227.785 +4.6780254673E-001 +7.5625504694E+000  +2.1406687456E-001 +6.3805548194E-001  +2.1370298418E-001 +9.4458024445E+000  +4.9486459880E-001 +4.6137528493E+000 
12398372.966 +4.7124536458E-001 +8.2425583067E+000  +2.1802957576E-001 +1.1720325472E+000  +2.1359134391E-001 +8.9195810941E+000  +5.1194208852E-001 +4.0884121345E+000 
12523518.148 +5.1199200139E-001 +7.0891595251E+000  +2.1942280964E-001 +1.4665584907E+000  +2.1520351044E-001 +8.9394229470E+000  +4.9500058854E-001 +5.2942875505E+000 
12648663.329 +5.2259665305E-001 +6.8582814434E+000  +2.2070161032E-001 +1.4226341017E+000  +2.1963291481E-001 +7.8221643718E+000  +4.9882949923E-001 +5.3457229533E-001 
12773808.511 +5.1928088118E-001 +3.8099804629E+000  +2.2365399991E-001 +1.6832837183E+000  +2.2077792318E-001 +7.7517587115E+000  +5.2739418450E-001 +3.7822824921E+000 
12898953.692 +5.4898994858E-001 +4.4143492672E+000  +2.2809153029E-001 +1.8856032040E+000  +2.2366872746E-001 +7.1931643857E+000  +5.5551063139E-001 -1.2962982486E-001 
13024098.874 +5.5595356695E-001 +3.4903961404E+000  +2.2965514276E-001 +2.0875877613E+000  +2.2653009036E-001 +7.1698455196E+000  +5.8316292271E-001 +3.2902129695E-001 
13149244.055 +5.6861883271E-001 +2.6583134080E+000  +2.3155922685E-001 +2.0249163429E+000  +2.3072295123E-001 +6.3981536023E+000  +5.7513707980E-001 +1.9107228226E+000 
13274389.237 +5.6481847286E-001 +3.3398251948E+000  +2.3133810380E-001 +1.8742275565E+000  +2.2808056159E-001 +5.8772509995E+000  +5.9811802705E-001 +2.9083839480E+000 
13399534.418 +6.0779057881E-001 -3.8801243979E-001  +2.3728588595E-001 +2.0481638896E+000  +2.3542329289E-001 +5.2779010640E+000  +5.9369548516E-001 -8.6701611705E-001 
13524679.599 +6.2354584234E-001 +7.6574805364E-001  +2.3754185176E-001 +2.2376771543E+000  +2.3516395138E-001 +5.1870016507E+000  +6.1289798725E-001 -6.5889201572E-001 
13649824.781 +6.4025309023E-001 -8.8914146968E-001  +2.4127664809E-001 +1.7983191155E+000  +2.3945801678E-001 +5.0411981748E+000  +6.3188120715E-001 -3.4061502681E+000 
13774969.962 +6.4073272684E-001 -1.5943023964E+000  +2.4397487978E-001 +1.8548684059E+000  +2.4129958706E-001 +3.9440686218E+000  +6.5207351165E-001 -3.9588641498E+000 
13900115.144 +6.3554430079E-001 -2.6802070461E+000  +2.4327644698E-001 +1.6958862992E+000  +2.4134014542E-001 +2.9346586733E+000  +6.4300922780E-001 -2.9602872373E+000 
14025260.325 +6.8180675110E-001 -1.4673717883E+000  +2.4677667949E-001 +1.9270120020E+000  +2.4263593718E-001 +3.8994397267E+000  +6.9400702556E-001 -3.5085569217E+000 
14150405.507 +7.2222442240E-001 -3.2550958245E+000  +2.4669497923E-001 +1.9825396251E+000  +2.4383460425E-001 +3.1076406966E+000  +6.8394028152E-001 -2.7253819620E+000 
14275550.688 +6.8679084295E-001 -3.4036741872E+000  +2.4814845972E-001 +1.3132652391E+000  +2.4550302842E-001 +2.0221938898E+000  +7.1134107728E-001 -3.8472935475E+000 
14400695.870 +7.2399822850E-001 -5.1217505479E+000  +2.4943969470E-001 +1.1835888691E+000  +2.4663619618E-001 +1.6899330485E+000  +7.1733541060E-001 -4.6264166554E+000 
