!  2-Port S-parameters saved by WinCal
! VAR MeasName=S-Parameters (CALIBRATED_DATA) read from VNA (P5004A)
! VAR MeasDate=29/08/2024 10:57:47
! VAR NAME=S2_r9c2_RESET6_9k-100M_3
! VAR FILENAME=S2_r9c2_RESET6_9k-100M_3.S2P
! VAR DATE=29/08/2024 10:57:47
! VAR PHYS_PORTS=1,2
! VAR ObjTypeName=DATASET
! VAR IndexType=Frequency
!
# Hz S MA R 50
9000.000 +8.2016528023E-002 -1.6865554534E+002  +8.9511386060E-003 -1.6886816021E+002  +4.1445953567E-003 -1.4998847314E+002  +2.4005118234E-001 -1.5282793624E+002 
134145.181 +1.1141442714E-001 +1.6970168234E+002  +2.4324367639E-004 -4.8538972894E+001  +6.4378682044E-004 +1.3165149873E+002  +2.3815457320E-001 -1.7084826661E+002 
259290.363 +1.1248777467E-001 +1.7078643859E+002  +4.4329485430E-004 +2.2833293622E+001  +1.1536207477E-003 +1.0078801514E+002  +2.4678114865E-001 -1.6930250569E+002 
384435.544 +1.1425764479E-001 +1.7001916113E+002  +5.1428785332E-004 -7.4154194415E+001  +7.7477615772E-004 +7.6457758098E+001  +2.4269638125E-001 -1.6981093040E+002 
509580.726 +1.1287792955E-001 +1.7138489054E+002  +9.1779368620E-004 -9.5317058476E+001  +2.1907046435E-003 +2.8084610160E+001  +2.5065559564E-001 -1.6267415439E+002 
634725.907 +1.1733750240E-001 +1.7191121806E+002  +5.7764716213E-004 -1.1844095150E+002  +9.5293174081E-004 -1.1228986895E+002  +2.8213958289E-001 -1.6186642184E+002 
759871.089 +1.1909842238E-001 +1.7201955656E+002  +7.4026004805E-004 -1.3729371985E+002  +1.0291076286E-003 +2.6814520670E+001  +2.4196544956E-001 -1.6491906781E+002 
885016.270 +1.2170465568E-001 +1.6962915450E+002  +4.6224107528E-004 -8.4991035688E+001  +7.0559684476E-005 +6.1679599839E+001  +2.4215386962E-001 -1.6711327946E+002 
1010161.452 +1.1795486889E-001 +1.7119889895E+002  +8.9637928744E-004 -4.7063002634E+001  +1.0327350853E-003 +1.7628691020E+002  +2.1477451034E-001 -1.7081289132E+002 
1135306.633 +1.1681623486E-001 +1.7003500957E+002  +5.3760288644E-004 -1.0291610638E+002  +6.8335359654E-004 +9.1887590507E+001  +2.0324040718E-001 -1.6923926854E+002 
1260451.815 +1.1674027547E-001 +1.6917730241E+002  +3.1302762816E-003 -9.6575551455E+001  +1.1559928955E-003 -1.7250403879E+002  +1.6693758507E-001 -1.6006267937E+002 
1385596.996 +1.2451008331E-001 +1.7416834193E+002  +1.1779809485E-003 -4.7122514276E+001  +1.3998222028E-003 +9.5167703471E+001  +2.5642283422E-001 -1.5399858541E+002 
1510742.178 +1.2779600427E-001 +1.7136274627E+002  +9.8619684289E-004 -9.5089244810E+001  +9.1413952142E-004 -1.1064763503E+001  +2.5576751973E-001 -1.5884350763E+002 
1635887.359 +1.2519882456E-001 +1.7194478699E+002  +2.2210479032E-003 -2.4922365400E+001  +8.0986089057E-004 -9.7780283883E+001  +2.3044684158E-001 -1.5884098116E+002 
1761032.541 +1.2640545033E-001 +1.6982588528E+002  +1.6184120944E-003 -1.2446636004E+002  +8.9243479963E-004 +1.1274826213E+002  +2.2910465549E-001 -1.5894955819E+002 
1886177.722 +1.3274056161E-001 +1.6930620619E+002  +1.3763189593E-003 +9.0961266525E+001  +1.5200969869E-003 -3.9322860457E+001  +2.1808146442E-001 -1.6346147619E+002 
2011322.904 +1.3036400452E-001 +1.6633481792E+002  +4.0488409722E-003 +1.0663542879E+002  +1.3597220041E-003 -1.7313913042E+002  +1.5532080795E-001 -1.6943003632E+002 
2136468.085 +1.2238476553E-001 +1.6578565681E+002  +4.4018377997E-003 +1.4819305179E+000  +4.5985353790E-003 -8.2497460277E+001  +2.0950876232E-001 -1.5470249126E+002 
2261613.267 +1.3007631148E-001 +1.6864561093E+002  +6.7024153186E-003 +7.7370010077E+001  +3.7204673307E-003 -1.3139052118E+002  +2.1825797936E-001 +1.4858064223E+002 
2386758.448 +1.3638307445E-001 +1.6552417075E+002  +1.3117922940E-003 +3.3629165880E+001  +2.9092469641E-003 -2.2901858353E+001  +1.4107122940E-001 -1.7177537517E+002 
2511903.630 +1.3254713949E-001 +1.6330997011E+002  +7.1813537468E-003 -6.2681475166E+000  +4.3012963222E-003 -1.0725103298E+002  +1.7291658959E-001 -1.6355067552E+002 
2637048.811 +1.3001330992E-001 +1.6426401928E+002  +5.3546546485E-003 -2.5371567044E+001  +1.2846680639E-002 -9.5691283816E+001  +1.1254488282E-001 -7.4288510679E+001 
2762193.992 +1.0178765773E-001 +1.7490522294E+002  +5.7738892821E-002 +4.7304141219E+001  +4.7773235761E-002 -5.9177244705E+001  +6.8720604439E-001 +9.1306703451E+001 
2887339.174 +1.3163470115E-001 +1.7527470480E+002  +1.5962147396E-002 -1.8004130608E+001  +1.1579522322E-002 -1.4972602951E+002  +1.6121023964E-001 -1.0150655240E+002 
3012484.355 +1.2440845645E-001 +1.7689607156E+002  +8.0056762686E-003 -7.7981273794E+001  +9.2068233749E-003 -1.5399419077E+002  +1.1985675963E-001 -8.7879119067E+001 
3137629.537 +1.3287333275E-001 +1.7107156227E+002  +1.5519419707E-002 -2.4855533105E+001  +1.0574605240E-002 -1.4277018867E+002  +2.9688934900E-001 -7.5869013966E+001 
3262774.718 +1.3013439476E-001 +1.6742093884E+002  +1.7847162847E-002 -2.6576865920E+001  +3.1252829632E-002 -1.2201402190E+002  +4.7285158867E-001 -7.4045389803E+001 
3387919.900 +1.5254765121E-001 +1.6040595107E+002  +1.0239896513E-002 -1.6221037652E+001  +3.1611467620E-003 -1.1755053003E+002  +2.1821275765E-001 -1.1072070000E+002 
3513065.081 +1.4194125208E-001 +1.4526627866E+002  +5.8701410513E-002 +8.9127760039E+001  +4.7245739861E-002 +5.8146628245E+001  +9.1038163083E-001 +1.0347892623E+002 
3638210.263 +1.5421514407E-001 +1.4461071363E+002  +2.4867178055E-002 +6.4089800859E+001  +4.2349135197E-002 +9.5473989159E+000  +5.4979110145E-001 +1.0096892815E+002 
3763355.444 +1.9031761714E-001 +1.4631913213E+002  +2.6294013689E-002 +7.9455456378E+001  +2.4261798433E-002 +1.4235204816E+001  +5.4962492169E-001 +8.7111321265E+001 
3888500.626 +1.5860122379E-001 +1.5794432775E+002  +2.4244151728E-002 +8.1312682657E+001  +2.0276522093E-002 -5.5719356902E+000  +4.4983752349E-001 +9.9976477009E+001 
4013645.807 +1.8991354157E-001 +1.4608898589E+002  +2.1367979803E-002 +7.5003220960E+001  +6.2618598147E-003 +6.5081649442E+001  +2.3465299272E-001 +1.2716900377E+002 
4138790.989 +1.9621794710E-001 +1.5262670692E+002  +1.3789239003E-002 +1.4673049777E+002  +1.4017651287E-002 +4.9242291193E+001  +6.6601832229E-001 +1.5105896388E+002 
4263936.170 +2.0891900267E-001 +1.5156742902E+002  +1.1662942019E-002 +8.0969113089E+001  +1.4778775896E-002 +3.8687513170E+001  +5.9308609947E-001 +1.3054649057E+002 
4389081.352 +2.1542269059E-001 +1.4453142398E+002  +1.9837831045E-002 +1.1422849592E+002  +2.4376269625E-002 +2.6626096001E+001  +5.6250943522E-001 +1.2470349500E+002 
4514226.533 +2.0022539668E-001 +1.4350977642E+002  +1.3294280953E-002 +4.3311935346E+001  +1.8972126257E-002 +2.8242505732E+001  +3.1773450374E-001 +1.0978274708E+002 
4639371.715 +2.6873352716E-001 +1.3301921928E+002  +6.5130697255E-002 +1.0906823503E+002  +1.1043837376E-001 +5.8528892763E+001  +1.8421913338E+000 +9.1303165602E+001 
4764516.896 +3.8016559813E-001 +1.2347270613E+002  +4.0910693035E-001 -5.8933122446E+000  +4.3056505786E-001 -5.5992637715E+001  +7.1119598261E+000 -5.7296898756E+001 
4889662.078 +3.2876375231E-001 +1.1794455148E+002  +1.4385852397E-001 -1.5905864353E+001  +2.9176642736E-001 -4.8982892159E+001  +3.2211256895E+000 -4.5741530264E+001 
5014807.259 +2.5199983751E-001 +1.1936222736E+002  +1.7689548843E-001 +1.4823434378E+002  +1.3903717490E-001 +9.0415090727E+001  +3.4797542637E+000 +1.4436754643E+002 
5139952.441 +3.7336382539E-001 +1.1558078126E+002  +1.1757297047E-001 +1.2162506868E+002  +1.1190837757E-001 +7.0426786112E+001  +1.9231425551E+000 +1.0498724386E+002 
5265097.622 +3.6710329435E-001 +1.2615459388E+002  +1.2461740848E-001 +1.2473472081E+002  +6.9457588054E-002 +7.3504888591E+001  +2.3489441123E+000 +1.0300997026E+002 
5390242.804 +4.2414775191E-001 +1.3427044698E+002  +5.3459704549E-002 +1.0158490358E+002  +7.5779412487E-002 +5.1821892657E+001  +1.8826734366E+000 +5.9284924029E+001 
5515387.985 +4.4049554916E-001 +1.2883149992E+002  +5.9222494641E-002 +1.3431788348E+002  +6.3405723241E-002 +7.5263005768E+001  +2.7268715088E+000 +9.6638600861E+001 
5640533.166 +4.3913452404E-001 +1.3243820502E+002  +4.0238368981E-002 +9.7546728864E+001  +4.7991929885E-002 +7.1094487825E+001  +1.5626048137E+000 +9.3839023628E+001 
5765678.348 +4.5510276907E-001 +1.3256779444E+002  +6.7526404142E-002 +5.9290690040E+001  +9.3807427745E-002 +8.9178599481E+001  +4.0985323116E+000 +7.4223332950E+001 
5890823.529 +5.6002239794E-001 +1.2624041736E+002  +9.4663645739E-002 +9.8354954400E+001  +5.4924843645E-002 +7.7953760340E+001  +1.9848918236E+000 +8.2328756475E+001 
6015968.711 +5.3351949391E-001 +1.1851910621E+002  +5.1428105260E-002 +5.9220396366E+001  +4.9907009505E-002 +2.1690019275E+001  +1.4600668929E+000 +4.0808336646E+001 
6141113.892 +6.8105037286E-001 +1.1262325703E+002  +8.9807117966E-002 +3.2028849828E+001  +5.6490713272E-002 +1.4529302294E+001  +1.6873406485E+000 +2.9560854448E+001 
6266259.074 +6.8029722712E-001 +1.0310481411E+002  +8.1361723351E-002 +5.0766144820E+001  +7.6841594215E-002 +2.1813855140E+001  +1.9373707518E+000 +3.1518852222E+001 
6391404.255 +9.7251854383E-001 +9.4809752443E+001  +7.7304730995E-002 +4.6415497554E+001  +1.0009028953E-001 +3.8719513353E+001  +1.5913216306E+000 +1.4234849816E+001 
6516549.437 +1.0504242041E+000 +8.2711062901E+001  +1.1104783604E-001 +2.4876758425E+001  +8.9039970637E-002 +1.4066520334E+001  +1.3335230507E+000 +7.8190640291E+000 
6641694.618 +1.6888609002E+000 +7.7497738542E+001  +1.1848249527E-001 +3.7016594186E+001  +1.2285720736E-001 +2.9689888885E+001  +1.2619714291E+000 -6.5153344332E+000 
6766839.800 +1.9489418382E+000 +6.0866828692E+001  +1.3086794790E-001 +2.5953703549E+001  +1.2433780473E-001 +1.8808792484E+001  +1.2719001567E+000 -3.0465608161E-001 
6891984.981 +1.7172439214E+000 +4.9148771306E+001  +1.2008083111E-001 +1.3119209673E+001  +8.1435628291E-002 +2.0309993175E+001  +1.0946563191E+000 -4.2585950439E+000 
7017130.163 +1.7635586096E+000 +2.1259740708E+001  +8.6749550503E-002 -2.3051016585E+000  +7.1156345755E-002 -4.4022310532E+000  +1.2631804214E+000 -8.4554703270E+000 
7142275.344 +1.6638463413E+000 +1.1037989372E+001  +9.6444750219E-002 +9.4624080441E-001  +8.5761471398E-002 +5.5798353086E-001  +1.3279982430E+000 -1.1715907384E+001 
7267420.526 +1.3541362302E+000 +3.6317506354E+000  +6.4136369223E-002 +3.8674219395E+000  +6.5718780056E-002 -1.2896980592E-001  +1.3416818427E+000 -1.0456461960E+001 
7392565.707 +1.1391460399E+000 -1.9084681079E+000  +5.7107348101E-002 +1.8223243865E+000  +6.1106174062E-002 +6.6594130608E+000  +1.1710267732E+000 -1.2969769370E+001 
7517710.889 +1.1359998870E+000 -2.6720112036E+000  +3.9853580809E-002 +1.2267099884E+001  +4.8862656772E-002 +8.2799402113E+000  +1.1844451673E+000 -3.8593944341E+000 
7642856.070 +8.6966375426E-001 +2.1546460634E+000  +4.4436104823E-002 -1.0536959853E+000  +3.4922154312E-002 +2.7695228985E+000  +1.0661558745E+000 -9.2806329230E+000 
7768001.252 +8.6766695053E-001 +5.9388354117E+000  +3.2465923463E-002 -3.9980820842E+000  +3.8997548102E-002 +4.0046497258E+000  +9.6397281729E-001 -6.0011858425E+000 
7893146.433 +8.8172141429E-001 +3.0991283342E+000  +3.6053549753E-002 +2.0825157108E+000  +4.2966934228E-002 +1.7350119423E+001  +8.0069837934E-001 -4.1298645281E+000 
8018291.615 +7.0547435084E-001 +4.9759150306E+000  +3.5490355002E-002 -2.4349247325E+000  +3.0847822762E-002 +1.5388909461E+001  +8.1647763393E-001 -7.0687921947E+000 
8143436.796 +8.1311839882E-001 +1.4448555324E+001  +3.7258388590E-002 +8.0841927248E-001  +4.1024522045E-002 +1.0924014621E+001  +8.0776694506E-001 +2.9840320824E+000 
8268581.977 +6.9323351308E-001 +9.3170075661E+000  +3.4924198445E-002 +2.0695746871E+000  +3.3374723567E-002 +1.4108444226E+001  +8.2415574817E-001 +6.7867597931E-001 
8393727.159 +6.6427945013E-001 +7.9608883721E+000  +3.5307553431E-002 +4.7970536584E+000  +3.7231804437E-002 +9.6703897770E+000  +5.8164687177E-001 -5.5584308516E-001 
8518872.340 +5.8661744668E-001 +1.6964070520E+001  +3.1878817757E-002 -4.8544980698E+000  +3.6734317078E-002 +1.1298674815E+001  +6.3199007166E-001 +2.7134166110E+000 
8644017.522 +5.6939317686E-001 +5.9834463711E+000  +3.2234985240E-002 -9.1700041928E+000  +3.7926763318E-002 +4.4593419789E+000  +6.7943787503E-001 -2.5384902533E+000 
8769162.703 +5.9317572671E-001 +1.1830872436E+001  +3.3358602499E-002 +1.0224204906E+000  +3.5277052803E-002 +7.9612205633E+000  +6.6583714326E-001 -6.0588108032E-001 
8894307.885 +5.7513548064E-001 +5.9777482945E+000  +3.4165265155E-002 +8.5097917609E-001  +3.2027392381E-002 +8.6610230494E+000  +6.3779915135E-001 +1.4339779701E+000 
9019453.066 +5.6076713698E-001 +8.6665020943E+000  +3.3983310301E-002 -1.8947050209E+000  +3.4574259753E-002 +1.2623091353E+001  +6.7606373684E-001 -6.1826625323E+000 
9144598.248 +5.0133761853E-001 +7.4587533207E+000  +3.1262670253E-002 -6.9109421429E+000  +3.3079191201E-002 +1.4332670239E+001  +6.0048709336E-001 +4.2768622659E-001 
9269743.429 +5.0174741347E-001 +4.0963271991E+000  +3.0363267112E-002 -4.9808515073E+000  +3.2170024364E-002 +8.2989577060E+000  +5.7040247226E-001 +2.9274472966E+000 
9394888.611 +4.9754003079E-001 +3.8093285887E+000  +3.3261957413E-002 -1.0285740884E+000  +3.4731187890E-002 +1.4507486542E+001  +5.5583269505E-001 -2.4260182372E+000 
9520033.792 +5.6087369930E-001 +2.4513772703E+000  +3.2577591528E-002 -4.1917430764E+000  +3.2104869896E-002 +1.5077297128E+001  +5.5486731606E-001 -2.2003537945E+000 
9645178.974 +5.1829334201E-001 +7.1848738859E+000  +3.1088512945E-002 -2.5630791878E+000  +3.5317126011E-002 +1.1259791119E+001  +5.3974553164E-001 -1.0173187396E+000 
9770324.155 +4.9826365141E-001 +1.9137999420E+000  +3.3923359503E-002 -5.5476627765E+000  +3.2775967510E-002 +1.0644902652E+001  +5.2632294834E-001 -4.4228526869E+000 
9895469.337 +5.0239876828E-001 +2.0668642306E+000  +3.2249093706E-002 -1.3820137604E+000  +3.2739348724E-002 +1.4462813902E+001  +5.1169162116E-001 -6.1846105013E+000 
10020614.518 +5.2092538552E-001 +5.7179908718E+000  +3.5127412876E-002 -4.1823001366E+000  +3.3124142333E-002 +1.5789943677E+001  +5.0532630849E-001 -4.8798752179E+000 
10145759.700 +5.2988087264E-001 +4.5849735804E+000  +3.5292997484E-002 -1.8587437573E+000  +3.7085298661E-002 +1.2393066300E+001  +5.2673691715E-001 -8.3243773118E+000 
10270904.881 +5.5532604955E-001 +5.2787090969E+000  +3.7116277079E-002 +1.0648838693E+000  +3.5511459373E-002 +1.6682468440E+001  +5.7244485870E-001 -1.5876830948E+000 
10396050.063 +5.8247796479E-001 +3.6179869932E+000  +3.4281265280E-002 -3.0562950823E+000  +3.3053852413E-002 +1.5997205251E+001  +5.5415583556E-001 -3.7630886659E+000 
10521195.244 +5.2537877955E-001 +5.6939176818E+000  +3.5187276021E-002 -4.5549821235E-001  +3.5410066653E-002 +1.6594602665E+001  +5.8172608714E-001 -2.8920371655E+000 
10646340.426 +5.4132088820E-001 +9.1906378519E+000  +3.5600901857E-002 -5.4647884371E+000  +3.2889824550E-002 +2.0245921950E+001  +6.0177429286E-001 -1.4130642078E+000 
10771485.607 +5.2916825283E-001 +1.1218874064E+001  +3.6311525881E-002 +1.8358179753E+000  +3.5838114062E-002 +1.4214851483E+001  +5.9016917012E-001 +3.2733856903E+000 
10896630.788 +5.4330045472E-001 +8.1633271099E+000  +3.4918469008E-002 +1.3932558784E+000  +3.3713280576E-002 +1.4254641912E+001  +5.8728910740E-001 +1.6550029520E+000 
11021775.970 +5.4649232890E-001 +7.0086780459E+000  +3.4851521998E-002 +1.9901754637E+000  +3.4402035832E-002 +1.7093199542E+001  +5.9076034683E-001 +2.9775855383E+000 
11146921.151 +5.9005027710E-001 +8.7736286961E+000  +3.5922418574E-002 -1.0780377199E+000  +3.3864727311E-002 +1.4637133776E+001  +5.7760597666E-001 +3.7210388413E+000 
11272066.333 +5.7106933933E-001 +6.9402573748E+000  +3.7056530459E-002 -1.0807758131E+000  +3.7475038486E-002 +1.1363357017E+001  +5.9027320875E-001 +3.0212836466E+000 
11397211.514 +5.7707837085E-001 +6.4620765297E+000  +3.8876321423E-002 +9.7568510133E-001  +3.6069077960E-002 +7.0891491176E+000  +6.0290789217E-001 -4.1547116655E-001 
11522356.696 +6.1146081349E-001 +8.4805622318E+000  +3.8902559200E-002 +1.9235053137E+000  +3.8267646022E-002 +1.2977075629E+001  +6.3524496910E-001 +2.6591475693E+000 
11647501.877 +5.8333577078E-001 +7.8060219473E+000  +3.7930704886E-002 -1.4741890732E+000  +3.5288648410E-002 +1.1710251170E+001  +6.1577143179E-001 +3.4219151174E+000 
11772647.059 +6.2398135801E-001 +7.0743428328E+000  +3.6727270774E-002 -1.1292191880E+000  +3.6318496774E-002 +1.4834832341E+001  +6.0997786236E-001 +3.7170825172E+000 
11897792.240 +6.4625275008E-001 +6.4969168295E+000  +3.8754417023E-002 +1.8564188272E-001  +3.8782030768E-002 +1.2341208993E+001  +6.2788301164E-001 +1.5292460036E+000 
12022937.422 +6.1751479342E-001 +5.3373591763E+000  +3.7190441496E-002 +2.0307793690E+000  +3.8013688279E-002 +1.1069186982E+001  +6.3914449038E-001 +1.1261417272E+000 
12148082.603 +6.5356794274E-001 +5.7074459546E+000  +4.0443330856E-002 +4.4221904789E+000  +4.0343569139E-002 +1.2928574771E+001  +6.4686013579E-001 +2.7671479979E+000 
12273227.785 +6.4991866768E-001 +5.3728124008E+000  +3.9299808134E-002 +2.0849515846E+000  +3.8628552365E-002 +1.0252009029E+001  +6.7381474577E-001 -1.3177066373E+000 
12398372.966 +6.8039934246E-001 +3.4367862124E+000  +4.1253304931E-002 +1.1133793215E+000  +3.9327386482E-002 +1.3393102412E+001  +6.8323391727E-001 +3.4517093585E-001 
12523518.148 +7.0025960840E-001 +4.9313457152E+000  +4.1743886853E-002 +3.2213832398E+000  +4.1353023056E-002 +1.1586676777E+001  +7.1284317641E-001 -4.6386783763E-001 
12648663.329 +6.9734110988E-001 +2.0498188517E+000  +4.0970915084E-002 +4.6159671379E+000  +4.2113527186E-002 +1.0471470162E+001  +7.1685830989E-001 +8.0115032094E-001 
12773808.511 +7.1466239444E-001 +1.4068692886E+000  +4.0593893500E-002 +2.9504194259E+000  +4.2603648180E-002 +9.8104331062E+000  +7.1566328502E-001 -1.0226608491E+000 
12898953.692 +7.2968626209E-001 +4.1010455974E-003  +4.1393078925E-002 +1.3862475624E+000  +4.0163911992E-002 +9.0845310482E+000  +7.5046088674E-001 -5.9170478493E-001 
13024098.874 +7.5373046021E-001 +9.5423834728E-001  +4.2486982440E-002 +3.4604298704E+000  +4.2457608292E-002 +8.6345747662E+000  +7.6603827872E-001 -8.8024130079E-001 
13149244.055 +7.6558672232E-001 +1.4442712370E-001  +4.3676386493E-002 +2.3169344770E+000  +4.1972028357E-002 +5.8285953177E+000  +7.9219638051E-001 -2.2051958912E+000 
13274389.237 +7.5986870522E-001 +7.6435402483E-001  +4.3180303535E-002 +3.9182468036E+000  +4.2589832565E-002 +6.5095814597E+000  +8.1313173966E-001 -1.3642223930E+000 
13399534.418 +8.0632665965E-001 -1.3493876820E+000  +4.4665867167E-002 +4.3803484287E+000  +4.4071918893E-002 +6.7103385226E+000  +8.0974624894E-001 -2.4523171528E+000 
13524679.599 +8.1285350533E-001 -2.4487176689E+000  +4.5037603584E-002 +4.0079938812E+000  +4.3196058772E-002 +4.8593462717E+000  +8.5059166324E-001 -2.2405694040E+000 
13649824.781 +8.5445285994E-001 -2.1424892174E+000  +4.4272946631E-002 +3.1828528291E+000  +4.4076469275E-002 +4.5026523551E+000  +8.4288957904E-001 -4.1247897068E+000 
13774969.962 +8.4337109581E-001 -3.5344235018E+000  +4.5157327123E-002 +3.8898354263E+000  +4.4317375659E-002 +5.0732222520E+000  +8.5728107876E-001 -3.2086710930E+000 
13900115.144 +8.6113304912E-001 -2.5339937134E+000  +4.3421576203E-002 +3.2246783522E+000  +4.4517073456E-002 +3.5618779703E+000  +8.7145008775E-001 -3.5635624894E+000 
14025260.325 +8.9302498569E-001 -4.1441927243E+000  +4.5603162988E-002 +4.3622638995E+000  +4.4808683285E-002 +4.6409734841E+000  +8.9393089040E-001 -4.2800926425E+000 
14150405.507 +8.9181498436E-001 -4.6059479184E+000  +4.4017570775E-002 +2.4002626378E-001  +4.4132921658E-002 +5.9639281674E+000  +9.2134674578E-001 -4.0187319243E+000 
14275550.688 +9.1169831461E-001 -5.4528572990E+000  +4.5093571824E-002 +3.1468520215E+000  +4.6379762368E-002 +3.8265838064E-001  +9.2849687577E-001 -4.5914764907E+000 
14400695.870 +9.3919123961E-001 -6.6666979419E+000  +4.6184257654E-002 +4.7211763458E+000  +4.5531566081E-002 +4.2966599343E+000  +9.5102420967E-001 -5.8153497282E+000 
