!  2-Port S-parameters saved by WinCal
! VAR MeasName=S-Parameters (CALIBRATED_DATA) read from VNA (P5004A)
! VAR MeasDate=29/08/2024 11:13:14
! VAR NAME=S2_r9c3_RESET2_9k-100M_2
! VAR FILENAME=S2_r9c3_RESET2_9k-100M_2.S2P
! VAR DATE=29/08/2024 11:13:14
! VAR PHYS_PORTS=1,2
! VAR ObjTypeName=DATASET
! VAR IndexType=Frequency
!
# Hz S MA R 50
9000.000 +8.5405841111E-002 -1.3799845563E+002  +1.0654506978E-002 +4.7084983839E+001  +1.6368015430E-002 +1.7819049353E+000  +2.7666015533E-001 -1.4831891691E+002 
134145.181 +1.1079966604E-001 +1.6943822394E+002  +2.0877947859E-004 +1.3356931409E+002  +1.6234943764E-004 -1.0318644577E+002  +2.4464975100E-001 -1.7151967842E+002 
259290.363 +1.1244223888E-001 +1.6984107234E+002  +1.1088074584E-003 +1.8535095386E+001  +7.1726865278E-004 +7.2005875852E+001  +2.4126890153E-001 -1.7047066710E+002 
384435.544 +1.1270514454E-001 +1.7021538200E+002  +5.4111548134E-004 -7.9539511767E+001  +1.9317968263E-004 +6.5380491646E+001  +2.4407178796E-001 -1.6953755102E+002 
509580.726 +1.1423104733E-001 +1.7092213728E+002  +8.5401435155E-004 +4.4638889386E+001  +1.5477927215E-003 +1.6456173376E+002  +2.5218597943E-001 -1.6778944518E+002 
634725.907 +1.1792376918E-001 +1.7185750798E+002  +1.9463431166E-003 -1.4321798012E+002  +1.4927039949E-003 +7.0464641096E+001  +2.5592472596E-001 -1.6468686034E+002 
759871.089 +1.2055118194E-001 +1.7163894811E+002  +9.7670380212E-004 -1.1464849686E+002  +1.3931830363E-003 +7.2475471286E+001  +2.5171068890E-001 -1.6642617556E+002 
885016.270 +1.1945893203E-001 +1.6908599894E+002  +5.8340847565E-004 -5.0166401396E+001  +9.1161818285E-004 +6.2970731940E+001  +2.4739550199E-001 -1.6695515868E+002 
1010161.452 +1.1795938296E-001 +1.7056034057E+002  +1.4833244645E-003 -5.1115063826E+001  +1.9036250650E-003 +1.4677194777E+002  +2.0763252506E-001 -1.6774225995E+002 
1135306.633 +1.1336223464E-001 +1.6766891160E+002  +1.0779834311E-003 +1.7957132755E+002  +3.0955042411E-003 -1.4881314361E+002  +2.0422805697E-001 -1.6985893645E+002 
1260451.815 +1.1843326763E-001 +1.7020149664E+002  +1.7400581337E-003 -5.9489053322E+001  +2.0172404814E-003 +1.2381726185E+002  +2.0988292351E-001 -1.5599232077E+002 
1385596.996 +1.2716899610E-001 +1.7230862396E+002  +2.7115322515E-003 -1.2779400917E+002  +2.3207582542E-003 +1.0681008906E+002  +2.7029890611E-001 -1.5248865431E+002 
1510742.178 +1.2991849192E-001 +1.7294892211E+002  +3.5259944257E-004 -4.3313661621E+001  +6.0536245819E-004 +1.6151776337E+002  +2.4989025149E-001 -1.6106652466E+002 
1635887.359 +1.2792472542E-001 +1.7007238740E+002  +3.3452107177E-004 -1.0858101245E+002  +6.4998194877E-004 +6.2367156465E+001  +2.4877761254E-001 -1.5955214240E+002 
1761032.541 +1.3015316719E-001 +1.6945637820E+002  +1.7759905722E-004 +6.7655659651E+000  +1.1792704565E-003 -1.0459844338E+002  +2.4260749831E-001 -1.6034386315E+002 
1886177.722 +1.2774780950E-001 +1.6855761106E+002  +1.1164910568E-003 -1.4373265981E+002  +1.5927285359E-003 -8.9679576580E+001  +2.0870227861E-001 -1.6416175324E+002 
2011322.904 +1.3072019081E-001 +1.6486301998E+002  +3.2004364619E-003 +9.2398163936E+001  +4.1687709303E-003 -3.2044998056E+001  +2.0593252014E-001 -1.7021911137E+002 
2136468.085 +1.3272960552E-001 +1.6448791231E+002  +3.3472138974E-003 +9.0794526478E+001  +6.4573455667E-003 -1.4841891228E+001  +2.4316205575E-001 +1.7709886360E+002 
2261613.267 +1.3034314519E-001 +1.6442491929E+002  +6.3609909623E-003 +1.0343355385E+002  +7.7251515888E-003 -1.0824314259E+001  +2.0363605302E-001 +1.7732382824E+002 
2386758.448 +1.3752215767E-001 +1.6569368421E+002  +5.7553054268E-003 +1.0156018942E+002  +5.4579764030E-003 -3.1673530816E+001  +2.4085912013E-001 -1.7734759130E+002 
2511903.630 +1.3682288189E-001 +1.6354014785E+002  +1.5742709310E-002 +1.0135994209E+002  +1.6389702588E-002 -1.6193430465E+001  +2.5475204583E-001 +1.5194514355E+002 
2637048.811 +1.3826685710E-001 +1.5997638693E+002  +3.7370881622E-002 +4.4281405328E+001  +4.6466250640E-002 -3.7817031669E+001  +1.1500121035E-001 +1.3754151883E+000 
2762193.992 +1.2237739467E-001 +1.6839745123E+002  +2.6744900081E-002 +4.5569968708E+001  +2.9939507902E-002 -6.6457408859E+001  +1.5217677429E-001 +1.4762548035E+002 
2887339.174 +1.2410501944E-001 +1.7569091477E+002  +5.6112988068E-002 -3.3277313462E+001  +5.9195752903E-002 -1.3814573323E+002  +2.5500543413E-001 -6.7514195641E+001 
3012484.355 +1.3670663339E-001 -1.7972604794E+002  +1.3986670714E-001 +4.1116168679E+000  +2.0372938418E-001 -8.8904606260E+001  +1.4612590973E+000 +3.0691619510E+001 
3137629.537 +1.1988004813E-001 +1.6321552772E+002  +3.3613227148E-002 +1.1215344171E+001  +3.8345581159E-002 -7.2816860428E+001  +1.0257004745E-001 -7.1973667316E+001 
3262774.718 +1.4841026988E-001 +1.6676704089E+002  +2.8115971615E-002 +7.1102123136E+001  +2.8221034723E-002 -3.5617039074E+001  +3.1014082332E-001 +9.9322318636E+001 
3387919.900 +1.3213973124E-001 +1.5737462817E+002  +5.8172361605E-002 +4.5341999179E+001  +4.7089532726E-002 -5.7252389682E+001  +2.1453080851E-001 +7.2143461117E+001 
3513065.081 +1.6976085955E-001 +1.5063183508E+002  +6.8974815041E-002 +1.1272393631E+002  +5.2171138252E-002 +2.4159618717E+001  +5.4036632002E-001 +1.1570439109E+002 
3638210.263 +1.6628004260E-001 +1.3103927395E+002  +1.8912064583E-001 +1.6580047642E+002  +1.3800882649E-001 +7.2075328957E+001  +1.4938765601E+000 +1.4850311119E+002 
3763355.444 +1.8178971680E-001 +1.4782536583E+002  +3.7506447457E-002 +1.1943693845E+002  +2.9373781568E-002 +4.1033185815E+001  +4.3778381364E-001 +1.5265972333E+002 
3888500.626 +1.4720589163E-001 +1.5388184029E+002  +3.1143705866E-002 +1.0014024478E+002  +2.9857091091E-002 +9.8620714504E+000  +3.7816527718E-001 +1.5917465766E+002 
4013645.807 +1.6962423462E-001 +1.5530735138E+002  +5.0299098238E-002 +6.0182300681E+001  +3.7544262086E-002 -8.6939871929E+000  +3.0012920155E-001 +9.1731238412E+001 
4138790.989 +1.8585701333E-001 +1.4946494969E+002  +3.8076955099E-002 +7.2187543681E+001  +4.0456221133E-002 +1.1834018906E+001  +2.6018879638E-001 +1.2023845449E+002 
4263936.170 +1.9723445864E-001 +1.4815904877E+002  +3.5895048678E-002 +7.8345064806E+001  +2.8981996902E-002 +1.2708432632E+001  +2.5707877283E-001 +1.4895043685E+002 
4389081.352 +2.1895469331E-001 +1.4465921522E+002  +6.7380105530E-002 +1.0563698019E+002  +6.3793039605E-002 +4.3687204460E+001  +5.9072508594E-001 +1.2251578607E+002 
4514226.533 +1.9094238370E-001 +1.2597151115E+002  +1.5670283728E-001 +8.9417535987E+001  +1.8390255757E-001 +2.3803993650E+001  +1.2172921946E+000 +8.2298366773E+001 
4639371.715 +3.3111142023E-001 +1.2195787722E+002  +3.0075797888E-001 +1.1893526650E+002  +1.9765468298E-001 +7.4531360686E+001  +1.5295250937E+000 +1.0035283822E+002 
4764516.896 +3.1208229293E-001 +1.3220977885E+002  +1.8808811378E-001 -1.7483855859E+002  +1.7027754094E-001 +1.4691738789E+002  +2.1005516277E+000 +1.6441179739E+002 
4889662.078 +4.0334868525E-001 +1.4109890359E+002  +8.4930196597E-001 -1.1365883370E+002  +8.3156012890E-001 -1.6599185832E+002  +6.0141591409E+000 -1.6053659185E+002 
5014807.259 +3.3902709768E-001 +1.3055679028E+002  +4.3398091285E-001 -5.9435792457E+001  +3.7554114529E-001 -1.0349293298E+002  +4.1326639351E+000 -1.1149764078E+002 
5139952.441 +3.8150803700E-001 +1.3216100003E+002  +3.1096053180E-001 +1.3378138692E+002  +2.9265352054E-001 +8.4818691489E+001  +2.7644868998E+000 +1.0771097831E+002 
5265097.622 +3.4884933555E-001 +1.2711568974E+002  +1.8402012296E-001 +1.1611159860E+002  +1.7884846969E-001 +7.0537809729E+001  +1.5898446264E+000 +1.0443137369E+002 
5390242.804 +3.6316940043E-001 +1.3462465541E+002  +1.3659580731E-001 +1.0755430379E+002  +1.2685508093E-001 +7.5615659683E+001  +1.4168276751E+000 +1.1569858149E+002 
5515387.985 +4.0772498257E-001 +1.3071609714E+002  +2.1591214077E-001 +1.0094709920E+002  +2.0490250673E-001 +6.9072767027E+001  +2.0270475158E+000 +8.6032599894E+001 
5640533.166 +4.8191725373E-001 +1.1664991360E+002  +1.6874638960E-001 +1.0475081968E+002  +1.7771798695E-001 +7.6885216930E+001  +1.3127385342E+000 +1.1019906763E+002 
5765678.348 +5.0785260171E-001 +1.3181384532E+002  +1.5157468692E-001 +1.2000428937E+002  +1.2955142137E-001 +8.9195642614E+001  +1.4617808088E+000 +1.1077276786E+002 
5890823.529 +5.0668194436E-001 +1.2558624522E+002  +1.7431591347E-001 +6.8237619795E+001  +1.6606138732E-001 +5.1967648752E+001  +1.3317100026E+000 +6.1786141808E+001 
6015968.711 +4.9823632408E-001 +1.1426741254E+002  +2.2264456193E-001 +5.3532246892E+001  +2.1573027237E-001 +3.1811758848E+001  +1.6194406678E+000 +4.6626677599E+001 
6141113.892 +7.2028786295E-001 +1.0611597277E+002  +2.7056682379E-001 +6.7859266921E+001  +2.4354274606E-001 +4.1787112881E+001  +1.4961887706E+000 +5.7884434265E+001 
6266259.074 +7.1265055332E-001 +1.0784673833E+002  +2.0509696433E-001 +6.7057107017E+001  +1.9657490817E-001 +4.9867880914E+001  +1.2971163578E+000 +5.8452009856E+001 
6391404.255 +9.9699480648E-001 +9.3316449389E+001  +3.0247798493E-001 +4.6039889533E+001  +3.0058469228E-001 +3.3812039387E+001  +1.6375761371E+000 +2.2286777091E+001 
6516549.437 +9.6670880707E-001 +8.6779201301E+001  +2.6299788567E-001 +4.0768830554E+001  +2.4464297075E-001 +2.9498419708E+001  +1.2999461197E+000 +2.1579342930E+001 
6641694.618 +8.7776695226E-001 +6.3228279766E+001  +2.5798416897E-001 +1.9960032278E+001  +2.6917747624E-001 +5.2561679129E+000  +1.4633613590E+000 +1.3021330679E+001 
6766839.800 +9.9169519569E-001 +4.6384073735E+001  +2.2338418342E-001 +1.7493513083E+000  +2.4713477409E-001 -1.8268862282E+000  +1.1346520374E+000 -5.3959857549E+000 
6891984.981 +1.0767581647E+000 +4.7652975611E+001  +2.4064417489E-001 +9.7700045744E+000  +2.2745834452E-001 +3.7429172268E+000  +1.2583454557E+000 -9.3375696723E-001 
7017130.163 +1.6380138257E+000 +1.1384587076E+001  +2.7209259959E-001 -4.1853254329E+000  +2.6509752884E-001 -5.0284533975E+000  +1.2957275672E+000 -1.4784317247E+001 
7142275.344 +1.1928600126E+000 +8.9023766324E+000  +2.0579093066E-001 -2.6461188232E+000  +2.1622670392E-001 -7.8015968660E+000  +1.2424451716E+000 -8.3246120607E+000 
7267420.526 +1.1693531564E+000 -2.9473076167E+000  +1.7271222565E-001 -3.5467824121E+000  +1.7307131663E-001 -4.7463687948E+000  +1.0998849817E+000 -8.0255381608E+000 
7392565.707 +1.0797339326E+000 -1.1054315096E+000  +1.5541025688E-001 +2.6998657232E+000  +1.4178557612E-001 +6.8877368767E+000  +1.2411620056E+000 -7.6372350748E+000 
7517710.889 +9.1302316752E-001 -1.9744998557E+000  +1.3209908236E-001 -6.2377109396E-001  +1.2712395881E-001 +6.4672738171E-001  +9.4764507935E-001 -9.2651974615E+000 
7642856.070 +8.0450489514E-001 -2.2347491399E+000  +1.2275389799E-001 -1.0896275273E+000  +1.2599721725E-001 +3.9964888582E+000  +8.7281469775E-001 -6.2018450185E+000 
7768001.252 +8.2340736480E-001 +3.3593600253E+000  +1.2833353986E-001 +6.9031232087E-001  +1.2076988845E-001 +4.5702595970E+000  +8.7290022707E-001 -4.2540447627E-001 
7893146.433 +7.5505167033E-001 +1.0414818915E+001  +1.1451510336E-001 -2.1307453805E+000  +1.1766811348E-001 +6.4125402278E+000  +7.4572583116E-001 -7.2243587265E+000 
8018291.615 +7.3782596837E-001 +6.0270838651E+000  +1.2035556448E-001 +3.1621452533E+000  +1.0881044848E-001 +5.1662888814E+000  +6.6082937785E-001 -2.5842359902E+000 
8143436.796 +6.4486269652E-001 +1.0101589608E+001  +1.1083741923E-001 -5.0225130167E+000  +1.0678753466E-001 +7.8854007035E+000  +6.1000746351E-001 +5.0337161908E+000 
8268581.977 +6.0644457065E-001 +1.1519795854E+001  +1.0968960299E-001 -2.7214543547E+000  +1.0532271548E-001 +8.8609616803E+000  +7.0805977940E-001 +3.7302897726E+000 
8393727.159 +6.4792877732E-001 +8.6062349417E+000  +1.1059691893E-001 -3.2972495173E+000  +1.0983607235E-001 +6.8319611704E+000  +6.2906466272E-001 +5.4913506661E-001 
8518872.340 +5.5371735473E-001 +1.3587324646E+001  +1.0489063937E-001 -3.2252792544E+000  +1.0553073790E-001 +9.4872670060E+000  +5.5166644727E-001 +3.8351270001E+000 
8644017.522 +5.3508197709E-001 +6.2493287352E+000  +1.0472699815E-001 -2.7308531732E+000  +1.0498746222E-001 +6.7111448064E+000  +5.7664242403E-001 +4.8057880500E+000 
8769162.703 +4.6986362258E-001 +1.1881100828E+001  +1.0153557727E-001 -5.2857443272E+000  +9.9482146772E-002 +1.1153152624E+001  +5.0808309723E-001 +3.1627300730E-001 
8894307.885 +4.8054444325E-001 +8.8485874583E+000  +1.0317575339E-001 -4.9988285660E+000  +1.0146715050E-001 +9.4870486987E+000  +5.3526615322E-001 +1.8902275559E-001 
9019453.066 +5.1127437214E-001 +9.1955929383E+000  +1.0254518842E-001 -4.5482527288E+000  +9.5383066345E-002 +1.0448279100E+001  +5.5160960531E-001 +4.3016832199E+000 
9144598.248 +3.9407755403E-001 +1.0799790652E+001  +9.8263397213E-002 -5.6122995519E+000  +9.9798992738E-002 +1.0876942042E+001  +4.9977658238E-001 -5.7515961631E+000 
9269743.429 +4.0596356807E-001 +7.5642048354E+000  +9.5019868971E-002 -4.2574847131E+000  +1.0084627765E-001 +9.6975022940E+000  +4.5495100861E-001 -8.7205044356E-002 
9394888.611 +4.2211381830E-001 +8.7462310776E+000  +1.0090401898E-001 -3.7604863082E+000  +9.9166883089E-002 +1.2851171769E+001  +5.1228128314E-001 +3.2249399824E+000 
9520033.792 +4.8313768334E-001 -1.2995132789E+000  +1.0513231825E-001 -3.6641484151E+000  +1.0370240830E-001 +1.3425859299E+001  +5.2635857328E-001 -9.6400997932E+000 
9645178.974 +4.3634086405E-001 +1.1779558204E+001  +1.0265198022E-001 -4.0342954549E+000  +9.6256621124E-002 +1.2126480298E+001  +4.7046432048E-001 -2.9787496559E+000 
9770324.155 +3.9938719048E-001 +3.0404453840E+000  +1.0303928877E-001 -4.4551515703E+000  +1.0044383975E-001 +1.0129958961E+001  +4.8034379312E-001 -5.4761601714E+000 
9895469.337 +4.3117325275E-001 +7.2751558025E+000  +1.0381602012E-001 -2.2687514269E+000  +1.0239631745E-001 +1.2046766769E+001  +4.4896908873E-001 -3.7202627074E+000 
10020614.518 +4.6500995706E-001 +4.5664237940E+000  +1.0435313235E-001 -1.8037987107E+000  +1.0241592938E-001 +1.3524463820E+001  +4.7730716822E-001 -6.1507839146E+000 
10145759.700 +4.5387617928E-001 +4.6830862186E+000  +1.0433987186E-001 -2.4191148723E+000  +1.0131645876E-001 +1.2624329738E+001  +4.7599603212E-001 -2.3783601530E+000 
10270904.881 +4.1719055796E-001 +1.0169630238E+001  +1.0201170867E-001 -2.2626381258E+000  +1.0128706223E-001 +1.1762093692E+001  +4.9885328431E-001 -1.1097384792E+000 
10396050.063 +4.7988300631E-001 +4.7732642616E+000  +1.0631860015E-001 -3.4048427212E+000  +1.0141040686E-001 +1.3628015007E+001  +4.7210480547E-001 -2.5219002185E+000 
10521195.244 +4.7549640767E-001 +9.4775301519E+000  +1.0454874921E-001 -1.3539185173E+000  +1.0194434738E-001 +1.2283187841E+001  +4.6994057085E-001 -4.0034292780E-001 
10646340.426 +4.8831334330E-001 +8.3411062041E+000  +1.0164647197E-001 -2.1162081621E+000  +1.0301978055E-001 +1.3690623608E+001  +4.8631006076E-001 +3.7439865674E+000 
10771485.607 +4.6689023861E-001 +1.2856016950E+001  +1.0463778087E-001 -1.6941839036E+000  +1.0340707935E-001 +1.2215208718E+001  +4.9038421147E-001 +1.3262000683E+000 
10896630.788 +4.5470189001E-001 +8.5608552715E+000  +1.0643527037E-001 -2.9989565269E+000  +1.0469798822E-001 +1.2308094041E+001  +4.8215387412E-001 +4.3217362174E+000 
11021775.970 +4.8348466816E-001 +7.0952563201E+000  +1.0501782170E-001 -7.2958856809E-002  +1.0839885864E-001 +1.5268981832E+001  +5.3823168790E-001 +3.5588993453E+000 
11146921.151 +5.2624866456E-001 +1.1608473566E+001  +1.0803937796E-001 +6.3652816544E-001  +1.0652120549E-001 +1.2670887212E+001  +5.0145221583E-001 +4.3811425097E+000 
11272066.333 +4.6773445252E-001 +1.0248924723E+001  +1.0881329471E-001 -4.8729178521E-001  +1.0760915466E-001 +1.1840258065E+001  +5.4575766381E-001 +1.0782109090E+000 
11397211.514 +4.9816250789E-001 +6.4870265558E+000  +1.1014479627E-001 -7.5876554307E-001  +1.0841446063E-001 +1.2132141124E+001  +5.3910077177E-001 +4.5651572591E-001 
11522356.696 +4.9506075058E-001 +7.5852611937E+000  +1.1188508641E-001 +8.3885505635E-002  +1.0975303607E-001 +1.1880258098E+001  +5.5301300935E-001 +6.8902878173E+000 
11647501.877 +5.2654957210E-001 +1.0103640126E+001  +1.1123894523E-001 +3.0424560176E-001  +1.1196331651E-001 +1.2624847602E+001  +5.4977859291E-001 +2.8966672018E+000 
11772647.059 +5.4837285160E-001 +7.9858634007E+000  +1.1491091064E-001 -2.5382949074E-001  +1.1432751610E-001 +1.2358577423E+001  +5.8474476530E-001 +1.2469076132E-002 
11897792.240 +5.4337727237E-001 +7.4339445921E+000  +1.1601277737E-001 +5.8203184438E-001  +1.1206311538E-001 +1.1616735025E+001  +5.6095594094E-001 +5.7046307703E+000 
12022937.422 +5.6447689088E-001 +4.7051361202E+000  +1.1561473744E-001 +1.2211691405E+000  +1.1616344901E-001 +1.1033692633E+001  +5.7135400622E-001 +2.5516863040E+000 
12148082.603 +5.5122024530E-001 +5.2894846849E+000  +1.1760182154E-001 +1.0114319361E+000  +1.1518538023E-001 +1.0826162000E+001  +5.8307197900E-001 +1.7469227432E+000 
12273227.785 +5.7214369306E-001 +3.9521115088E+000  +1.1890699203E-001 +1.0089321006E+000  +1.1749804529E-001 +1.0261536888E+001  +5.9468519158E-001 +3.4614547829E+000 
12398372.966 +5.7742284419E-001 +3.8678784336E+000  +1.2030029308E-001 +8.5435324533E-001  +1.1944317011E-001 +1.0195347537E+001  +6.1503058255E-001 +1.9538322266E+000 
12523518.148 +6.2739202811E-001 +3.6230835976E+000  +1.2121499376E-001 +2.1583500945E+000  +1.1911323405E-001 +1.0168199910E+001  +6.3644015824E-001 -4.7439941603E-001 
12648663.329 +6.0221900048E-001 +9.3949664258E-001  +1.2450358587E-001 +2.2861425074E+000  +1.2282660868E-001 +8.0879855575E+000  +6.2617965549E-001 -1.7380379607E-001 
12773808.511 +6.3811128710E-001 +2.8966848101E+000  +1.2450903675E-001 +2.2900947306E+000  +1.2426725844E-001 +8.4994448880E+000  +6.4201317186E-001 -8.3055294344E-001 
12898953.692 +6.3040739952E-001 +8.0238526410E-001  +1.2485465459E-001 +2.7022431827E+000  +1.2193851533E-001 +7.9879337587E+000  +6.6424817223E-001 +5.8408672611E-001 
13024098.874 +6.6342250519E-001 +1.9990174628E+000  +1.2642957894E-001 +2.8013870903E+000  +1.2460736234E-001 +7.2773857399E+000  +6.7376967536E-001 -2.1604828895E+000 
13149244.055 +6.9024285037E-001 -4.9283246060E-001  +1.2860026618E-001 +2.0751525153E+000  +1.2806598396E-001 +6.7522403712E+000  +6.7984979290E-001 -1.9401787407E+000 
13274389.237 +6.7554357685E-001 +2.9917442647E-001  +1.2861318590E-001 +1.2950868920E+000  +1.2809818396E-001 +6.4972859080E+000  +6.9760216772E-001 -3.9370689337E+000 
13399534.418 +7.0263488717E-001 -1.0376840759E+000  +1.2886930728E-001 +1.8030378644E+000  +1.2819193328E-001 +5.9423090009E+000  +7.0225257775E-001 -2.2265671437E+000 
13524679.599 +7.2179168944E-001 -1.4890072460E+000  +1.3169691879E-001 +2.6292010151E+000  +1.3079426177E-001 +5.5117470024E+000  +7.5905055774E-001 -2.4051107199E+000 
13649824.781 +7.4043532333E-001 -1.7410632015E-001  +1.3125513971E-001 +2.8775326559E+000  +1.2807388397E-001 +4.8606702904E+000  +7.5105108311E-001 -3.4375244758E+000 
13774969.962 +7.6892056113E-001 -3.8393043570E+000  +1.3233691550E-001 +1.9532407247E+000  +1.2976367432E-001 +3.6764103893E+000  +7.6319891331E-001 -2.2623131413E+000 
13900115.144 +7.7927530476E-001 -3.5566358594E+000  +1.3354728266E-001 +2.4626990676E+000  +1.3073884264E-001 +4.5153480235E+000  +8.0740465567E-001 -2.3464927766E+000 
14025260.325 +7.8735893416E-001 -4.6655631733E+000  +1.3476037857E-001 +2.1747722407E+000  +1.3243311595E-001 +3.9023825271E+000  +7.9880289109E-001 -2.8991437735E+000 
14150405.507 +8.2014086917E-001 -3.9292117835E+000  +1.3644447037E-001 +2.0891720927E+000  +1.3303440825E-001 +2.7127828571E+000  +7.9483102812E-001 -4.9845924942E+000 
14275550.688 +8.0292482454E-001 -4.3927480240E+000  +1.3713187111E-001 +1.8132472385E+000  +1.3460387747E-001 +2.1407346418E+000  +8.3514633680E-001 -4.7060079967E+000 
14400695.870 +8.5227147073E-001 -6.1200384928E+000  +1.3728348181E-001 +1.8277974561E+000  +1.3427233751E-001 +2.3372242476E+000  +8.3587519189E-001 -4.9724252182E+000 
