!  2-Port S-parameters saved by WinCal
! VAR MeasName=S-Parameters (CALIBRATED_DATA) read from VNA (P5004A)
! VAR MeasDate=29/08/2024 11:57:52
! VAR NAME=S2_r9c4_RESET3_9k-100M_1
! VAR FILENAME=S2_r9c4_RESET3_9k-100M_1.S2P
! VAR DATE=29/08/2024 11:57:52
! VAR PHYS_PORTS=1,2
! VAR ObjTypeName=DATASET
! VAR IndexType=Frequency
!
# Hz S MA R 50
9000.000 +9.0907034223E-002 -1.6192584283E+002  +1.4909178842E-002 -1.1665659619E+002  +6.2001989448E-003 -1.1924767835E+002  +2.7591068723E-001 -1.4605773457E+002 
134145.181 +1.1147600071E-001 +1.6972733001E+002  +1.7643259242E-004 -7.2492516509E+001  +8.1845403079E-004 -1.7797774792E+002  +2.3695346590E-001 -1.7121083041E+002 
259290.363 +1.1135747162E-001 +1.6965933848E+002  +1.0746777256E-004 +4.5546681082E+000  +9.4248704867E-004 +6.1144781904E+001  +2.3951755947E-001 -1.6922914411E+002 
384435.544 +1.1401348768E-001 +1.7056129018E+002  +9.4785642512E-004 -5.9187212750E+000  +6.1860604475E-004 -1.9718607496E+001  +2.4682947998E-001 -1.6751630340E+002 
509580.726 +1.1419729795E-001 +1.7176291695E+002  +8.7810577112E-004 +1.0202468375E+002  +8.6640920624E-004 -9.8516239643E+001  +2.4372672344E-001 -1.6442630526E+002 
634725.907 +1.1662128616E-001 +1.7068734058E+002  +7.5195154625E-004 +5.3649008879E+001  +1.3306565420E-003 +1.1011662988E+002  +2.6739675262E-001 -1.6524430982E+002 
759871.089 +1.2037317528E-001 +1.7118861829E+002  +5.4060925154E-004 +1.4440453010E+002  +5.4551951922E-004 -8.3787045855E+001  +2.4475607975E-001 -1.6620833385E+002 
885016.270 +1.2050867156E-001 +1.6898403040E+002  +3.7285537490E-004 -1.1313536021E+002  +1.6871143605E-004 -9.6367479983E+001  +2.4340374947E-001 -1.6730654438E+002 
1010161.452 +1.2019313403E-001 +1.7003043344E+002  +8.1312342364E-004 +5.8671006972E+001  +2.1845904878E-004 +7.3907959069E+001  +2.1539637656E-001 -1.6548745006E+002 
1135306.633 +1.1392323887E-001 +1.6985089010E+002  +7.8278068461E-004 +3.3423167730E+001  +9.8429279613E-004 +3.1072555303E+001  +2.1083027692E-001 -1.6748312486E+002 
1260451.815 +1.2158980746E-001 +1.7158404576E+002  +1.2218423209E-003 +1.2274682446E+002  +1.2304281881E-003 -9.1455183767E+001  +2.1254913926E-001 -1.5723619645E+002 
1385596.996 +1.2662974319E-001 +1.7119470173E+002  +6.9506373764E-004 +1.0811939252E+002  +3.2188687108E-004 +5.1433257286E+001  +2.6199452942E-001 -1.5893609429E+002 
1510742.178 +1.2879436269E-001 +1.7142926162E+002  +1.0413384900E-003 +1.1085858468E+002  +9.5676848426E-004 +3.5866559712E+001  +2.5979369475E-001 -1.5927323775E+002 
1635887.359 +1.2942766156E-001 +1.7220206820E+002  +1.8247366473E-004 +1.4758433340E+002  +8.3930017451E-004 -1.7505628945E+002  +2.2313951654E-001 -1.6063163035E+002 
1761032.541 +1.2575829705E-001 +1.6981541007E+002  +3.5656948209E-003 -1.1809434011E+002  +3.1566453873E-003 -7.3315386697E+001  +1.9072793135E-001 -1.5396134912E+002 
1886177.722 +1.2469530334E-001 +1.6873955313E+002  +1.8971256878E-003 -1.7197764282E+002  +1.7166073192E-003 -1.5262172976E+002  +2.1198145252E-001 -1.6613024431E+002 
2011322.904 +1.2990548388E-001 +1.6640637981E+002  +6.6967104188E-004 +1.3139699902E+002  +8.7057595803E-004 -1.5958657857E+002  +2.0026767297E-001 -1.6761900168E+002 
2136468.085 +1.3080404824E-001 +1.6646076730E+002  +6.1455648618E-004 +4.2076301648E+001  +2.1773941415E-003 -8.8170005001E+001  +1.9271477582E-001 -1.6592188679E+002 
2261613.267 +1.3449402533E-001 +1.6609577806E+002  +2.0942968618E-003 +1.7140712131E+002  +6.5854509700E-004 +1.6555203296E+002  +1.9938166382E-001 +1.7980566904E+002 
2386758.448 +1.3273259148E-001 +1.6367241299E+002  +8.5213468384E-004 -1.3339646388E+002  +2.8911679805E-003 -2.9901333248E+001  +2.4520962570E-001 +1.7202572697E+002 
2511903.630 +1.3398936362E-001 +1.5735734356E+002  +4.6571405886E-003 -1.9561539789E+001  +4.4942392266E-003 -1.2814468822E+002  +2.4893020950E-001 +1.5280375004E+002 
2637048.811 +1.2918817570E-001 +1.6550202695E+002  +6.6132588233E-003 +9.9904852418E+001  +5.4998571312E-003 -1.1446757907E+001  +5.0915610727E-001 +1.5598081872E+002 
2762193.992 +1.0089115170E-001 +1.6228327647E+002  +1.0080715134E-002 +1.0919857747E+001  +7.9638069099E-003 -7.7988303720E+001  +1.9486364973E-001 +1.9303298146E+001 
2887339.174 +1.2681259814E-001 +1.7689277503E+002  +5.8253324843E-003 +8.4881344215E+001  +9.2710431869E-003 +3.4908700244E+000  +5.3976970008E-001 -1.3560528433E+002 
3012484.355 +1.0562212883E-001 +1.7758642198E+002  +1.6135679043E-003 -5.8436170898E+001  +3.8621922475E-003 -1.0317245010E+002  +1.7408613536E-001 -1.2342669266E+002 
3137629.537 +9.9809502782E-002 +1.6123997202E+002  +7.2724921148E-003 -1.4965497600E+002  +1.4310910588E-002 -3.7468221241E+001  +1.1958253340E-001 -7.0856837262E+000 
3262774.718 +1.2077709737E-001 +1.6998448593E+002  +7.2457316914E-003 -2.9277333908E+001  +4.1569782378E-003 -1.4892473694E+002  +1.9142840617E-001 -1.0457042840E+001 
3387919.900 +1.2438102273E-001 +1.4981434460E+002  +9.2865463170E-003 -1.5569103774E+002  +1.8785570530E-002 -1.2563770064E+002  +4.1259758307E-001 +3.2081995644E+000 
3513065.081 +1.5407232143E-001 +1.5246838740E+002  +6.6183930835E-003 -1.0083804626E+002  +7.7630482208E-003 +8.3791525096E+000  +2.4718121915E-001 +1.3020349609E+002 
3638210.263 +1.3745275289E-001 +1.4249035676E+002  +9.2096186184E-003 -8.3529580746E+001  +7.9540443079E-003 +9.5853215151E+001  +4.3362534082E-001 +1.5592119845E+002 
3763355.444 +1.4499411876E-001 +1.4592427986E+002  +1.0651084140E-002 -6.6798096974E+001  +1.7564959312E-003 -2.8761876729E+001  +6.1833157357E-001 +1.0515326184E+002 
3888500.626 +1.5633252836E-001 +1.4784289567E+002  +1.4742064520E-002 +1.5747477484E+002  +4.9007929081E-003 +7.3129713981E+001  +5.4774609415E-001 +1.0475800800E+002 
4013645.807 +1.7767385217E-001 +1.4508185448E+002  +3.7829723652E-003 -3.9283481120E+001  +6.4443537675E-003 -1.5329870460E+002  +3.8419699163E-001 +1.3224264730E+002 
4138790.989 +1.6100589213E-001 +1.2771862181E+002  +5.1840594035E-003 -1.6177907614E+002  +1.3565748079E-002 +3.0419488890E+001  +3.8969035592E-001 +1.2483303511E+002 
4263936.170 +2.0134863501E-001 +1.4168180082E+002  +2.0751000594E-002 +1.0128597853E+002  +1.3077246115E-002 +9.6494999319E+000  +9.7948524577E-001 +7.5197869473E+001 
4389081.352 +2.6055527668E-001 +1.3059397029E+002  +1.4596961335E-002 +3.3299109485E+001  +7.1715948357E-003 -1.7155511640E+002  +1.2542148547E+000 +1.2105106689E+002 
4514226.533 +2.8809809391E-001 +1.1369171010E+002  +3.0753126343E-002 -6.9135334000E+001  +3.9150228210E-002 +9.8819144065E+001  +1.2181752419E+000 +1.4418110667E+002 
4639371.715 +2.8958291879E-001 +1.2297506982E+002  +3.0019903510E-002 +1.0017730084E+002  +3.9038539637E-003 +2.9618890624E+001  +1.1576564140E+000 +7.7358375431E+001 
4764516.896 +3.9210347078E-001 +1.3842783949E+002  +5.2712456787E-002 +1.7164045373E+002  +4.3863946088E-002 +1.0556828315E+002  +4.0798639574E+000 -1.7775898661E+002 
4889662.078 +3.7159410088E-001 +1.3199436233E+002  +3.3919060778E-002 -8.4022256889E+001  +2.5393735314E-002 -1.1280907408E+002  +3.2238513435E+000 -9.7059035153E+001 
5014807.259 +3.4217522880E-001 +1.2503488569E+002  +1.1799223764E-001 -1.4940970806E+002  +5.1817608823E-002 -3.6030454221E+001  +7.0085217716E+000 +1.2948707513E+002 
5139952.441 +4.0240065406E-001 +1.2903583538E+002  +3.6816085822E-002 +6.3947487290E+001  +2.1035624491E-002 +1.1348505733E+002  +2.8268963622E+000 +1.3603732465E+002 
5265097.622 +4.4102514452E-001 +1.2772120078E+002  +4.6034629928E-002 -1.7886960872E+002  +1.0391007513E-001 +8.7593564593E+001  +3.6264909511E+000 +9.6666336652E+001 
5390242.804 +3.5748703710E-001 +1.3477582017E+002  +1.3299745247E-002 +1.2911463640E+002  +9.2577227001E-003 +1.7335433803E+002  +2.2815061506E+000 +7.3240535015E+001 
5515387.985 +4.3538070425E-001 +1.3230813649E+002  +7.6848576627E-003 +1.7755913100E+002  +1.8414213844E-002 -1.2350053291E+002  +1.5293861859E+000 +1.1768532335E+002 
5640533.166 +4.6711311068E-001 +1.2615474939E+002  +1.2689259168E-002 +1.3139115744E+002  +1.9856261428E-003 +1.4359978766E+002  +1.7013299876E+000 +9.3239474551E+001 
5765678.348 +5.5039536891E-001 +1.2178177154E+002  +2.2971589223E-002 +1.7549205954E+002  +3.9832971981E-002 -2.2922428531E+000  +3.8097069631E+000 +9.6831528653E+001 
5890823.529 +6.6087187621E-001 +1.2423030389E+002  +5.6507848665E-003 -1.4086322300E+002  +6.5180389346E-002 +2.6117016579E+001  +5.0886430818E+000 +6.3336456677E+001 
6015968.711 +7.1691095397E-001 +1.2510211719E+002  +1.4264241240E-002 -1.0952295002E+002  +1.0199203524E-002 -1.2533374696E+002  +1.6283091905E+000 +4.0189685401E+001 
6141113.892 +7.4356914454E-001 +1.1636734281E+002  +2.6826182211E-002 +1.1382979686E+002  +2.2954072238E-002 -1.0068495695E+002  +2.2427693171E+000 +5.0449055528E+001 
6266259.074 +8.7515223984E-001 +1.0378542948E+002  +2.6007208071E-002 +1.7606664406E+002  +1.6095861598E-002 +1.5732414249E+002  +1.2913194481E+000 +3.2484319012E+001 
6391404.255 +1.1116021641E+000 +9.9944371762E+001  +1.6534987738E-002 +9.4866302919E+001  +6.6361624103E-003 -1.2806662396E+002  +1.6946610776E+000 +4.9276557818E+000 
6516549.437 +1.2889015826E+000 +8.1674635050E+001  +5.2918280203E-003 -2.6893579576E+001  +9.5781620553E-003 -1.0144078645E+002  +1.4900700901E+000 +2.8212441395E+001 
6641694.618 +1.4959861989E+000 +7.0198190310E+001  +7.8484483045E-003 -1.3385211063E+002  +2.3822438989E-002 -1.3109576906E+002  +1.3704559577E+000 -7.8279686753E+000 
6766839.800 +1.8310180755E+000 +6.3651091475E+001  +5.9107954131E-003 +1.0386856626E+002  +2.0304529449E-002 +2.0863017586E+001  +1.1166156589E+000 -7.2240029839E+000 
6891984.981 +1.8951199514E+000 +5.1060599361E+001  +2.0704684129E-002 +1.4290308749E+002  +8.5626717962E-003 +5.7907650813E+001  +1.2338740280E+000 -5.3895622028E+000 
7017130.163 +1.3920010746E+000 +1.7944894056E+001  +9.5545074985E-003 +1.6693529788E+001  +1.6861954134E-002 -1.3565052267E+001  +1.2378807679E+000 -1.7196579618E+001 
7142275.344 +1.6505623633E+000 +4.9793865788E+000  +1.6143330148E-002 -4.9498592857E+000  +1.0559436241E-002 +9.6571361181E+001  +1.3166510292E+000 -1.0659858495E+001 
7267420.526 +1.4442550073E+000 +2.4829238679E+000  +5.3544534129E-003 -1.7478750793E+002  +2.6668642647E-002 +6.2695353989E+001  +1.3336256129E+000 -1.5522900905E+001 
7392565.707 +1.3233103470E+000 -7.7013061019E-001  +3.1711987328E-003 +4.1550698630E+001  +1.0713843281E-002 +1.6629271519E+002  +1.4285122196E+000 -7.0531509944E+000 
7517710.889 +1.1578674826E+000 -2.3557208646E+000  +2.7533137331E-003 +8.2308385437E+001  +7.2552485631E-003 -1.0618056404E+002  +1.1819034024E+000 -9.8096577542E+000 
7642856.070 +9.5196787947E-001 +4.9048320762E+000  +2.2537465447E-003 +1.0646006990E+002  +3.5486731905E-003 -1.5584686983E+002  +1.0015584005E+000 -3.2245967507E+000 
7768001.252 +8.7863936936E-001 +1.8485488511E+000  +5.3224536567E-003 +9.5616872170E+001  +2.8696340992E-003 -8.3015311373E+001  +9.6530127346E-001 -5.0708543356E+000 
7893146.433 +9.3149192427E-001 +3.8404403219E+000  +5.2469167965E-003 +1.3144920637E+002  +8.7107134823E-003 -1.4045507957E+002  +9.0523465034E-001 -3.8848095097E+000 
8018291.615 +8.0016403948E-001 +3.6195022576E+000  +5.3344513589E-003 +9.6731581744E+001  +5.4976989501E-003 +4.0485516494E+001  +8.4509015408E-001 -4.3522898488E-001 
8143436.796 +7.4912925538E-001 +6.8124517071E+000  +2.6742910516E-003 +3.6932273577E+001  +2.5644016749E-003 +7.3755567363E+001  +8.5439487387E-001 +7.8703859923E-001 
8268581.977 +7.5484060710E-001 +8.9932163467E+000  +5.1111275934E-003 +7.4403592557E+001  +2.4918608966E-003 +1.3692188529E+002  +7.6349898925E-001 -3.0940474511E+000 
8393727.159 +7.0820814511E-001 +2.4175201813E+000  +4.7073300618E-003 +1.7355168578E+002  +2.4739483632E-003 -1.1603157883E+002  +7.9315175573E-001 +4.2635086471E+000 
8518872.340 +6.5842851812E-001 +8.3940656890E-001  +3.6945441027E-003 -3.3604849918E+001  +1.3005209935E-003 +8.8683855767E+001  +6.6351776264E-001 +3.8471446738E+000 
8644017.522 +6.6456721972E-001 +7.7217612734E+000  +1.2043828384E-003 -3.2063059398E+000  +2.4769697053E-003 -1.7534619017E+002  +6.4005359560E-001 -1.4076069852E+000 
8769162.703 +5.6546805347E-001 +6.8026310704E+000  +7.6698747828E-004 +1.1071137619E+002  +3.0586420708E-003 +9.1952073897E+001  +6.7698137463E-001 +3.5891056927E+000 
8894307.885 +5.6246420380E-001 +5.4146610660E+000  +6.0045029343E-003 +9.7055879037E+001  +3.6764938540E-004 +5.3750776526E+001  +6.8802698635E-001 +4.1195427132E-001 
9019453.066 +5.9392427558E-001 +1.4360363740E+001  +1.5649937891E-003 +7.6390096718E+001  +1.7066489976E-003 +5.7541956092E+001  +5.9326326047E-001 -2.2808582901E-001 
9144598.248 +5.9622865347E-001 +7.3372998565E+000  +4.9967708485E-004 -1.6662411116E+002  +1.0842861194E-003 -7.0284355544E+001  +5.9729933981E-001 +7.4276467463E-001 
9269743.429 +5.4193070033E-001 +8.9696448249E+000  +1.1814780900E-003 +1.4424224270E+002  +3.3467579963E-003 -2.1721705750E+001  +6.3275014597E-001 -1.0286704492E+000 
9394888.611 +5.7566294320E-001 -9.2334254845E-002  +3.1580007774E-003 +6.3970826139E+001  +4.8861698653E-003 -1.1970377250E+002  +6.1994722954E-001 +1.4434669661E+000 
9520033.792 +5.9161308398E-001 +7.3344824801E+000  +1.3660543796E-003 +1.0858000482E+001  +1.7083415305E-003 +9.9842405955E+001  +5.7848964902E-001 -1.3956990616E-001 
9645178.974 +5.8073776165E-001 +3.8421111551E+000  +1.0116883176E-003 -8.7627302540E+001  +1.2432624205E-003 +1.3847842920E+002  +5.4242637515E-001 -4.7871966514E+000 
9770324.155 +5.4540821867E-001 -4.3810064034E-001  +3.2732334111E-003 +8.9366816404E+001  +3.1353069338E-003 +6.4370442539E+000  +5.8242164728E-001 -6.7970700648E+000 
9895469.337 +5.6425802641E-001 +4.1786917823E+000  +8.3058185383E-004 +1.0217821545E+002  +4.2481051911E-003 +1.6053039241E+002  +5.7225932650E-001 -2.4540715791E+000 
10020614.518 +5.3532751141E-001 +5.3570510997E+000  +2.8555156190E-003 +1.2500598004E+002  +3.2347691249E-003 +4.2748959611E+001  +5.8688871846E-001 -6.4612806222E+000 
10145759.700 +5.6082748888E-001 +3.8688097734E+000  +3.4379085696E-003 +1.5164226303E+002  +1.6650176496E-003 +9.8110260245E+000  +5.8056754655E-001 -3.1797769340E+000 
10270904.881 +5.5359303441E-001 +3.3357208792E+000  +1.4427391530E-003 +3.5986216518E+001  +1.1031212948E-003 +7.7647385182E+001  +5.5687102931E-001 -5.3353018599E+000 
10396050.063 +5.3315744659E-001 +4.0152436162E+000  +1.5559808578E-003 +5.2288345705E+001  +3.4834063272E-003 +6.6075588929E+001  +5.8061291636E-001 -1.5478369358E+000 
10521195.244 +5.5774000001E-001 +6.0278218795E+000  +6.4402116893E-004 +1.1581363364E+001  +1.7324076416E-003 -1.4505951537E+002  +5.8804718951E-001 +2.7707576978E+000 
10646340.426 +5.7580337870E-001 +3.2269643149E+000  +1.8527390762E-003 +7.9709924092E+001  +2.3528694888E-003 +1.2534826330E+002  +5.9069828187E-001 -3.2625495942E-001 
10771485.607 +5.6919539781E-001 +5.5267941378E+000  +9.2913786033E-004 +6.6314311478E+001  +2.1415918593E-003 -1.1881882771E+002  +5.5428523747E-001 +5.5045221398E-001 
10896630.788 +5.7354216467E-001 +5.3675741974E+000  +1.8679869497E-003 +2.9687248493E+001  +9.6308465706E-004 +7.6220807384E+001  +6.0369515678E-001 +1.1392334939E+000 
11021775.970 +6.1666986767E-001 +7.8863873993E+000  +1.2536029617E-003 -1.3874278797E+001  +4.9572224154E-003 +2.4696276549E+001  +6.1057213336E-001 +1.4469928392E+000 
11146921.151 +6.0342232133E-001 +6.3747988035E+000  +1.5317841672E-003 +1.2992486755E+002  +1.8159877567E-004 +8.9651504469E+001  +5.8970653224E-001 -1.2818361610E+000 
11272066.333 +6.2513233676E-001 +8.1986039266E+000  +2.0512948772E-003 +5.9256576097E+001  +5.6092182600E-004 -1.0753703613E+002  +6.6630768967E-001 -7.1975603080E-001 
11397211.514 +6.4043617628E-001 +7.9699442559E+000  +1.3657196357E-003 +7.0024235343E+001  +2.3008517527E-003 +9.2468630256E+001  +6.3499116899E-001 +3.8455129187E+000 
11522356.696 +6.3796294263E-001 +7.1037220612E+000  +9.7253670749E-004 +3.9907560513E+001  +2.5960578167E-003 +1.3894152216E+001  +6.6212097318E-001 +1.8165396359E+000 
11647501.877 +6.5090120126E-001 +7.6825859009E+000  +3.8906403553E-003 +3.6814941576E+001  +1.1922570123E-003 +3.2348293771E+001  +6.7423882333E-001 +1.6094151783E+000 
11772647.059 +6.4091416321E-001 +8.2771100239E+000  +1.5597980957E-003 -1.6871273272E+002  +2.5954688813E-003 +1.1165829486E+002  +6.8734598727E-001 +1.9751108880E+000 
11897792.240 +6.4552615715E-001 +4.0282735522E+000  +1.2447090891E-003 +4.5913076038E+001  +8.2489979473E-004 +2.4337973706E+001  +6.7606046032E-001 +1.0955447606E+000 
12022937.422 +6.5355302945E-001 +5.4199619234E+000  +1.1975996051E-003 +7.9748556952E+001  +2.5368614743E-003 +4.8270011317E+001  +6.6741732927E-001 +2.2341611319E+000 
12148082.603 +6.7304227705E-001 +4.5864707578E+000  +1.1684457465E-003 +1.1827167807E+002  +7.1128129079E-004 -8.4267002535E+001  +6.9086933226E-001 -3.3659819931E-001 
12273227.785 +7.1530601740E-001 +4.1502286874E+000  +1.9587909241E-003 +9.1267948914E+001  +1.7112242346E-003 +3.5293920251E+001  +7.1666393009E-001 +1.5326591131E+000 
12398372.966 +7.0985390321E-001 +3.2059191378E+000  +2.6001182039E-003 +3.9802266843E+001  +6.6646735519E-004 +2.2174377212E+001  +7.2478286906E-001 +1.1599336416E+000 
12523518.148 +7.1415095296E-001 +3.4677313194E+000  +6.0817942469E-004 +6.8860205913E+001  +1.7052642990E-003 +4.5018799373E+001  +7.3147138458E-001 -8.9267124635E-001 
12648663.329 +7.5764313849E-001 +2.2434179400E+000  +8.3872409313E-004 -1.5568053760E+002  +2.5840016324E-003 +6.2770197791E+001  +7.2694507438E-001 -1.1870820367E+000 
12773808.511 +7.5579710500E-001 +1.9684005887E+000  +2.0185544041E-003 +1.2092735628E+002  +1.7634869165E-003 +1.2805063629E+002  +7.4924539443E-001 +2.3509780860E-001 
12898953.692 +7.6171002809E-001 +3.1706794204E+000  +2.6712390186E-003 +5.6302490379E+001  +1.4065051468E-003 +2.4245369481E+001  +8.0277709178E-001 -3.4394397993E-001 
13024098.874 +8.0345021192E-001 -9.9920411169E-001  +1.4302812051E-003 +5.6740584693E+001  +4.4944347551E-004 +2.4202313434E+000  +8.0836529467E-001 -2.0935050718E+000 
13149244.055 +7.9652676663E-001 -3.4525161890E-001  +1.9131718090E-003 +1.0093671792E+002  +1.1921754398E-003 -1.4285933823E+002  +8.2966106624E-001 -1.0909006541E+000 
13274389.237 +8.3063438824E-001 +1.8990726840E-001  +1.9551000343E-003 +6.6695220837E+001  +7.7015628808E-004 +9.8205393622E+001  +8.2537835643E-001 -8.1618379038E-001 
13399534.418 +8.3359065102E-001 +5.8236372286E-001  +3.2175242381E-003 +5.0312369077E+001  +1.1288348007E-003 +7.8460658357E+001  +8.5209986929E-001 -1.7528637768E+000 
13524679.599 +8.7371579180E-001 -9.3829798340E-001  +6.2976398509E-004 +4.1509408448E+001  +1.7431884150E-003 +8.3378724817E+001  +8.8410815943E-001 -2.8119262340E+000 
13649824.781 +8.8958873241E-001 -1.5994982332E+000  +1.3677887328E-003 +3.3172430016E+001  +1.6199986974E-003 +1.2013770953E+002  +9.0174413361E-001 -3.7981741489E+000 
13774969.962 +8.9028973795E-001 -2.1155125005E+000  +8.8029819827E-004 -8.0442750321E+000  +1.6991733696E-003 +9.2997755357E+001  +9.0929722675E-001 -4.2955823958E+000 
13900115.144 +9.0666748316E-001 -3.2386411390E+000  +1.5670814467E-003 +5.0728290515E+001  +2.3738680044E-003 +7.8821018443E+001  +9.3608075851E-001 -3.7051534923E+000 
14025260.325 +9.0975603992E-001 -4.3254977405E+000  +1.7289410267E-003 +1.1528626813E+002  +1.7083984409E-003 +1.0389291747E+002  +9.3732678718E-001 -3.9457234911E+000 
14150405.507 +9.4706823824E-001 -4.7552265915E+000  +8.6868879735E-004 +1.6709877055E+001  +9.2718835212E-004 +3.0537229112E+001  +9.7032063683E-001 -5.5328169963E+000 
14275550.688 +9.5425478138E-001 -3.9047062237E+000  +1.2579240915E-003 +9.0171962722E+001  +2.9917169237E-003 +5.8662406364E+001  +9.8719090824E-001 -5.4552243537E+000 
14400695.870 +9.8644326808E-001 -5.3802940394E+000  +1.9036904344E-003 +6.7007534858E+001  +6.7018200506E-004 +1.5677132088E+002  +9.7756391024E-001 -4.5291894410E+000 
