!  2-Port S-parameters saved by WinCal
! VAR MeasName=S-Parameters (CALIBRATED_DATA) read from VNA (P5004A)
! VAR MeasDate=29/08/2024 10:55:10
! VAR NAME=S2_r9c2_SET1_9k-100M_3
! VAR FILENAME=S2_r9c2_SET1_9k-100M_3.S2P
! VAR DATE=29/08/2024 10:55:10
! VAR PHYS_PORTS=1,2
! VAR ObjTypeName=DATASET
! VAR IndexType=Frequency
!
# Hz S MA R 50
9000.000 +9.6141695532E-002 -1.6894524953E+002  +5.3249926917E-004 +8.4002659896E+001  +4.3236116877E-003 +1.2285576593E+000  +2.1858810153E-001 -1.4033485834E+002 
134145.181 +1.1125184077E-001 +1.6993038781E+002  +4.5565522245E-004 +5.3582312844E+001  +2.9545325139E-004 -7.9162295389E+001  +2.3632862085E-001 -1.7097773047E+002 
259290.363 +1.1242185455E-001 +1.6972472484E+002  +4.6907225711E-004 +5.7131445947E+000  +6.5636358231E-004 +1.2109377819E+002  +2.3796607987E-001 -1.6661462157E+002 
384435.544 +1.1391873353E-001 +1.7051989548E+002  +3.3955273714E-004 -7.5827796956E+001  +1.4953201559E-004 -8.9950297151E+001  +2.4094104114E-001 -1.6837292665E+002 
509580.726 +1.1146088660E-001 +1.7099945641E+002  +1.2305418095E-003 -6.9598598610E+001  +1.4691605193E-003 +8.1972518517E+001  +2.4461064588E-001 -1.6643202213E+002 
634725.907 +1.1721147048E-001 +1.7187082141E+002  +1.0949636277E-003 +1.7947626839E+002  +1.3476885882E-003 -4.1756856908E+001  +2.4905910202E-001 -1.6411340866E+002 
759871.089 +1.1973133098E-001 +1.7125698934E+002  +1.6321305792E-004 +1.5394119600E+002  +5.2809067352E-004 +1.4353671756E+001  +2.5438068055E-001 -1.6723926247E+002 
885016.270 +1.1887675193E-001 +1.6935350731E+002  +4.2019368976E-004 -3.0707959012E+001  +1.2258917534E-003 +3.3351036692E+001  +2.4542681850E-001 -1.6708733929E+002 
1010161.452 +1.1716717509E-001 +1.7020406932E+002  +1.2516061797E-003 -1.5903691766E+001  +1.0343915921E-003 -7.9653815465E+000  +2.0859607664E-001 -1.6311653158E+002 
1135306.633 +1.1549084001E-001 +1.7016715076E+002  +9.2431241065E-004 -1.0424823345E+002  +1.1541738290E-003 -1.3919441774E+002  +1.9643675306E-001 -1.6691046087E+002 
1260451.815 +1.1665667616E-001 +1.7177388591E+002  +2.0166807622E-004 +3.9972945129E+001  +2.4314150470E-003 +1.1658381941E+002  +2.1620297139E-001 -1.6088324316E+002 
1385596.996 +1.2605212525E-001 +1.7242527430E+002  +6.0161540765E-004 -1.6675569232E+002  +1.9995503546E-003 +1.1179246999E+002  +2.5954555771E-001 -1.5436260444E+002 
1510742.178 +1.2600896412E-001 +1.7246904989E+002  +1.7253940505E-003 -1.1634394171E+002  +1.4462613302E-003 -1.5135680633E+002  +2.6141071320E-001 -1.5366560464E+002 
1635887.359 +1.2844412228E-001 +1.7137704590E+002  +1.9390206389E-003 -6.5098243937E+001  +1.0306518987E-003 -1.7183496745E+002  +2.4093981418E-001 -1.5572682546E+002 
1761032.541 +1.2799979526E-001 +1.6932628786E+002  +2.3738698883E-003 -3.3622063728E+000  +1.1563475905E-003 +1.4059819536E+001  +2.3972566547E-001 -1.5811982971E+002 
1886177.722 +1.3118933015E-001 +1.6831543924E+002  +2.6624936634E-003 +5.7314584369E+001  +1.2698920840E-003 -2.5296159915E+001  +2.1079778034E-001 -1.6061487416E+002 
2011322.904 +1.2919933930E-001 +1.6772918169E+002  +2.1074139369E-003 +1.0341340370E+002  +2.0521544776E-003 -1.0255161052E+002  +2.1011337153E-001 -1.5890627634E+002 
2136468.085 +1.2231396211E-001 +1.6327779372E+002  +1.3033964025E-003 -1.5300448592E+000  +3.6335178220E-003 -1.2639964729E+002  +1.7656430102E-001 -1.5561872679E+002 
2261613.267 +1.3238384120E-001 +1.6800969247E+002  +3.0946155615E-003 +1.1568677948E+002  +1.5979910446E-003 +3.8202467114E+001  +1.8489296088E-001 -1.7816534701E+002 
2386758.448 +1.3684781337E-001 +1.6434514991E+002  +7.2465750221E-003 +5.6414425491E+001  +3.4707874566E-003 -3.4706510149E+001  +1.6792121741E-001 -1.7279599741E+002 
2511903.630 +1.2510551326E-001 +1.6186656731E+002  +1.2825002000E-002 +1.0784252887E+002  +9.0982411758E-003 -1.5558622582E+001  +2.3667051196E-001 +1.5681830374E+002 
2637048.811 +1.3435448156E-001 +1.6538769384E+002  +1.4036491167E-002 +9.5100268477E+001  +1.4394553435E-002 -1.5548408905E+001  +3.0758601894E-001 +1.4888679572E+002 
2762193.992 +1.2525134751E-001 +1.6588314866E+002  +2.3092324041E-002 -3.2851604061E+000  +1.8003465164E-002 -8.7640192923E+001  +6.8392580267E-002 -1.3341734207E+002 
2887339.174 +1.0553345110E-001 +1.6780430042E+002  +1.5590923219E-002 -6.8989859100E+001  +1.2637748289E-002 -1.0409138030E+002  +3.8833871116E-001 -1.1531585051E+002 
3012484.355 +1.3303047341E-001 +1.5931191420E+002  +1.6068978945E-002 +5.8155156150E-001  +1.4694588535E-002 -6.9182958330E+001  +1.9981657583E-001 -1.1706351947E+002 
3137629.537 +1.2356376528E-001 +1.7333393640E+002  +1.5824051930E-002 +2.2918831050E+001  +1.5525417281E-002 -8.6425275511E+001  +5.3885754863E-002 -1.5284430669E+002 
3262774.718 +1.3872259820E-001 +1.6924371036E+002  +1.7217183447E-002 +2.9621455271E+001  +1.4647141696E-002 -8.6837672731E+001  +1.6562902626E-001 +1.3054871958E+001 
3387919.900 +1.4125082509E-001 +1.6210686586E+002  +1.2163681257E-002 +8.5996906797E+001  +1.7241681763E-002 +4.1036074517E-001  +3.1001762977E-001 +1.3208029601E+002 
3513065.081 +1.5100363998E-001 +1.4424726379E+002  +1.7534634838E-002 +7.3713688311E+001  +1.7178576287E-002 -3.1612792757E+001  +9.1212312113E-002 +1.4827616734E+002 
3638210.263 +1.7519863404E-001 +1.5036379822E+002  +2.9790697719E-002 +1.5717868123E+002  +4.4841965154E-002 +4.5137225524E+001  +6.6704182809E-001 +1.2804245693E+002 
3763355.444 +1.5077095541E-001 +1.3949418529E+002  +1.5070697859E-002 +7.0780383788E+001  +4.0460987552E-002 -3.5519044190E+001  +2.4976381038E-002 +3.9915594675E+001 
3888500.626 +1.6857796808E-001 +1.4759607831E+002  +2.5287947391E-002 +5.9021100058E+001  +3.4523067984E-002 +1.1739957871E+001  +2.5692248572E-001 +1.3663717700E+002 
4013645.807 +1.9985068253E-001 +1.5258260856E+002  +1.9096542619E-002 +8.5727428508E+001  +1.4206476426E-002 -5.4046967878E+000  +2.8755176947E-001 +1.4397171458E+002 
4138790.989 +1.8344109814E-001 +1.4673009499E+002  +2.7945918348E-002 +5.5774490375E+001  +2.3963289121E-002 +2.1078007851E+001  +2.8345962296E-001 +1.2435428995E+002 
4263936.170 +1.8835071077E-001 +1.3999577980E+002  +2.6296155838E-002 +9.5482371605E+001  +1.8389181610E-002 +2.0827840204E+001  +2.2723627839E-001 +1.4500685755E+002 
4389081.352 +2.2685219243E-001 +1.3793319002E+002  +3.9663971096E-002 +9.1812192575E+001  +4.4406233660E-002 +3.8457016096E+001  +6.3687732117E-001 +1.0244852629E+002 
4514226.533 +2.3162391258E-001 +1.4330013715E+002  +3.6273765782E-002 +4.3616792107E+001  +3.2631584827E-002 -7.7559840239E+000  +2.6098159541E-001 +4.1079511162E+001 
4639371.715 +2.2827519433E-001 +1.3213902678E+002  +8.7083172021E-002 +1.4459454497E+002  +1.1798038062E-001 +8.8446312742E+001  +1.9776080033E+000 +1.3660626313E+002 
4764516.896 +4.0879406921E-001 +1.2832768405E+002  +1.3065145382E-001 -1.5444312232E+002  +1.1847697142E-001 +1.4362588785E+002  +2.1061022963E+000 +1.6334152098E+002 
4889662.078 +3.6281562857E-001 +1.4011152758E+002  +2.1674151784E-001 +8.0746334816E+001  +2.3789468210E-001 +2.8030827619E+001  +4.9601267964E+000 +3.0866735706E+001 
5014807.259 +3.2068832423E-001 +1.3330486279E+002  +2.6316228978E-001 -3.0965603748E+001  +3.6513317371E-001 -8.5113903203E+001  +7.4712550198E+000 -8.1032787065E+001 
5139952.441 +3.7908914320E-001 +1.3853190996E+002  +1.6107731602E-001 +1.0551861782E+002  +1.8908925065E-001 +6.0363837138E+001  +3.6247463481E+000 +6.6234021536E+001 
5265097.622 +3.4027162150E-001 +1.3202316811E+002  +7.9069721698E-002 +9.3722335299E+001  +7.8431873618E-002 +5.5880443147E+001  +1.6886417605E+000 +7.9413620196E+001 
5390242.804 +3.9483181697E-001 +1.3590953498E+002  +1.0082536342E-001 +1.4074148812E+002  +1.0667048572E-001 +1.0232263718E+002  +3.0291550457E+000 +1.2602758326E+002 
5515387.985 +4.2133904157E-001 +1.3165770606E+002  +6.9502677789E-002 +7.7400951109E+001  +5.6121362143E-002 +5.4779973600E+001  +9.6616424220E-001 +8.9471267722E+001 
5640533.166 +4.8392871360E-001 +1.3402504612E+002  +1.0238434677E-001 +1.3042357730E+002  +8.6444571658E-002 +8.4577369414E+001  +2.0343166003E+000 +1.0023719307E+002 
5765678.348 +5.2992832079E-001 +1.2345899420E+002  +1.4956955994E-001 +9.1042438456E+001  +1.6552101654E-001 +6.3464164087E+001  +2.5996886131E+000 +7.0451058860E+001 
5890823.529 +5.8409655423E-001 +1.1392428358E+002  +1.8210408486E-001 +8.1008756782E+001  +1.2858976781E-001 +5.3326582576E+001  +2.2161313978E+000 +6.6590232496E+001 
6015968.711 +6.5102861076E-001 +1.1849612875E+002  +9.9342733439E-002 +7.9414083720E+001  +7.0774686339E-002 +4.6970734592E+001  +1.3903383072E+000 +5.8294759730E+001 
6141113.892 +5.8192696711E-001 +1.1567339619E+002  +1.2295643318E-001 +6.8109443917E+001  +8.9461790844E-002 +4.0557898806E+001  +1.4280239463E+000 +4.7089848729E+001 
6266259.074 +7.3198356528E-001 +1.0693618990E+002  +1.5127325892E-001 +4.4262416367E+001  +1.4327770186E-001 +2.4851142664E+001  +2.0008996110E+000 +2.0459991322E+001 
6391404.255 +9.3262277160E-001 +8.6369322711E+001  +1.6371757983E-001 +3.7541420195E+001  +1.7450417416E-001 +1.4522181759E+001  +1.4212328279E+000 +2.3836370019E+001 
6516549.437 +9.6804714441E-001 +8.3222923812E+001  +1.3881918774E-001 +2.6398713010E+001  +1.2584207465E-001 +1.9824385588E+001  +1.4627296827E+000 +8.0387105233E+000 
6641694.618 +1.2743668755E+000 +6.3561997589E+001  +1.3491808992E-001 +1.2578262594E+001  +1.4241235199E-001 +6.5726019732E+000  +1.2739578306E+000 -1.0668347046E+001 
6766839.800 +1.2864321060E+000 +3.1293094419E+001  +1.7346461841E-001 -4.2996446479E+000  +1.6410398236E-001 -8.0993742666E+000  +1.2311138016E+000 -1.4415919615E+001 
6891984.981 +1.4849396595E+000 +3.6040908563E+001  +1.3633926392E-001 +5.1426914768E+000  +1.2402311131E-001 +1.6984453948E+000  +1.1665506473E+000 -4.6243959887E+000 
7017130.163 +1.5586119613E+000 +3.0417264203E+001  +1.3251228103E-001 +2.6288404298E+000  +1.3444303271E-001 +5.8697325129E+000  +1.3593592046E+000 -1.1242284370E+001 
7142275.344 +1.3717117209E+000 +2.6745090197E+000  +9.3462562069E-002 -3.3749201624E+000  +1.1412709290E-001 -5.0304624154E+000  +1.1651479829E+000 -1.1485388036E+001 
7267420.526 +1.3577825749E+000 +1.9108598085E+000  +8.2504267672E-002 +3.5094780915E+000  +9.6589407244E-002 -1.0634768535E+001  +1.2005332073E+000 -1.9229696701E+001 
7392565.707 +1.2016855644E+000 -3.2900985951E+000  +7.6662207468E-002 +6.6880672957E+000  +6.9677855741E-002 -1.0396319499E+000  +1.2513393803E+000 -3.1103757967E+000 
7517710.889 +1.0716530283E+000 -9.1454392258E-001  +6.2181797101E-002 -2.1118392605E+000  +7.0017558426E-002 +3.0222300537E+000  +1.2096268400E+000 -4.0032039823E+000 
7642856.070 +1.0352930671E+000 +2.6073262294E+000  +6.9167423574E-002 +7.1523391596E+000  +6.8322334460E-002 +6.6047988775E+000  +9.8861853000E-001 -7.2987950914E+000 
7768001.252 +9.0346737938E-001 +5.2933570760E+000  +5.8883241561E-002 +4.1020233574E+000  +6.1770737286E-002 +8.6550859215E+000  +1.0159531815E+000 -4.7758859770E+000 
7893146.433 +7.5328256573E-001 +5.8930980328E+000  +6.4927606535E-002 +5.2857797166E-001  +5.3894756330E-002 +7.3056161280E+000  +8.9644341531E-001 -2.0002134531E+000 
8018291.615 +8.0519454344E-001 +7.5776855471E+000  +5.7603671654E-002 +1.2638600916E+001  +6.1835833590E-002 +1.4492237651E+001  +8.2411200464E-001 -3.5330552905E+000 
8143436.796 +6.8429345512E-001 +7.1690589049E+000  +6.1016265080E-002 -3.9618409072E+000  +5.8318014646E-002 +9.8318162825E+000  +7.4502319411E-001 +7.2005519163E-001 
8268581.977 +6.2560799197E-001 +6.4615440061E+000  +5.0002334031E-002 -3.9168338884E+000  +5.1467734532E-002 +9.7543261282E+000  +7.2096525655E-001 +5.1585669819E+000 
8393727.159 +5.7125820243E-001 +4.5173849513E+000  +5.2367040615E-002 -2.0077141081E+000  +5.4361435687E-002 +3.4098768096E+000  +6.5884471775E-001 +4.2837084302E+000 
8518872.340 +6.3295764292E-001 +1.2162755826E+001  +5.3278542520E-002 -3.2894580582E+000  +5.4552058153E-002 +1.0289246366E+001  +6.4373356264E-001 +1.3382980051E+000 
8644017.522 +6.3875495854E-001 +1.0929109716E+001  +5.3613470139E-002 -1.9408606297E+000  +5.2299868334E-002 +6.2150057251E+000  +6.1764543284E-001 -2.7324448923E-001 
8769162.703 +5.5314036529E-001 +7.1229693874E+000  +5.6540982939E-002 -3.4181146532E+000  +4.8929528386E-002 +1.0702194848E+001  +5.8606171006E-001 -3.3587812723E+000 
8894307.885 +5.6351390292E-001 +9.5472098830E+000  +5.3129772476E-002 -4.9923337240E+000  +4.9334741461E-002 +1.4809372049E+001  +5.5611195108E-001 +3.5644872835E+000 
9019453.066 +5.3578782423E-001 +1.1517783471E+001  +5.1494984381E-002 -4.4200296703E+000  +5.0673466921E-002 +1.4477519581E+001  +5.3066913397E-001 -3.7946386218E+000 
9144598.248 +5.0263539586E-001 +1.0729780022E+001  +4.8871992795E-002 -4.7054139213E+000  +4.8024270088E-002 +4.1959106406E+000  +5.7875871946E-001 -1.6675287907E+000 
9269743.429 +5.4311618628E-001 +1.5084156560E+001  +5.1874891302E-002 -2.3469906341E+000  +4.8154607613E-002 +1.4453644624E+001  +5.4128958898E-001 +2.9963453714E+000 
9394888.611 +4.7606684709E-001 +8.2287339900E+000  +5.2525471717E-002 -3.2925840208E+000  +5.2039374063E-002 +1.3655920085E+001  +5.7263039210E-001 -2.1680069743E-001 
9520033.792 +4.9439609386E-001 +6.4534121832E+000  +5.2985121444E-002 -5.5550354041E+000  +5.0153652383E-002 +1.0973985040E+001  +5.1624839290E-001 -3.3306471826E+000 
9645178.974 +4.8907275367E-001 +1.1800535147E+000  +4.8636383170E-002 -2.0563584741E+000  +4.8614028637E-002 +1.2576776850E+001  +5.4845945328E-001 -2.7608804368E+000 
9770324.155 +5.3209725205E-001 -3.4982827591E+000  +5.4867748486E-002 -2.7842949462E+000  +5.0940311036E-002 +1.2388638977E+001  +5.0166995821E-001 -5.6134173616E+000 
9895469.337 +4.3768676466E-001 +6.4610763639E+000  +5.1992963423E-002 -2.6410640910E+000  +5.1637096835E-002 +1.1567506549E+001  +5.7924311791E-001 -5.2622813798E+000 
10020614.518 +5.3285828058E-001 +4.2654055821E+000  +5.4164586513E-002 -9.8361165284E-001  +5.0287902046E-002 +1.6799639150E+001  +5.7211653739E-001 -2.6960897743E+000 
10145759.700 +4.7871034153E-001 +5.1948535721E+000  +5.1535049901E-002 -3.2843921668E+000  +5.4112554625E-002 +1.2839474657E+001  +5.2141091400E-001 -2.6975449454E+000 
10270904.881 +5.0685413885E-001 +3.5644623306E+000  +4.8501527383E-002 +2.7856473793E+000  +5.3376450812E-002 +1.0884529930E+001  +5.6041463223E-001 +3.9212183872E+000 
10396050.063 +4.9483418391E-001 +1.4509834649E+000  +5.2928190795E-002 -1.6214658904E+000  +5.4109765939E-002 +1.3054151225E+001  +5.2166593540E-001 +1.7360138690E+000 
10521195.244 +4.7625999074E-001 +2.9127273130E+000  +4.9586227815E-002 -3.0104945723E+000  +5.3071946480E-002 +1.4893047534E+001  +5.3615316652E-001 +2.5580423611E+000 
10646340.426 +4.8200825217E-001 +8.7240862303E+000  +5.1942428465E-002 -6.4935861493E-001  +5.3113873994E-002 +1.3350282410E+001  +5.7864363366E-001 +2.9338322422E+000 
10771485.607 +5.2285205028E-001 +9.8284268580E+000  +5.2010044038E-002 +1.3158879308E+000  +5.1206519256E-002 +1.2476225704E+001  +5.2502598083E-001 +2.6007994965E+000 
10896630.788 +5.2238823054E-001 +7.8221375581E+000  +5.5857944713E-002 -4.8665257317E-001  +5.4812188560E-002 +1.2953558124E+001  +5.5584543875E-001 -3.8632926457E-001 
11021775.970 +5.4620878766E-001 +9.1195344194E+000  +5.4810143145E-002 +3.1173480699E-001  +5.1970329050E-002 +1.5594100323E+001  +5.6920814455E-001 +3.9648686554E+000 
11146921.151 +5.5500603828E-001 +9.9695593639E+000  +5.4278612400E-002 +9.7534877928E-001  +5.3477561561E-002 +1.2556419402E+001  +5.4017706704E-001 +1.3648940990E+000 
11272066.333 +5.6259837820E-001 +5.8851756309E+000  +5.4419668838E-002 +6.9087151105E-002  +5.4784033094E-002 +1.2874856145E+001  +5.4870470104E-001 -8.7329346401E-001 
11397211.514 +5.5697743060E-001 +1.0498439749E+001  +5.4659890967E-002 +4.7525381239E-001  +5.3133661266E-002 +1.0654351698E+001  +5.8164499562E-001 +2.6583857501E+000 
11522356.696 +5.6410451063E-001 +9.3452337107E+000  +5.4788710571E-002 +1.7549576645E+000  +5.3812446314E-002 +1.2894309148E+001  +5.9490641937E-001 +2.9155669955E+000 
11647501.877 +5.8149067827E-001 +6.0807839398E+000  +5.6309204843E-002 +2.9432577211E+000  +5.5309203162E-002 +1.2861774388E+001  +6.0805952157E-001 +4.8470670647E+000 
11772647.059 +5.8968322439E-001 +8.0146954413E+000  +5.5320683641E-002 -3.7077683746E-001  +5.4736759472E-002 +1.1830270633E+001  +5.9783468130E-001 +3.9216836571E+000 
11897792.240 +5.8151237461E-001 +4.8686750067E+000  +5.8101912877E-002 +9.5085769221E-002  +5.7341777905E-002 +1.2103361011E+001  +6.3562661336E-001 +4.1593089580E-001 
12022937.422 +6.1602634798E-001 +6.3695533815E+000  +5.7918105140E-002 +3.1825963526E+000  +5.6965341157E-002 +1.2272660901E+001  +6.6055662800E-001 +1.1510336591E+000 
12148082.603 +6.4300762998E-001 +6.3676125316E+000  +5.8143756273E-002 +2.0413167970E+000  +5.8003091673E-002 +9.5719680725E+000  +6.3640329713E-001 +1.5180971929E+000 
12273227.785 +6.4394703199E-001 +3.9207042783E+000  +6.1041740175E-002 +2.7389939820E+000  +6.1087253961E-002 +1.1425249244E+001  +6.6022224257E-001 +2.5407715146E+000 
12398372.966 +6.3586797842E-001 +4.1145061541E+000  +5.8885293265E-002 +2.6742470259E+000  +5.7239125695E-002 +9.4780350396E+000  +6.5260684112E-001 +2.2434206401E+000 
12523518.148 +6.5475753201E-001 +1.2354277643E+000  +6.1214483369E-002 +3.6259884222E+000  +6.1384446154E-002 +1.1568478725E+001  +6.9149333915E-001 +7.6242316480E-001 
12648663.329 +6.6743252360E-001 +6.3289576638E+000  +6.1585158289E-002 +3.7913988270E+000  +6.1517079674E-002 +8.7568102848E+000  +6.9449888276E-001 +2.0900966337E+000 
12773808.511 +7.0015543810E-001 +1.6978358050E+000  +6.3170793938E-002 +3.0046133340E+000  +6.1094669870E-002 +9.3335706326E+000  +7.0471467926E-001 -1.0396620086E+000 
12898953.692 +7.0810128208E-001 +3.5903672254E+000  +6.2678112819E-002 +3.0842952068E+000  +6.2057061738E-002 +8.4205718741E+000  +7.2509901233E-001 -5.0937858118E-001 
13024098.874 +7.4953232775E-001 +1.2385091988E+000  +6.4199717891E-002 +3.9553622857E+000  +6.3774360430E-002 +6.7683801060E+000  +7.4334470670E-001 -1.6661521919E+000 
13149244.055 +7.4563066444E-001 +8.7559355808E-001  +6.3026038351E-002 +2.9907475065E+000  +6.3711382198E-002 +7.1912927536E+000  +7.5045377946E-001 -2.1947643125E+000 
13274389.237 +7.4254639971E-001 -9.5936773821E-001  +6.5858978449E-002 +2.9084801669E+000  +6.5385521074E-002 +6.8220815800E+000  +7.6879429207E-001 -2.2712653177E+000 
13399534.418 +7.5443920803E-001 -3.0962828027E+000  +6.5231629896E-002 +1.0062398259E+000  +6.5849010419E-002 +6.7643729865E+000  +7.9849627397E-001 -2.6487264285E+000 
13524679.599 +7.9477475126E-001 -1.4868775520E+000  +6.5451457232E-002 +3.4677540111E+000  +6.5276895785E-002 +6.2391383777E+000  +8.1833831883E-001 -1.4429582545E+000 
13649824.781 +8.0853898669E-001 +4.5216147664E-002  +6.7257862628E-002 +2.6497050844E+000  +6.5657819556E-002 +5.3781541043E+000  +8.1713431891E-001 -3.2398844843E+000 
13774969.962 +8.2363828947E-001 -4.0133911727E+000  +6.7474478563E-002 +1.3487812221E+000  +6.6447956321E-002 +2.3888813042E+000  +8.3442572717E-001 -4.0825213035E+000 
13900115.144 +8.4242475994E-001 -1.9673708212E+000  +6.6636484570E-002 +3.4768982826E+000  +6.6702767884E-002 +3.1161960135E+000  +8.4451718129E-001 -2.6366064908E+000 
14025260.325 +8.6179928956E-001 -1.9923829845E+000  +6.7649670398E-002 +1.6063130634E+000  +6.6451193657E-002 +3.3465454248E+000  +8.7058899282E-001 -3.3307983003E+000 
14150405.507 +8.5874683225E-001 -4.3702999491E+000  +6.7681041246E-002 +2.9493518648E+000  +6.5167917896E-002 +3.0697624901E+000  +8.9455721506E-001 -4.3893280888E+000 
14275550.688 +8.7797893964E-001 -4.3794807183E+000  +6.7910912023E-002 +9.4978477820E-001  +6.7159975910E-002 +2.2575749963E+000  +8.8996343233E-001 -5.3053870449E+000 
14400695.870 +9.1400247611E-001 -6.4712914080E+000  +6.7959532483E-002 +1.6497892642E+000  +6.7621105077E-002 +2.5515411061E+000  +9.1371456526E-001 -3.1804684718E+000 
