!  2-Port S-parameters saved by WinCal
! VAR MeasName=S-Parameters (CALIBRATED_DATA) read from VNA (P5004A)
! VAR MeasDate=29/08/2024 10:50:17
! VAR NAME=S2_r9c2_RESET5_9k-100M_1
! VAR FILENAME=S2_r9c2_RESET5_9k-100M_1.S2P
! VAR DATE=29/08/2024 10:50:17
! VAR PHYS_PORTS=1,2
! VAR ObjTypeName=DATASET
! VAR IndexType=Frequency
!
# Hz S MA R 50
9000.000 +8.7201993600E-002 -1.6745102161E+002  +1.2415503520E-002 +1.7628309475E+002  +3.7423324880E-003 -1.2234979047E+002  +2.5154999591E-001 -1.3159971831E+002 
134145.181 +1.1154598657E-001 +1.6963216717E+002  +4.9610258224E-004 -8.0553467405E+001  +6.7789376635E-004 -1.3309930186E+002  +2.3897962299E-001 -1.7068697508E+002 
259290.363 +1.1184419777E-001 +1.6938031588E+002  +6.1772660407E-004 -1.4492628941E+002  +5.2458687170E-004 +5.6337425938E+001  +2.4466401116E-001 -1.6904698488E+002 
384435.544 +1.1380087198E-001 +1.7022859571E+002  +4.3970832005E-004 -4.2846494420E+001  +6.1355748941E-004 -1.2920150375E+002  +2.4931633533E-001 -1.6932324803E+002 
509580.726 +1.1396518079E-001 +1.7072667640E+002  +1.1893116664E-003 -1.2003479053E+002  +3.8804648178E-004 -4.1098856194E+001  +2.5122308457E-001 -1.6776637537E+002 
634725.907 +1.1840516446E-001 +1.7152598070E+002  +8.2889745836E-004 -1.1518268098E+002  +5.0727044944E-004 +2.3133326685E+001  +2.4657798088E-001 -1.6208076554E+002 
759871.089 +1.2089371607E-001 +1.7098773048E+002  +3.5826124769E-004 -4.9024242104E+001  +3.9669169916E-004 +8.1518939728E+001  +2.4466564706E-001 -1.6736288850E+002 
885016.270 +1.2070799226E-001 +1.6881111129E+002  +4.7692406542E-004 -8.5377574483E+001  +3.1539814689E-004 +9.6083166095E+001  +2.4792184092E-001 -1.6712119487E+002 
1010161.452 +1.1569181857E-001 +1.7040732639E+002  +7.2671933909E-004 -5.5018659572E+000  +1.4415885097E-003 -1.3461805955E+002  +2.0671345967E-001 -1.6992034959E+002 
1135306.633 +1.1973478860E-001 +1.6847788868E+002  +2.2708443722E-003 -3.7275275680E+001  +1.0057180335E-003 +1.5053032190E+002  +1.6762174552E-001 -1.6872821085E+002 
1260451.815 +1.1946969288E-001 +1.7117955366E+002  +3.8001700650E-004 +1.6469351535E+002  +3.3500103491E-004 +7.2337979875E+001  +2.3655635643E-001 -1.5477659674E+002 
1385596.996 +1.2370226636E-001 +1.7290240095E+002  +2.1753876127E-003 +5.5933531485E+001  +6.7404951766E-004 -9.3176733457E+001  +2.5919227044E-001 -1.5242812824E+002 
1510742.178 +1.2955805355E-001 +1.7181427527E+002  +6.3493914060E-004 -8.0793545005E+001  +5.3351222881E-004 -1.1327172213E+002  +2.4880575037E-001 -1.6154590132E+002 
1635887.359 +1.2772439960E-001 +1.7073319367E+002  +1.0996509950E-003 -5.6169092638E+001  +1.7292758418E-003 +1.0777648875E+002  +2.4946734603E-001 -1.5530935005E+002 
1761032.541 +1.2763631311E-001 +1.6842873702E+002  +9.9226858403E-004 -1.6059481442E+001  +6.5966147073E-004 +1.3800475016E+002  +2.4914236888E-001 -1.5834891441E+002 
1886177.722 +1.2533722472E-001 +1.7020029543E+002  +1.8304237312E-003 +4.6920188809E+001  +2.8145593536E-003 -6.6938261492E+001  +2.2109964639E-001 -1.6238285553E+002 
2011322.904 +1.3316529962E-001 +1.6863996928E+002  +2.5742242023E-003 +1.6467456706E+001  +2.4517583710E-003 -4.4616378131E+001  +1.7870946387E-001 -1.6469749062E+002 
2136468.085 +1.3789945436E-001 +1.6742395377E+002  +3.8804034879E-004 +8.7718518035E+001  +9.8039705902E-004 -8.3438763536E+001  +2.1321331322E-001 +1.7892503216E+002 
2261613.267 +1.2866693099E-001 +1.6841637425E+002  +2.1155882731E-003 -1.2648209473E+001  +1.2136251758E-003 -8.1710871480E+001  +2.3037639092E-001 -1.6193006850E+002 
2386758.448 +1.3752388211E-001 +1.6456685155E+002  +4.9565523509E-003 +8.5811031044E+001  +7.9641740352E-003 -6.9315899008E+001  +1.9789849103E-001 -1.7616031669E+002 
2511903.630 +1.2843113352E-001 +1.6663017064E+002  +9.4690168635E-003 +4.7752761314E+001  +1.2553720580E-002 -1.3401027844E+000  +2.2477867980E-001 +1.5315310341E+002 
2637048.811 +1.3153728323E-001 +1.6284158773E+002  +8.8843581399E-003 +8.3061733596E+001  +9.7253894149E-003 -4.5668192750E+001  +2.1841090070E-001 +1.6668794228E+002 
2762193.992 +1.3702933296E-001 +1.6871605179E+002  +9.8162854916E-003 +7.4801665507E+001  +6.7948317431E-003 -2.1784803894E+001  +3.5012309429E-001 +1.4648199590E+002 
2887339.174 +1.1504662613E-001 +1.6902630983E+002  +1.4459434102E-002 -8.7397192868E+000  +1.9153097079E-002 -1.2098557661E+002  +1.2605346968E-001 -1.1178717382E+002 
3012484.355 +1.3681095542E-001 +1.6791329583E+002  +8.4729450999E-003 -2.5073635540E+001  +9.3029401919E-003 -1.1266531853E+002  +1.8300890019E-001 -9.9950486298E+001 
3137629.537 +1.2748661837E-001 +1.7408385298E+002  +2.4547588427E-002 -3.5096446302E+001  +2.6593467708E-002 -1.6673795857E+002  +4.3069211203E-001 -8.3171987053E+001 
3262774.718 +1.2615565024E-001 +1.6702254731E+002  +2.3316242319E-002 -1.9706917536E+001  +1.4270953044E-002 -1.3944746156E+002  +2.6591939702E-001 -8.4388332521E+001 
3387919.900 +1.3355243642E-001 +1.7250022454E+002  +9.1342194554E-003 +2.9762661019E+001  +2.2025130996E-002 -7.5450210757E+001  +2.0124941556E-001 +8.0932801626E+001 
3513065.081 +1.5420447534E-001 +1.5172090467E+002  +1.4153374866E-002 +4.3923359241E+001  +2.6356194004E-002 -5.5767309037E+001  +3.6690248946E-001 +9.8719808030E+001 
3638210.263 +1.6113415302E-001 +1.5421407668E+002  +1.6067078225E-002 +1.1100615681E+002  +1.3676484859E-002 +1.9374315108E+001  +4.0423605636E-001 +1.4309286154E+002 
3763355.444 +1.7342356242E-001 +1.4513457642E+002  +1.8515039268E-002 +8.0306028294E+001  +3.6767213715E-002 +3.2177275091E+001  +4.7680062504E-001 +1.1969763211E+002 
3888500.626 +1.6974252800E-001 +1.5070189004E+002  +2.6002204472E-002 +9.4292449087E+001  +2.0147641328E-002 +2.7253704310E+001  +4.1654301784E-001 +1.3127240214E+002 
4013645.807 +1.8680251573E-001 +1.5058297144E+002  +1.5378552031E-002 +1.0362855174E+002  +1.7677119069E-002 -6.3456197240E-001  +2.4047015950E-001 +1.3465662934E+002 
4138790.989 +1.9328494145E-001 +1.4868248089E+002  +1.2023513868E-002 +8.8328598479E+001  +1.4562729086E-002 +4.4806769112E+001  +5.3989162646E-001 +1.3972790493E+002 
4263936.170 +2.1611305150E-001 +1.4625314254E+002  +1.9712357672E-002 +1.2782596859E+002  +1.0621536747E-002 +4.8494189682E+001  +4.9073634152E-001 +1.4381411550E+002 
4389081.352 +2.1913222551E-001 +1.2964650400E+002  +3.7644207248E-002 +1.0092031140E+002  +2.6575538284E-002 +1.8375113503E+001  +3.9304621392E-001 +1.2102976825E+002 
4514226.533 +2.5048250450E-001 +1.2634853133E+002  +5.5090780735E-002 +8.5669994236E+001  +3.6880368343E-002 +1.3007103379E+001  +4.1862123258E-001 +1.0325241720E+002 
4639371.715 +2.8145052210E-001 +1.2540379116E+002  +1.7678843478E-001 +1.1841388866E+002  +2.0051264607E-001 +8.5261186957E+001  +2.7633653374E+000 +1.1541336799E+002 
4764516.896 +3.7281722189E-001 +1.0873310140E+002  +5.7433364204E-001 +9.2852320606E+001  +6.2195265574E-001 +5.2063038884E+001  +7.4521213253E+000 +7.2294323410E+001 
4889662.078 +3.8501216245E-001 +1.3657396307E+002  +2.5614869500E-001 -3.3788869917E+001  +3.0765307648E-001 -6.3360420031E+001  +5.2978384065E+000 -8.4844655699E+001 
5014807.259 +3.2291312875E-001 +1.3096207094E+002  +2.0312038534E+000 -3.7139115587E+001  +1.5695471770E+000 -7.8099356108E+001  +4.1021187879E+001 -7.9284866780E+001 
5139952.441 +3.5320345882E-001 +1.3355959733E+002  +1.0810402271E-001 +1.5268795148E+002  +1.1182724192E-001 +1.1989791120E+002  +2.5862294286E+000 +1.3899666149E+002 
5265097.622 +3.7929112289E-001 +1.3722339287E+002  +4.5531142914E-002 +1.2667321735E+002  +9.0854706393E-002 +8.6431145243E+001  +1.5313133603E+000 +1.1032186235E+002 
5390242.804 +4.5646892057E-001 +1.2919950377E+002  +1.4770087550E-001 +1.3414615216E+002  +1.2701804179E-001 +9.8501651073E+001  +2.7576652854E+000 +9.7477904489E+001 
5515387.985 +4.5346614251E-001 +1.3433322729E+002  +1.1431263541E-001 +1.4174899487E+002  +1.0622673452E-001 +9.8125462295E+001  +2.5906817408E+000 +1.1767723297E+002 
5640533.166 +3.9715617297E-001 +1.3619042681E+002  +5.3735544910E-002 +1.0647291240E+002  +4.8950028046E-002 +4.5445392341E+001  +1.0477204013E+000 +8.5258649418E+001 
5765678.348 +4.9769154339E-001 +1.2513572827E+002  +1.2759620090E-001 +1.0201788318E+002  +1.2202705543E-001 +6.0464245915E+001  +2.2477449254E+000 +7.1290476849E+001 
5890823.529 +5.4892759052E-001 +1.1274368322E+002  +8.7615721203E-002 +6.6121736773E+001  +8.5594105766E-002 +3.5930641890E+001  +1.3463472072E+000 +5.0263961658E+001 
6015968.711 +6.7413401391E-001 +1.2429255301E+002  +1.0556373223E-001 +8.4496784960E+001  +1.1730756754E-001 +5.4121345989E+001  +2.2323933499E+000 +4.9444696924E+001 
6141113.892 +6.7973151434E-001 +1.1322617750E+002  +1.0414129850E-001 +6.2983261790E+001  +9.5153277662E-002 +4.3618822094E+001  +1.9990789962E+000 +4.0578593803E+001 
6266259.074 +6.9764430078E-001 +1.0744506982E+002  +9.7703740108E-002 +3.2614123019E+001  +8.1524168610E-002 +2.4953503166E+001  +1.2397489837E+000 +1.6671946662E+001 
6391404.255 +9.1976486136E-001 +9.8741944778E+001  +1.3167360909E-001 +4.8202159004E+001  +1.1229042802E-001 +3.5478299091E+001  +1.5602366597E+000 +1.1559222530E+001 
6516549.437 +1.0599572616E+000 +7.7855777610E+001  +9.8573442508E-002 +2.7077656672E+001  +1.1960316182E-001 +2.4484874369E+001  +1.2592626278E+000 +4.1728168604E+000 
6641694.618 +1.4297720871E+000 +7.9716551846E+001  +1.2463504354E-001 +3.3940376438E+001  +1.1487961171E-001 +2.6089134470E+001  +1.2525247539E+000 +7.8374911443E+000 
6766839.800 +1.1274156589E+000 +4.0647565500E+001  +1.0236815583E-001 +9.9601427727E+000  +1.3054872972E-001 -3.8034189649E+000  +1.4019598809E+000 +8.9945389968E+000 
6891984.981 +1.8103312540E+000 +5.1323150707E+001  +1.3890299966E-001 +2.8268330005E+001  +1.2761811371E-001 +3.2734470819E+000  +1.2877471874E+000 +4.4781892283E+000 
7017130.163 +1.2625831574E+000 +2.4488212660E+001  +8.6326268405E-002 +6.3725925304E+000  +1.0105421758E-001 -9.0242214404E+000  +1.1558145343E+000 -1.0860822652E+001 
7142275.344 +1.3160489808E+000 +1.7918396037E+001  +8.6817880768E-002 +1.4873454164E+001  +8.8352151906E-002 -3.1700862823E+000  +1.3152328861E+000 -7.5879123854E+000 
7267420.526 +1.5931102172E+000 -1.8203313808E+000  +7.8752349785E-002 -3.6639257619E+000  +7.9583515037E-002 -6.1111565856E+000  +1.2520739297E+000 -1.2392647283E+001 
7392565.707 +1.2209641091E+000 +1.0471902230E+001  +5.5835051031E-002 +7.8897916286E+000  +6.9801000601E-002 +7.5210844577E+000  +1.3060635522E+000 -8.1809479125E+000 
7517710.889 +1.2683926755E+000 +1.4139877891E+000  +6.3065630479E-002 +1.1067409783E+001  +6.5040434272E-002 +1.4106536837E+001  +1.2534212101E+000 -8.4752611830E+000 
7642856.070 +9.9425127823E-001 +5.4089571484E+000  +5.6345317408E-002 +2.3949928097E+000  +5.8413300509E-002 +9.6754082421E+000  +1.1063704494E+000 -3.9709707699E+000 
7768001.252 +8.5088579641E-001 +6.1077058124E+000  +5.6322557134E-002 +3.7344057977E+000  +5.4950657475E-002 +7.6574310118E+000  +8.8269564650E-001 -2.4237527441E+000 
7893146.433 +7.9288898150E-001 +5.9140660167E+000  +5.6225471098E-002 +5.2432663000E-001  +5.3446105528E-002 +6.7835222282E+000  +8.5464416476E-001 -2.8081270352E+000 
8018291.615 +7.6597356234E-001 +6.1286052049E+000  +5.3899923093E-002 +7.2621913810E+000  +5.4151687690E-002 +1.0069858199E+000  +7.8454335750E-001 +2.1056213724E+000 
8143436.796 +7.3759590465E-001 +1.2340322503E+001  +5.4121676388E-002 -3.7626379245E+000  +4.7297298747E-002 +2.8669482311E+000  +7.3333308426E-001 +5.3510079426E-001 
8268581.977 +6.2613901382E-001 +1.8471018143E+001  +4.6093524745E-002 +5.2423086595E+000  +4.6683881326E-002 +9.0079190960E+000  +6.9784158000E-001 +3.3718367413E+000 
8393727.159 +6.6565024763E-001 +1.6141630573E+001  +5.1487868452E-002 -3.0875196329E+000  +4.3920748647E-002 +1.3259615911E+001  +6.4677402438E-001 +3.1609932773E+000 
8518872.340 +6.4872500085E-001 +1.1787259785E+001  +4.9874774835E-002 -1.4698006156E+000  +4.5058241687E-002 +8.4510825525E+000  +7.4116693632E-001 -1.5462354534E+000 
8644017.522 +5.7611794797E-001 +1.1212333564E+001  +4.2115500040E-002 -4.9253268190E+000  +5.0458857653E-002 +1.3373840411E+001  +6.7124224126E-001 -7.1841177565E+000 
8769162.703 +5.7548549261E-001 +9.4292777417E+000  +4.1725752385E-002 -2.5995555406E+000  +4.6042167614E-002 +1.7949173383E+001  +6.9814691395E-001 -9.6390128203E-002 
8894307.885 +5.9908187782E-001 +9.1674834251E+000  +4.5806128607E-002 -4.4259613110E+000  +4.5635353015E-002 +1.5251304130E+001  +6.1922754046E-001 -4.3119573667E-001 
9019453.066 +5.5985038659E-001 +6.2452718254E+000  +4.3388610503E-002 +3.1178574170E-001  +4.7006337567E-002 +1.0797460605E+001  +5.9195613679E-001 +4.7962829365E-001 
9144598.248 +5.1972473642E-001 +1.0714035867E+001  +4.8645547594E-002 -2.0206448980E+000  +4.6489014479E-002 +1.3699064409E+001  +5.5945294023E-001 -4.2170798121E+000 
9269743.429 +5.5693185265E-001 +8.9246506473E+000  +4.5255391723E-002 -1.9825428061E+000  +4.1220181470E-002 +1.0654123185E+001  +5.5758097926E-001 +8.3883300229E-001 
9394888.611 +4.8902175905E-001 +2.8563631228E+000  +4.7301563654E-002 -8.8400430400E+000  +4.2605390957E-002 +1.2563166167E+001  +5.5552729380E-001 -2.3639090539E+000 
9520033.792 +5.1891994067E-001 +2.6631659582E+000  +4.5045675220E-002 -5.4412450577E+000  +4.3976804941E-002 +1.6120747850E+001  +5.4441218302E-001 -1.4512540397E+000 
9645178.974 +4.7893407876E-001 -2.7671963516E+000  +4.3566477697E-002 -5.4406842918E+000  +4.7166603448E-002 +1.4968113040E+001  +5.5379282136E-001 +9.1694348866E-001 
9770324.155 +4.9253278735E-001 +6.7354347413E-001  +4.6734538599E-002 -3.7433551879E+000  +4.3895696811E-002 +1.0175386529E+001  +5.0790043806E-001 -5.9407582442E+000 
9895469.337 +5.4067808768E-001 +2.4012352006E+000  +4.7082689349E-002 -5.1501670586E+000  +4.8239257420E-002 +1.3271424861E+001  +5.8022603091E-001 -7.5629928028E+000 
10020614.518 +4.9998509285E-001 +4.3562762977E+000  +4.0682210220E-002 -4.1168139857E+000  +4.6476530094E-002 +1.2122487547E+001  +5.0617327048E-001 -4.9346243424E+000 
10145759.700 +4.6187626760E-001 +1.5047994600E+000  +4.4518105877E-002 -4.3476776182E+000  +4.6939148973E-002 +1.1648842953E+001  +5.2875144674E-001 -4.1559413175E+000 
10270904.881 +5.2913034838E-001 +5.4475399900E+000  +4.7039802339E-002 -1.5165119284E+000  +4.5356151342E-002 +7.4636660298E+000  +5.3080758450E-001 +2.0868835511E+000 
10396050.063 +4.6786597268E-001 +3.2350845758E+000  +4.7467905211E-002 -3.2546236466E+000  +4.4449406133E-002 +9.7576370291E+000  +5.6007961608E-001 -7.1600119379E-001 
10521195.244 +5.1041162287E-001 +7.5697481885E+000  +4.5509034232E-002 -3.3137890907E+000  +4.6913963606E-002 +1.2946942521E+001  +5.7353326136E-001 -4.2233750588E-001 
10646340.426 +5.1312648032E-001 +6.9083577841E+000  +4.5712730200E-002 -2.3650570220E+000  +4.3428149086E-002 +1.2857546012E+001  +5.4922776393E-001 -1.2115046122E+000 
10771485.607 +5.3846613933E-001 +7.3949420011E+000  +4.7888184802E-002 -1.0546566163E+000  +4.7753853094E-002 +1.3172036362E+001  +5.4708794521E-001 -1.2403384918E+000 
10896630.788 +5.5762979501E-001 +8.6585373614E+000  +4.6967126218E-002 +2.1517693610E+000  +4.6558737035E-002 +1.3951373796E+001  +5.8466746310E-001 -2.2274001836E+000 
11021775.970 +5.6145911497E-001 +9.9957299394E+000  +4.6568134491E-002 +1.4802300175E-002  +4.6925158859E-002 +1.2651293579E+001  +5.3910500091E-001 +2.2959883775E+000 
11146921.151 +5.3969454582E-001 +8.4022320749E+000  +4.7593608866E-002 -2.1652926223E+000  +4.8772632812E-002 +1.2766093361E+001  +5.8751014491E-001 +3.1179927017E+000 
11272066.333 +5.9503473102E-001 +7.7062195769E+000  +4.9819334772E-002 -3.7387373230E-002  +4.6818230385E-002 +1.2218331677E+001  +5.6622406544E-001 +2.0512775571E+000 
11397211.514 +5.6985356983E-001 +1.0270779846E+001  +4.7418236099E-002 +1.4652070354E+000  +4.5113947167E-002 +1.3099085284E+001  +5.9099353768E-001 +4.0039116954E+000 
11522356.696 +6.0535425274E-001 +7.4585106328E+000  +5.0845984416E-002 +1.7303784457E+000  +4.6663830892E-002 +1.5024014482E+001  +5.9667335677E-001 +1.7809858567E+000 
11647501.877 +5.8270034675E-001 +9.6464740131E+000  +4.7984448499E-002 -9.0346257489E-001  +5.0317318476E-002 +1.1004591442E+001  +6.0869587118E-001 +1.1611690246E+000 
11772647.059 +6.0575646278E-001 +5.3995014526E+000  +5.0827913565E-002 +5.4760365675E-001  +5.0060290365E-002 +1.0597005597E+001  +6.0817826974E-001 +1.8854561735E+000 
11897792.240 +5.9863894712E-001 +4.5830109441E+000  +4.9984989472E-002 +3.9163133258E-001  +5.1490376980E-002 +1.2191108193E+001  +6.1012622893E-001 +1.7421492775E+000 
12022937.422 +6.3328822522E-001 +5.9350853316E+000  +5.1108849780E-002 +9.8671742782E-001  +5.1455631667E-002 +1.4591182668E+001  +6.5815297089E-001 +1.9893012337E-001 
12148082.603 +6.4742963356E-001 +3.7714956288E+000  +5.0512201593E-002 +8.7354177034E-001  +5.2468898715E-002 +1.4084107092E+001  +6.6368705676E-001 +9.4924417532E-001 
12273227.785 +6.5295712575E-001 +5.6655873788E+000  +5.2347030843E-002 +2.0749047376E+000  +5.3328296016E-002 +1.0745091358E+001  +6.7419585776E-001 +3.0525715736E-001 
12398372.966 +6.7064785119E-001 +5.9745355864E+000  +5.2488827795E-002 +2.8234651121E+000  +5.4134437555E-002 +9.8075213029E+000  +6.7276983158E-001 -6.2812550260E-002 
12523518.148 +6.7449310181E-001 +2.4463810389E+000  +5.2760345052E-002 +4.8399872321E+000  +5.3022593416E-002 +9.9692277180E+000  +6.8909757871E-001 -5.0266791335E-001 
12648663.329 +7.1199240661E-001 +4.1939805022E+000  +5.3695531846E-002 +3.5036420099E+000  +5.3057670255E-002 +1.1808405424E+001  +7.4423300108E-001 -5.8184206752E-001 
12773808.511 +7.1508355179E-001 +2.5842676432E+000  +5.3659779599E-002 +3.6527032333E+000  +5.3849708966E-002 +1.0231355431E+001  +7.0662553525E-001 -1.8264641303E-001 
12898953.692 +7.3462356336E-001 +1.7121020402E+000  +5.6911504535E-002 +5.2738530673E+000  +5.4806693848E-002 +8.3909249689E+000  +7.1780762282E-001 +6.0100752377E-001 
13024098.874 +7.3035877890E-001 +2.9231774516E+000  +5.6259489158E-002 +3.4141998182E+000  +5.5346082196E-002 +7.0632613318E+000  +7.4822368430E-001 -2.1120006343E+000 
13149244.055 +7.6623454034E-001 +1.6154582212E+000  +5.5835374189E-002 +4.1099375371E+000  +5.5712841732E-002 +8.6789950691E+000  +7.5219311479E-001 -9.3334518462E-001 
13274389.237 +7.5631210887E-001 -9.6095794515E-001  +5.6959755831E-002 +2.5526507392E+000  +5.4462535894E-002 +7.6958442806E+000  +7.6358089820E-001 -1.7350869597E+000 
13399534.418 +8.0124445467E-001 +3.4043228222E-001  +5.6927354177E-002 +3.5759199376E+000  +5.5794905385E-002 +7.2344131078E+000  +7.8486673237E-001 -1.1683694519E+000 
13524679.599 +8.1223749233E-001 -7.5652017743E-001  +5.7790387544E-002 +2.9798208776E+000  +5.6054249497E-002 +5.7323219303E+000  +8.2368287079E-001 -1.8486495509E+000 
13649824.781 +8.2209454583E-001 -1.1171739262E+000  +5.8026510425E-002 +2.6711937497E+000  +5.6138826964E-002 +5.8037115120E+000  +8.1678649895E-001 -2.3421209866E+000 
13774969.962 +8.3812882152E-001 -4.1978230307E+000  +5.8847505498E-002 +2.9680941277E+000  +5.6624808191E-002 +5.1070333603E+000  +8.4302648733E-001 -2.7031169100E+000 
13900115.144 +8.4617705664E-001 -2.9413948767E+000  +5.8477574472E-002 +3.4774139778E+000  +5.9183143407E-002 +4.2248231717E+000  +8.6705475076E-001 -3.1203357308E+000 
14025260.325 +8.6286892561E-001 -4.8643257752E+000  +5.8502279636E-002 +1.1034228645E+000  +5.7596271641E-002 +3.1089008930E+000  +8.6010387414E-001 -5.1913509701E+000 
14150405.507 +8.9825562503E-001 -3.5724044438E+000  +5.8906653836E-002 +3.1820902391E+000  +6.0177133733E-002 +2.6215886856E+000  +9.2023306194E-001 -3.5614125511E+000 
14275550.688 +8.9487489679E-001 -5.3759784682E+000  +6.0570314390E-002 +1.5571131097E+000  +5.7543917864E-002 +1.9974520030E+000  +9.0374845426E-001 -5.0195843280E+000 
14400695.870 +9.3031978512E-001 -6.5593118396E+000  +6.0681268461E-002 +2.3873456911E+000  +5.8010562219E-002 +2.7993057137E+000  +9.3210668482E-001 -4.4881687362E+000 
