!  2-Port S-parameters saved by WinCal
! VAR MeasName=S-Parameters (CALIBRATED_DATA) read from VNA (P5004A)
! VAR MeasDate=29/08/2024 10:20:43
! VAR NAME=S2_r9c1_RESET5_9k-100M_1
! VAR FILENAME=S2_r9c1_RESET5_9k-100M_1.S2P
! VAR DATE=29/08/2024 10:20:43
! VAR PHYS_PORTS=1,2
! VAR ObjTypeName=DATASET
! VAR IndexType=Frequency
!
# Hz S MA R 50
9000.000 +1.0197976096E-001 -1.7128506909E+002  +8.4091599457E-003 +1.5792044016E+002  +5.7895365486E-003 -4.8252236130E+001  +2.5937985604E-001 -1.3641790537E+002 
134145.181 +1.1113995615E-001 +1.6945296207E+002  +1.9968824645E-004 -1.8365872522E+001  +1.3799540712E-004 +1.1603557722E+002  +2.4397215028E-001 -1.7078644245E+002 
259290.363 +1.1147412543E-001 +1.6917262516E+002  +9.3604317183E-004 -1.5622552693E+002  +5.8687308158E-004 +1.7258364537E+002  +2.4384967060E-001 -1.6949996649E+002 
384435.544 +1.1348677310E-001 +1.7062045383E+002  +2.9989548914E-004 +7.2042645144E+001  +1.9380438645E-004 +4.4318686772E+001  +2.4540901845E-001 -1.6797324577E+002 
509580.726 +1.1525575627E-001 +1.7022016651E+002  +1.8993605429E-004 +1.7107912860E+001  +5.8052255411E-004 -1.3257188125E+001  +2.4637100487E-001 -1.6753161180E+002 
634725.907 +1.1822970485E-001 +1.7194686120E+002  +8.2345367436E-004 +1.6949196916E+002  +1.7798292914E-003 -1.2802781416E+002  +2.5773750428E-001 -1.6234099316E+002 
759871.089 +1.2182322832E-001 +1.7063489572E+002  +6.0980599422E-004 +1.7265968406E+002  +7.6509681177E-004 +1.5375372251E+002  +2.6505565504E-001 -1.6621883032E+002 
885016.270 +1.2126795062E-001 +1.6920423459E+002  +5.7359101319E-004 +4.6779396635E+001  +5.7448621992E-004 +1.5661417834E+002  +2.4505603368E-001 -1.6691464834E+002 
1010161.452 +1.1618047334E-001 +1.6984283804E+002  +9.9173247329E-004 +6.7425043926E+001  +3.4324272154E-004 -9.3306571382E+001  +1.9706254773E-001 -1.6343621311E+002 
1135306.633 +1.1683723870E-001 +1.6962454667E+002  +8.8939309704E-004 +5.8705515617E+001  +8.5713069980E-004 -1.3790335421E+002  +2.0186374619E-001 -1.6492961434E+002 
1260451.815 +1.2211750191E-001 +1.7096303768E+002  +8.9300185490E-004 -1.4064787218E+002  +9.2871067223E-004 -9.3199166925E+001  +2.3926273577E-001 -1.6047298469E+002 
1385596.996 +1.2571132259E-001 +1.7303870811E+002  +5.8772968243E-004 -1.3103796461E+002  +8.0261120240E-004 +1.1776366991E+002  +2.6276530533E-001 -1.5677034759E+002 
1510742.178 +1.2695840504E-001 +1.7197419267E+002  +6.3458554269E-004 +4.6395274556E+001  +7.9485906388E-004 -1.5193883377E+002  +2.5636609342E-001 -1.5590805629E+002 
1635887.359 +1.2897498537E-001 +1.7251259263E+002  +5.8227703717E-004 +3.7758679573E+001  +7.1530518742E-004 -1.7337961687E+001  +2.5175683977E-001 -1.5787966215E+002 
1761032.541 +1.3022689234E-001 +1.7096905870E+002  +7.5389170150E-004 -1.3705576624E+002  +9.6788584325E-004 -1.2101541956E+002  +2.4148291245E-001 -1.6303523270E+002 
1886177.722 +1.3037867441E-001 +1.6840227813E+002  +2.8700948946E-004 +1.1348102194E+002  +6.2790041958E-004 +6.2569016479E+001  +2.2532915844E-001 -1.6067021320E+002 
2011322.904 +1.2918139983E-001 +1.6735233513E+002  +1.3362464246E-003 +1.7077885704E+002  +1.3600506122E-003 +7.4927768652E+001  +1.8041150400E-001 -1.6922918124E+002 
2136468.085 +1.2778225019E-001 +1.6685972758E+002  +1.6931597937E-003 +1.6935291715E+002  +2.6504227222E-003 -3.1604145508E+001  +1.8078443692E-001 -1.7851782666E+002 
2261613.267 +1.2326108887E-001 +1.6633024425E+002  +5.2107671258E-003 +1.6303487136E+002  +9.9581500260E-003 -1.4851095713E+002  +1.2510761928E-001 +1.7885986685E+002 
2386758.448 +1.3472593718E-001 +1.6470352062E+002  +7.5240813566E-004 -1.9863901545E+001  +4.9768363935E-003 -1.5750916387E+002  +1.8037176838E-001 +1.7889024166E+002 
2511903.630 +1.1861070975E-001 +1.6098631651E+002  +4.4189804804E-003 +7.6126871199E+001  +1.8822289060E-003 -1.3725103251E+002  +3.1845276691E-001 +1.4695560757E+002 
2637048.811 +1.1609564854E-001 +1.6339155105E+002  +1.5432870559E-002 +1.1172346152E+002  +1.0810757579E-002 -6.9698383290E+001  +2.7112971034E-001 +1.2834522868E+002 
2762193.992 +1.1537725635E-001 -1.7638284818E+002  +1.2940583003E-002 +5.7582888963E+000  +9.5677523946E-003 -1.4848631099E+002  +1.0633176566E-001 +1.0301419158E+002 
2887339.174 +1.2188804652E-001 +1.7957565562E+002  +2.2832225455E-002 -1.4891029304E+002  +3.1351979634E-002 +1.6866680682E+002  +1.2318816434E+000 -8.6664273855E+001 
3012484.355 +8.6089645804E-002 -1.7364820231E+002  +4.1955996194E-003 +4.1968026522E+001  +4.4505655705E-003 -9.4302450156E+001  +4.9298656721E-001 -8.5635028541E+001 
3137629.537 +1.2297973264E-001 +1.7693067306E+002  +5.2629379500E-003 -5.8840376992E+001  +9.4828903839E-003 +1.6929074652E+002  +1.8290847934E-001 -7.2353671251E+000 
3262774.718 +1.4648928737E-001 +1.6300708745E+002  +3.6250552840E-003 +4.0673220318E+001  +9.3069015605E-003 +8.8433774634E+001  +1.0270062383E+000 -2.7256106635E+001 
3387919.900 +1.3916699559E-001 +1.5028754384E+002  +1.0599125452E-002 +4.0372630431E+001  +5.6904804416E-003 -7.4904358540E+001  +3.6233441146E-001 +1.1261624202E+002 
3513065.081 +1.4767374805E-001 +1.5228032552E+002  +1.6539149727E-002 +7.0845610290E+001  +3.6416670092E-003 +1.3779056804E+002  +2.0317217438E-001 +1.3910961922E+002 
3638210.263 +1.7673543677E-001 +1.4474178203E+002  +3.3859043221E-003 -1.7994990439E+001  +4.1116596900E-003 +1.3848920186E+002  +4.3695719087E-001 +1.3446302522E+002 
3763355.444 +1.6471426120E-001 +1.4485768426E+002  +1.3070808828E-002 +9.4807582171E+001  +8.8978530141E-003 +1.4401371607E+002  +8.0138659007E-001 +1.2525293894E+002 
3888500.626 +1.9722167920E-001 +1.3992113006E+002  +1.2350797181E-002 +1.2718274816E+002  +9.1050670312E-004 -1.0383535535E+002  +3.7637874829E-001 +1.3798566791E+002 
4013645.807 +1.8867919668E-001 +1.5666492920E+002  +4.6064714475E-003 -1.5602656544E+001  +6.0619968026E-003 +5.1681897648E+000  +1.4162392655E-001 +8.4175298695E+001 
4138790.989 +1.7952959644E-001 +1.4858783232E+002  +3.2825739344E-003 +1.3567396023E+002  +9.1951888472E-003 -2.9627213611E+000  +2.8701618028E-001 +1.5590539033E+002 
4263936.170 +2.0774871621E-001 +1.4378737654E+002  +3.9931152532E-003 +8.6414542570E+001  +9.6926063527E-003 -7.7486502989E+001  +1.8683531012E-001 +1.4894255955E+002 
4389081.352 +2.1970079670E-001 +1.4684296877E+002  +9.6197053779E-003 +2.9771891789E+001  +1.0198867303E-002 +3.9549881861E+001  +6.5289252374E-001 +1.3624088004E+002 
4514226.533 +2.1463645412E-001 +1.2280090753E+002  +2.2124730271E-002 +1.2279236313E+002  +3.0771543938E-002 -1.8640535818E+001  +9.0993477140E-001 +1.0417813032E+002 
4639371.715 +2.3626691545E-001 +1.3161949018E+002  +1.4476975905E-002 +1.5229205760E+002  +7.5192922979E-003 -1.1734433956E+002  +1.2095943591E+000 +1.2317622187E+002 
4764516.896 +3.6874578768E-001 +1.2223851063E+002  +9.0488364199E-002 +1.6786528032E+002  +5.8018783195E-002 +1.0964247446E+002  +3.7019775678E+000 +1.4245912000E+002 
4889662.078 +3.7049984044E-001 +1.3284302103E+002  +4.6025233866E-002 +6.6170357184E+001  +3.8744015458E-002 -1.7884380783E+002  +3.7806068017E+000 -1.7678260877E+002 
5014807.259 +3.1892295592E-001 +1.2546746801E+002  +1.0796699187E-002 +1.9085608309E+001  +3.6637424533E-002 +4.9160271736E+001  +2.6655305030E+000 +2.2822534474E+001 
5139952.441 +4.2008368285E-001 +1.2415920900E+002  +1.2841877886E-001 +2.6308708424E+001  +2.1128279812E-001 -7.7204167685E+001  +7.5293009729E+000 -3.1592920214E+001 
5265097.622 +3.6909500165E-001 +1.2978649840E+002  +2.8657283894E-002 +3.1493709051E+001  +4.9120036965E-002 +9.2153628920E+001  +1.8937768030E+000 +6.9440894786E+001 
5390242.804 +4.6972120658E-001 +1.2625580006E+002  +2.8326941522E-002 +6.0184654419E+001  +2.8713760935E-002 +1.4968718580E+002  +2.5263897389E+000 +6.9244135709E+001 
5515387.985 +4.3985120297E-001 +1.2754683399E+002  +2.1219393860E-002 +7.3429284688E+001  +3.8226819403E-002 +2.5514652518E+001  +1.8424779371E+000 +9.5518056398E+001 
5640533.166 +4.6148432471E-001 +1.2942236888E+002  +1.7692636695E-002 +1.2985777274E+002  +3.5732093118E-002 +1.0168074568E+002  +3.2009621446E+000 +1.1549548955E+002 
5765678.348 +4.6755000709E-001 +1.2432764888E+002  +3.6623856299E-002 +1.0067984508E+002  +6.6841176516E-003 +9.9546449590E+000  +3.1290438445E+000 +2.5558719261E+001 
5890823.529 +4.6960529648E-001 +1.2725177443E+002  +2.3186655394E-002 +4.8061141037E+001  +4.5814505286E-003 -7.1843407482E+001  +1.6406975282E+000 +5.1169902761E+001 
6015968.711 +6.2875111491E-001 +1.2403903763E+002  +3.3275943005E-002 +5.3233461899E+001  +3.3619659647E-002 +1.1460297373E+002  +1.5805783580E+000 +6.2263930734E+001 
6141113.892 +6.8782215523E-001 +1.1640314441E+002  +3.0721413550E-002 +7.4596883596E+001  +2.0502196314E-002 +5.3377043799E+000  +2.0733342387E+000 +1.5023210476E+001 
6266259.074 +8.8160368851E-001 +1.0461674932E+002  +2.5563372308E-002 +3.3455806082E+001  +2.7741611930E-002 -9.2316674069E+000  +2.0525993357E+000 +3.4131281259E+001 
6391404.255 +1.1034989811E+000 +9.1516999006E+001  +3.0217793557E-002 +3.8360145084E+001  +1.7845547922E-002 +6.0089302842E+000  +1.4380437134E+000 +1.8943804205E+001 
6516549.437 +9.5756893192E-001 +1.0251992371E+002  +1.8471043418E-002 +9.1491980974E+001  +3.5402298030E-002 +2.1172230010E+001  +1.7569758927E+000 +8.9861135488E+000 
6641694.618 +1.7603718610E+000 +7.4658202299E+001  +3.0773279584E-002 -2.6473468347E+001  +2.5929049795E-002 +6.4894633839E+001  +1.4485774754E+000 -3.8129289365E+000 
6766839.800 +2.0021850287E+000 +4.6963986296E+001  +3.1745264387E-002 -1.1749682135E+001  +4.6102156301E-002 +3.7995053954E+001  +1.3966211573E+000 +5.1992030314E+000 
6891984.981 +2.4387088703E+000 +3.3755684940E+001  +3.6752227136E-002 +1.1153289972E+001  +3.2119460872E-002 +2.2438566328E+001  +1.2687381427E+000 -3.9909023420E+000 
7017130.163 +1.6210789185E+000 +2.0115747912E+001  +3.1649643310E-002 +9.3834915728E+000  +1.2283523091E-002 +6.8203772617E+000  +1.2872279947E+000 -1.7390926806E+001 
7142275.344 +1.6243905090E+000 +1.1059983404E+001  +1.7581874945E-002 -4.4413896925E+000  +2.8060190607E-002 -2.1635058394E+001  +1.3188475701E+000 -1.4076479145E+001 
7267420.526 +1.5597151822E+000 +2.8520439109E+000  +2.5193714485E-002 +1.0022866333E+000  +1.8289438113E-002 +9.8637138257E+000  +1.3478471607E+000 -1.1806374463E+001 
7392565.707 +1.3369998844E+000 +5.5530808467E+000  +1.8560039722E-002 +4.6843397538E+000  +1.9482253295E-002 +3.0920350136E+001  +1.3267182274E+000 -5.3498122671E+000 
7517710.889 +1.1804737714E+000 -3.1476787083E+000  +1.1348484836E-002 -4.6337256239E+000  +1.5518785924E-002 -3.8051846375E+000  +1.2588377850E+000 -1.1957064156E+001 
7642856.070 +1.1294450588E+000 +6.7249045796E+000  +9.5344534448E-003 -1.1679755630E+001  +7.5972497125E-003 +8.7449206496E+001  +1.0917646244E+000 -4.4635094835E+000 
7768001.252 +9.8013888287E-001 +7.1128182432E+000  +1.5852515490E-002 -1.3260506942E+001  +1.0034532319E-002 +1.4196532194E+001  +9.2854017119E-001 +1.9260177833E-001 
7893146.433 +9.4425853013E-001 +3.9887297588E+000  +1.3204772600E-002 -2.2202098112E+000  +8.5703848893E-003 -6.6455831203E+000  +9.1300477979E-001 -3.8172742754E-002 
8018291.615 +7.3199984692E-001 +6.4650825739E+000  +5.9071824920E-003 -4.4145912280E+001  +1.2060390470E-002 -1.1579548176E+001  +9.2700774995E-001 -8.4197302090E-001 
8143436.796 +7.1623217871E-001 +7.2908942536E+000  +8.8167111240E-003 +5.5162603816E+000  +1.3125477167E-002 +2.4329295607E+001  +8.5129412718E-001 +1.9646317569E+000 
8268581.977 +7.7934329526E-001 +6.5046225986E+000  +6.3972433110E-003 +5.9797894361E+001  +3.2455878524E-003 +2.8058960792E+001  +7.9317355440E-001 +1.5860226378E+000 
8393727.159 +7.4623482003E-001 +1.0593746789E+001  +6.3933966062E-003 +4.5094999487E+001  +1.1007795354E-002 +7.9398802011E+000  +6.9568454722E-001 +2.0800885717E-001 
8518872.340 +6.9937522097E-001 +1.1341440046E+001  +6.9562431169E-003 +2.3907142461E+000  +9.1869833276E-003 +3.3587565255E+001  +7.0883168903E-001 +4.8652902016E+000 
8644017.522 +6.2640361148E-001 +1.0056002687E+001  +6.0576690649E-003 -1.1497698695E-002  +5.9928518452E-003 +2.1528536411E+001  +6.7988402292E-001 -7.8078894003E-001 
8769162.703 +6.5296273705E-001 +8.8784209972E+000  +1.2249791684E-002 +1.4860738295E+001  +1.1686153504E-002 +9.5414839913E+000  +6.1655226361E-001 -7.9130722662E-001 
8894307.885 +5.9044929893E-001 +7.0670680772E+000  +8.3064851699E-003 -9.0940281369E+000  +1.2845400195E-002 +2.1306756346E+001  +6.4353490592E-001 -4.7693016474E+000 
9019453.066 +5.4822571345E-001 +8.9818333163E+000  +6.5212464353E-003 -7.5843662623E+000  +9.6596228067E-003 +8.7084787864E-001  +6.3989739695E-001 -3.0693522834E+000 
9144598.248 +5.2356469238E-001 +4.6269834197E+000  +7.1624035533E-003 +3.7777120265E+001  +8.7500506850E-003 +1.4840942800E+001  +5.5196674693E-001 -8.7883392551E-001 
9269743.429 +5.5959308384E-001 +8.9473795852E+000  +9.0829392202E-003 +1.1261007785E+001  +1.0297837713E-002 +2.7722801775E+001  +6.1760717924E-001 +2.3880931636E+000 
9394888.611 +5.6550849448E-001 +6.1894511497E+000  +1.1188175650E-002 -1.4211517777E+001  +7.9765293949E-003 +1.4127436040E+001  +5.9051104697E-001 -1.5408590431E+000 
9520033.792 +5.1740886062E-001 +2.0460292359E+000  +5.9411042265E-003 +1.1877278738E+001  +6.4839653240E-003 +2.0486681133E+001  +6.1810447509E-001 -3.8514443463E-001 
9645178.974 +5.4568908731E-001 +6.3513688090E+000  +7.7228123142E-003 -4.4927875871E+000  +6.9150340598E-003 +1.5270083981E+001  +5.5324140154E-001 -3.7479550704E+000 
9770324.155 +5.2544787369E-001 -9.9245725318E-001  +9.5895480509E-003 -4.0303234968E+000  +8.3840450330E-003 +2.7216799159E+001  +5.9457451797E-001 -9.1357385090E+000 
9895469.337 +5.4189008954E-001 +3.2794477612E+000  +4.7465523703E-003 +1.6509027218E+001  +7.3222809370E-003 -1.2643275815E+001  +5.9947485148E-001 -6.2701964451E+000 
10020614.518 +5.8166414712E-001 +6.5244174154E+000  +9.0372374873E-003 -7.2326029910E+000  +8.1026929193E-003 +3.1527178721E+001  +5.5478400695E-001 -3.4391044021E+000 
10145759.700 +5.7351263239E-001 +1.5554167624E+000  +8.2813051789E-003 -1.0716576149E+001  +1.0484001306E-002 -7.1530248140E+000  +5.6438441563E-001 +1.6686364205E+000 
10270904.881 +5.1639121706E-001 +2.1410116309E+000  +6.3723944640E-003 +3.5670058992E+000  +1.2952738182E-002 +1.1615916546E+001  +5.7889583784E-001 -4.1328507455E+000 
10396050.063 +5.7324933127E-001 +5.6542700875E+000  +1.0504167788E-002 -1.0847424461E+000  +1.0276414448E-002 +1.6126991860E+001  +5.7036961165E-001 +1.9100795682E-001 
10521195.244 +5.6308794998E-001 +7.7606903001E+000  +7.8288585639E-003 +6.6865893715E+000  +1.0041038270E-002 +1.0159827661E+001  +5.5419937386E-001 +3.1397248582E-001 
10646340.426 +5.2463530754E-001 +8.6725002789E+000  +1.0415862199E-002 +1.1657681931E+001  +9.4815356371E-003 +5.8767528378E+000  +5.6578511044E-001 -8.4324539931E-001 
10771485.607 +5.8367645201E-001 +8.6984792309E+000  +1.1201137235E-002 -2.7199940831E-001  +7.2801851928E-003 +1.2031555487E+001  +6.3310964821E-001 +1.2573015364E+000 
10896630.788 +5.7729555131E-001 +7.2804899979E+000  +9.4415398593E-003 +4.6655805487E+000  +8.8709483471E-003 +1.0551251375E+001  +6.2031993981E-001 -1.0272453567E+000 
11021775.970 +5.6322706340E-001 +5.0887066276E+000  +8.9007322197E-003 -5.0105954627E-001  +9.7649531372E-003 +1.1468748444E+001  +5.9393415581E-001 +1.4610579963E+000 
11146921.151 +5.9978143926E-001 +7.8077325456E+000  +9.5450402770E-003 +1.3613920331E+001  +8.6078267132E-003 +1.8434647912E+001  +5.8417470554E-001 -1.2405542593E+000 
11272066.333 +6.3046642511E-001 +7.0226108132E+000  +8.2808481631E-003 +6.3747752006E+000  +1.0939472302E-002 +8.0978928613E+000  +6.0384146288E-001 +3.3063764661E+000 
11397211.514 +6.2573392770E-001 +7.6655537533E+000  +8.9897071953E-003 +1.3875412860E+001  +9.3180363098E-003 +8.3601649499E+000  +6.3235031797E-001 +8.2728483392E-001 
11522356.696 +6.2196792421E-001 +5.3308153776E+000  +1.1147387193E-002 -2.6617557503E+000  +9.0940278437E-003 +1.0184277995E+001  +6.4921219838E-001 +1.9381784500E+000 
11647501.877 +6.0122396467E-001 +7.4629534205E+000  +8.5388927769E-003 +2.4705810256E+000  +8.6523139488E-003 +1.1642318788E+001  +6.4419672618E-001 +7.3100328418E-001 
11772647.059 +6.4691825477E-001 +5.9383613306E+000  +8.7381637699E-003 +6.4354679021E+000  +8.6046122557E-003 +2.2987298049E+001  +6.7446503792E-001 -4.8273625198E-001 
11897792.240 +6.6096228336E-001 +4.6016512069E+000  +1.1630868667E-002 +6.3569062151E+000  +9.6735582836E-003 +9.2262783571E+000  +6.7733599475E-001 +1.5214562846E+000 
12022937.422 +6.4923970337E-001 +5.6783430793E+000  +1.0932689370E-002 +1.0158791216E+001  +8.9759141075E-003 +1.4249096834E+001  +6.7393182278E-001 +3.5396143356E-001 
12148082.603 +6.6688544035E-001 +6.1059378573E+000  +9.8675192680E-003 -4.9929417898E+000  +1.0617486515E-002 +1.1572229029E+001  +7.0810956859E-001 +2.2930809264E+000 
12273227.785 +6.7489305563E-001 +3.1260477670E+000  +1.0150528182E-002 +6.4828028853E-001  +9.0149711969E-003 +1.6898897120E+001  +7.0587401170E-001 +2.8904810124E+000 
12398372.966 +7.0403113428E-001 +3.1933203350E+000  +1.1089423843E-002 -3.1599319135E+000  +1.1112975111E-002 +9.0751574654E+000  +7.1029948453E-001 +8.3216047076E-001 
12523518.148 +7.0891186188E-001 +3.7109348910E+000  +1.0192120904E-002 +1.2382598127E+001  +1.0450451100E-002 +1.2682183572E+001  +7.3911581482E-001 -2.0089488170E+000 
12648663.329 +7.3439647032E-001 +4.5511136277E+000  +1.0450833667E-002 -2.0765686800E+000  +1.1800107839E-002 +2.5614606041E+001  +7.2832271106E-001 -1.5396283865E-002 
12773808.511 +7.6245796397E-001 +1.3077615307E+000  +9.9315510978E-003 +1.0698755962E+001  +1.1912077651E-002 +8.7032892864E+000  +7.5476533716E-001 -1.8971663450E+000 
12898953.692 +7.9878882535E-001 +1.5598066349E-001  +1.0652055119E-002 +1.4159991716E+001  +1.1534066455E-002 +1.9698423073E+001  +7.9038639378E-001 -2.7990318332E+000 
13024098.874 +7.8688583854E-001 +9.3070241653E-001  +1.0473326968E-002 +3.5946798079E+000  +1.0936717238E-002 +1.1123102293E+001  +8.0128892677E-001 -7.3476148973E-001 
13149244.055 +7.9913852336E-001 +6.5520134821E-001  +9.6301878898E-003 +2.0681362345E+000  +1.1626489700E-002 +1.8550624930E+001  +8.0888275209E-001 -1.1575899814E+000 
13274389.237 +8.3201824415E-001 -9.4030064809E-002  +1.2615028773E-002 +1.9858397610E+000  +9.8552342760E-003 +1.6549220502E+001  +8.5529553280E-001 -2.8178918746E+000 
13399534.418 +8.3752422525E-001 +1.6720403860E-001  +9.3085402524E-003 +2.9031712960E+000  +1.0144976019E-002 +1.4464656876E+001  +8.5311206230E-001 -2.6666772946E+000 
13524679.599 +8.6988993185E-001 -2.2739304945E+000  +1.2412774885E-002 +1.6473479325E+001  +1.1891974863E-002 +1.7206784249E+001  +8.5862695373E-001 -1.8719646638E+000 
13649824.781 +8.4661935543E-001 -2.0195712631E+000  +1.2565543729E-002 +6.9839668709E+000  +1.0036666816E-002 +6.4996327006E+000  +8.8729967508E-001 -1.9185977646E+000 
13774969.962 +8.9272267142E-001 -3.5649568774E+000  +1.2992890669E-002 +2.1870235338E+000  +1.0580242871E-002 +1.2147232198E+001  +9.0195267415E-001 -2.5923293563E+000 
13900115.144 +9.0160892056E-001 -4.2266582483E+000  +1.1441903124E-002 +4.3004643944E+000  +1.0844130240E-002 +8.8322299959E+000  +9.1021267927E-001 -3.6962466775E+000 
14025260.325 +9.1506254354E-001 -2.3471437556E+000  +1.2593947426E-002 +6.0526111060E+000  +1.0991529575E-002 +2.4532708789E+000  +9.1031824664E-001 -4.4564454230E+000 
14150405.507 +9.1583825979E-001 -3.1263612772E+000  +1.0125550929E-002 -7.9876934648E-001  +1.2640963622E-002 +8.5180646091E+000  +9.6097755998E-001 -4.9832955393E+000 
14275550.688 +9.4760360092E-001 -4.4985576028E+000  +1.1855103127E-002 +1.1706927063E+000  +1.1625926926E-002 -2.3046211341E-001  +9.6095059571E-001 -5.4338575318E+000 
14400695.870 +9.5921021809E-001 -5.1745276312E+000  +1.2266921772E-002 +6.1150927472E+000  +1.0001830048E-002 +9.7098210023E+000  +9.7173443824E-001 -5.1308650959E+000 
