!  2-Port S-parameters saved by WinCal
! VAR MeasName=S-Parameters (CALIBRATED_DATA) read from VNA (P5004A)
! VAR MeasDate=29/08/2024 13:50:59
! VAR NAME=S2_r9c6_RESET3_9k-100M_2
! VAR FILENAME=S2_r9c6_RESET3_9k-100M_2.S2P
! VAR DATE=29/08/2024 13:51:00
! VAR PHYS_PORTS=1,2
! VAR ObjTypeName=DATASET
! VAR IndexType=Frequency
!
# Hz S MA R 50
9000.000 +1.1428605704E-001 -1.6442026958E+002  +2.1062187135E-003 -9.2254552342E+001  +6.5385759344E-003 -9.7278737118E+001  +2.5310586396E-001 -1.4170229461E+002 
134145.181 +1.1136870937E-001 +1.6959545370E+002  +3.8012378236E-004 -6.4311137050E+001  +4.2457232811E-004 -2.0925705670E+001  +2.4352607707E-001 -1.7049882571E+002 
259290.363 +1.1209740079E-001 +1.7013293692E+002  +6.2452810724E-004 +1.5248280489E+002  +1.0101857259E-003 -1.2496309901E+002  +2.4045793929E-001 -1.6560015646E+002 
384435.544 +1.1463883604E-001 +1.6950239764E+002  +3.7415307123E-004 -1.5356081790E+002  +3.5976760178E-004 -1.3059660938E+002  +2.4620607211E-001 -1.6909591754E+002 
509580.726 +1.1427624521E-001 +1.7048896242E+002  +5.0336934062E-004 -7.2743275640E+001  +1.8382460124E-003 +2.2157629593E+001  +2.6041503399E-001 -1.6501655878E+002 
634725.907 +1.1574071484E-001 +1.7165630572E+002  +1.4388917991E-003 +1.3835060301E+002  +9.3167076405E-004 -1.0973885514E+002  +2.6028167893E-001 -1.6613367794E+002 
759871.089 +1.1968929895E-001 +1.7075604015E+002  +2.9478878912E-004 -1.6989405175E+002  +4.2781224258E-004 -9.1650248844E+001  +2.4904456212E-001 -1.6760349423E+002 
885016.270 +1.2187902304E-001 +1.6945338091E+002  +3.0835386070E-004 +1.5187935120E+002  +1.9305278840E-004 +9.1604818267E+001  +2.4188307034E-001 -1.6772653186E+002 
1010161.452 +1.1587780345E-001 +1.7009601523E+002  +9.9563564618E-004 -1.0512134693E+002  +1.2769352420E-003 +1.0708226302E+002  +2.2378691105E-001 -1.6360568733E+002 
1135306.633 +1.1413991439E-001 +1.6877692521E+002  +8.7973790045E-004 -1.5422616012E+000  +1.3925582789E-003 +6.4453342104E+001  +1.7225998123E-001 +1.7913754245E+002 
1260451.815 +1.1823087928E-001 +1.7010607821E+002  +3.7805278239E-003 -1.6039429810E+002  +4.7535571447E-003 +1.0918514400E+002  +1.7533528277E-001 -1.3917471081E+002 
1385596.996 +1.2668479141E-001 +1.7285369041E+002  +4.0694018084E-004 -1.5479432331E+002  +9.7452905181E-004 -4.5398174331E+001  +2.6047327558E-001 -1.6030432834E+002 
1510742.178 +1.2957516184E-001 +1.7150098991E+002  +6.5834280888E-004 +8.4473466717E+001  +4.6215514294E-004 +9.9060606858E+001  +2.5934928492E-001 -1.5438561367E+002 
1635887.359 +1.2890734435E-001 +1.7060906545E+002  +1.4336235194E-003 -5.9682022059E+001  +4.6255795865E-004 -1.7031594498E+002  +2.4166208032E-001 -1.5831005140E+002 
1761032.541 +1.3135077375E-001 +1.7095588150E+002  +1.5822994945E-003 -1.7673611692E+001  +1.0287761442E-003 -1.2995185788E+002  +2.4688928743E-001 -1.5676020750E+002 
1886177.722 +1.2345264029E-001 +1.6776599840E+002  +2.6002325665E-003 -4.7834656879E+001  +1.2782378755E-003 +1.0532797539E+002  +2.2853194408E-001 -1.5454327156E+002 
2011322.904 +1.3122457456E-001 +1.6933258102E+002  +1.7010692456E-003 -7.8034178137E+000  +3.1201272841E-003 +1.2108202662E+002  +1.6886557595E-001 -1.5918455795E+002 
2136468.085 +1.3013422134E-001 +1.6566282920E+002  +3.2834356853E-003 +1.2759467751E+002  +3.7249750863E-003 -9.1199214216E+001  +2.0410991244E-001 +1.7796140039E+002 
2261613.267 +1.3239462549E-001 +1.6270018923E+002  +4.2533657549E-003 +1.3956868252E+002  +6.1089039254E-003 -8.9236683790E+000  +1.6578208955E-001 +1.5354189975E+002 
2386758.448 +1.3608896342E-001 +1.6509978015E+002  +2.9687562250E-003 +1.0924795763E+002  +4.8697783193E-003 -1.8185164099E+001  +2.3279716486E-001 +1.7873670802E+002 
2511903.630 +1.3045375356E-001 +1.6666429032E+002  +5.6168637690E-003 +4.4734549890E+001  +7.0953285716E-003 -2.7734853589E+001  +1.7948411140E-001 +1.6825857421E+002 
2637048.811 +1.3218620911E-001 +1.6613062572E+002  +4.1953574769E-003 -3.5805781358E+001  +4.1969949586E-003 -8.8747612873E+001  +1.9245183156E-001 +1.4891553149E+002 
2762193.992 +1.0538484638E-001 +1.7236419626E+002  +4.3036773485E-002 -4.8107913174E+001  +1.8953095709E-002 -5.3836336987E+001  +4.6101202700E-001 +4.6558111912E-001 
2887339.174 +1.2072658005E-001 +1.7192382146E+002  +1.2985380830E-002 -8.0689568650E+001  +1.8652318941E-002 -1.5092621418E+002  +4.8629439567E-001 -8.5417673101E+001 
3012484.355 +9.3851741380E-002 +1.7008809883E+002  +1.4979243442E-002 -1.7838054613E+001  +2.5198396606E-002 -1.6008971412E+002  +2.4754003598E-001 -7.4287526286E+001 
3137629.537 +1.1707318541E-001 +1.6800361831E+002  +2.8614701139E-002 +4.8734767104E+001  +2.8080749151E-002 -5.5670195553E+001  +3.5829005257E-001 +8.3471156154E+001 
3262774.718 +1.1665665210E-001 +1.7318360840E+002  +6.6912031663E-003 -8.7982931751E+001  +1.1948907899E-002 -1.4832111326E+002  +2.8995499577E-001 -8.9623380503E+001 
3387919.900 +1.2288908031E-001 +1.4117423345E+002  +4.7736874459E-002 +7.2257457850E+001  +3.7816132101E-002 +1.0149781685E+001  +1.1093381144E+000 +1.0185343327E+002 
3513065.081 +1.3891421844E-001 +1.4791353390E+002  +1.4528847086E-002 +8.1090748777E+001  +1.1732490833E-002 -1.3411725237E+001  +2.5789562220E-001 +1.5378088290E+002 
3638210.263 +1.6220524696E-001 +1.4831547293E+002  +5.1106362300E-003 +9.7584994228E+001  +1.9120959862E-002 +3.1193285099E+001  +2.8960257440E-001 +1.2644081841E+002 
3763355.444 +1.2687017720E-001 +1.3234718498E+002  +3.8190765167E-002 +1.3948522205E+002  +2.3969072383E-002 -5.7332277210E+000  +7.6825257745E-001 +1.2637349905E+002 
3888500.626 +1.7617659142E-001 +1.4832806546E+002  +5.8582460526E-002 +9.8629668604E+001  +4.7747465461E-002 +1.5507058902E+001  +1.1916376801E+000 +1.0383325084E+002 
4013645.807 +2.1233487846E-001 +1.4577108149E+002  +1.3619968827E-002 +1.3102214491E+002  +2.1834931344E-003 +5.0587177040E+001  +3.6607429325E-001 +1.4642706433E+002 
4138790.989 +2.0363119158E-001 +1.4808513524E+002  +1.8330921115E-002 +8.3387627777E+001  +1.4629135296E-002 +3.7935822553E+001  +4.8904891155E-001 +9.7266929321E+001 
4263936.170 +1.9941627379E-001 +1.4611333532E+002  +1.5121799196E-002 +9.4028478090E+001  +2.1262856318E-002 +4.3386068224E+001  +6.9278335076E-001 +1.3239542807E+002 
4389081.352 +1.9998071716E-001 +1.4376907481E+002  +1.8169408703E-002 +5.2172131400E+001  +4.3739201989E-003 -7.0268673715E+001  +4.7744480247E-001 +7.8066265369E+001 
4514226.533 +2.5364989776E-001 +1.3124572623E+002  +5.8912540114E-002 +5.8481286324E+001  +1.7128383532E-002 -1.1832437993E+001  +8.0125164994E-001 +5.3130907910E+001 
4639371.715 +2.7175302713E-001 +1.4197398108E+002  +5.0874699676E-002 +7.8346143543E+001  +5.3417558467E-002 -6.3269536992E+000  +2.2843828734E+000 +5.0913986575E+001 
4764516.896 +3.4335424101E-001 +1.2888549962E+002  +5.4339312154E-002 -1.0560115688E+002  +6.0273395128E-002 -1.5111323925E+002  +2.9986067991E+000 -1.4977575220E+002 
4889662.078 +3.3777931348E-001 +1.2599068429E+002  +9.3275838903E-002 -4.7044997875E+001  +1.2431251438E-001 -1.0383205757E+002  +3.6513146398E+000 -9.5677392638E+001 
5014807.259 +3.4467799082E-001 +1.2533935931E+002  +9.3689873638E-002 +1.0268479385E+002  +1.4984265789E-001 +7.3715968455E+001  +3.8123701553E+000 +1.2162230340E+002 
5139952.441 +3.5893512111E-001 +1.3348678000E+002  +5.1483879404E-002 +1.2927208166E+002  +4.7694278461E-002 +1.0143776040E+002  +2.0077752084E+000 +1.2701030927E+002 
5265097.622 +4.4704426427E-001 +1.3787914430E+002  +8.2681031031E-002 +1.3648322313E+002  +8.3947270572E-002 +1.0640630000E+002  +3.1053128898E+000 +1.2558828166E+002 
5390242.804 +4.3041584003E-001 +1.2816258653E+002  +3.2266633333E-002 +5.9098700106E+001  +7.6291459676E-002 +4.9753742472E+001  +2.0091091676E+000 +6.5752074072E+001 
5515387.985 +4.2399432035E-001 +1.2775985618E+002  +4.6398226260E-002 +8.5796293955E+001  +4.5500520205E-002 +8.3465125502E+001  +1.7789300692E+000 +7.3757958704E+001 
5640533.166 +4.9337720451E-001 +1.2556935491E+002  +8.5710799119E-002 +8.5312993617E+001  +8.3955994767E-002 +8.1574719113E+001  +2.7281180082E+000 +9.1345778043E+001 
5765678.348 +5.3516925245E-001 +1.2040158234E+002  +5.1072940520E-002 +4.6948206358E+001  +7.7156248117E-002 +2.6292820028E+001  +2.0024344387E+000 +2.3328694243E+001 
5890823.529 +5.9802544642E-001 +1.2027185024E+002  +8.9769089353E-002 +1.1392188291E+002  +7.9009465828E-002 +6.6128908325E+001  +3.0003620949E+000 +8.9490921062E+001 
6015968.711 +5.8434562184E-001 +1.1955664371E+002  +4.8904236481E-002 +5.9480642363E+001  +7.5302897105E-002 +3.6042131431E+001  +1.8867370994E+000 +4.6837259352E+001 
6141113.892 +7.8803584777E-001 +1.1289483328E+002  +5.6709200338E-002 +6.1300418684E+001  +5.7800503862E-002 +4.5995041212E+001  +1.5857250200E+000 +5.1470846813E+001 
6266259.074 +7.3969700522E-001 +1.0218741839E+002  +4.6330063287E-002 +5.1801462256E+001  +5.8635119681E-002 +3.0989063012E+001  +1.5804631955E+000 +7.7890423062E+000 
6391404.255 +1.0678352580E+000 +9.5833107660E+001  +4.9091268612E-002 +7.1680122374E+001  +6.5306221704E-002 +6.9767817930E+000  +1.3281395803E+000 +1.8600830458E+001 
6516549.437 +1.3121049113E+000 +8.2017074743E+001  +1.0332107154E-001 +4.9794877436E+001  +8.7995853734E-002 +1.2155791072E+001  +1.7253581477E+000 +2.8584643069E+000 
6641694.618 +1.4459549465E+000 +7.5873956691E+001  +5.5827840829E-002 +1.6834761535E+001  +9.6904556544E-002 +2.3086241592E+001  +1.2441295041E+000 +1.4741548633E+001 
6766839.800 +1.4054921311E+000 +5.8089662854E+001  +8.6277539303E-002 +1.2776561438E+001  +6.2553359351E-002 +8.2818790573E-002  +1.3895668196E+000 -8.5402235710E+000 
6891984.981 +2.1973202685E+000 +3.2769075127E+001  +9.3403169358E-002 +2.1879704260E+001  +8.0787219014E-002 +9.2785095670E+000  +1.0465003782E+000 -1.0524205019E+001 
7017130.163 +1.6928703820E+000 +2.5819212717E+001  +5.5327304747E-002 +5.3046049683E+000  +7.2817113078E-002 +9.4246826961E+000  +1.2245277158E+000 -1.3543739635E+001 
7142275.344 +1.6499485739E+000 +9.2596649005E+000  +7.9734769190E-002 -1.7472002898E+001  +5.8709269828E-002 -1.7524272686E+001  +1.4191645320E+000 -1.5894628970E+001 
7267420.526 +1.2869972814E+000 -3.0960145527E+000  +4.3033993144E-002 -5.2605447141E+000  +4.7686304799E-002 -3.7916323173E+000  +1.2347153335E+000 -1.1360239841E+001 
7392565.707 +1.2283439772E+000 -1.7149051450E+000  +4.0583665107E-002 +3.6767156047E+000  +4.1063922032E-002 +1.0355469703E+001  +1.3888412308E+000 -1.1043837131E+001 
7517710.889 +1.1995608438E+000 +2.6058801044E+000  +3.1500193245E-002 +7.7420758673E+000  +3.6540703596E-002 +8.3554453394E+000  +1.1984390411E+000 -4.7852122722E+000 
7642856.070 +1.1298223377E+000 +1.3201602792E+000  +3.5382196073E-002 +8.1232692448E+000  +3.1428042957E-002 +9.9343409535E+000  +1.1288137136E+000 -8.2789152292E+000 
7768001.252 +9.5157056550E-001 +5.8506336533E+000  +2.9863919311E-002 -1.1020375950E+001  +3.2667921122E-002 +2.5749611478E+000  +9.6902582991E-001 -7.5957569873E+000 
7893146.433 +9.1798778750E-001 +4.4832021173E+000  +3.3126933846E-002 +8.4171584639E+000  +3.0480086615E-002 +6.7756304412E+000  +8.8026361153E-001 +5.0018364319E-001 
8018291.615 +8.7291124713E-001 +2.9619371638E+000  +3.1150259458E-002 -1.7943284578E+000  +2.7097899233E-002 +7.8770389568E+000  +7.8197330787E-001 +2.0991733480E+000 
8143436.796 +7.0957870962E-001 +1.2353192440E+001  +2.9575897703E-002 -1.7857124786E+000  +2.6794017174E-002 +9.3488183469E+000  +7.8818994696E-001 -9.0512237057E-001 
8268581.977 +7.9281034914E-001 +7.0664095746E+000  +3.0438907891E-002 +8.2504818867E-001  +3.2231744522E-002 +1.4803065217E+001  +7.6490510595E-001 -4.6508585322E+000 
8393727.159 +7.2530478054E-001 +1.0115653098E+001  +2.7509578545E-002 +1.7398180498E+000  +3.5084495720E-002 +1.2783545228E+001  +7.7572476729E-001 +3.4209546932E-001 
8518872.340 +6.0973812941E-001 +9.1360584820E+000  +2.7696627794E-002 +5.5905353488E-001  +2.7234451892E-002 +2.2108795617E+000  +6.6632826245E-001 -3.1726399554E+000 
8644017.522 +6.2052013592E-001 +1.0661727061E+001  +2.8980662427E-002 +1.1473870546E+000  +3.1156277118E-002 +9.6361856785E+000  +7.3341506437E-001 +3.1134182822E+000 
8769162.703 +5.9662174063E-001 +1.0531278318E+001  +2.4798200381E-002 -6.8019341616E+000  +2.5532335581E-002 +1.5833015578E+001  +6.3549426514E-001 -5.9164408796E+000 
8894307.885 +5.8444969953E-001 +5.5442391899E+000  +2.4788693282E-002 -3.9040484813E+000  +2.6336594970E-002 +1.4030562838E+001  +6.1991631413E-001 -9.9806067277E-001 
9019453.066 +6.3236142151E-001 +5.8527342250E+000  +2.3483020615E-002 -6.2938403398E+000  +2.8367221957E-002 +1.5857321317E+001  +5.4165432649E-001 +1.9819980778E+000 
9144598.248 +5.9360295371E-001 +5.0741715882E+000  +2.7724388027E-002 -1.0026693172E+001  +2.5385970124E-002 +9.9785751227E+000  +6.2135837062E-001 -6.3422115272E+000 
9269743.429 +5.1365315886E-001 +1.0047440029E+000  +2.4131865919E-002 -4.1611167004E+000  +2.7828683391E-002 +1.6007642906E+001  +5.8629445369E-001 +2.7510889301E+000 
9394888.611 +5.3270244114E-001 -5.0264875350E-001  +2.4779008437E-002 -6.7195047033E+000  +3.0625076408E-002 +1.1809494427E+001  +5.7326841989E-001 -3.2644482984E-001 
9520033.792 +5.8269510449E-001 +3.0068188446E+000  +2.5659367308E-002 -2.1632934560E+000  +2.4933673932E-002 +1.5642159901E+001  +6.3471077046E-001 -1.3982269056E+000 
9645178.974 +5.7471828344E-001 -1.8779471334E+000  +2.5893697068E-002 +1.2356651883E+000  +3.0836834612E-002 +1.6974452147E+001  +5.8944369621E-001 -3.8497185842E+000 
9770324.155 +5.4759930616E-001 +3.4193781233E+000  +2.5713056363E-002 -1.5035681885E+000  +2.5648540292E-002 +1.5283078295E+001  +5.5084670608E-001 -5.8411029524E+000 
9895469.337 +5.1990474853E-001 -1.0397744018E+000  +2.6473491000E-002 -4.8406240270E+000  +2.5476062193E-002 +1.6601183666E+001  +5.5806030630E-001 -9.4205292651E+000 
10020614.518 +5.3878098088E-001 +3.8133498336E+000  +2.6147773978E-002 +1.2853485692E+000  +2.6796321424E-002 +1.7122003446E+001  +5.5779075509E-001 -2.9852147961E+000 
10145759.700 +5.3805844168E-001 +5.8874755013E+000  +2.1619524207E-002 -6.7787914318E+000  +2.6814062409E-002 +1.8036400151E+001  +5.7346149132E-001 -4.7517046199E+000 
10270904.881 +5.4221591952E-001 +8.2007182339E+000  +2.6663532773E-002 -7.0039481819E+000  +2.5762153851E-002 +1.2593958694E+001  +5.1209714108E-001 -1.8705754913E+000 
10396050.063 +5.5024091133E-001 +5.9479056721E+000  +2.8833965057E-002 -9.6852498797E-002  +2.7623722615E-002 +1.1777698417E+001  +5.7224524044E-001 +2.4532265562E-001 
10521195.244 +5.5993609616E-001 +5.6172377964E+000  +2.6157419231E-002 +8.4676865387E+000  +2.6767387655E-002 +1.8178000367E+001  +5.6268259557E-001 -5.5847328329E-001 
10646340.426 +5.1769129040E-001 +1.1083800011E+001  +2.4681298968E-002 -1.4763261978E+000  +2.5310092436E-002 +1.8287373099E+001  +5.6755132708E-001 -4.0442530861E-001 
10771485.607 +5.4001954560E-001 +9.1526036701E+000  +2.8092062921E-002 +1.1831473116E+000  +2.6323723964E-002 +1.3867121530E+001  +6.0022884630E-001 +2.3036019925E+000 
10896630.788 +5.4925878196E-001 +6.2485825422E+000  +2.8463933625E-002 +2.5090471030E+000  +2.4377013294E-002 +7.4277968547E+000  +5.8653673105E-001 +5.6357983179E+000 
11021775.970 +5.6135630980E-001 +8.7340615200E+000  +2.6511001147E-002 +1.1310976658E+000  +2.7460667162E-002 +1.4519364624E+001  +6.0794688265E-001 +2.1800325904E+000 
11146921.151 +5.7288216718E-001 +8.8337390690E+000  +2.6481649886E-002 -1.7532275809E+000  +2.6457662231E-002 +9.2420694417E+000  +5.9979177395E-001 +1.0861773939E+000 
11272066.333 +6.1891689144E-001 +8.1578708519E+000  +2.8951253007E-002 +4.8562273413E+000  +2.7777698471E-002 +1.4454861747E+001  +6.0495573540E-001 +2.6860457403E+000 
11397211.514 +5.9622893217E-001 +6.8570922021E+000  +2.7786798214E-002 -9.6108894067E-001  +2.7803863655E-002 +1.0704451383E+001  +6.3966055089E-001 +2.3707124138E+000 
11522356.696 +6.0868077782E-001 +4.4761807601E+000  +2.8836061805E-002 +2.2268151323E+000  +2.6133485504E-002 +1.5428817415E+001  +6.0727996208E-001 +3.8666568007E+000 
11647501.877 +6.3319221515E-001 +8.6248269519E+000  +2.9680836390E-002 -1.1113878079E+000  +2.8563944312E-002 +8.4391035509E+000  +6.3331114046E-001 +1.3802323565E+000 
11772647.059 +6.6085903218E-001 +4.1907699286E+000  +2.8689835734E-002 +2.3383560624E-001  +2.9832427615E-002 +1.4179253292E+001  +6.4882343343E-001 +3.3177656327E+000 
11897792.240 +6.2060661173E-001 +5.0937158543E+000  +3.1055067374E-002 +2.9322043769E+000  +3.0273188353E-002 +1.1859554627E+001  +6.5253807664E-001 +1.8692201870E-001 
12022937.422 +6.6549072609E-001 +3.3081829431E+000  +2.8233251473E-002 +1.6712145518E+000  +2.8167494727E-002 +8.7990720874E+000  +6.7498764784E-001 +2.9751341524E+000 
12148082.603 +6.3177956185E-001 +3.1523952847E+000  +3.0728665123E-002 +2.5265064319E+000  +2.8703353919E-002 +1.0940736990E+001  +6.7829460088E-001 +1.3219954837E+000 
12273227.785 +6.6620652172E-001 +5.5051644825E+000  +3.0996092395E-002 +1.2248585954E+000  +2.9867223783E-002 +1.4399419102E+001  +6.8465273578E-001 +2.4126110485E-001 
12398372.966 +6.9582563554E-001 +3.5362784871E+000  +2.8813953317E-002 +4.4304699277E+000  +2.9026496254E-002 +1.0616593547E+001  +6.9086267450E-001 +4.1038569897E-001 
12523518.148 +7.2268386683E-001 +4.5606153533E+000  +2.9602462479E-002 +4.2716436487E+000  +3.0357439457E-002 +9.2151972204E+000  +7.1765368777E-001 +1.5727770753E+000 
12648663.329 +6.9551522668E-001 +1.2176947643E+000  +3.1181705264E-002 -1.1978839116E+000  +3.1756562358E-002 +9.3721614704E+000  +7.3885988368E-001 -7.9264657634E-002 
12773808.511 +7.2019010333E-001 +1.3486122609E+000  +3.1005119014E-002 +2.6816454600E+000  +3.2230814287E-002 +1.0731239284E+001  +7.4571322664E-001 -1.1874722302E+000 
12898953.692 +7.3905653775E-001 +8.1036950854E-001  +3.3220102995E-002 +2.0083086681E+000  +3.1091989593E-002 +9.1562378455E+000  +7.5249229135E-001 -4.4903627081E-001 
13024098.874 +7.3588487918E-001 +2.5004594027E-001  +3.2725810695E-002 +4.1566047282E+000  +2.9826285255E-002 +6.4558513103E+000  +7.6897406399E-001 -6.0866822380E-001 
13149244.055 +7.8876376764E-001 +1.9810706075E-001  +3.1396273016E-002 +2.4158878048E+000  +3.0965220506E-002 +1.0923867509E+001  +8.0467919201E-001 -4.0486583057E+000 
13274389.237 +8.0524868307E-001 -2.3126995382E+000  +3.2117580584E-002 +4.4616109404E-001  +3.1783313476E-002 +6.2259766793E+000  +7.9290203681E-001 -1.7147009525E+000 
13399534.418 +8.2902575530E-001 -2.1635949914E-001  +3.2857358867E-002 +5.5764111719E+000  +3.2075823889E-002 +4.8354891089E+000  +8.6623243255E-001 -2.3158400613E+000 
13524679.599 +8.2503570909E-001 -2.8285871348E+000  +3.4490266382E-002 +1.5465041931E+000  +3.3648582483E-002 +6.7696489668E+000  +8.5056692899E-001 -2.6681429835E+000 
13649824.781 +8.5242952603E-001 -2.3284756656E+000  +3.4686367769E-002 +3.4143813412E+000  +3.2492119160E-002 +3.5658238230E+000  +8.6716591403E-001 -1.8606613775E+000 
13774969.962 +8.7755549402E-001 -1.8265887872E+000  +3.3427798131E-002 +4.1250946232E+000  +3.4693136958E-002 +5.4477227407E+000  +8.5452457226E-001 -4.6974667908E+000 
13900115.144 +9.1273754748E-001 -2.9861546919E+000  +3.5180014691E-002 +1.7872952249E+000  +3.3240765906E-002 +3.0402781563E+000  +8.6995095237E-001 -5.2192983212E+000 
14025260.325 +9.0759236839E-001 -4.7407916041E+000  +3.4610651878E-002 +1.9725027526E+000  +3.2692448973E-002 +4.9384076084E+000  +8.9755498514E-001 -4.1160378165E+000 
14150405.507 +9.0091848797E-001 -4.9626874031E+000  +3.4807887899E-002 +3.5154776213E+000  +3.4144814891E-002 +4.1497957462E+000  +9.2997523682E-001 -4.7070132285E+000 
14275550.688 +9.3569609681E-001 -4.2593421685E+000  +3.2982030420E-002 +9.2764760824E-001  +3.3615259190E-002 +4.3631698203E+000  +9.3941208569E-001 -3.5289139690E+000 
14400695.870 +9.7378975104E-001 -5.7403746890E+000  +3.4936406569E-002 +2.4331779833E+000  +3.6266091545E-002 +2.7607424747E+000  +9.5446340009E-001 -5.0696117854E+000 
