!  2-Port S-parameters saved by WinCal
! VAR MeasName=S-Parameters (CALIBRATED_DATA) read from VNA (P5004A)
! VAR MeasDate=29/08/2024 13:40:19
! VAR NAME=S2_r9c6_RESET1_9k-100M_2
! VAR FILENAME=S2_r9c6_RESET1_9k-100M_2.S2P
! VAR DATE=29/08/2024 13:40:19
! VAR PHYS_PORTS=1,2
! VAR ObjTypeName=DATASET
! VAR IndexType=Frequency
!
# Hz S MA R 50
9000.000 +8.6309570223E-002 -1.5828498716E+002  +7.3959510521E-003 +1.2786839508E+002  +1.8220037172E-003 -3.4311224953E+000  +2.4303279929E-001 -1.4926757910E+002 
134145.181 +1.1136981191E-001 +1.6958121022E+002  +8.6680338796E-005 -1.6558014767E+002  +5.9538890604E-004 +1.0681426396E+002  +2.3946173908E-001 -1.7062763657E+002 
259290.363 +1.1198286913E-001 +1.6970151384E+002  +7.6554794266E-004 +1.7795230289E+002  +5.9194719016E-004 +3.1698248384E+001  +2.4500805367E-001 -1.6743066827E+002 
384435.544 +1.1484218234E-001 +1.6982088276E+002  +9.8246632819E-004 -9.8648082333E+001  +1.2538413326E-003 +1.1832785505E+002  +2.4020781232E-001 -1.6948890241E+002 
509580.726 +1.1477306935E-001 +1.7042345904E+002  +4.2989153221E-004 -9.2493757692E+001  +8.3946731001E-004 +1.1062982418E+002  +2.4037442125E-001 -1.6798472444E+002 
634725.907 +1.1776952393E-001 +1.7106216073E+002  +1.6622117930E-003 -8.8163186969E+001  +1.1103822314E-003 +5.4577232367E+001  +2.5678964749E-001 -1.6700330516E+002 
759871.089 +1.2092473772E-001 +1.7085820884E+002  +1.0952454093E-003 -1.0833065800E+002  +6.9302118286E-004 +6.4476297214E+001  +2.5288593629E-001 -1.6808219469E+002 
885016.270 +1.2184942559E-001 +1.6866323923E+002  +4.7053225514E-004 -8.5646440391E+001  +2.0175995259E-004 +7.9748601559E+001  +2.4756689136E-001 -1.6656361794E+002 
1010161.452 +1.1901040482E-001 +1.6926526109E+002  +1.7673761600E-003 -6.1623069808E+000  +1.1100379115E-003 +1.6374149220E+002  +2.1246929192E-001 -1.6528841799E+002 
1135306.633 +1.1915502482E-001 +1.6772482890E+002  +2.7251861472E-003 -7.6682031435E+000  +1.8680184747E-003 -1.6485216943E+002  +1.6694398600E-001 -1.7115109975E+002 
1260451.815 +1.2223408791E-001 +1.7050430921E+002  +1.7097314382E-003 +1.8386680826E+001  +1.8753207548E-003 -1.6675198303E+002  +2.0259093603E-001 -1.5934455977E+002 
1385596.996 +1.2493071974E-001 +1.7234723704E+002  +8.5393249256E-004 -7.8954386710E+001  +2.4422167727E-003 +1.2233773374E+002  +2.5663528195E-001 -1.5398764427E+002 
1510742.178 +1.2812131656E-001 +1.7103823019E+002  +1.1018683283E-003 +1.2636898001E+001  +1.2501726941E-003 -1.5731701377E+002  +2.5434775302E-001 -1.5818497207E+002 
1635887.359 +1.2909164026E-001 +1.7119997742E+002  +9.9861810642E-004 -4.4480967789E+001  +1.9957192980E-003 -1.7325050870E+002  +2.3631354545E-001 -1.5614001886E+002 
1761032.541 +1.3091775360E-001 +1.7004624044E+002  +3.6524175153E-004 +2.1458886107E+001  +1.8740987695E-003 -1.2836080598E+002  +2.2274659981E-001 -1.6396792862E+002 
1886177.722 +1.3274989740E-001 +1.6853346433E+002  +1.8259616379E-003 +4.9947122990E+001  +3.8518659102E-003 -1.1677032560E+002  +2.1381364902E-001 -1.6002536051E+002 
2011322.904 +1.2565685241E-001 +1.6799630316E+002  +6.7121066029E-003 +5.5208310130E+001  +5.9639093520E-003 -7.5726177960E+001  +1.8597458454E-001 -1.5822902703E+002 
2136468.085 +1.3345997544E-001 +1.6644877539E+002  +8.0026250666E-003 +6.9275627907E+001  +9.3373850927E-003 -4.7434906716E+001  +1.6653001264E-001 -1.6205755598E+002 
2261613.267 +1.2516040040E-001 +1.6404931358E+002  +1.3395881083E-002 +9.1953649670E+001  +1.6081568215E-002 -4.4098248461E+001  +1.9075010528E-001 -1.7242556658E+002 
2386758.448 +1.3379452068E-001 +1.6690166821E+002  +1.5363721328E-002 +7.8288004680E+001  +1.3253273666E-002 -5.4991666127E+001  +1.7181303115E-001 -1.7436586234E+002 
2511903.630 +1.3241568624E-001 +1.6374238313E+002  +1.6198921286E-002 +7.0152876267E+001  +1.6962978063E-002 -4.7787247336E+001  +1.8757599153E-001 -1.6967162010E+002 
2637048.811 +1.2623202214E-001 +1.7086792534E+002  +2.9725738889E-002 +3.1054649224E+001  +3.3963773669E-002 -8.4105062702E+001  +1.2792720499E-001 -1.5030387339E+002 
2762193.992 +1.9917879456E-001 +1.5966201726E+002  +4.0281089002E-001 -1.1433836686E+002  +3.7909404030E-001 +1.3833355045E+002  +2.2173749108E+000 -1.3545939101E+002 
2887339.174 +1.1932852774E-001 +1.6939503492E+002  +3.2864847036E-002 +3.8947092988E+001  +3.7714791812E-002 -8.1098530622E+001  +1.1297188762E-001 -1.7690084806E+002 
3012484.355 +1.3396302149E-001 +1.7053464980E+002  +3.7607091754E-002 -3.1486973092E+001  +3.4399478272E-002 -1.3823223440E+002  +3.0271499647E-001 -1.1016517505E+002 
3137629.537 +1.3697631035E-001 +1.7214714479E+002  +3.6873977397E-002 +7.5934264068E+000  +3.5006445616E-002 -9.7500551225E+001  +7.6817296037E-002 -1.0433803207E+002 
3262774.718 +1.0593866029E-001 +1.6953755938E+002  +7.1612267087E-002 +4.1803691675E+001  +7.4801817619E-002 -5.5910906679E+001  +1.3054041559E-001 +9.9603349137E+001 
3387919.900 +1.3411048812E-001 +1.6977852641E+002  +4.5368851609E-002 +3.7024907685E+001  +5.7051604639E-002 -5.1487504746E+001  +8.4753197455E-002 +1.4645565266E+002 
3513065.081 +1.4215169764E-001 +1.5422724009E+002  +7.3574767806E-002 +8.1813717842E+001  +7.2672281179E-002 -3.3641453325E+000  +2.8555126439E-001 +1.0984972141E+002 
3638210.263 +1.8704845511E-001 +1.4921002976E+002  +5.6938285428E-002 +1.5967059509E+002  +6.5925940403E-002 +7.2099612124E+001  +6.8652960076E-001 +1.5471814236E+002 
3763355.444 +1.5565635446E-001 +1.5386655409E+002  +7.5828269390E-002 +7.7417562764E+001  +8.9981727418E-002 -1.1408785431E+001  +3.8035336458E-001 +9.1837423824E+001 
3888500.626 +1.7195248641E-001 +1.5461978807E+002  +4.7739071006E-002 +8.4616868619E+001  +4.0657481453E-002 +1.6631282498E+001  +3.4753552093E-001 +1.4796098138E+002 
4013645.807 +1.7353830701E-001 +1.4796771481E+002  +7.1769515864E-002 +8.7984997944E+001  +5.9228304818E-002 +1.5656752333E+001  +3.4818531474E-001 +1.3256808507E+002 
4138790.989 +1.6746899593E-001 +1.5018396257E+002  +6.0173159726E-002 +9.0574709632E+001  +6.2210909359E-002 +1.9678824101E+001  +3.9912138352E-001 +1.4264915120E+002 
4263936.170 +1.8998559648E-001 +1.5320347789E+002  +6.3768647875E-002 +8.7102361050E+001  +6.0304235776E-002 +2.5856078541E+001  +4.2141252583E-001 +1.3689855939E+002 
4389081.352 +2.2645458684E-001 +1.5046884351E+002  +6.6494923437E-002 +1.1575967638E+002  +5.9525142382E-002 +5.0708557126E+001  +5.1116055146E-001 +1.3607880704E+002 
4514226.533 +1.8561346087E-001 +1.3632488705E+002  +1.1375910573E-001 +7.3635223051E+001  +1.2499610301E-001 +7.5557871000E+000  +3.7869990664E-001 +8.4530404568E+001 
4639371.715 +2.4628071314E-001 +1.3169565532E+002  +1.5576405561E-001 +1.2187514308E+002  +1.3352988403E-001 +6.9916080078E+001  +8.5974227261E-001 +1.3509169584E+002 
4764516.896 +3.3244785060E-001 +1.2825378262E+002  +4.4010290499E-001 +1.1455303039E+002  +4.5976366715E-001 +7.1598313050E+001  +2.6297040850E+000 +9.6384644659E+001 
4889662.078 +8.3701884078E-002 +8.8103343403E+001  +1.3572163821E+000 -3.2783758135E+001  +1.3742322896E+000 -7.5804434807E+001  +7.4135901949E+000 -7.1640250248E+001 
5014807.259 +2.1754121397E+000 -1.7844461208E+002  +1.1148731643E+001 -1.6976881480E+002  +1.0644060932E+001 +1.5177797704E+002  +6.0368872327E+001 +1.5283999128E+002 
5139952.441 +3.2479589028E-001 +1.2737130474E+002  +1.6939814848E-001 +9.3533480617E+001  +1.7087486131E-001 +4.9888603742E+001  +7.0252835937E-001 +1.0184820970E+002 
5265097.622 +3.4207538366E-001 +1.1890272625E+002  +3.4255252460E-001 +1.1325439339E+002  +3.0565095727E-001 +7.4736242643E+001  +1.7398160049E+000 +1.1731422831E+002 
5390242.804 +3.8090655366E-001 +1.3438824771E+002  +2.5572919874E-001 +1.0341750540E+002  +2.3695355751E-001 +6.0335945599E+001  +1.5816658330E+000 +8.9486111430E+001 
5515387.985 +3.8198900562E-001 +1.3434872627E+002  +1.3976682453E-001 +1.1650213439E+002  +1.3851619160E-001 +8.1382896236E+001  +1.0407725866E+000 +1.3367931226E+002 
5640533.166 +4.1560717192E-001 +1.3329092186E+002  +2.3231568739E-001 +1.0961070029E+002  +2.0880364342E-001 +8.1385212675E+001  +1.6511221232E+000 +1.1442372072E+002 
5765678.348 +4.8771363987E-001 +1.2416291881E+002  +3.0924628121E-001 +9.1945655340E+001  +2.7998445121E-001 +6.4788198321E+001  +1.6479153981E+000 +8.4065523160E+001 
5890823.529 +4.4932057573E-001 +1.1804986427E+002  +2.6238450500E-001 +7.3799692883E+001  +2.5261121420E-001 +4.5231087165E+001  +1.3156056732E+000 +7.0985497018E+001 
6015968.711 +4.6778840631E-001 +1.0753156051E+002  +3.6669997317E-001 +5.3488941110E+001  +3.5510409334E-001 +3.0916332100E+001  +1.6526451674E+000 +5.2093404657E+001 
6141113.892 +5.8889238894E-001 +1.1079248873E+002  +3.1103785007E-001 +6.7395792069E+001  +3.2718579700E-001 +5.0048710054E+001  +1.5900043394E+000 +7.2610142489E+001 
6266259.074 +6.7974523283E-001 +9.3427605168E+001  +4.1818247639E-001 +4.9244310940E+001  +4.5269255034E-001 +3.0300997893E+001  +1.7567738657E+000 +3.8808622303E+001 
6391404.255 +7.9723527428E-001 +8.5522850132E+001  +4.8134798593E-001 +3.6403521368E+001  +4.4748692036E-001 +2.0644079742E+001  +1.7818291636E+000 +2.2055870974E+001 
6516549.437 +7.9084336868E-001 +8.8431557167E+001  +3.2514085300E-001 +3.6639062063E+001  +3.2121829037E-001 +2.3098774365E+001  +1.0761742136E+000 +1.8541101298E+001 
6641694.618 +9.5529813277E-001 +6.4500566437E+001  +3.9029548866E-001 +2.3514909254E+001  +3.8775249765E-001 +8.4615474910E+000  +1.1719221131E+000 +1.0538106179E+001 
6766839.800 +1.0405179586E+000 +5.3229640273E+001  +3.8642702544E-001 +1.4507548848E+001  +3.5337921049E-001 +8.1845020788E+000  +1.0564923283E+000 +2.1398280703E+000 
6891984.981 +1.0146678756E+000 +3.7922692870E+001  +3.7693145806E-001 +1.0758266741E+001  +3.6344592165E-001 +1.4919856627E+000  +1.1914943705E+000 +1.0783885716E+001 
7017130.163 +1.0245641079E+000 +1.4301759926E+001  +3.3283539690E-001 -1.3379180230E+000  +3.4182390419E-001 -5.4187574653E+000  +1.1101602321E+000 +3.6812456265E+000 
7142275.344 +1.0175459924E+000 +2.7020072296E+001  +2.9373439078E-001 +4.1238969909E+000  +2.9326234297E-001 +6.6578483382E-001  +1.0808956282E+000 -7.7182063202E+000 
7267420.526 +1.1725903183E+000 -8.0708953184E+000  +2.8271206793E-001 -2.5224772489E+000  +2.9071582824E-001 -4.1323899947E+000  +1.0523323656E+000 -1.0419475058E+001 
7392565.707 +1.1024304721E+000 +7.4257822486E-003  +2.3532862631E-001 +7.4080370135E+000  +2.4105868303E-001 +3.6125239296E+000  +1.1501151096E+000 -7.4920331062E+000 
7517710.889 +8.9165825134E-001 -4.0135600173E+000  +2.2092532659E-001 +2.7279072164E+000  +2.1950008368E-001 +2.8128844398E+000  +8.8206990652E-001 -1.2145088503E+001 
7642856.070 +7.9441370581E-001 -6.4340292072E-001  +2.0054274092E-001 +2.3429385549E+000  +2.1028355336E-001 +4.0211032351E+000  +8.1097538949E-001 -3.2231109069E+000 
7768001.252 +7.0850453849E-001 +9.7754809930E+000  +1.9358628656E-001 +8.9833227113E-001  +1.8554018116E-001 +2.4917388096E+000  +7.6269017801E-001 +2.2233530175E+000 
7893146.433 +5.3112799017E-001 +1.7802726472E-001  +1.9207240091E-001 -2.1640183001E+000  +1.8738206449E-001 +2.8554759657E+000  +7.5029334405E-001 -6.2054682769E+000 
8018291.615 +5.3997728114E-001 +1.0832693929E+001  +1.7640471048E-001 -7.0127723058E-001  +1.8018262932E-001 +5.4141049215E+000  +6.5050886331E-001 +1.1759822421E+000 
8143436.796 +5.7595907578E-001 +8.0406388450E+000  +1.7666631631E-001 -1.1592970478E+000  +1.7754908883E-001 +7.6642226400E+000  +6.4320530871E-001 +1.1549675303E+000 
8268581.977 +5.4314019542E-001 +1.3164744223E+001  +1.7052117036E-001 -9.2678426752E-001  +1.6645011484E-001 +8.7757215579E+000  +6.0928881563E-001 +3.7581853282E+000 
8393727.159 +6.1313104697E-001 +1.4269282063E+001  +1.6741940615E-001 -8.0726593762E-001  +1.7284287313E-001 +6.5554842123E+000  +5.4957745370E-001 +5.8369519115E+000 
8518872.340 +5.2392957151E-001 +1.5485343448E+001  +1.6219222144E-001 -1.2988747078E+000  +1.6750841058E-001 +8.7977961556E+000  +5.4271025187E-001 +1.5647133990E+000 
8644017.522 +4.7283291418E-001 +1.8252448225E+001  +1.6235479610E-001 -4.2605224713E+000  +1.6636698740E-001 +8.2504783164E+000  +5.4123611418E-001 -9.5646264870E-001 
8769162.703 +4.9659955602E-001 +2.0031214451E+001  +1.6027687282E-001 -3.5511734031E+000  +1.6225668747E-001 +9.8022747965E+000  +4.9958190674E-001 +9.3139283332E+000 
8894307.885 +4.1067584831E-001 +7.0398672776E+000  +1.5977128121E-001 -3.2686624695E+000  +1.6281945932E-001 +8.9718672365E+000  +5.0419070277E-001 +1.9133848799E+000 
9019453.066 +4.4516525492E-001 +8.2624014424E+000  +1.5969691594E-001 -5.0354458542E+000  +1.5737873229E-001 +9.1296485111E+000  +4.6867007009E-001 +1.0128851258E+001 
9144598.248 +3.9975951899E-001 +3.8212190065E+000  +1.6065679712E-001 -4.2840002052E+000  +1.5825945640E-001 +9.9638466792E+000  +4.1354129844E-001 +1.0652910578E+000 
9269743.429 +3.6239337210E-001 +1.3228728626E+001  +1.5861481272E-001 -6.5022235192E+000  +1.5388754342E-001 +1.0113063330E+001  +4.6191349969E-001 +1.1898736984E+000 
9394888.611 +3.9019769500E-001 +4.2705633191E+000  +1.5919624263E-001 -5.9106678544E+000  +1.5912488339E-001 +1.0043868695E+001  +3.8117502371E-001 +1.8042219547E-001 
9520033.792 +4.0324140737E-001 +6.5500134809E+000  +1.5967442138E-001 -4.4552423981E+000  +1.5897542685E-001 +1.0855746025E+001  +4.3813891118E-001 -6.0747457433E-001 
9645178.974 +3.7018519912E-001 +7.5151694560E+000  +1.6194026288E-001 -4.8681167933E+000  +1.5964049387E-001 +1.1995190244E+001  +4.0128777955E-001 -4.4305035000E+000 
9770324.155 +3.6503894836E-001 +5.1954662657E-001  +1.6124105920E-001 -5.0892581855E+000  +1.6275018612E-001 +1.0799070805E+001  +4.4350410939E-001 -2.1949342265E+000 
9895469.337 +3.6984557204E-001 +1.0541650033E+001  +1.5948596740E-001 -4.8618148089E+000  +1.5831788627E-001 +1.0687810668E+001  +3.4742744732E-001 +1.0861592194E+000 
10020614.518 +3.8917056336E-001 +2.4629606986E+000  +1.6190563759E-001 -4.7605946294E+000  +1.5931686128E-001 +1.1547670020E+001  +4.1739136371E-001 +6.1130490381E-001 
10145759.700 +3.9524006827E-001 +2.5405234173E+000  +1.6297727828E-001 -3.5598044500E+000  +1.6067769126E-001 +1.2053631987E+001  +4.3163333233E-001 +6.6219799706E-001 
10270904.881 +4.0195699194E-001 +5.1463198111E+000  +1.6209219805E-001 -3.5749465395E+000  +1.6386655684E-001 +1.1966596422E+001  +3.9880456908E-001 -1.1187350982E+000 
10396050.063 +3.9520239126E-001 +1.1292253002E+001  +1.6012494326E-001 -3.3898776607E+000  +1.6183155419E-001 +1.1867366209E+001  +3.8951307512E-001 +4.2155641999E+000 
10521195.244 +3.8864219206E-001 +1.2950444319E+001  +1.6226599566E-001 -2.2942254269E+000  +1.6189664461E-001 +1.2293214296E+001  +4.4648657994E-001 +7.1327142558E+000 
10646340.426 +4.0709821893E-001 +1.3815592570E+001  +1.6377844589E-001 -2.8309601966E+000  +1.6469144625E-001 +1.1941903735E+001  +4.0227897950E-001 +6.1305023604E-001 
10771485.607 +4.1999761799E-001 +1.3660573271E+001  +1.6465731681E-001 -2.3739529622E+000  +1.6226278556E-001 +1.2523025148E+001  +4.4931658869E-001 +4.1712830948E+000 
10896630.788 +4.3388761439E-001 +1.4273799334E+001  +1.6556179897E-001 -9.3780064894E-001  +1.6509943648E-001 +1.2021297244E+001  +4.3849519656E-001 +3.0992571348E-001 
11021775.970 +4.2497833871E-001 +1.1396697406E+001  +1.6647315509E-001 -1.3535573956E+000  +1.6729403229E-001 +1.2033055314E+001  +4.5263390001E-001 +9.1472473244E+000 
11146921.151 +4.1343241755E-001 +8.8507787688E+000  +1.7120246253E-001 -1.8466359900E+000  +1.6735383978E-001 +1.1762152095E+001  +4.6751951661E-001 +4.3337241233E+000 
11272066.333 +4.6855304445E-001 +1.1128319353E+001  +1.7080243469E-001 -6.0752915594E-001  +1.6765738888E-001 +1.2592977255E+001  +4.5793329775E-001 +8.6424795126E+000 
11397211.514 +4.5075016215E-001 +1.1462345915E+001  +1.7445932199E-001 -9.4633778005E-001  +1.7229468413E-001 +1.2561759197E+001  +4.9931493234E-001 +4.0656687284E+000 
11522356.696 +4.6884269803E-001 +1.0002008909E+001  +1.7364517095E-001 -2.6127569035E-001  +1.7154771236E-001 +1.1224028512E+001  +4.8951006089E-001 +7.8027030729E+000 
11647501.877 +4.4426890444E-001 +1.2290700264E+001  +1.7619212089E-001 -4.6956299509E-001  +1.7596096028E-001 +1.1503655399E+001  +4.8196220978E-001 +4.3318119550E-001 
11772647.059 +4.6563236842E-001 +1.0189689334E+001  +1.7778336827E-001 +2.2850486929E-001  +1.7471918002E-001 +1.1464521976E+001  +4.9088811377E-001 +6.0122798899E+000 
11897792.240 +4.9950655137E-001 +7.5045256595E+000  +1.8074840398E-001 +9.6153973083E-001  +1.7875734452E-001 +1.0731028323E+001  +5.0170184735E-001 +3.8443047582E+000 
12022937.422 +4.9233727511E-001 +1.0564002062E+001  +1.8149899740E-001 +3.2131634933E-001  +1.7889115617E-001 +1.0637425657E+001  +4.9270505956E-001 +3.4610149187E+000 
12148082.603 +5.1235702663E-001 +7.4041103497E+000  +1.8364139561E-001 +1.0947286960E+000  +1.8289562448E-001 +9.4284931402E+000  +5.1052271373E-001 +4.0663449591E+000 
12273227.785 +5.2853303497E-001 +4.4508068781E+000  +1.8560623830E-001 +1.2505596477E+000  +1.8474446584E-001 +1.0217275261E+001  +5.2813082781E-001 +4.4802433166E+000 
12398372.966 +5.2902627984E-001 +6.4299741130E+000  +1.8928640446E-001 +1.0355195854E+000  +1.8563700386E-001 +9.3855413230E+000  +5.3657200858E-001 +1.4158980346E-001 
12523518.148 +5.2456776054E-001 +4.5427575713E+000  +1.8961098430E-001 +1.3213723804E+000  +1.8601140415E-001 +8.4885304707E+000  +5.4202673902E-001 +1.9945842287E+000 
12648663.329 +5.4311701280E-001 +3.5173368229E+000  +1.9195567839E-001 +1.5424219369E+000  +1.9052449856E-001 +8.5101436160E+000  +5.6710580673E-001 +2.0589118466E-002 
12773808.511 +5.7670212487E-001 +3.8593429719E+000  +1.9429565853E-001 +2.4263555506E+000  +1.9195214355E-001 +8.2102493376E+000  +6.0058070495E-001 +1.8337676980E+000 
12898953.692 +5.9064329969E-001 +4.0790855212E+000  +1.9539170378E-001 +2.2280790031E+000  +1.9378656888E-001 +7.6759206289E+000  +6.0576536609E-001 -3.5071209092E-001 
13024098.874 +5.9539328208E-001 +3.2079460315E+000  +1.9745488451E-001 +1.9031035685E+000  +1.9510140174E-001 +7.3980184243E+000  +6.0083079260E-001 -1.0823817935E-001 
13149244.055 +6.0202729338E-001 +6.6040979867E-001  +1.9942590152E-001 +1.8823321068E+000  +1.9607227131E-001 +6.8061838606E+000  +6.3508586660E-001 -5.9589386973E-002 
13274389.237 +6.2677051224E-001 -5.8774969269E-001  +2.0215617140E-001 +2.0707157855E+000  +1.9876189994E-001 +5.6486544006E+000  +6.4171984060E-001 -1.7140617954E+000 
13399534.418 +6.5106682480E-001 +5.0528114042E-001  +2.0344912733E-001 +2.1438862459E+000  +2.0113062280E-001 +5.5710735400E+000  +6.4060081040E-001 -2.7348691996E+000 
13524679.599 +6.7056735578E-001 -1.8127715682E+000  +2.0530336948E-001 +2.8510597798E+000  +2.0249096024E-001 +4.9456828010E+000  +6.6546038033E-001 -2.2137690175E+000 
13649824.781 +6.6210187107E-001 -5.5551513058E-001  +2.0655152194E-001 +1.6499427882E+000  +2.0578407629E-001 +4.2206090294E+000  +6.6635607088E-001 -4.5266869213E+000 
13774969.962 +6.7821325099E-001 -2.1659302604E+000  +2.0908078672E-001 +1.9027033947E+000  +2.0538199660E-001 +3.7649777790E+000  +7.0368868258E-001 -3.6546709599E+000 
13900115.144 +6.9031253811E-001 -4.5059603858E+000  +2.1069578922E-001 +1.7658833872E+000  +2.0600539943E-001 +3.0656382563E+000  +6.9546013724E-001 -1.8195210670E+000 
14025260.325 +7.2206351518E-001 -5.0969756164E+000  +2.1009313776E-001 +1.5576362391E+000  +2.0999413921E-001 +2.6344497086E+000  +7.0794329874E-001 -4.4425046501E+000 
14150405.507 +7.2379929232E-001 -2.8124890947E+000  +2.1048356738E-001 +1.3142913368E+000  +2.0818267151E-001 +2.2084094715E+000  +7.1871968616E-001 -4.2226515843E+000 
14275550.688 +7.6820897649E-001 -5.6958403260E+000  +2.1360473074E-001 +1.2475310190E+000  +2.1000773986E-001 +2.5196886955E+000  +7.5232242462E-001 -3.1422578546E+000 
14400695.870 +7.6272229099E-001 -5.4425552346E+000  +2.1387154702E-001 +1.1521113319E+000  +2.1046985309E-001 +1.8349445699E+000  +7.7013181222E-001 -5.0906972744E+000 
