!  2-Port S-parameters saved by WinCal
! VAR MeasName=S-Parameters (CALIBRATED_DATA) read from VNA (P5004A)
! VAR MeasDate=29/08/2024 11:13:21
! VAR NAME=S2_r9c3_RESET2_9k-100M_3
! VAR FILENAME=S2_r9c3_RESET2_9k-100M_3.S2P
! VAR DATE=29/08/2024 11:13:21
! VAR PHYS_PORTS=1,2
! VAR ObjTypeName=DATASET
! VAR IndexType=Frequency
!
# Hz S MA R 50
9000.000 +9.3029234628E-002 -1.6381377862E+002  +7.8283095469E-003 -2.9581752965E+001  +7.3837297651E-003 +1.7709764477E+000  +2.5319912290E-001 -1.3999173441E+002 
134145.181 +1.1161914084E-001 +1.6933765529E+002  +4.6000130952E-004 -1.7774006842E+001  +5.6046330134E-004 +9.7298516752E+001  +2.3928246585E-001 -1.7093055913E+002 
259290.363 +1.1292674305E-001 +1.6926982703E+002  +5.7706071079E-004 -5.1138119121E+001  +1.1127582914E-003 +8.9818535486E+001  +2.4074198994E-001 -1.6956938871E+002 
384435.544 +1.1361329369E-001 +1.7055904367E+002  +4.9367167846E-004 -1.6927093963E+002  +4.8186258232E-004 +7.6785220003E+001  +2.4067766665E-001 -1.7039474054E+002 
509580.726 +1.1313240425E-001 +1.7047247458E+002  +3.7909816391E-004 +1.5362742633E+002  +1.4953137622E-003 +1.2904381104E+002  +2.3650907495E-001 -1.6479179342E+002 
634725.907 +1.1819106750E-001 +1.7235089957E+002  +1.1609979351E-003 +1.6058115970E+002  +7.3934509864E-004 +1.8194939193E+000  +2.5607924210E-001 -1.6553028089E+002 
759871.089 +1.2055242399E-001 +1.7099096248E+002  +1.8172010891E-004 -1.7491055214E+002  +8.4071512484E-004 +3.4273836938E+000  +2.5377242681E-001 -1.6638259162E+002 
885016.270 +1.2086624224E-001 +1.6906111434E+002  +4.5417778331E-004 -8.5460329351E+001  +3.8356494751E-004 +8.4972518793E+001  +2.4749474945E-001 -1.6668079077E+002 
1010161.452 +1.1772118654E-001 +1.6969336138E+002  +6.8595835284E-004 -3.4847680775E+001  +2.7088346174E-003 -1.5832395780E+002  +2.0254444225E-001 -1.7346436179E+002 
1135306.633 +1.1755788433E-001 +1.6849287935E+002  +1.2508013213E-003 -9.0362919729E+001  +1.2331438747E-003 -1.2839851163E+002  +1.9550469442E-001 -1.7082117935E+002 
1260451.815 +1.1827930303E-001 +1.6958642394E+002  +1.6411707134E-003 +7.5920679480E+001  +5.9999669989E-004 -1.0693325899E+002  +2.0625121767E-001 -1.5846094714E+002 
1385596.996 +1.2343899207E-001 +1.7287138135E+002  +1.6052735083E-003 -7.5319233880E+001  +7.4910119835E-004 -8.4071366569E+001  +2.4932198630E-001 -1.5961050077E+002 
1510742.178 +1.2967693279E-001 +1.7279868379E+002  +5.4381060575E-004 +5.6313421057E+001  +5.5899132489E-004 +1.4540707672E+002  +2.5641637087E-001 -1.5923981225E+002 
1635887.359 +1.2810672928E-001 +1.7035213708E+002  +3.8172310120E-004 -1.1561318584E+002  +1.4719654183E-003 +1.4506919178E+002  +2.3795094913E-001 -1.5884961034E+002 
1761032.541 +1.2644740282E-001 +1.6710252334E+002  +2.1501530249E-003 +3.7627890229E+001  +7.3121505481E-004 +1.5178390781E+002  +2.2862321314E-001 -1.5600375692E+002 
1886177.722 +1.3194355459E-001 +1.6825691382E+002  +1.2171450766E-003 +2.4013353495E+001  +1.3753124704E-003 -8.9565841461E+001  +2.1962519729E-001 -1.6565013663E+002 
2011322.904 +1.2810504604E-001 +1.6742780476E+002  +7.5111783826E-003 +5.2226712217E+001  +4.4219342116E-003 -1.2053093730E+002  +1.7405165179E-001 -1.4686975131E+002 
2136468.085 +1.2894039215E-001 +1.6869942408E+002  +5.2063065407E-003 +3.8528274896E+001  +8.8270343842E-003 -5.6197030902E+001  +1.9394758107E-001 +1.7714962803E+002 
2261613.267 +1.3468924703E-001 +1.6427257059E+002  +6.6418783396E-003 +8.8288224105E+001  +7.5239353353E-003 -5.0170927047E+001  +1.8189649974E-001 +1.7964036614E+002 
2386758.448 +1.3985263815E-001 +1.6607198351E+002  +9.0126389480E-003 +7.0513965400E+001  +5.6408720884E-003 -2.0423687122E+001  +1.9490731073E-001 -1.7941955090E+002 
2511903.630 +1.3689147789E-001 +1.6662452308E+002  +8.4375367236E-003 +5.7601998694E+001  +1.0317163919E-002 -8.1350854752E+001  +1.3575616779E-001 -1.5996424217E+002 
2637048.811 +1.3220935864E-001 +1.6313124235E+002  +2.6604157448E-002 +7.0693964418E+001  +2.4228982864E-002 -3.9464324735E+001  +1.3923789785E-001 +1.5443253472E+002 
2762193.992 +9.3908449953E-002 +1.7553733254E+002  +1.4419609835E-001 +4.7115278050E+001  +1.6885444421E-001 -7.7363531820E+001  +7.6374121449E-001 +4.6010226053E+001 
2887339.174 +1.3128440969E-001 +1.7713951408E+002  +4.1407496083E-002 -4.0467072968E+001  +3.1504004301E-002 -1.3521423251E+002  +2.2270916739E-001 -4.6792806564E+001 
3012484.355 +1.3205499200E-001 +1.6897852203E+002  +2.4212690525E-002 -1.6373502166E+001  +1.8983864374E-002 -1.3598407801E+002  +2.0049300602E-001 -1.1301108095E+002 
3137629.537 +1.1992271225E-001 +1.6469212507E+002  +3.9243095030E-002 +2.2813792224E+001  +3.2687926849E-002 -8.2628682494E+001  +5.9586503120E-002 -1.4312261581E+002 
3262774.718 +1.2448485677E-001 +1.7065132090E+002  +2.9240306179E-002 +1.5664998975E+001  +2.9515924251E-002 -6.4032258660E+001  +9.2317277874E-002 +1.4409908258E+002 
3387919.900 +1.2096240918E-001 +1.6494563247E+002  +3.6153664401E-002 +8.0560097129E+001  +4.3136987761E-002 -3.5642264020E+001  +2.1193208051E-001 +1.0694900816E+002 
3513065.081 +1.2888638704E-001 +1.4570056071E+002  +5.9293379813E-002 +8.9957165931E+001  +7.0771296811E-002 +1.3916323450E+001  +4.6035926075E-001 +1.2601797549E+002 
3638210.263 +1.6796011885E-001 +1.3995169559E+002  +4.3504538070E-002 +1.0762882069E+002  +3.7858156149E-002 +2.7693721569E+001  +3.6071167370E-001 +1.4194419168E+002 
3763355.444 +1.8016131607E-001 +1.5187715541E+002  +6.4493571629E-002 +1.2840187166E+002  +4.0418114946E-002 +4.2032687316E+001  +7.0318357097E-001 +1.3425254333E+002 
3888500.626 +1.6911097973E-001 +1.4052393344E+002  +8.2622399881E-002 +1.0780074234E+002  +6.6364215387E-002 +2.9527413163E+001  +6.5865468125E-001 +1.2628470832E+002 
4013645.807 +1.6913617553E-001 +1.5024823589E+002  +5.2514960510E-002 +9.1935721526E+001  +5.1527404028E-002 +2.2794690263E+001  +4.6536404311E-001 +1.1857583077E+002 
4138790.989 +1.7553830953E-001 +1.5284116602E+002  +4.6019721773E-002 +1.0837529480E+002  +4.4840653811E-002 +3.1182452242E+001  +5.8790859714E-001 +1.4288749463E+002 
4263936.170 +2.1990443691E-001 +1.4571804045E+002  +3.0018738104E-002 +9.1128932280E+001  +3.8847265914E-002 +3.4361722120E+001  +2.8440763476E-001 +1.4599706540E+002 
4389081.352 +1.8417446342E-001 +1.4526472542E+002  +5.5941643573E-002 +1.0480982052E+002  +5.2925131641E-002 +4.0182991440E+001  +5.6645810109E-001 +1.3580294528E+002 
4514226.533 +2.3708293779E-001 +1.4796461113E+002  +1.2202525986E-001 +1.3783033547E+002  +1.1471807506E-001 +7.7869743888E+001  +1.6659903908E+000 +1.2428846564E+002 
4639371.715 +2.1651565775E-001 +1.2269692332E+002  +2.4641625384E-001 +1.0580022394E+002  +2.4663416737E-001 +5.4445790214E+001  +1.8617305763E+000 +1.1374780090E+002 
4764516.896 +3.0325269226E-001 +1.2691769954E+002  +2.2493452314E-001 +1.2522578562E+002  +2.4285647477E-001 +6.6999726684E+001  +1.9618350161E+000 +1.0396074100E+002 
4889662.078 +4.9417605037E-001 +1.3029964835E+002  +2.3217769912E-001 +1.7765460046E+002  +2.6627200439E-001 +1.2940958610E+002  +1.6395875379E+000 +1.3863266302E+002 
5014807.259 +3.6733198521E-001 +1.2089086212E+002  +3.4777386551E-001 +8.3866639146E+001  +2.8811236557E-001 +4.8033451038E+001  +2.0276407005E+000 +5.7107250572E+001 
5139952.441 +3.2359136577E-001 +1.3154849249E+002  +2.6080781628E-001 +1.1452542159E+002  +2.4888696814E-001 +7.4937105493E+001  +2.6107445908E+000 +1.0663595071E+002 
5265097.622 +3.8318613335E-001 +1.2698916121E+002  +1.6571176857E-001 +1.2076487411E+002  +1.6807404598E-001 +7.6215759569E+001  +1.4669499261E+000 +1.0402125032E+002 
5390242.804 +3.1333211284E-001 +1.3593396633E+002  +1.4970779334E-001 +1.0488395237E+002  +1.5789952709E-001 +7.7148481991E+001  +1.8646153320E+000 +1.1405250500E+002 
5515387.985 +4.3901024931E-001 +1.3190223954E+002  +1.5033210728E-001 +1.2181150655E+002  +1.5843093247E-001 +8.6257033641E+001  +1.4926045192E+000 +1.1432933762E+002 
5640533.166 +4.3312391660E-001 +1.3213935649E+002  +1.3339498657E-001 +1.1845597274E+002  +1.3103873222E-001 +8.2605727519E+001  +1.4598037344E+000 +1.1657825239E+002 
5765678.348 +5.3400689034E-001 +1.2959342704E+002  +1.7547462255E-001 +8.0424003657E+001  +1.9580091266E-001 +5.3414804751E+001  +1.5451095846E+000 +5.2163132050E+001 
5890823.529 +5.9175886323E-001 +1.1833014413E+002  +2.5790245873E-001 +8.1868926781E+001  +2.2825501259E-001 +6.1920148582E+001  +1.6299510566E+000 +7.3629982934E+001 
6015968.711 +5.5393069602E-001 +1.2252324734E+002  +2.0485079505E-001 +8.6094475347E+001  +2.3359865766E-001 +5.7856976327E+001  +2.1048338031E+000 +7.3733136808E+001 
6141113.892 +6.8027515942E-001 +1.1484714080E+002  +1.9516614978E-001 +6.9994065745E+001  +1.8436457566E-001 +5.6129505661E+001  +1.2394398362E+000 +6.0289515433E+001 
6266259.074 +7.8468728584E-001 +1.0354394149E+002  +2.2678536655E-001 +4.1605101342E+001  +2.3655309403E-001 +2.4978071761E+001  +1.3391712464E+000 +1.0250725053E+001 
6391404.255 +8.5245392296E-001 +9.4088113716E+001  +2.4764855037E-001 +4.1195179509E+001  +2.6227611998E-001 +2.5369116570E+001  +1.4169296462E+000 +2.0316597951E+001 
6516549.437 +8.6493685226E-001 +9.4736324786E+001  +2.0575624742E-001 +4.3563617043E+001  +1.8921626418E-001 +2.2310710525E+001  +1.0991646600E+000 +2.0827091066E+001 
6641694.618 +1.5317396326E+000 +6.5169633619E+001  +3.1584272295E-001 +2.6700918477E+001  +3.1192331357E-001 +1.9553375086E+001  +1.4179093205E+000 +1.6855485081E-001 
6766839.800 +1.1461840318E+000 +5.7965067736E+001  +2.4478058228E-001 +1.9542009476E+001  +2.4397000618E-001 +1.3111978997E+001  +1.1164388687E+000 +7.3301504604E+000 
6891984.981 +1.1804157738E+000 +3.1280135348E+001  +2.5803869218E-001 +6.6101189815E+000  +2.3758882966E-001 -2.3874023967E+000  +1.1063186525E+000 -2.7191993390E+000 
7017130.163 +1.3328089635E+000 +3.3786001269E+001  +2.3426162228E-001 +7.7914519518E+000  +2.4041116822E-001 +4.3461284198E+000  +1.1941005456E+000 -7.3309197070E+000 
7142275.344 +1.3767770408E+000 +1.2983903171E+001  +2.0283376059E-001 +2.8777186322E+000  +2.1898736335E-001 -1.3134330769E+000  +9.6113352333E-001 -1.2346486938E+001 
7267420.526 +1.2572203412E+000 +5.7891241511E+000  +1.7864214902E-001 -6.8536469034E-001  +1.6488319278E-001 +1.5741360766E-001  +1.2388521739E+000 -1.8659779678E+001 
7392565.707 +1.3103131914E+000 +3.4674862417E+000  +1.6758815635E-001 +9.1309117502E+000  +1.5242907440E-001 +1.0787026924E+001  +1.3911991574E+000 -1.1058856623E+001 
7517710.889 +9.6665705987E-001 -1.1094451988E+000  +1.2994246338E-001 +7.7359583855E+000  +1.3976568591E-001 +4.4845960164E+000  +1.1022928929E+000 -6.6509071775E+000 
7642856.070 +9.6984319687E-001 +4.8017321885E+000  +1.2846662756E-001 +5.0316304945E-001  +1.2805399156E-001 +7.7359192869E+000  +8.9093576505E-001 +9.7940757369E-001 
7768001.252 +7.2996559996E-001 +6.8687063027E+000  +1.2230353248E-001 +1.0030204265E+000  +1.1945492710E-001 +6.9134798670E+000  +8.7652941007E-001 -2.2136488718E+000 
7893146.433 +7.8037646534E-001 +2.7019649561E+000  +1.2278380398E-001 -1.3951288028E+000  +1.2333714754E-001 +3.0387026758E+000  +8.1993712644E-001 -3.1776887874E+000 
8018291.615 +6.9492660432E-001 +6.2293360504E+000  +1.1195716829E-001 -5.9775306486E-001  +1.1891347465E-001 +6.9609130553E+000  +7.4685184867E-001 -2.5270999165E+000 
8143436.796 +5.9739148233E-001 +1.4460895646E+001  +1.1101773653E-001 -1.0642413852E+000  +1.1224249282E-001 +7.0042632354E+000  +6.4170675470E-001 -6.7125073162E-001 
8268581.977 +5.9145888224E-001 +1.4001143710E+001  +1.0534040658E-001 -7.8294597212E-001  +1.0150485216E-001 +1.0018879300E+001  +5.8449679322E-001 +8.9932313973E-001 
8393727.159 +5.7967954525E-001 +1.3733553353E+001  +1.0536262481E-001 -2.5758981846E+000  +1.0496573274E-001 +9.3269405742E+000  +6.7577873459E-001 +4.6331350130E+000 
8518872.340 +5.4300363111E-001 +9.4882110008E+000  +9.9738234487E-002 -4.7379339130E+000  +1.0027180534E-001 +9.4856227718E+000  +6.1719447274E-001 +5.0798543017E+000 
8644017.522 +5.5807947195E-001 +1.1155509103E+001  +1.0211050158E-001 -4.3785528818E+000  +1.0011730351E-001 +8.7514184080E+000  +5.2253804307E-001 +1.0098472638E-001 
8769162.703 +6.0121211511E-001 +8.7026359163E+000  +1.0863308816E-001 -1.9087693767E+000  +1.0153985588E-001 +8.9689856940E+000  +5.7159275350E-001 +4.7032386900E-001 
8894307.885 +4.5457235345E-001 +1.5350928479E+001  +1.0383851018E-001 -5.0901105992E+000  +1.0779928515E-001 +9.1669549157E+000  +5.2792525366E-001 -4.3218942673E+000 
9019453.066 +4.7021519568E-001 +1.2636856619E+001  +9.8444932938E-002 -5.3116966671E+000  +1.0058546670E-001 +8.9344092333E+000  +5.4921465895E-001 -5.8098560659E+000 
9144598.248 +4.8622988406E-001 +1.0291595754E+001  +9.9535472092E-002 -3.5539527626E+000  +9.7479577237E-002 +1.2150446328E+001  +5.6707559449E-001 +4.6426165710E+000 
9269743.429 +4.3278404966E-001 +1.1045196139E+001  +1.0010659904E-001 -3.9644880541E+000  +1.0206681513E-001 +1.2114909094E+001  +4.7631851461E-001 -2.4213715439E+000 
9394888.611 +4.6234369514E-001 +9.9114843174E+000  +1.0183161963E-001 -4.2998396479E+000  +1.0194921861E-001 +1.0869987371E+001  +5.0040630409E-001 -2.5218972142E+000 
9520033.792 +4.1250586372E-001 +1.0305238187E+001  +9.9710448493E-002 -5.5545203839E+000  +1.0292725983E-001 +1.0415849426E+001  +4.7944004851E-001 -4.5164302660E+000 
9645178.974 +4.3366059056E-001 +5.4179991577E+000  +1.0051615090E-001 -2.9348941755E+000  +1.0112991303E-001 +1.0353215754E+001  +5.0089456826E-001 -2.3180008947E+000 
9770324.155 +4.8378294316E-001 +3.9038706026E+000  +1.0248121420E-001 -3.2275486294E+000  +1.0391131245E-001 +1.1613978258E+001  +4.3648748485E-001 -4.2239271587E+000 
9895469.337 +4.4402141431E-001 +2.4485038591E+000  +1.0387243585E-001 -5.5448120342E+000  +1.0026547380E-001 +9.7418042425E+000  +4.4392660773E-001 +6.4681765573E-001 
10020614.518 +4.2330554546E-001 +5.8140285808E+000  +1.0261171616E-001 -2.5461387228E+000  +9.9533199607E-002 +1.1744562212E+001  +4.3289135705E-001 -6.2983794629E+000 
10145759.700 +4.4770848677E-001 +4.0087749448E+000  +1.0304705534E-001 -4.4552721824E+000  +1.0379259775E-001 +1.0930668120E+001  +4.4597062549E-001 +2.3524223225E+000 
10270904.881 +4.5008487682E-001 +7.1668667161E+000  +1.0398967700E-001 -4.3169590494E+000  +1.0289686517E-001 +1.2519449867E+001  +4.7452398397E-001 -3.7394604848E+000 
10396050.063 +4.7767440418E-001 +7.1497130702E+000  +1.0344529285E-001 -2.0038161385E+000  +1.0268470680E-001 +1.2942984409E+001  +4.9412611407E-001 +2.9019720190E+000 
10521195.244 +4.8813648624E-001 +1.4897680914E+001  +1.0433295453E-001 -2.5556658545E+000  +1.0139983197E-001 +1.3849165634E+001  +4.8754983010E-001 +3.9609897892E+000 
10646340.426 +4.6781713694E-001 +8.7191138167E+000  +1.0480406326E-001 -2.0924349084E+000  +1.0301524142E-001 +1.3777721129E+001  +4.7083036144E-001 +9.2422490818E-001 
10771485.607 +4.5620894870E-001 +9.0769399784E+000  +1.0444884658E-001 -1.9592949381E+000  +1.0464391021E-001 +1.1999537860E+001  +4.6074383751E-001 +1.9204689222E+000 
10896630.788 +4.7168460229E-001 +1.1797056999E+001  +1.0678601107E-001 -1.2012242506E+000  +1.0543872025E-001 +1.2170479075E+001  +4.9867805500E-001 -6.9834652380E-001 
11021775.970 +4.8447589524E-001 +8.7579328781E+000  +1.0850505007E-001 +2.7049695519E-001  +1.0632762156E-001 +1.3870256908E+001  +5.0522102112E-001 +1.1932765426E+000 
11146921.151 +4.9228189904E-001 +6.7695852070E+000  +1.0738170255E-001 -7.3694497173E-001  +1.0777875011E-001 +1.1870534240E+001  +5.1153800954E-001 +2.8095135531E+000 
11272066.333 +4.7959805984E-001 +7.7864202326E+000  +1.0770855918E-001 -1.2272404396E+000  +1.1016495158E-001 +1.1672607257E+001  +4.9073845337E-001 +5.7090614256E+000 
11397211.514 +5.1334826297E-001 +8.4430653858E+000  +1.1093107312E-001 -8.6954374523E-001  +1.0766065851E-001 +1.1280382802E+001  +4.8892802585E-001 +2.8013609648E+000 
11522356.696 +5.2841848290E-001 +8.6381200185E+000  +1.1249251830E-001 +6.8980539650E-001  +1.0978871173E-001 +1.1702746844E+001  +5.2494966200E-001 +4.2450562404E+000 
11647501.877 +5.4804925217E-001 +7.7991493692E+000  +1.1379383341E-001 +3.6137154527E-001  +1.1143097551E-001 +1.1525125926E+001  +5.2354937648E-001 +1.3043437598E+000 
11772647.059 +5.2230805954E-001 +8.4478426521E+000  +1.1398633860E-001 -4.2068937152E-001  +1.1372869467E-001 +1.0722612085E+001  +5.1806684226E-001 +3.0241637686E+000 
11897792.240 +5.3187691463E-001 +6.7458937189E+000  +1.1463607546E-001 +6.4024259339E-001  +1.1263763216E-001 +1.1192421755E+001  +5.5319217432E-001 +4.3904234679E+000 
12022937.422 +5.8768754864E-001 +3.9770304082E+000  +1.1580626017E-001 +1.3312176886E+000  +1.1592206925E-001 +1.1669792894E+001  +5.5718003442E-001 +2.5910327330E+000 
12148082.603 +5.5983750229E-001 +7.3963981668E+000  +1.1800991683E-001 +9.4907414090E-001  +1.1490436736E-001 +1.0511795351E+001  +5.7365869907E-001 +2.0591666632E+000 
12273227.785 +5.7710703328E-001 +3.5140277359E+000  +1.1976200743E-001 +1.5816980956E+000  +1.1898168892E-001 +1.0041652537E+001  +5.8918016472E-001 +4.1366048932E+000 
12398372.966 +5.9985192014E-001 +4.4041230993E+000  +1.2011477679E-001 +1.5282444670E+000  +1.1589722730E-001 +9.9217685084E+000  +6.0630684236E-001 +2.1963490602E+000 
12523518.148 +6.0608011189E-001 +2.6673658416E+000  +1.2197452111E-001 +1.7643178841E+000  +1.1989904836E-001 +9.2880833489E+000  +5.9997280005E-001 +5.4553172279E-001 
12648663.329 +6.2377218770E-001 +3.2321142499E+000  +1.2249197263E-001 +2.3932553547E+000  +1.2001051104E-001 +9.4451863958E+000  +6.2844879895E-001 +9.5293430787E-001 
12773808.511 +6.3826274699E-001 +3.2087345755E+000  +1.2380768382E-001 +2.5992243963E+000  +1.2354048441E-001 +7.8117563250E+000  +6.5280869411E-001 -1.5030712647E+000 
12898953.692 +6.4314367411E-001 +1.6131476437E+000  +1.2466585520E-001 +1.7095835467E+000  +1.2455059096E-001 +7.2792972377E+000  +6.5085191948E-001 -4.7940690416E-001 
13024098.874 +6.7290225382E-001 +3.0357155650E-001  +1.2544355992E-001 +2.5092473399E+000  +1.2561081400E-001 +7.6428471061E+000  +6.8224810141E-001 -5.0452589141E-001 
13149244.055 +6.7389276746E-001 +6.0125834443E-001  +1.2717097339E-001 +2.2286813115E+000  +1.2647617962E-001 +6.6158937954E+000  +6.7106558466E-001 -1.0311594876E+000 
13274389.237 +7.0452537601E-001 +7.8218124194E-001  +1.2772120555E-001 +3.1855316115E+000  +1.2749695505E-001 +6.5510563569E+000  +7.0106826094E-001 -4.7643786810E-001 
13399534.418 +7.0752370002E-001 -1.7954879994E+000  +1.3005759563E-001 +1.8496302328E+000  +1.2884278733E-001 +6.2049337445E+000  +7.1559338622E-001 -1.8233586169E+000 
13524679.599 +7.1131236555E-001 -7.0414308573E-001  +1.3040805823E-001 +3.2778606331E+000  +1.2776743909E-001 +6.1569821292E+000  +7.4830391476E-001 -1.8654347020E+000 
13649824.781 +7.4364616581E-001 -1.5585124935E+000  +1.3175890027E-001 +3.0735359626E+000  +1.2972817586E-001 +4.5585957634E+000  +7.4574803388E-001 -2.5094935174E+000 
13774969.962 +7.6159274808E-001 -3.9919513922E+000  +1.3376730049E-001 +1.6832335770E+000  +1.3282865092E-001 +5.1329384532E+000  +7.8480714818E-001 -2.9797517173E+000 
13900115.144 +7.7996016711E-001 -3.5685409850E+000  +1.3443263026E-001 +3.0443632135E+000  +1.3341370484E-001 +3.8167826149E+000  +7.9298137030E-001 -4.6600143899E+000 
14025260.325 +8.0705004527E-001 -2.8613487574E+000  +1.3439570309E-001 +2.2750271530E+000  +1.3330073066E-001 +2.9486369246E+000  +7.9465098032E-001 -5.4368243289E+000 
14150405.507 +8.1193199252E-001 -4.0589597098E+000  +1.3539970252E-001 +1.5651875811E+000  +1.3351582553E-001 +2.8104858218E+000  +7.9723126102E-001 -4.8791045787E+000 
14275550.688 +8.3623523937E-001 -6.1784473014E+000  +1.3532067016E-001 +2.2800381472E+000  +1.3536364899E-001 +2.5081794469E+000  +8.4332112256E-001 -4.2406813633E+000 
14400695.870 +8.3625463423E-001 -5.6475463333E+000  +1.3571097508E-001 +1.0403751793E+000  +1.3582734708E-001 +1.7786923294E+000  +8.4531580122E-001 -4.3643515899E+000 
