!  2-Port S-parameters saved by WinCal
! VAR MeasName=S-Parameters (CALIBRATED_DATA) read from VNA (P5004A)
! VAR MeasDate=29/08/2024 12:01:17
! VAR NAME=S2_r9c4_SET3_9k-100M_1
! VAR FILENAME=S2_r9c4_SET3_9k-100M_1.S2P
! VAR DATE=29/08/2024 12:01:17
! VAR PHYS_PORTS=1,2
! VAR ObjTypeName=DATASET
! VAR IndexType=Frequency
!
# Hz S MA R 50
9000.000 +1.1090068575E-001 -1.6624375952E+002  +5.1659760725E-004 -9.4716976258E+001  +1.0363530711E-002 +1.0973198780E+002  +2.7391656390E-001 -1.4530793768E+002 
134145.181 +1.1055563213E-001 +1.6959639410E+002  +2.3502954727E-004 -1.1714875759E+001  +2.3760237877E-004 +5.5383488473E+001  +2.4024427393E-001 -1.7078557487E+002 
259290.363 +1.1225444991E-001 +1.6996120966E+002  +6.7008320811E-004 -4.0851099103E+001  +3.8048246335E-004 -9.0204887491E+000  +2.3737698610E-001 -1.6758525336E+002 
384435.544 +1.1423933452E-001 +1.7067682775E+002  +9.1122077705E-004 -9.4550225224E+001  +1.3877978241E-004 -1.2032086218E-001  +2.4421962726E-001 -1.6982376063E+002 
509580.726 +1.1608911330E-001 +1.7145531549E+002  +1.3324796107E-003 -9.0909083715E+001  +1.1052841301E-003 +1.0074060922E+002  +2.4115436133E-001 -1.6487876909E+002 
634725.907 +1.1439171995E-001 +1.7342618224E+002  +7.5994986667E-004 -7.4099183354E+001  +4.8715434132E-004 +1.3440202769E+001  +2.5517981592E-001 -1.6794044338E+002 
759871.089 +1.2012270144E-001 +1.7041019492E+002  +1.2231321399E-003 -8.2382082508E+001  +6.7970195873E-004 +7.5233938207E+001  +2.5032949367E-001 -1.6662265338E+002 
885016.270 +1.2113671922E-001 +1.6895752513E+002  +9.7803410500E-005 +1.7213787521E+002  +2.0951370418E-004 +1.4570691142E+002  +2.4783395757E-001 -1.6738405324E+002 
1010161.452 +1.1893305527E-001 +1.6908537964E+002  +9.4075174127E-004 +1.0654729425E+001  +1.9437187388E-003 +1.5148725998E+002  +2.0880593867E-001 -1.6785866105E+002 
1135306.633 +1.1934672018E-001 +1.6868492111E+002  +3.3325219709E-003 +8.7600699992E-001  +2.2531113900E-003 +1.4447873972E+002  +1.9606865578E-001 -1.6765739902E+002 
1260451.815 +1.2028388419E-001 +1.7161761399E+002  +1.9110112983E-003 -1.1064144451E+002  +6.1143144841E-004 +1.7594221559E+002  +2.4797431602E-001 -1.6083514959E+002 
1385596.996 +1.2402908641E-001 +1.7200416381E+002  +2.6421875384E-003 -7.8054428985E+001  +1.9619377131E-003 +1.1316891409E+002  +2.6395328035E-001 -1.5855175843E+002 
1510742.178 +1.2829731558E-001 +1.7181075655E+002  +1.1039435264E-003 -3.2513821217E-001  +1.1781906812E-003 +1.7191695281E+002  +2.4889590107E-001 -1.5880055562E+002 
1635887.359 +1.2986290785E-001 +1.7054072086E+002  +9.9499765149E-004 +2.4926030725E+001  +2.1728769982E-003 -1.5353606783E+002  +2.4862214699E-001 -1.5798187771E+002 
1761032.541 +1.2977554021E-001 +1.6912452370E+002  +1.9575574560E-003 +3.4120537498E+001  +1.0073550825E-003 -1.2556165312E+002  +2.3359906341E-001 -1.6141652235E+002 
1886177.722 +1.2659547616E-001 +1.6906609484E+002  +4.6296081672E-003 +6.1711857410E+001  +4.5392999070E-003 -6.7940637365E+001  +1.9837737852E-001 -1.6185709995E+002 
2011322.904 +1.2680610449E-001 +1.6492824551E+002  +3.5536321937E-003 +8.7862480888E+001  +3.1117501475E-003 -4.9013196674E+001  +2.2948503044E-001 -1.6092025377E+002 
2136468.085 +1.2824187699E-001 +1.6450294491E+002  +6.2863025965E-003 +6.1198675378E+001  +8.3985258520E-003 -4.7887082635E+001  +2.0882442012E-001 -1.7143968435E+002 
2261613.267 +1.3500255740E-001 +1.6478352688E+002  +8.2277094332E-003 +8.2556812270E+001  +6.9167845253E-003 -4.2684602992E+001  +1.9656083031E-001 -1.6830911391E+002 
2386758.448 +1.3617341195E-001 +1.6105187976E+002  +1.0629534673E-002 +9.4514967625E+001  +1.1384197499E-002 -2.0561593251E+001  +1.8731018984E-001 -1.7868867586E+002 
2511903.630 +1.3417317566E-001 +1.6346647862E+002  +1.0082253819E-002 +7.8159603262E+001  +1.1622565827E-002 -4.2099504862E+001  +2.1791675678E-001 -1.6998497669E+002 
2637048.811 +1.1786040938E-001 +1.5874240816E+002  +2.5752734728E-002 +1.1471421675E+002  +2.3572050656E-002 +8.2377835400E+000  +2.7709235595E-001 +1.7035508603E+002 
2762193.992 +1.2722636084E-001 +1.6999822670E+002  +6.0242454503E-002 -2.0196515661E+001  +6.3006313226E-002 -1.2096756193E+002  +2.6671931063E-001 -8.4633829811E+001 
2887339.174 +1.2674747135E-001 +1.7159743749E+002  +3.9069900906E-002 +3.0979442392E+001  +3.9988471645E-002 -6.4222304058E+001  +7.5156421468E-002 +1.1094441453E+002 
3012484.355 +1.6233870766E-001 +1.6591648223E+002  +2.9431327116E-001 -1.0722506560E+002  +3.0466091481E-001 +1.6356252449E+002  +2.9380595617E+000 -1.0139664489E+002 
3137629.537 +1.2677071495E-001 +1.6748572868E+002  +4.8115887019E-002 +4.3624213629E+001  +5.1327118026E-002 -5.7205811106E+001  +1.6492745793E-001 +6.0963573193E+001 
3262774.718 +1.3755108106E-001 +1.6709938889E+002  +2.5860836143E-002 -1.8512710028E+000  +3.2880764761E-002 -9.6872103155E+001  +1.8401957463E-001 -1.1479273088E+002 
3387919.900 +1.2814573696E-001 +1.4867949628E+002  +1.0921227865E-001 +1.2698869808E+002  +1.2396953368E-001 +3.8738495392E+001  +9.1011941950E-001 +1.3646213178E+002 
3513065.081 +1.5715945347E-001 +1.4697926506E+002  +7.8767067410E-002 +1.0017219784E+002  +9.3195716929E-002 +1.9858663958E+001  +4.9174201584E-001 +1.0637132650E+002 
3638210.263 +1.8249238147E-001 +1.4482771611E+002  +4.4167581543E-002 +1.3539843103E+002  +3.8842527799E-002 +5.0228477011E+001  +4.3087675774E-001 +1.5541827101E+002 
3763355.444 +1.8100920168E-001 +1.5115217582E+002  +3.0735705325E-002 +1.0097515737E+002  +3.2193966058E-002 +2.9166392458E+001  +2.9334327780E-001 +1.5505344416E+002 
3888500.626 +1.8639707690E-001 +1.5084932384E+002  +5.3610918926E-002 +8.9767516259E+001  +6.0221710892E-002 +2.0295056422E+001  +3.6133489805E-001 +1.1730414643E+002 
4013645.807 +1.6280927039E-001 +1.5599033740E+002  +3.7485047602E-002 +6.5233841125E+001  +4.1750611121E-002 -1.8010066428E+000  +2.3453608851E-001 +1.5326868989E+002 
4138790.989 +1.9149938893E-001 +1.5086309010E+002  +3.7113126395E-002 +9.2967380924E+001  +3.7120549469E-002 +3.6503517366E+001  +3.5148817724E-001 +1.5412520267E+002 
4263936.170 +2.1220878737E-001 +1.5151076777E+002  +8.4754567121E-002 +1.1627293231E+002  +7.1909035977E-002 +5.7569595298E+001  +8.4908019301E-001 +1.2144207371E+002 
4389081.352 +2.1640341746E-001 +1.4340774909E+002  +1.4112702759E-001 +1.3976156064E+002  +1.3096973125E-001 +7.3439991967E+001  +1.2683691368E+000 +1.3608034508E+002 
4514226.533 +2.3539214829E-001 +1.4510944106E+002  +1.1936488453E-001 +1.3144904295E+002  +1.0987982691E-001 +7.4800277791E+001  +1.1960091120E+000 +1.3089167121E+002 
4639371.715 +2.3702321669E-001 +1.3021129776E+002  +2.8261577616E-001 +9.7515091923E+001  +3.3205613180E-001 +4.3947946462E+001  +2.2444596565E+000 +8.6284108497E+001 
4764516.896 +2.6178192722E-001 +1.2746805509E+002  +2.3777041209E-001 +1.0118535171E+002  +2.1701505645E-001 +5.3233050926E+001  +1.3488261659E+000 +9.7448674013E+001 
4889662.078 +4.2124301653E-001 +1.1300097961E+002  +1.0605185904E+000 +4.7735645146E+001  +9.3130239410E-001 +2.4488289172E-002  +6.1870473609E+000 -7.1812527327E+000 
5014807.259 +3.2839933735E-001 +1.2889931549E+002  +4.0405695390E-001 +3.2099273439E+001  +3.9903126190E-001 -1.9153436585E+001  +2.8968927391E+000 -2.3041180118E+001 
5139952.441 +3.6262131462E-001 +1.3018719540E+002  +2.4650616331E-001 +1.2098072253E+002  +2.1882077284E-001 +7.7657762694E+001  +1.5653262351E+000 +1.0920606794E+002 
5265097.622 +3.3836179662E-001 +1.3332243166E+002  +2.7569020275E-001 +8.5955312656E+001  +2.7910286059E-001 +4.8677570102E+001  +2.1653554842E+000 +7.1313729189E+001 
5390242.804 +3.6470139658E-001 +1.2939050421E+002  +2.1343047901E-001 +8.3659436961E+001  +2.0047322750E-001 +4.8517602800E+001  +1.3071967826E+000 +7.2334370410E+001 
5515387.985 +4.0563928509E-001 +1.2157618607E+002  +2.3429003215E-001 +1.0006201373E+002  +2.4358740907E-001 +6.4057568556E+001  +1.4458738817E+000 +9.8137278685E+001 
5640533.166 +3.6152283747E-001 +1.2111518977E+002  +3.5545609207E-001 +8.4389137852E+001  +3.1411065073E-001 +5.0674906521E+001  +2.5230744329E+000 +8.5188837183E+001 
5765678.348 +4.5746671641E-001 +1.2010417737E+002  +3.9729800351E-001 +9.5254219827E+001  +3.8777689761E-001 +6.8589405567E+001  +3.0246105366E+000 +8.7828499945E+001 
5890823.529 +5.8658064567E-001 +1.1792327839E+002  +2.9703675613E-001 +9.3012096057E+001  +3.0965556927E-001 +7.0249528249E+001  +1.7510862884E+000 +8.9627493471E+001 
6015968.711 +5.8707619286E-001 +1.2778269002E+002  +2.1182896731E-001 +7.9714854636E+001  +1.9656256959E-001 +5.6272631487E+001  +1.3072630503E+000 +6.1506586716E+001 
6141113.892 +4.5870633113E-001 +1.0222799745E+002  +2.9059497830E-001 +3.8195668460E+001  +2.7686755348E-001 +1.5908218301E+001  +1.4482451451E+000 +3.3677609812E+001 
6266259.074 +6.2091077609E-001 +9.7182637700E+001  +2.5688076562E-001 +4.4381777874E+001  +2.6679317045E-001 +2.4630140144E+001  +1.0054982487E+000 +3.8600148996E+001 
6391404.255 +7.8159912281E-001 +9.2801888378E+001  +3.2123908907E-001 +4.2452714827E+001  +2.8606130216E-001 +2.8834857206E+001  +1.2566039710E+000 +3.1626102817E+001 
6516549.437 +1.0502748892E+000 +7.1676892211E+001  +3.7180755318E-001 +2.7668981698E+001  +3.6909867698E-001 +1.2516831019E+001  +1.2893753573E+000 +1.2556838169E+001 
6641694.618 +1.1398673806E+000 +6.6698969435E+001  +4.0129505105E-001 +2.8700431042E+001  +3.8378767399E-001 +1.5783195536E+001  +1.4940783106E+000 +1.4965227589E+001 
6766839.800 +8.5364286567E-001 +6.1598766903E+001  +2.4785334345E-001 +1.4772324545E+001  +2.7780052690E-001 +7.5194090831E+000  +9.4106307552E-001 +1.5352518668E+001 
6891984.981 +1.2317297010E+000 +4.3174040500E+001  +3.3300884785E-001 +9.0344242053E+000  +3.4205373905E-001 +2.8869910312E+000  +1.3287921523E+000 -1.8067371843E+000 
7017130.163 +1.1899080472E+000 +3.0519037948E+001  +2.8249515282E-001 +7.3377265691E+000  +2.7908196018E-001 -3.7931292532E+000  +1.0697938310E+000 -6.4953962242E+000 
7142275.344 +1.2899433805E+000 +1.3175286402E+001  +2.5963288508E-001 +1.2442001665E+000  +2.5403947702E-001 -2.9530515383E+000  +1.0094025452E+000 -1.2460676674E+001 
7267420.526 +1.2199068717E+000 -8.9251322473E-001  +2.4503840045E-001 -1.4665722899E+000  +2.3511417389E-001 -3.2244389696E+000  +1.1577788415E+000 -1.9227331418E+001 
7392565.707 +1.1884290562E+000 +1.1552751428E+000  +1.9345080830E-001 +5.3551325568E+000  +1.8961634104E-001 +5.8468879976E+000  +1.0364662695E+000 -7.2833018652E+000 
7517710.889 +9.4191300789E-001 +3.1851491296E+000  +1.6874178850E-001 +3.4221457236E+000  +1.7335044295E-001 +5.6976196671E+000  +1.0507184704E+000 -6.5649830192E+000 
7642856.070 +8.4066331081E-001 +9.2800694478E-001  +1.6946871097E-001 -6.2085413225E-002  +1.6999794726E-001 +3.7249545176E+000  +8.8997644255E-001 -3.7927564640E+000 
7768001.252 +7.6985935306E-001 +1.3640580522E+001  +1.5641592040E-001 -1.7519439341E+000  +1.5184698991E-001 +7.2552643584E+000  +6.4440135221E-001 -2.4102752026E+000 
7893146.433 +6.2881096604E-001 +7.0743662478E+000  +1.5500931467E-001 -2.6646852188E+000  +1.5511435947E-001 +5.7826508451E+000  +7.7109098910E-001 -5.5094227530E-001 
8018291.615 +6.5177210868E-001 +8.7862115461E+000  +1.5372849249E-001 -1.8103162484E-001  +1.4698841293E-001 +6.3922187942E+000  +7.4419581541E-001 -1.8383198651E+000 
8143436.796 +6.2468816211E-001 +1.9535471151E+001  +1.4033944338E-001 -2.2162240385E+000  +1.4751551213E-001 +6.9272157567E+000  +6.4251499180E-001 +9.2435490674E-001 
8268581.977 +6.1607730799E-001 +6.5747553775E+000  +1.4554198447E-001 -3.9606978761E+000  +1.4322076513E-001 +8.5370685582E+000  +6.2456630163E-001 +3.2076627514E+000 
8393727.159 +5.6136074918E-001 +2.8193943250E+001  +1.3658344208E-001 -1.8839711297E+000  +1.3325160532E-001 +9.2337882415E+000  +5.3776254974E-001 -2.1945951345E+000 
8518872.340 +5.4192626651E-001 +1.1122258081E+001  +1.3671548002E-001 -3.7327313523E+000  +1.3366802756E-001 +8.5037318136E+000  +5.7439705918E-001 +4.9301818493E+000 
8644017.522 +4.9210894087E-001 +1.3364490203E+001  +1.3818325837E-001 -2.8148123709E+000  +1.4026938525E-001 +8.3179009758E+000  +5.2042664615E-001 +1.2032336769E+000 
8769162.703 +4.5692537147E-001 +1.6131360064E+001  +1.3627851862E-001 -1.9842092710E+000  +1.3561857110E-001 +8.3290057980E+000  +5.4400091400E-001 +5.6186488404E-001 
8894307.885 +4.7413575703E-001 +9.3202117322E+000  +1.3432613251E-001 -5.7082315945E+000  +1.3617839640E-001 +8.3776844166E+000  +5.0348124364E-001 -6.7637885310E-001 
9019453.066 +4.8030619040E-001 +7.6063552891E+000  +1.3360532610E-001 -5.2085074286E+000  +1.3224156604E-001 +8.9881247568E+000  +4.5834508613E-001 +3.0785517358E+000 
9144598.248 +4.2818930458E-001 +1.0042054027E+001  +1.3581534572E-001 -5.5729503291E+000  +1.3514927238E-001 +9.5579448342E+000  +5.0006088686E-001 -3.9523112528E+000 
9269743.429 +4.4050164911E-001 +9.5846025495E+000  +1.3475222531E-001 -2.9772206755E+000  +1.3487378366E-001 +1.2734162287E+001  +4.8122009013E-001 +3.0367187767E-001 
9394888.611 +4.2348524824E-001 +1.1297345264E+001  +1.3316603230E-001 -4.5668006789E+000  +1.3291965171E-001 +1.2521946461E+001  +4.4848763444E-001 -1.0004003518E+000 
9520033.792 +4.1575310356E-001 +2.6367992649E+000  +1.3620367383E-001 -3.5245564927E+000  +1.3189241468E-001 +1.0399130080E+001  +4.3514052385E-001 +5.6575149530E-002 
9645178.974 +4.4797432790E-001 +5.6104848298E+000  +1.3304028807E-001 -3.6850389625E+000  +1.3093059373E-001 +1.2339911819E+001  +4.4366144261E-001 -1.8036680276E+000 
9770324.155 +3.9844278002E-001 -3.9216536357E-001  +1.3809530680E-001 -4.4196821806E+000  +1.3250015030E-001 +1.0451174413E+001  +4.3652725062E-001 -3.5913054113E+000 
9895469.337 +4.1756642003E-001 -6.1404686351E-002  +1.3886063662E-001 -3.2831163808E+000  +1.3472932373E-001 +1.0590842230E+001  +4.6505386111E-001 -6.7534377812E+000 
10020614.518 +4.0962072154E-001 +5.7701856603E+000  +1.3680647771E-001 -3.4961159931E+000  +1.3637747106E-001 +1.2723953239E+001  +4.4447297741E-001 -3.0879097720E+000 
10145759.700 +4.2179406336E-001 +3.0921015944E+000  +1.3640647091E-001 -3.2081670016E+000  +1.3501706347E-001 +1.1949487445E+001  +4.4238469043E-001 -2.7151452796E+000 
10270904.881 +4.4353773884E-001 +8.9780384928E+000  +1.3192278728E-001 -3.3343568005E+000  +1.3263152083E-001 +1.2752824138E+001  +4.4602288749E-001 +7.5712343436E-001 
10396050.063 +4.2530938026E-001 +1.1072543829E+001  +1.3404526252E-001 -2.0572892011E+000  +1.3152653709E-001 +1.1801474607E+001  +4.0295885046E-001 +5.5902973551E+000 
10521195.244 +4.2097109730E-001 +8.2533146063E+000  +1.3681845881E-001 -2.3243607226E+000  +1.3275048422E-001 +1.1872254713E+001  +4.4579206011E-001 +2.8275602363E+000 
10646340.426 +4.3239128282E-001 +1.3933852541E+001  +1.3531937939E-001 -1.4715179261E+000  +1.3528921670E-001 +1.3547744807E+001  +4.7044528731E-001 +1.7894768511E+000 
10771485.607 +4.1303467998E-001 +8.4219267247E+000  +1.3997064235E-001 -1.1181939731E+000  +1.3762424316E-001 +1.2751941033E+001  +4.4795475632E-001 +4.9518521489E+000 
10896630.788 +4.2349812770E-001 +9.7226359866E+000  +1.4046639434E-001 -7.2235376452E-001  +1.3935730912E-001 +1.2838180418E+001  +4.8823434781E-001 +4.7802631437E+000 
11021775.970 +4.7033568719E-001 +8.3062960795E+000  +1.4322215329E-001 -7.6513478014E-001  +1.4129868822E-001 +1.2162803815E+001  +4.9047010687E-001 +1.8400207776E+000 
11146921.151 +4.6299141663E-001 +1.1099421378E+001  +1.3924074689E-001 -8.5333767531E-001  +1.4062289482E-001 +1.1952650832E+001  +4.6417699492E-001 +5.5919357249E+000 
11272066.333 +4.5348242307E-001 +1.0934885235E+001  +1.4351095418E-001 -1.1270184343E+000  +1.4148781547E-001 +1.1734092363E+001  +4.5526389313E-001 +4.8620752214E+000 
11397211.514 +4.7611420107E-001 +9.6024919588E+000  +1.4425586528E-001 -3.1493507696E-001  +1.4448285091E-001 +1.2366756217E+001  +4.8295982635E-001 +3.9303110092E+000 
11522356.696 +4.9287023102E-001 +1.0449187948E+001  +1.4757057527E-001 +1.6620397918E-001  +1.4223768969E-001 +1.2362266279E+001  +5.1700483352E-001 +2.3953072366E+000 
11647501.877 +4.8235425712E-001 +1.1338308474E+001  +1.4600994403E-001 -8.7692988698E-002  +1.4447560690E-001 +1.1808078206E+001  +5.3451641099E-001 +3.4776072666E+000 
11772647.059 +4.9948843557E-001 +9.2981146808E+000  +1.4820295726E-001 +6.2414471921E-001  +1.4621066077E-001 +1.0854501902E+001  +5.0270309805E-001 +4.5911526482E+000 
11897792.240 +4.7882173364E-001 +7.9516394729E+000  +1.4925165542E-001 +6.7498984451E-001  +1.4856457100E-001 +1.0497572333E+001  +5.2535105369E-001 +2.3911026522E+000 
12022937.422 +5.0595507561E-001 +5.6592627997E+000  +1.4991821483E-001 +1.0922596454E+000  +1.5167230839E-001 +1.0586827619E+001  +5.3166407594E-001 +5.5417188018E+000 
12148082.603 +5.2105632526E-001 +8.4004306099E+000  +1.5471714694E-001 +1.2730908288E+000  +1.5178366738E-001 +1.0259086246E+001  +5.5947742005E-001 +1.3383220704E+000 
12273227.785 +5.3227261671E-001 +8.8501216934E+000  +1.5283953743E-001 +1.2639723197E+000  +1.5134294414E-001 +9.6247793382E+000  +5.4552465908E-001 +4.7706086225E+000 
12398372.966 +5.6602216129E-001 +5.4665406167E+000  +1.5601816579E-001 +1.8563411457E+000  +1.5731767908E-001 +9.7099279852E+000  +5.7032874460E-001 +2.5958263282E+000 
12523518.148 +5.5862273346E-001 +6.2249873221E+000  +1.5768960042E-001 +2.5019699950E+000  +1.5611522958E-001 +9.3669625218E+000  +5.8464793099E-001 +2.7572608070E+000 
12648663.329 +5.8499340075E-001 +4.3251504800E+000  +1.6168006862E-001 +2.1783317765E+000  +1.5536321028E-001 +8.0405686162E+000  +5.8497455509E-001 +1.7784464972E+000 
12773808.511 +6.0277519624E-001 +3.1714835270E+000  +1.6400084839E-001 +2.0579521266E+000  +1.6229454335E-001 +8.5861864428E+000  +6.0165037162E-001 -2.1177444220E+000 
12898953.692 +5.9136198309E-001 +5.1825223862E+000  +1.6371831434E-001 +1.7949615378E+000  +1.6015721685E-001 +7.1108082637E+000  +6.0578639413E-001 +1.7024425035E+000 
13024098.874 +6.2344067874E-001 +7.8028588744E-001  +1.6679993204E-001 +2.4242180453E+000  +1.6299349869E-001 +6.8508666985E+000  +6.2185170040E-001 +8.6185481400E-001 
13149244.055 +6.2192116673E-001 -1.4134367582E-001  +1.6707156508E-001 +1.8666886482E+000  +1.6703932786E-001 +6.6301899368E+000  +6.5100353548E-001 -1.9452161899E+000 
13274389.237 +6.4864548342E-001 -9.7678222279E-001  +1.7010863792E-001 +1.8325325611E+000  +1.6688204185E-001 +5.6731654711E+000  +6.3106782408E-001 -2.1960884340E+000 
13399534.418 +6.7136564462E-001 -9.2927479299E-001  +1.7144107307E-001 +1.8011930105E+000  +1.6746079415E-001 +5.7442644763E+000  +6.5797593108E-001 -1.1630698171E+000 
13524679.599 +6.9273820705E-001 -2.0293904422E+000  +1.7242463772E-001 +2.8963726930E+000  +1.7049180397E-001 +5.5029688048E+000  +6.9265109032E-001 -4.0399739981E+000 
13649824.781 +7.0770286745E-001 -1.9706070580E+000  +1.7330403386E-001 +2.2070959535E+000  +1.7062734645E-001 +4.5399367764E+000  +6.9683960772E-001 -4.2681769473E+000 
13774969.962 +6.8381878719E-001 -3.2968633698E+000  +1.7292783596E-001 +2.1971400051E+000  +1.7109494489E-001 +3.7372039245E+000  +7.2302039679E-001 -2.9133968196E+000 
13900115.144 +7.4880946482E-001 -1.3945702752E+000  +1.7491331055E-001 +2.2239662998E+000  +1.7179650724E-001 +3.6441670658E+000  +7.2372759125E-001 -3.6362951279E+000 
14025260.325 +7.3639260551E-001 -3.5399543991E+000  +1.7727022511E-001 +2.3672582820E+000  +1.7413515315E-001 +3.1956987242E+000  +7.5593070243E-001 -4.8473143626E+000 
14150405.507 +7.7026992763E-001 -4.8578413924E+000  +1.7897869383E-001 +1.8213011410E+000  +1.7527840817E-001 +2.8112217558E+000  +7.7241726587E-001 -3.7645784705E+000 
14275550.688 +7.8815457852E-001 -6.4405537345E+000  +1.7963910301E-001 +1.6712533239E+000  +1.7733885360E-001 +2.6565625885E+000  +7.8733334890E-001 -4.8179494802E+000 
14400695.870 +7.9336022355E-001 -6.3771172343E+000  +1.7967678185E-001 +9.8635895312E-001  +1.7737855727E-001 +2.5411322858E+000  +8.1461883732E-001 -4.4795574273E+000 
