!  2-Port S-parameters saved by WinCal
! VAR MeasName=S-Parameters (CALIBRATED_DATA) read from VNA (P5004A)
! VAR MeasDate=29/08/2024 10:38:16
! VAR NAME=S2_r9c2_RESET2_9k-100M_2
! VAR FILENAME=S2_r9c2_RESET2_9k-100M_2.S2P
! VAR DATE=29/08/2024 10:38:16
! VAR PHYS_PORTS=1,2
! VAR ObjTypeName=DATASET
! VAR IndexType=Frequency
!
# Hz S MA R 50
9000.000 +9.7155426781E-002 -1.6405651280E+002  +4.9957475864E-003 +6.9009807314E+001  +1.0744960806E-002 +3.9011124053E+001  +2.5604509156E-001 -1.4412335214E+002 
134145.181 +1.1106690188E-001 +1.6963406350E+002  +4.5593071559E-004 +2.2546200141E+001  +5.8751669410E-005 -4.9891779263E+001  +2.4103087210E-001 -1.7077181414E+002 
259290.363 +1.1212767214E-001 +1.6972844448E+002  +3.7951512857E-004 -1.0774142004E+002  +1.6574786197E-003 +1.0002828675E+002  +2.4392194517E-001 -1.6840150973E+002 
384435.544 +1.1313455421E-001 +1.7016104521E+002  +6.3372082131E-004 -4.6782520890E+001  +1.2127161030E-003 +8.9054619412E+001  +2.4457185716E-001 -1.6973011789E+002 
509580.726 +1.1398404896E-001 +1.7039232425E+002  +1.6728703114E-003 -6.2616935764E+001  +1.3119499360E-003 +7.5630327507E+001  +2.4650190982E-001 -1.6496524065E+002 
634725.907 +1.1692457666E-001 +1.7213421520E+002  +1.8044280953E-003 -8.9257264928E+001  +2.0514743348E-003 +9.7765485978E+001  +2.5124878438E-001 -1.6785011960E+002 
759871.089 +1.1962253860E-001 +1.7069227962E+002  +9.5505259733E-004 -9.4815110126E+001  +1.6217957908E-003 +1.1374865034E+002  +2.5152183090E-001 -1.6728220242E+002 
885016.270 +1.2146526075E-001 +1.6898617357E+002  +4.7979902572E-004 -4.1257628718E+001  +6.6554221583E-004 +1.2870698211E+002  +2.4771400090E-001 -1.6750492728E+002 
1010161.452 +1.1482786876E-001 +1.6869745754E+002  +1.9088426266E-003 -1.9932668052E+001  +3.0503736567E-003 +1.7935230416E+002  +2.1242390728E-001 -1.6810083116E+002 
1135306.633 +1.1948304381E-001 +1.6800064664E+002  +1.4297334638E-003 +2.2065020546E+000  +1.7248746375E-003 -1.5128305370E+002  +2.0068428295E-001 -1.7415394955E+002 
1260451.815 +1.1829676146E-001 +1.7094710033E+002  +1.2856284946E-003 -4.4784446274E+001  +2.7248504020E-003 +1.6575226179E+002  +2.1804063150E-001 -1.6360057579E+002 
1385596.996 +1.2464655912E-001 +1.7139753328E+002  +1.5143259290E-003 -4.9963360229E+001  +2.6166078959E-003 +1.5237981108E+002  +2.4930435430E-001 -1.6157678019E+002 
1510742.178 +1.2795414370E-001 +1.7195889601E+002  +1.4485159731E-003 -6.4445733489E+001  +1.3512856992E-003 +1.3708433731E+002  +2.5130931365E-001 -1.5977762574E+002 
1635887.359 +1.2976867726E-001 +1.7095248010E+002  +1.6182305957E-003 -5.1794063779E+000  +1.2396477173E-003 -1.4043242777E+002  +2.3785586031E-001 -1.5784729743E+002 
1761032.541 +1.3061534928E-001 +1.6981395705E+002  +2.6630797919E-003 +1.6302747446E+001  +2.2252404729E-003 -1.1025209473E+002  +2.3281615953E-001 -1.6193540477E+002 
1886177.722 +1.3050619143E-001 +1.6921873535E+002  +1.0474356663E-003 +6.6792309096E+001  +3.5162914579E-003 -6.4946464869E+001  +2.2490340921E-001 -1.6313410088E+002 
2011322.904 +1.2926564950E-001 +1.6905433640E+002  +6.0100899087E-003 +3.1761727385E+001  +5.9113052185E-003 -8.1905950549E+001  +2.1741659421E-001 -1.5965211726E+002 
2136468.085 +1.2762506962E-001 +1.6718374128E+002  +1.4738354227E-002 +7.4492056652E+001  +1.6839666089E-002 -5.2967535264E+001  +1.5672398199E-001 -1.7053103435E+002 
2261613.267 +1.3432056883E-001 +1.6587296620E+002  +1.8962943601E-002 +7.7219472223E+001  +1.8926982931E-002 -4.0280365489E+001  +1.3450681973E-001 -1.7947991556E+002 
2386758.448 +1.4250299269E-001 +1.6559638665E+002  +9.9400151950E-003 +5.6504982547E+001  +9.8227490838E-003 -6.2668466956E+001  +1.9663519900E-001 -1.6255516447E+002 
2511903.630 +1.3364543609E-001 +1.6199269552E+002  +3.2132984725E-002 +8.0647057916E+001  +3.4602341295E-002 -3.5181199319E+001  +1.1870019305E-001 +1.6742739604E+002 
2637048.811 +1.2921029638E-001 +1.6401311031E+002  +2.6992086209E-002 +7.1609915286E+001  +2.7997631822E-002 -3.4448394215E+001  +1.8951766974E-001 -1.7972685516E+002 
2762193.992 +1.0640680510E-001 -1.7722845654E+002  +8.2651810373E-002 +4.9984413489E+000  +8.2997437367E-002 -9.5025455622E+001  +1.0937097162E-001 -1.0752682521E+002 
2887339.174 +1.2635469434E-001 +1.7193805000E+002  +3.6149509462E-002 -3.8459542970E+000  +3.9466643530E-002 -1.0084591597E+002  +1.7752862009E-001 -1.2934683390E+002 
3012484.355 +1.3854761103E-001 +1.6918367852E+002  +4.2372508050E-002 +1.8679049226E+001  +3.4584772311E-002 -8.5124506891E+001  +1.1778751152E-001 -1.0851518450E+002 
3137629.537 +1.1897020868E-001 +1.6567838423E+002  +3.9951044077E-002 +1.8852658530E+001  +4.1361929070E-002 -8.1657210996E+001  +1.7825150798E-001 -1.3878425285E+002 
3262774.718 +1.2871991470E-001 +1.6651148946E+002  +1.0224866484E-001 +2.1278754082E+001  +1.1006260518E-001 -7.1441981927E+001  +2.9513946445E-001 -1.5085876756E+001 
3387919.900 +1.2203077629E-001 +1.6254631719E+002  +5.5006959534E-002 +3.1567913729E+001  +6.2704964351E-002 -5.9283735051E+001  +7.8365304983E-002 -1.3401167532E+002 
3513065.081 +1.5497487962E-001 +1.5429904047E+002  +6.7778948652E-002 +9.4564168667E+001  +6.4519633219E-002 +6.4902762675E-001  +3.0468703749E-001 +1.2734378243E+002 
3638210.263 +1.7099955907E-001 +1.5031550465E+002  +6.1277477047E-002 +1.1317625530E+002  +6.0768137443E-002 +3.3082578758E+001  +4.2293571001E-001 +1.4751927167E+002 
3763355.444 +1.5520697605E-001 +1.5592521481E+002  +7.8588142313E-002 +5.2989612443E+001  +7.5384722680E-002 -2.3204445669E+001  +1.3103879004E-001 +8.6180119451E+001 
3888500.626 +1.6716332858E-001 +1.5407334067E+002  +9.2643035323E-002 +1.1798756730E+002  +8.0694263060E-002 +3.9769010778E+001  +6.3388937781E-001 +1.4492466232E+002 
4013645.807 +1.9165917640E-001 +1.5153578855E+002  +6.0721199443E-002 +9.1077620379E+001  +6.3316440519E-002 +1.2471552546E+001  +2.2531621020E-001 +1.3798131556E+002 
4138790.989 +1.9148282663E-001 +1.4641631646E+002  +8.7763725813E-002 +1.0820890992E+002  +8.4362462632E-002 +4.5005529903E+001  +4.8701788940E-001 +1.3781925980E+002 
4263936.170 +1.8715883114E-001 +1.5156240048E+002  +6.9784698361E-002 +7.1044413059E+001  +6.4448719811E-002 +1.1042786642E+001  +2.2733116118E-001 +1.3569638370E+002 
4389081.352 +2.0406010619E-001 +1.4083553359E+002  +9.0533109838E-002 +8.7467125453E+001  +8.2300606002E-002 +2.5685335820E+001  +3.1502929584E-001 +1.4067490418E+002 
4514226.533 +2.3520880256E-001 +1.3694592335E+002  +1.2566400415E-001 +1.2962473828E+002  +1.3169491765E-001 +7.2794035187E+001  +7.4752548339E-001 +1.4719624675E+002 
4639371.715 +2.0490741043E-001 +1.2977742242E+002  +2.2285519166E-001 +9.5749775456E+001  +2.1764768453E-001 +4.3913771176E+001  +8.9683788866E-001 +1.1153465379E+002 
4764516.896 +3.2119410110E-001 +1.3825720080E+002  +4.7795802300E-001 -1.7949417207E+002  +4.6973897816E-001 +1.3222631606E+002  +2.6156524365E+000 +1.6967952209E+002 
4889662.078 +3.5693653984E-001 +1.5484836528E+002  +7.7363158343E-001 -1.3853562063E+002  +7.8339550860E-001 +1.7124221696E+002  +3.6402680939E+000 -1.6009065537E+002 
5014807.259 +4.3686332665E-001 +1.2213348664E+002  +4.7784621818E-001 +1.4621904853E+002  +4.8509444312E-001 +1.0083557558E+002  +1.8975993820E+000 +1.3743662774E+002 
5139952.441 +2.5922366349E-001 +1.2191861217E+002  +2.7896001509E-001 +8.2426041793E+001  +2.7593682241E-001 +4.2121410551E+001  +1.0970098160E+000 +9.8447609658E+001 
5265097.622 +3.5884599088E-001 +1.1021545175E+002  +3.6525743185E-001 +6.6855625325E+001  +3.5121564289E-001 +2.9085281984E+001  +9.1636079815E-001 +5.0788076134E+001 
5390242.804 +3.6682199500E-001 +1.2777486804E+002  +2.7814555988E-001 +9.7257747116E+001  +2.9404540235E-001 +6.2347388868E+001  +1.2921931238E+000 +9.6880584121E+001 
5515387.985 +3.4372118360E-001 +1.1620250840E+002  +2.6038228698E-001 +8.7159086928E+001  +2.5514213635E-001 +5.4070808308E+001  +8.6989294660E-001 +1.1000374098E+002 
5640533.166 +4.2045784460E-001 +1.2807341963E+002  +2.5930798389E-001 +8.8418323503E+001  +2.6930325406E-001 +5.6045343366E+001  +1.0107993202E+000 +8.4886588300E+001 
5765678.348 +4.1739743965E-001 +1.3016940454E+002  +2.5573571058E-001 +8.6887483208E+001  +2.4806599655E-001 +5.8453926956E+001  +1.3347740652E+000 +9.5105443884E+001 
5890823.529 +5.3129532069E-001 +1.2173062751E+002  +3.8675796882E-001 +9.5916259115E+001  +3.4445445861E-001 +6.9851765645E+001  +1.6691860991E+000 +9.5093979107E+001 
6015968.711 +4.9274975129E-001 +1.2146364061E+002  +3.1575199809E-001 +7.8437410732E+001  +3.1163563390E-001 +5.3410799605E+001  +1.4406183263E+000 +8.8312604724E+001 
6141113.892 +5.6108890734E-001 +1.1318433633E+002  +3.7195757355E-001 +7.6895793657E+001  +3.7248544086E-001 +5.6019375608E+001  +1.5222632371E+000 +8.2210767071E+001 
6266259.074 +6.4642813338E-001 +9.5791072208E+001  +4.2714816975E-001 +5.8045577858E+001  +4.0527523529E-001 +3.7684777883E+001  +1.1913111201E+000 +6.4009272205E+001 
6391404.255 +6.7923204120E-001 +9.8245400816E+001  +3.8390782643E-001 +4.6348719421E+001  +3.9932951965E-001 +2.8819666376E+001  +1.1677067957E+000 +3.5407410693E+001 
6516549.437 +7.4697013697E-001 +8.4097348980E+001  +4.2444179992E-001 +3.9554929381E+001  +4.4224903717E-001 +2.3197294416E+001  +1.1546579704E+000 +3.4553196118E+001 
6641694.618 +7.7467059913E-001 +7.2010266961E+001  +4.0298679660E-001 +2.5394650909E+001  +3.9732306244E-001 +1.4673811288E+001  +9.1931176744E-001 +2.1668097315E+001 
6766839.800 +6.7426958148E-001 +5.0556855684E+001  +4.2981116510E-001 +9.1004661548E+000  +4.1934401624E-001 -6.3504764298E-001  +1.1850863575E+000 +6.9721615923E+000 
6891984.981 +9.3179087718E-001 +3.5911755279E+001  +4.1954113981E-001 +9.9310745785E+000  +4.2251503187E-001 +9.8803560210E-001  +7.6331757065E-001 +4.6950821018E+000 
7017130.163 +1.1409376992E+000 +1.6360560504E+001  +4.3196806232E-001 +6.8503651685E-001  +4.2898429029E-001 -3.4923553841E+000  +8.9207535587E-001 -9.0623114315E+000 
7142275.344 +9.7757733494E-001 +3.5797199745E-001  +3.8654600627E-001 -3.2554587837E+000  +3.7853688671E-001 -5.4460177650E+000  +9.0805918569E-001 +6.3199165017E+000 
7267420.526 +8.3275219393E-001 +6.1550689383E+000  +3.2833013708E-001 -1.5869508236E-001  +3.2169799638E-001 -2.1086677730E+000  +9.5918954440E-001 -1.2576474581E+001 
7392565.707 +1.0346994778E+000 -4.2915533614E+000  +3.0150679398E-001 +3.3962498488E+000  +2.9901190350E-001 +3.0289359948E+000  +8.9294581737E-001 -4.4547311864E+000 
7517710.889 +9.3907298567E-001 +6.5079715221E-001  +2.7823375468E-001 +4.0502406844E+000  +2.7385023995E-001 +5.8773323370E+000  +7.8087595476E-001 -1.1507710989E+001 
7642856.070 +8.4108067490E-001 +3.4458620902E+000  +2.6071303685E-001 +3.2989700404E+000  +2.5817308685E-001 +7.2600741739E+000  +8.6451669789E-001 -5.9434607556E+000 
7768001.252 +7.9574862648E-001 +8.2353911373E+000  +2.5810621363E-001 +2.4938369300E+000  +2.4945877929E-001 +8.1567962743E+000  +8.3435147104E-001 -3.9874936249E+000 
7893146.433 +5.6959363238E-001 +1.2993991602E+000  +2.3898443379E-001 -1.2099336054E+000  +2.3630749751E-001 +5.7123302641E+000  +6.4690085132E-001 +2.8036815086E+000 
8018291.615 +5.8021757726E-001 +1.4834064044E+001  +2.2573529411E-001 -1.0043056963E+000  +2.2391521590E-001 +7.5577735424E+000  +5.6016852521E-001 +5.5366753736E+000 
8143436.796 +5.8908591691E-001 +1.5628670820E+001  +2.2766638937E-001 -6.2457745971E-001  +2.2599757127E-001 +7.1675051707E+000  +6.7871596034E-001 +6.1748290092E-001 
8268581.977 +5.1294004123E-001 +1.1138184572E+001  +2.2072414378E-001 -1.2472595560E+000  +2.1949537325E-001 +7.4776833093E+000  +5.5545369131E-001 +1.1257599791E+001 
8393727.159 +4.6796109945E-001 +1.4473916154E+001  +2.1822857448E-001 -3.6517804678E+000  +2.1456934302E-001 +9.0741739608E+000  +5.1144664508E-001 +1.4694519219E+000 
8518872.340 +4.3616237634E-001 +1.3546786344E+001  +2.1623744012E-001 -2.6085537318E+000  +2.1297588846E-001 +6.8176155602E+000  +4.8162728188E-001 +6.6805416204E+000 
8644017.522 +4.4732509614E-001 +1.3486277676E+001  +2.1020856288E-001 -4.0154151091E+000  +2.0982916804E-001 +8.2973663330E+000  +4.6299344159E-001 +6.7136957274E+000 
8769162.703 +3.9786159657E-001 +1.2588528306E+001  +2.0702533910E-001 -4.0826315360E+000  +2.0829765105E-001 +9.1267875051E+000  +4.3248918163E-001 +6.6546631844E+000 
8894307.885 +3.6643268154E-001 +1.6053369758E+001  +2.0505798072E-001 -5.1817990337E+000  +2.0246729339E-001 +8.9582632040E+000  +4.3893075982E-001 +6.1871021932E+000 
9019453.066 +3.6753197651E-001 +1.8884427874E+001  +2.0121095451E-001 -4.4698417902E+000  +2.0136467777E-001 +1.0788773565E+001  +4.5598849195E-001 -3.9621936230E-001 
9144598.248 +3.5927213881E-001 +1.3527806669E+001  +2.0429403716E-001 -6.4284417531E+000  +2.0466342901E-001 +9.8474000057E+000  +3.8522901676E-001 +1.0060461897E+001 
9269743.429 +3.6678653481E-001 +1.3688160384E+001  +2.0202962189E-001 -4.5018684625E+000  +2.0247983506E-001 +1.0080287456E+001  +3.8653319122E-001 +6.4324235251E+000 
9394888.611 +3.2113816477E-001 +8.7601620939E+000  +2.0277175249E-001 -4.5806200935E+000  +2.0487971141E-001 +9.0942552884E+000  +4.2148021244E-001 +5.0854309643E+000 
9520033.792 +3.3327399628E-001 +1.3727805223E+001  +2.0188066385E-001 -5.3955758311E+000  +2.0070377202E-001 +1.0514473332E+001  +3.4297983448E-001 +6.9480066420E+000 
9645178.974 +2.9711959105E-001 +7.5206711319E+000  +2.0470594327E-001 -5.8753532236E+000  +2.0463225532E-001 +1.0650043029E+001  +3.7131500793E-001 -7.1465659219E-001 
9770324.155 +2.9989433954E-001 +7.7781098932E-001  +2.0737357074E-001 -6.3180866241E+000  +2.0757452287E-001 +1.0115147726E+001  +3.4079083821E-001 -7.6415933674E-001 
9895469.337 +3.1621872102E-001 +8.2890154741E+000  +2.0789284987E-001 -5.2174780853E+000  +2.0818855680E-001 +1.1420983054E+001  +3.7060853234E-001 -1.3543075621E+000 
10020614.518 +2.9873134598E-001 +1.1438386890E+001  +2.0651141624E-001 -5.5689565488E+000  +2.0124536204E-001 +1.1620917012E+001  +3.7450057070E-001 -1.0876139800E+000 
10145759.700 +3.3047646139E-001 +1.2810895735E+001  +2.1002000493E-001 -4.4776765924E+000  +2.0696992569E-001 +1.1313687855E+001  +3.2688197167E-001 -3.8715003060E+000 
10270904.881 +3.2371824397E-001 +1.0012533266E+001  +2.0858085897E-001 -4.3969593890E+000  +2.0616959481E-001 +1.2396131605E+001  +3.5933744669E-001 -2.2372630271E-001 
10396050.063 +3.3821723521E-001 +7.6855312558E+000  +2.1007973029E-001 -4.3218675462E+000  +2.0760922472E-001 +1.1293964999E+001  +3.4341375191E-001 +4.0327130222E+000 
10521195.244 +3.7058959735E-001 +9.6672158045E+000  +2.0888300540E-001 -2.9268011898E+000  +2.0998503647E-001 +1.2299671066E+001  +3.5169737888E-001 +1.0706517087E+001 
10646340.426 +3.6935482205E-001 +1.2347171951E+001  +2.1168102113E-001 -2.8508316019E+000  +2.0766533826E-001 +1.2381673631E+001  +3.8553354224E-001 +1.1070104070E+001 
10771485.607 +3.5279853257E-001 +1.3621821222E+001  +2.1283550447E-001 -2.1883752163E+000  +2.0885773639E-001 +1.2215252120E+001  +3.8201811942E-001 +4.1313228825E+000 
10896630.788 +3.9787238621E-001 +9.8257304041E+000  +2.1647384007E-001 -2.5442491739E+000  +2.1403432105E-001 +1.1360400922E+001  +3.2731825894E-001 +3.5671879697E+000 
11021775.970 +3.2957704429E-001 +1.1929043536E+001  +2.1456022601E-001 -2.6288201041E+000  +2.0932103190E-001 +1.1194330449E+001  +3.9753505363E-001 +8.5834844069E+000 
11146921.151 +3.8921361688E-001 +1.7637067765E+001  +2.1434419297E-001 -2.0792055069E+000  +2.1358114507E-001 +1.1994720593E+001  +3.9615045667E-001 +2.4401869144E+000 
11272066.333 +4.0301444546E-001 +1.1056494497E+001  +2.2200446341E-001 -7.8725554738E-001  +2.1669554881E-001 +1.1618863335E+001  +4.1937356368E-001 +6.3639145186E+000 
11397211.514 +4.1325018447E-001 +1.3059982280E+001  +2.2123330128E-001 -7.3468172023E-001  +2.1875025787E-001 +1.1498068343E+001  +4.3030761072E-001 +4.1958764191E+000 
11522356.696 +4.1383378011E-001 +1.1846597308E+001  +2.2264871622E-001 -4.2051033148E-001  +2.2212680396E-001 +1.2038665060E+001  +4.2833057987E-001 +6.1579138689E+000 
11647501.877 +4.0071441093E-001 +1.3146113406E+001  +2.2363616590E-001 -6.2505039856E-001  +2.2252230957E-001 +1.0632056958E+001  +4.1941995949E-001 +7.9486190815E+000 
11772647.059 +3.9253769990E-001 +9.4962569892E+000  +2.2937897768E-001 -4.9592515871E-001  +2.2762399762E-001 +1.0106176435E+001  +4.3385727561E-001 +4.0861484364E+000 
11897792.240 +4.3951451463E-001 +1.0749673577E+001  +2.2807883255E-001 +2.5311336333E-001  +2.2647805656E-001 +1.0589847729E+001  +4.2599790448E-001 +9.0915360412E+000 
12022937.422 +4.5655032888E-001 +7.6870933092E+000  +2.3310393176E-001 +1.6396338669E-001  +2.3107384300E-001 +9.5716486612E+000  +4.4929221358E-001 +5.0901204325E+000 
12148082.603 +4.3200742326E-001 +9.4812788658E+000  +2.3320143806E-001 +3.7297896673E-001  +2.3149588941E-001 +9.7746083200E+000  +4.6530183709E-001 +2.8803675602E+000 
12273227.785 +4.4863301004E-001 +5.5278828197E+000  +2.3948942454E-001 +9.4137203708E-001  +2.3722565840E-001 +8.9929000427E+000  +4.6922492364E-001 +3.7989480025E+000 
12398372.966 +4.7631169799E-001 +7.8313464647E+000  +2.4390237426E-001 +7.5823855934E-001  +2.3883985457E-001 +8.4442330609E+000  +4.7276406298E-001 +1.2652322208E+000 
12523518.148 +4.9251296839E-001 +4.9300778187E+000  +2.4402419484E-001 +7.6101614060E-001  +2.4355571533E-001 +8.5035196465E+000  +4.8368866620E-001 +4.0614851297E+000 
12648663.329 +4.9123964294E-001 +2.5623976083E+000  +2.4661493918E-001 +1.1078061112E+000  +2.4394264828E-001 +7.9476568597E+000  +5.0502441021E-001 +2.4291228966E+000 
12773808.511 +5.2363259484E-001 +2.4449212161E+000  +2.4772431469E-001 +1.6598214103E+000  +2.4621662958E-001 +7.6051864922E+000  +5.1776434706E-001 +2.4142321612E+000 
12898953.692 +5.1867385164E-001 +3.5374876028E+000  +2.5052844214E-001 +1.5632231817E+000  +2.4739865863E-001 +7.5575506695E+000  +5.3451206383E-001 +1.8094070626E+000 
13024098.874 +5.3978701240E-001 +1.8175689046E+000  +2.5138572706E-001 +1.3551665074E+000  +2.5012391479E-001 +6.5174641099E+000  +5.1596964480E-001 +1.9668882904E+000 
13149244.055 +5.4722717258E-001 +2.2560794492E+000  +2.5571429948E-001 +1.8370741426E+000  +2.5065613377E-001 +6.1699120523E+000  +5.7259687795E-001 -1.1264396424E+000 
13274389.237 +5.4541052141E-001 +9.5206292079E-003  +2.5890640284E-001 +1.8321637616E+000  +2.5707004264E-001 +5.5670660501E+000  +5.6440496763E-001 -2.4264421122E+000 
13399534.418 +5.7365587226E-001 +5.1413515201E-001  +2.5914594689E-001 +1.8176085137E+000  +2.5677985098E-001 +5.1566485203E+000  +5.6565211432E-001 -1.2898607993E+000 
13524679.599 +6.0501829055E-001 -1.1664786337E+000  +2.6293712825E-001 +2.3747405575E+000  +2.5845056253E-001 +5.1104913453E+000  +6.0372897246E-001 -1.5811030065E+000 
13649824.781 +5.9825671774E-001 -1.0014645013E+000  +2.6600619674E-001 +2.0381795750E+000  +2.6152427453E-001 +4.5113175581E+000  +6.1919862924E-001 -3.6396562691E+000 
13774969.962 +6.1348708199E-001 -2.4168136719E+000  +2.6815543584E-001 +1.6253932606E+000  +2.6481656401E-001 +3.9262127386E+000  +6.2427294024E-001 -2.7224360081E+000 
13900115.144 +6.3008253081E-001 -1.6004330940E+000  +2.6880176376E-001 +1.6859519925E+000  +2.6426656622E-001 +3.6570626246E+000  +6.4943906057E-001 -3.1907839460E+000 
14025260.325 +6.4603499286E-001 -3.9146064090E+000  +2.7185912832E-001 +1.2957563884E+000  +2.6834486692E-001 +2.5806311946E+000  +6.5642714262E-001 -4.7033914773E+000 
14150405.507 +6.5539534717E-001 -4.8488717962E+000  +2.7208566632E-001 +1.3973481920E+000  +2.6932143871E-001 +2.8483895710E+000  +6.8486609781E-001 -2.6373427873E+000 
14275550.688 +6.8179371298E-001 -4.7715786746E+000  +2.7398235731E-001 +1.1985498184E+000  +2.6977908595E-001 +2.0021004805E+000  +6.8334993527E-001 -4.0564167008E+000 
14400695.870 +7.0628292155E-001 -4.7497773610E+000  +2.7658420138E-001 +1.0988644245E+000  +2.7163776419E-001 +1.8425947903E+000  +7.0058332144E-001 -5.9370385569E+000 
