!  2-Port S-parameters saved by WinCal
! VAR MeasName=S-Parameters (CALIBRATED_DATA) read from VNA (P5004A)
! VAR MeasDate=29/08/2024 12:34:43
! VAR NAME=S2_r9c5_RESET4_9k-100M_1
! VAR FILENAME=S2_r9c5_RESET4_9k-100M_1.S2P
! VAR DATE=29/08/2024 12:34:43
! VAR PHYS_PORTS=1,2
! VAR ObjTypeName=DATASET
! VAR IndexType=Frequency
!
# Hz S MA R 50
9000.000 +8.0251835348E-002 -1.6405593976E+002  +2.1193099950E-003 +9.4160667666E+001  +1.0700044747E-002 +4.3541896444E+001  +2.4684534006E-001 -1.5047056706E+002 
134145.181 +1.1088583100E-001 +1.6953576838E+002  +9.6024083223E-004 -9.4350727498E+001  +2.4821572357E-004 -8.6671611624E+001  +2.4101047909E-001 -1.7008993767E+002 
259290.363 +1.1230975468E-001 +1.7019148768E+002  +3.9142635129E-004 -1.6678501683E+002  +2.8429418502E-004 -2.1000413042E+001  +2.4415752440E-001 -1.6932933693E+002 
384435.544 +1.1417658610E-001 +1.6994762035E+002  +8.9842291006E-004 -7.0527379082E+001  +4.1322251677E-004 +2.6357833846E+001  +2.5170817270E-001 -1.6950739284E+002 
509580.726 +1.1442401027E-001 +1.7061125511E+002  +1.4398778625E-003 -3.8652674204E+001  +1.9494195406E-003 -3.3626552468E+001  +2.7398705410E-001 -1.6152363233E+002 
634725.907 +1.1756866633E-001 +1.7291883163E+002  +5.7205126370E-004 -1.7694051742E+002  +1.0006231475E-003 +8.2080419469E+000  +2.6139093908E-001 -1.6540810622E+002 
759871.089 +1.1930611898E-001 +1.7137249778E+002  +3.6886051886E-004 +1.4000332902E+002  +1.2944105080E-003 +1.2499980213E+002  +2.5526323288E-001 -1.6515861424E+002 
885016.270 +1.2110695752E-001 +1.6862085642E+002  +2.6044710529E-004 +1.7200541324E+002  +6.4088963687E-004 -6.1271836103E+001  +2.4159631037E-001 -1.6465160290E+002 
1010161.452 +1.1910885497E-001 +1.7112196376E+002  +8.7215968314E-004 -1.6788456934E+002  +8.7497963815E-004 +3.2667200168E+001  +2.1702410100E-001 -1.6495532575E+002 
1135306.633 +1.1245862588E-001 +1.7055251426E+002  +5.1619862995E-004 -1.1892027160E+002  +7.9437958043E-004 +1.4502121595E+002  +1.9215327614E-001 -1.7088417611E+002 
1260451.815 +1.2011319219E-001 +1.7218383973E+002  +9.8424779629E-004 -5.7509527427E+001  +2.6216935294E-003 -4.4328655349E+001  +2.2202290704E-001 -1.5960112293E+002 
1385596.996 +1.2630349793E-001 +1.7199652331E+002  +1.0791624814E-003 -9.7713687459E+001  +2.9398491107E-003 +1.4907205915E+002  +2.7260851623E-001 -1.5598045164E+002 
1510742.178 +1.2872554591E-001 +1.7216069810E+002  +9.2009565726E-004 -1.0657021968E+002  +3.0291296003E-004 +1.7922583871E+002  +2.6937005093E-001 -1.6020553259E+002 
1635887.359 +1.2771737091E-001 +1.7096482055E+002  +8.4790114641E-004 -7.6011906252E+000  +5.9018169901E-004 -1.3873554762E+002  +2.4021710225E-001 -1.5701698232E+002 
1761032.541 +1.2733180404E-001 +1.6914974578E+002  +1.6311498954E-003 +1.6077488571E+002  +5.8139423524E-004 +1.5423063132E+002  +2.3427219165E-001 -1.5842864071E+002 
1886177.722 +1.2926438782E-001 +1.6822530539E+002  +8.6034577581E-004 +1.3412770832E+002  +1.7561597396E-003 +7.7798443990E+000  +1.9022094150E-001 -1.5687962576E+002 
2011322.904 +1.2870989727E-001 +1.6747452764E+002  +3.5702389270E-003 -6.3403219578E+001  +1.8128105952E-003 +7.2592111186E+001  +1.8694000876E-001 -1.7423579412E+002 
2136468.085 +1.3091147562E-001 +1.6734083801E+002  +3.4990593381E-003 -1.1450777938E+002  +3.2010062924E-003 +1.6861356190E+002  +1.7010302544E-001 -1.7906136327E+002 
2261613.267 +1.3105402960E-001 +1.6242036618E+002  +7.1963166547E-004 -6.0367754634E+001  +1.5336258784E-003 -1.6544112499E+002  +2.2428772084E-001 +1.7959064617E+002 
2386758.448 +1.3848706447E-001 +1.6365488561E+002  +1.4249972363E-003 +2.0797412283E+000  +9.9849708156E-004 -6.1715201221E+001  +2.0337274241E-001 -1.7388274715E+002 
2511903.630 +1.4377194385E-001 +1.6637774004E+002  +4.1854249421E-003 +1.4947791064E+002  +1.2538453864E-003 -1.0500794566E+002  +8.9319709204E-002 -1.7142221946E+002 
2637048.811 +1.2127458732E-001 +1.6645169413E+002  +7.0892198180E-003 +1.5723907815E+002  +3.3920731587E-003 +7.4079550556E+001  +2.9869309051E-001 +1.4233172395E+002 
2762193.992 +1.0194476772E-001 +1.7538471862E+002  +1.8871841444E-002 +2.9826098820E+000  +1.0623536763E-002 +1.7913306640E+002  +6.7708906778E-001 +9.4638808002E+001 
2887339.174 +1.2021897455E-001 +1.6075583810E+002  +6.1109122502E-003 -5.6955644406E+001  +9.7036922074E-003 -1.3401553352E+002  +3.3852374558E-001 -9.9824351323E+001 
3012484.355 +1.2747516425E-001 +1.7153767753E+002  +8.9439885519E-003 +8.7864194885E+001  +3.1066794079E-003 -8.2013696739E+001  +2.5493118082E-002 -1.5026264154E+002 
3137629.537 +1.3732552072E-001 +1.7949167276E+002  +2.9151745550E-003 -6.8471063395E+001  +9.9459652951E-003 +1.1731785419E+001  +3.2920750403E-001 -6.0227115991E+001 
3262774.718 +1.2134654724E-001 +1.5921380506E+002  +1.0708158787E-002 -3.3015137225E+000  +1.2933358907E-002 -3.3476379374E+001  +1.3813283441E-001 -2.5371061436E+001 
3387919.900 +1.4460799083E-001 +1.5593407101E+002  +1.5681963237E-002 +1.1472532683E+002  +5.5705169919E-003 +2.5296229792E+001  +5.9776000377E-001 +1.5978516912E+002 
3513065.081 +1.4945791946E-001 +1.5110828139E+002  +4.8186709354E-003 -1.2524879817E+002  +1.4392599477E-002 +3.3680936390E+001  +3.9646750026E-001 +1.1841909750E+002 
3638210.263 +1.7171895994E-001 +1.4151335418E+002  +6.7996349723E-003 -1.5866348643E+002  +9.4626276956E-003 +4.3152107415E+001  +7.3458192112E-001 +1.4050439127E+002 
3763355.444 +1.4804682094E-001 +1.4656016398E+002  +5.5442523658E-003 +5.2871155274E+001  +1.2721574547E-002 -3.4779370915E+001  +8.0474330685E-001 +1.6438414648E+002 
3888500.626 +1.5534438954E-001 +1.4924122559E+002  +9.4797553502E-003 +1.0886014595E+002  +8.8443358630E-003 +4.0651526949E+001  +4.6117573535E-001 +1.1620923629E+002 
4013645.807 +1.8346338838E-001 +1.4523447293E+002  +6.0138336487E-003 -6.0923142751E+001  +1.5090944267E-002 +3.4248660566E+001  +2.0069059630E-001 +7.6211668554E+001 
4138790.989 +1.7511536216E-001 +1.4293775211E+002  +4.0761262016E-003 -2.4685154531E+001  +1.2940147711E-002 +1.0543424629E+002  +1.3665925224E-001 +5.6982115068E+000 
4263936.170 +2.3688456777E-001 +1.3508321487E+002  +1.1255359383E-002 -1.5588753766E+002  +1.1472145226E-002 +6.3395709008E+001  +5.5792801684E-001 +1.5285627416E+002 
4389081.352 +2.1662355659E-001 +1.3384241675E+002  +1.1654113791E-002 -1.6827165568E+002  +1.8814483871E-002 +4.6704304398E+001  +5.0877357034E-001 +1.4120957587E+002 
4514226.533 +1.9859503655E-001 +1.1463334326E+002  +2.8303466088E-002 +2.7584369866E+001  +3.9962650789E-002 +8.8622262713E+000  +1.0709804957E+000 +1.0941138039E+002 
4639371.715 +2.6978511265E-001 +1.3166200763E+002  +2.3435263505E-002 +1.0130040720E+002  +4.4763105234E-002 +1.8005962037E+001  +2.3642436577E+000 +7.3756676023E+001 
4764516.896 +3.8761268116E-001 +1.3100560583E+002  +2.6744916588E-002 +1.0669632246E+002  +5.3662144307E-002 +7.9510435996E+001  +1.6149214859E+000 +1.1882884328E+002 
4889662.078 +4.2651458549E-001 +1.3315986197E+002  +2.7794708987E-002 +1.2596866371E+002  +3.4888054943E-002 -1.8088600874E+001  +2.1079311869E+000 -6.4649923842E+001 
5014807.259 +4.2149757840E-001 +1.1843359315E+002  +1.9396333480E-001 +2.6787562508E+001  +5.3164254227E-002 +2.2782210066E+001  +6.5737085910E+000 -6.1411216280E+001 
5139952.441 +3.6143193266E-001 +1.2548014856E+002  +1.0748194072E-001 +9.6294957540E+001  +3.2030216614E-002 +7.9934812243E+001  +5.1610044022E+000 +7.5809343252E+001 
5265097.622 +3.5389470362E-001 +1.3387860592E+002  +1.4025071535E-001 -1.4310869572E+001  +1.3443692680E-001 -5.1603492735E+001  +1.3652657462E+001 -9.6397932373E+001 
5390242.804 +4.8089895191E-001 +1.2446426456E+002  +6.1648614315E-002 +1.0676557671E+002  +3.9879235911E-002 +4.2125125685E+001  +2.3346162013E+000 +8.2869968678E+001 
5515387.985 +4.4204550077E-001 +1.2535539708E+002  +8.6363324324E-003 +8.5242053816E+001  +3.7691957789E-002 +7.0759299240E+000  +2.0450075950E+000 +6.8217264419E+001 
5640533.166 +4.5210515679E-001 +1.2326491158E+002  +3.2450706076E-002 +6.2673528461E+001  +2.0826092112E-002 -1.5853331325E+001  +2.1581547418E+000 +7.8347607116E+001 
5765678.348 +4.8034831301E-001 +1.2248380114E+002  +3.6133298467E-002 -1.4306101749E+002  +4.4230474270E-002 +4.4490237831E+001  +3.4283062912E+000 +8.8034983223E+001 
5890823.529 +4.5553841708E-001 +1.2050834088E+002  +3.6185312012E-002 +8.6131682798E+001  +1.8925382163E-002 +1.4982209137E+002  +3.7625407473E+000 +7.5716125760E+001 
6015968.711 +6.0748351236E-001 +1.1953822974E+002  +2.2553000082E-002 +3.8866535657E+001  +9.2698194461E-003 +5.4724478090E+000  +2.4167051690E+000 +4.0783204371E+001 
6141113.892 +5.8854123784E-001 +9.8368585190E+001  +3.3056154842E-002 +5.9542670420E+001  +1.9770496330E-002 -4.6815958700E+001  +1.3662281243E+000 +1.3806083136E+001 
6266259.074 +6.5272652208E-001 +1.0666874215E+002  +3.3805362938E-002 +2.4560510781E+000  +4.8823632263E-002 +4.2328655844E+001  +1.9259533696E+000 +9.8048505876E+000 
6391404.255 +1.2003902448E+000 +1.0445287421E+002  +3.0585860302E-002 +8.0411149444E+001  +3.6572158153E-002 +9.1053966744E+001  +1.3583768509E+000 +1.0946923864E+001 
6516549.437 +1.2765858187E+000 +5.0947067506E+001  +4.6277516470E-002 +2.1571814565E+001  +4.3739520062E-002 +6.4188039416E+001  +1.4965207987E+000 +1.0321432780E+001 
6641694.618 +1.9854657544E+000 +7.6333969839E+001  +3.7515334748E-002 +9.5254955830E+001  +2.9641271188E-002 +4.5450888215E+001  +1.3542421891E+000 +2.6362508927E+000 
6766839.800 +1.7171529760E+000 +5.9569577137E+001  +3.3073131586E-002 +1.4344485250E+002  +1.0061245513E-002 +7.9248549686E+000  +1.4770596330E+000 -1.1451372212E+001 
6891984.981 +1.8583345175E+000 +4.2645828639E+001  +1.8377165645E-002 +8.5430983074E+001  +3.1319603544E-002 +1.5891516938E+001  +1.3492666765E+000 -8.8628297115E+000 
7017130.163 +2.0632009567E+000 +1.2134600815E+001  +3.7035489340E-002 -7.8775764474E+000  +1.9220157237E-002 +1.0635517127E+001  +1.2919817204E+000 -5.5640805714E+000 
7142275.344 +1.5180256353E+000 -3.2904219005E-001  +2.8123481043E-002 +1.2645562452E+001  +1.9377996685E-002 +5.0036083266E+001  +1.3277715622E+000 -1.2100843990E+001 
7267420.526 +1.3656584975E+000 +8.5640063363E-002  +6.8970149293E-003 +2.3053918684E+001  +1.1669086014E-002 -1.1685562103E+001  +1.3875046791E+000 -1.2030969577E+001 
7392565.707 +1.2322913675E+000 -5.5094044087E+000  +1.8988734006E-002 +1.4938778115E+000  +7.2318226143E-003 +3.9655864881E+001  +1.2760552509E+000 -6.5795336678E+000 
7517710.889 +1.0172663018E+000 +5.2570985806E+000  +8.8188365912E-003 -3.8012279941E+000  +7.2090940948E-003 -4.6810868791E-001  +1.2341118134E+000 -6.0374370732E+000 
7642856.070 +1.0267949397E+000 +8.5847587882E+000  +7.2150005634E-003 -6.8513179098E-001  +2.3566657717E-003 +3.9340474202E+001  +1.1343459734E+000 -4.4118293423E+000 
7768001.252 +9.8465381085E-001 -1.1790520253E+000  +8.3144640521E-003 +3.7155736979E+001  +9.8578794503E-003 +4.1702777666E+001  +1.0023327213E+000 -4.2774831526E+000 
7893146.433 +8.8018959504E-001 -1.8450497257E+000  +1.2247877798E-002 +3.9100724041E+001  +7.7260353312E-003 -1.3412460341E+001  +9.0205344368E-001 -1.6055455901E+000 
8018291.615 +7.8975132328E-001 +8.4427191454E+000  +1.0208946380E-002 +2.8694381888E+001  +9.4657730421E-004 +1.1752438436E+002  +8.5191668580E-001 -3.0006494199E+000 
8143436.796 +7.2496479792E-001 +7.0146986489E+000  +1.1510518846E-002 -2.3079813430E+001  +9.2258597083E-003 -8.5285836799E-001  +7.9832721764E-001 +1.7414652930E+000 
8268581.977 +7.5859127893E-001 +5.0687684293E+000  +3.1640195701E-003 +5.5407099174E+000  +1.0204802701E-002 +4.3310433181E+001  +7.6218724722E-001 +1.0052490817E+000 
8393727.159 +7.1587232685E-001 +5.5267336209E+000  +9.7830748882E-003 +3.3521259213E+001  +9.9331310445E-003 -9.3306490640E-001  +7.4744308550E-001 -1.4933426958E+000 
8518872.340 +6.9722895857E-001 +1.0402906118E+001  +7.9604094625E-003 +2.6915720441E+000  +1.2521557686E-002 +1.5112010273E+001  +6.7143596080E-001 +4.9602923834E-001 
8644017.522 +6.8463317403E-001 +7.1418267379E+000  +6.7361207914E-003 +2.6925540926E+001  +8.0918357696E-003 -9.7370130134E+000  +7.2147161390E-001 -8.9207822324E-001 
8769162.703 +6.2975659560E-001 +1.4285023522E+001  +1.0150166475E-002 -9.6484525468E-001  +9.8564129302E-003 +2.5466733209E+001  +6.9737434069E-001 -6.5432590642E-001 
8894307.885 +5.3713671092E-001 +2.5805501135E+000  +8.1398395183E-003 -3.9159355359E-001  +7.8268315257E-003 -2.2249325251E+001  +5.9070610907E-001 -2.5345503262E+000 
9019453.066 +5.8620195129E-001 +1.4645519106E+000  +4.8178405600E-003 +3.4611850663E+001  +6.5638651537E-003 -8.3584419305E+000  +6.1474091755E-001 -9.1813416500E-001 
9144598.248 +6.7160692484E-001 +4.3021282846E+000  +9.5413932388E-003 -2.2312112842E+001  +8.8159994366E-003 +2.5626063485E+001  +5.2191895252E-001 +4.2509543227E-001 
9269743.429 +6.0109260322E-001 +9.9146301177E+000  +9.3306996188E-003 -5.3459993618E+000  +6.9937935595E-003 +1.0521138866E+001  +6.4734169029E-001 -5.0673138799E+000 
9394888.611 +5.8352277464E-001 +5.0683731925E+000  +8.3380299027E-003 -9.1200730188E+000  +8.5646817115E-003 +2.3822811888E+001  +6.0653458643E-001 -3.9413970035E-001 
9520033.792 +5.2332106440E-001 +3.8813228507E+000  +8.7077825522E-003 +1.2157269334E+001  +8.6546891353E-003 +2.1862215800E+001  +6.0427567216E-001 -2.9722938201E+000 
9645178.974 +5.2981858613E-001 -1.2241888533E+000  +8.0118283333E-003 -2.3150006598E+001  +8.1606857198E-003 +3.5991826026E+001  +6.0028704431E-001 -2.7509884337E+000 
9770324.155 +5.2077266941E-001 +1.8553759915E+000  +6.1658998048E-003 +1.1055702914E+001  +7.2663302014E-003 +1.5453009953E+001  +5.5935596196E-001 -3.2314812356E+000 
9895469.337 +5.3429185337E-001 +1.3892340777E+000  +8.0505026203E-003 +3.4030337099E+000  +6.5616426337E-003 +6.5052832333E+000  +5.9793245437E-001 -5.4250171170E+000 
10020614.518 +5.7984588210E-001 +6.2483488019E+000  +7.9409473145E-003 -7.5039284514E-001  +7.8636087083E-003 +2.6719587428E+001  +5.7819346010E-001 -5.1940188893E+000 
10145759.700 +5.3220530726E-001 +5.7760524652E+000  +7.6917407441E-003 -1.8311344240E+001  +9.6932879389E-003 +1.3655963097E+001  +6.0135806902E-001 -5.4128004285E+000 
10270904.881 +5.4007963183E-001 +5.2272808870E+000  +8.6798777492E-003 +2.5360309768E+001  +9.0278862402E-003 +2.2339913152E+001  +5.6666815394E-001 -5.2164295310E-001 
10396050.063 +5.3411663823E-001 +8.7012275035E+000  +6.5428885354E-003 -2.2896324414E+001  +1.1069247049E-002 +1.1650378216E+001  +5.9425861242E-001 -1.8875162200E-001 
10521195.244 +5.8565084050E-001 +5.6755649805E+000  +8.8359094146E-003 -1.1137749797E+000  +9.7783360261E-003 +2.6408338883E+001  +5.7983834242E-001 -1.3803813144E+000 
10646340.426 +5.6401307064E-001 +6.4587564685E+000  +6.9766674031E-003 +1.6084665093E+001  +7.8987078971E-003 +2.2482563902E+001  +5.8366418842E-001 +2.7895259638E-002 
10771485.607 +5.7533865512E-001 +7.8616316046E+000  +7.5281359423E-003 +8.2360946890E+000  +7.2570282907E-003 +2.3963390847E+001  +6.1488775826E-001 +8.4003567859E-001 
10896630.788 +5.6676779615E-001 +7.7690792844E+000  +9.1579803766E-003 -2.1839409512E+000  +6.5042741698E-003 +1.7169171372E+001  +5.8931483874E-001 +3.7154967246E+000 
11021775.970 +5.8876541185E-001 +2.8528980113E+000  +8.1164553007E-003 +8.3050445670E-001  +7.2825443488E-003 +1.3657092649E+001  +6.1124793539E-001 +1.2340759194E+000 
11146921.151 +5.9492586315E-001 +6.8479754424E+000  +7.7743057729E-003 +1.2215989413E+000  +1.0151648859E-002 +2.3987071373E+001  +6.1457120782E-001 +3.1961095018E+000 
11272066.333 +6.1404951193E-001 +6.2021771867E+000  +8.2569602287E-003 -2.5265596395E+000  +6.6731343929E-003 +3.3856283661E+001  +6.1702602099E-001 +2.0099168936E+000 
11397211.514 +6.1241276901E-001 +5.8835922754E+000  +6.8275735439E-003 +2.6841733124E+000  +8.7276334234E-003 +7.7728762708E+000  +6.5231294006E-001 +3.6636084114E+000 
11522356.696 +6.2499281224E-001 +6.5427330114E+000  +7.5414907217E-003 -1.4796766017E-001  +8.7201860779E-003 +1.5212410205E+001  +6.4182787555E-001 +3.5539929893E+000 
11647501.877 +6.4665221828E-001 +5.8720195834E+000  +8.1473706193E-003 -6.4874954421E+000  +8.3830953338E-003 +2.5060279555E+001  +6.4126332399E-001 +9.6922859888E-001 
11772647.059 +6.2706041022E-001 +5.4686839815E+000  +7.3424768097E-003 +4.4781737915E+000  +1.0417903141E-002 +1.6662722847E+001  +6.6183568158E-001 +3.5955118910E-002 
11897792.240 +6.6617514395E-001 +6.5121123005E+000  +9.4537673659E-003 +6.0043017911E+000  +9.1147658140E-003 +2.2862679443E+001  +6.7437061018E-001 +1.8992514978E+000 
12022937.422 +6.9522003080E-001 +7.5189331142E+000  +8.0779666542E-003 +2.2555479663E+001  +8.4660954220E-003 +2.6386230193E+001  +6.9517477857E-001 -3.6712130543E-001 
12148082.603 +6.8150388388E-001 +5.3776177230E+000  +1.0028239085E-002 +2.3084133254E+001  +8.8278054647E-003 +3.0586878506E+001  +6.9105154473E-001 +1.7653662779E-001 
12273227.785 +6.8562699620E-001 +2.0958886112E+000  +9.1219454019E-003 +1.2619219776E+001  +9.1929033735E-003 +3.5318779316E+000  +7.1564268617E-001 -5.8551652075E-001 
12398372.966 +7.1138851065E-001 +3.3616455094E+000  +1.0361665312E-002 +1.1130855398E+000  +9.9756328550E-003 +2.8380002688E+001  +7.0936176419E-001 +1.7157310462E+000 
12523518.148 +7.0786332538E-001 +5.3068130497E+000  +9.9687971108E-003 +1.0928553404E+001  +8.5207045389E-003 +3.1177484221E+001  +7.4512931751E-001 -9.5829828158E-001 
12648663.329 +7.4477174710E-001 +3.2508151364E+000  +8.0588838204E-003 +2.0134217536E+001  +9.7160535669E-003 +1.5124228981E+001  +7.6717014649E-001 -1.1350564029E-001 
12773808.511 +7.5570611997E-001 +8.9065115986E-001  +9.7757452925E-003 +1.0551263549E+001  +9.2260467773E-003 +1.2700523245E+001  +7.6299673607E-001 -6.8918498307E-001 
12898953.692 +7.7764228468E-001 +4.2774919830E-001  +8.7159047623E-003 +1.3573751733E+001  +8.2992884625E-003 +1.8935457910E+001  +7.7494220791E-001 -1.6887303728E+000 
13024098.874 +7.8351582901E-001 -1.1889615181E-001  +1.0150227046E-002 +3.1048448544E+000  +9.3218847503E-003 +2.4292996232E+001  +7.9849037650E-001 +6.2283936150E-001 
13149244.055 +7.9988796235E-001 -1.6277277013E+000  +1.0222651438E-002 +9.1197217717E+000  +9.9471670922E-003 +1.4480880281E+001  +8.2846381244E-001 -1.5817658792E+000 
13274389.237 +8.1404591591E-001 -6.2906988236E-001  +9.0090875006E-003 +3.8548096035E+000  +1.0106734747E-002 +1.3648726037E+001  +8.2874671669E-001 -3.6680812980E+000 
13399534.418 +8.3915742988E-001 -5.2163015346E-001  +1.0449630729E-002 +9.5843164135E+000  +7.6191991226E-003 +8.3927890458E+000  +8.3824756595E-001 -1.9536309016E+000 
13524679.599 +8.7153992394E-001 -2.1687378388E+000  +9.2637969690E-003 +2.6383930687E+000  +1.0687780924E-002 +2.5433318367E+000  +8.6010152630E-001 -2.6502206565E+000 
13649824.781 +8.7152380435E-001 -3.3052770755E+000  +9.3720644420E-003 +5.2093858329E+000  +9.7989508647E-003 +3.0420503925E+000  +8.5810720800E-001 -3.8424288583E+000 
13774969.962 +8.9349210160E-001 -2.6527585977E+000  +1.2246934499E-002 +1.0928052932E+001  +9.9259858220E-003 +1.0180606383E+001  +9.0064937479E-001 -2.4181070428E+000 
13900115.144 +9.2115428930E-001 -3.7378732297E+000  +1.0482444278E-002 +1.8373386489E+001  +8.7697692739E-003 +5.1881457074E+000  +9.1094928790E-001 -4.3317738941E+000 
14025260.325 +8.9958772718E-001 -5.0935508975E+000  +8.8438677804E-003 +5.5822242165E+000  +8.7521262280E-003 +1.6801179856E+001  +9.3129461450E-001 -3.6539942469E+000 
14150405.507 +9.4646247141E-001 -3.9635666745E+000  +1.0567584850E-002 +2.1096270377E+001  +9.3293632197E-003 +1.2616450155E+001  +9.3479367913E-001 -4.6268828234E+000 
14275550.688 +9.5207077154E-001 -5.1777527438E+000  +9.6816898531E-003 +7.3235544225E+000  +8.7299193469E-003 +9.7558688327E+000  +9.5667605903E-001 -5.2962015732E+000 
14400695.870 +9.8433251081E-001 -4.7453732946E+000  +1.0051596472E-002 +1.3583230614E+001  +9.5322886902E-003 +1.4461701748E+001  +9.7026471385E-001 -4.6579264439E+000 
