!  2-Port S-parameters saved by WinCal
! VAR MeasName=S-Parameters (CALIBRATED_DATA) read from VNA (P5004A)
! VAR MeasDate=29/08/2024 10:57:32
! VAR NAME=S2_r9c2_RESET6_9k-100M_1
! VAR FILENAME=S2_r9c2_RESET6_9k-100M_1.S2P
! VAR DATE=29/08/2024 10:57:32
! VAR PHYS_PORTS=1,2
! VAR ObjTypeName=DATASET
! VAR IndexType=Frequency
!
# Hz S MA R 50
9000.000 +9.0169419692E-002 -1.6928636950E+002  +2.1658629396E-003 -1.0334832191E+002  +7.8703428553E-003 -5.5277784296E-001  +2.6892573413E-001 -1.3849035635E+002 
134145.181 +1.1113441359E-001 +1.6942030340E+002  +4.9753569161E-005 -1.7520888268E+002  +8.5377171630E-005 -6.1698675915E+001  +2.4081678009E-001 -1.7137019963E+002 
259290.363 +1.1130479270E-001 +1.6955841176E+002  +1.0166007325E-003 -1.2042243997E+002  +6.5714907957E-004 +6.8228522634E+001  +2.3546760409E-001 -1.6760071571E+002 
384435.544 +1.1518343927E-001 +1.7015529868E+002  +2.6992849021E-004 -3.0719311329E+000  +1.4178696889E-003 +2.5576801926E+001  +2.3902667815E-001 -1.6879301185E+002 
509580.726 +1.1470996805E-001 +1.7076209521E+002  +7.7622389602E-004 -6.2712138848E+001  +1.3542319064E-003 +1.3352005175E+001  +2.3179560968E-001 -1.6651955914E+002 
634725.907 +1.1707244102E-001 +1.7120664557E+002  +3.1380981822E-004 -1.5312606877E+002  +2.3663488247E-004 -1.4892753322E+002  +2.4739548965E-001 -1.6701269249E+002 
759871.089 +1.1924422958E-001 +1.7052595765E+002  +4.5745522020E-004 -6.7156904908E+001  +9.4442475919E-004 +1.1653583666E+002  +2.5153631174E-001 -1.6651519287E+002 
885016.270 +1.1920098000E-001 +1.6904044233E+002  +1.9315478186E-004 -4.7598209726E+001  +6.8329394131E-004 +1.2045558009E+002  +2.4501812018E-001 -1.6687104446E+002 
1010161.452 +1.1849031362E-001 +1.6874613409E+002  +9.7358778946E-004 +3.2442510745E+001  +5.2411410505E-004 +1.5040936087E+002  +2.0826974059E-001 -1.6576426346E+002 
1135306.633 +1.1429484627E-001 +1.6969956737E+002  +4.8461390942E-004 -1.7464219456E+002  +2.2477976612E-003 +1.1730454395E+001  +1.9708048255E-001 -1.7123243501E+002 
1260451.815 +1.2062691150E-001 +1.7061282148E+002  +1.9457585104E-003 +6.8312047106E+000  +1.4220421485E-003 +1.0559222981E+002  +2.3640969714E-001 -1.5754489861E+002 
1385596.996 +1.2901508304E-001 +1.7249154829E+002  +1.4830428450E-003 -7.4218759877E+001  +1.3203356380E-003 -1.1975049753E+002  +2.4486894346E-001 -1.5559973632E+002 
1510742.178 +1.2714752281E-001 +1.7257137380E+002  +4.9354992955E-004 +1.3234632259E+002  +8.5936260001E-004 -1.2005808671E+002  +2.6389517614E-001 -1.5506949357E+002 
1635887.359 +1.2782359794E-001 +1.7152586592E+002  +9.1289575769E-004 +3.4306712592E+001  +5.0113943638E-004 +1.6973265430E+002  +2.4109291098E-001 -1.5695355998E+002 
1761032.541 +1.2401018885E-001 +1.7046582809E+002  +1.6393810295E-003 -1.0963460701E+002  +3.0679740111E-003 -1.1628580043E+002  +2.1550561521E-001 -1.5997857750E+002 
1886177.722 +1.2835162866E-001 +1.6876414539E+002  +7.9623119716E-004 +4.5935644021E+001  +2.4723483533E-003 -1.5366960266E+002  +1.9726808812E-001 -1.5745587417E+002 
2011322.904 +1.3224096099E-001 +1.6629250076E+002  +1.3414374954E-003 +1.6060187188E+002  +1.7688078159E-003 -3.1341734534E+001  +1.9672949106E-001 -1.6906468279E+002 
2136468.085 +1.3044871487E-001 +1.6838856826E+002  +3.8875540653E-003 +8.6211986319E+001  +1.9095775665E-003 -1.5877025245E+002  +1.9832912421E-001 -1.5695449381E+002 
2261613.267 +1.3426269071E-001 +1.6656441888E+002  +1.2362782518E-003 -1.3795098611E+002  +2.4784358178E-003 -6.8318508023E+001  +1.8367036303E-001 -1.7932418805E+002 
2386758.448 +1.3585637387E-001 +1.6639407668E+002  +4.8131760430E-003 +6.6435583262E+001  +7.1212559627E-004 -4.0186031899E+001  +2.0951461543E-001 -1.7319787162E+002 
2511903.630 +1.3361085613E-001 +1.6323819647E+002  +3.0705945000E-003 +3.7907320468E+001  +7.6158734363E-003 -6.3862675032E+001  +1.7114962237E-001 +1.6657952719E+002 
2637048.811 +1.2976497468E-001 +1.6349905859E+002  +7.6917222273E-003 +4.8248098137E+001  +1.0991827742E-002 -6.2633077206E+001  +1.2072120595E-001 +1.5984182422E+002 
2762193.992 +1.1457482820E-001 +1.5278612130E+002  +1.5769427972E-001 +6.3534535383E+001  +1.3044007832E-001 -3.6718459427E+001  +2.6855684692E+000 +2.7244162702E+001 
2887339.174 +1.3561377310E-001 +1.6356519842E+002  +4.4474111966E-003 -5.7132182264E+001  +4.9283072441E-003 -9.8925018012E+001  +2.5988857361E-001 -1.1451361456E+002 
3012484.355 +1.2025494425E-001 +1.7754356358E+002  +1.6272322152E-002 +3.7177176386E+001  +2.6356857487E-002 -1.3795003874E+002  +1.4229500786E-001 +1.5957090417E+001 
3137629.537 +1.3535277776E-001 +1.6755847984E+002  +9.2746538401E-003 -2.5811047326E+001  +5.7601521053E-003 -9.7122965327E+001  +8.5673459100E-002 -1.1772955038E+002 
3262774.718 +1.1702741876E-001 +1.6373688920E+002  +9.9340719971E-003 +3.1536488869E+000  +1.3790716512E-002 -6.2913604868E+001  +3.1250799044E-002 -4.8996255409E+001 
3387919.900 +1.1849316834E-001 +1.5683657400E+002  +2.8688223612E-002 +8.4362430756E+001  +3.2903103992E-003 +7.8068064700E+001  +5.0740503577E-001 +1.0590428956E+002 
3513065.081 +1.4641416999E-001 +1.6303728095E+002  +8.6902366944E-003 +6.3683081371E+001  +3.5670483239E-003 -1.4201539107E+000  +3.0447015289E-001 +1.5547582647E+002 
3638210.263 +1.8353638878E-001 +1.4856958826E+002  +1.4087056680E-002 +1.7611597988E+002  +2.9043908669E-002 +4.3678485469E+001  +8.2840483602E-001 +1.1905951495E+002 
3763355.444 +1.6805541662E-001 +1.4225740747E+002  +3.5510365590E-002 +1.2987806088E+002  +4.1033661805E-002 +8.5787519653E+001  +7.3136328144E-001 +1.4563378196E+002 
3888500.626 +1.4486422156E-001 +1.5135766722E+002  +2.1925498873E-002 +4.6274799062E+001  +1.8504455591E-002 -4.5847163206E+001  +3.8647586069E-001 +8.8113185178E+001 
4013645.807 +1.6838010557E-001 +1.4566068547E+002  +2.0538181674E-002 +8.8746823430E+001  +8.6392525538E-003 -1.6660609332E+001  +3.3967384512E-001 +1.4201705912E+002 
4138790.989 +2.1377023067E-001 +1.4784521269E+002  +1.9347098268E-002 +8.7297010912E+001  +2.0539711989E-002 +4.8874432644E+001  +5.9741937489E-001 +1.2964688701E+002 
4263936.170 +1.8728692953E-001 +1.4803158176E+002  +1.8184485755E-002 +8.5669837759E+001  +3.8500315999E-002 +4.4797962529E+001  +1.5190044282E+000 +1.1606731704E+002 
4389081.352 +2.0528324055E-001 +1.4761259990E+002  +1.6034810383E-002 +8.8139476243E+001  +2.1165367884E-002 +6.6998046103E+001  +6.1952785549E-001 +1.2459190727E+002 
4514226.533 +1.9997224798E-001 +1.4151534253E+002  +2.1097044331E-002 +1.1398265205E+002  +2.7835768418E-002 +5.7626995903E+001  +8.3724485387E-001 +1.2898634660E+002 
4639371.715 +2.8251780142E-001 +1.4001823402E+002  +5.0095498938E-002 +1.0628401401E+002  +3.8005830854E-002 +6.0086582532E+001  +1.0023770587E+000 +1.1141394046E+002 
4764516.896 +3.3265709029E-001 +1.3089887035E+002  +1.1751151743E-001 +1.4305245578E+002  +1.4421825793E-001 +1.0784943695E+002  +2.8465281506E+000 +1.2404191757E+002 
4889662.078 +4.0333553844E-001 +1.3141282979E+002  +1.9993510271E-001 -1.5300179065E+002  +1.8801063916E-001 +1.3029605343E+002  +4.1750528434E+000 +1.5620246415E+002 
5014807.259 +3.3810890222E-001 +1.0869402932E+002  +2.4125113755E-001 +7.6756338468E+001  +1.9767132760E-001 +3.5162638417E+000  +3.8381219554E+000 +5.3871761232E+001 
5139952.441 +3.2147059074E-001 +1.3507375129E+002  +1.0134651695E-001 +1.1273486614E+002  +1.0937332242E-001 +2.5907060098E+001  +2.9731981612E+000 +7.6511417579E+001 
5265097.622 +4.0193267140E-001 +1.2469362872E+002  +1.7673420758E-001 +1.5471249926E+002  +1.6345422634E-001 +9.3454930180E+001  +6.3115776715E+000 +1.3557916865E+002 
5390242.804 +4.5193890545E-001 +1.2684643837E+002  +8.3920684608E-002 +8.8192293045E+001  +8.0937709814E-002 +3.1769664863E+001  +1.6037097731E+000 +3.3278697513E+001 
5515387.985 +4.5009145168E-001 +1.2714159998E+002  +1.1855296056E-001 +1.4341938699E+002  +1.0460715840E-001 +1.0428381317E+002  +3.0199248687E+000 +1.3324120888E+002 
5640533.166 +4.8705277101E-001 +1.2050978682E+002  +1.4339005077E-001 +1.0765124894E+002  +1.5001068058E-001 +7.8051318568E+001  +3.0897511448E+000 +8.7057295048E+001 
5765678.348 +4.5768252428E-001 +1.1955131024E+002  +1.2150153172E-001 +7.8913664961E+001  +1.1163995181E-001 +4.6928134979E+001  +2.5806417028E+000 +7.6844116990E+001 
5890823.529 +4.7511369148E-001 +1.2483622679E+002  +1.0027609034E-001 +7.1269734090E+001  +7.7015627983E-002 +4.7714678350E+001  +2.4422371759E+000 +6.1195095317E+001 
6015968.711 +6.0581594692E-001 +1.2089921166E+002  +8.0791970524E-002 +7.3687282775E+001  +5.1007000164E-002 +3.6800138830E+001  +1.4646512939E+000 +3.6540891468E+001 
6141113.892 +8.3164544630E-001 +1.1560973430E+002  +1.0891874068E-001 +6.6301618253E+001  +5.6706162331E-002 +3.4379007304E+001  +1.6214623420E+000 +3.3117994916E+001 
6266259.074 +7.7091732072E-001 +1.0992242786E+002  +6.5427444072E-002 +5.2048208615E+001  +8.6874585339E-002 +2.8145491707E+001  +1.2681468668E+000 +3.2654937059E+001 
6391404.255 +9.1870974473E-001 +9.4883628957E+001  +9.5435099098E-002 +4.9646962010E+001  +8.3951735536E-002 +4.1406065705E+001  +1.3536757942E+000 +3.5618671048E+001 
6516549.437 +1.0859094736E+000 +8.5070836718E+001  +1.0507622800E-001 +2.7974024998E+001  +9.4867678599E-002 +2.2573941927E+001  +1.5989518744E+000 +1.6628594399E+001 
6641694.618 +1.1700162778E+000 +7.9772055567E+001  +8.5857518089E-002 +3.1561666467E+001  +9.8838354568E-002 +2.4848570921E+001  +1.3963133740E+000 -3.5889490120E+000 
6766839.800 +1.1775229142E+000 +4.7904466821E+001  +1.0437655211E-001 +5.1443929458E-001  +7.1206677853E-002 -5.4795131032E+000  +1.3521501695E+000 +1.8594066719E-001 
6891984.981 +1.6187811863E+000 +4.0081957150E+001  +9.3890887896E-002 +1.1749384544E+001  +1.1606326344E-001 +4.0477973987E+000  +1.3000997478E+000 -2.9388279035E+000 
7017130.163 +1.5030569895E+000 +1.6969727443E+001  +1.0141446312E-001 -1.8789833890E+000  +6.8958432394E-002 +1.3664769982E+000  +1.3186865949E+000 -9.6241286781E+000 
7142275.344 +1.3080401248E+000 +1.5819052010E+000  +6.4345015868E-002 -6.0646187555E-002  +8.1684030446E-002 -5.9659098586E+000  +1.2382165881E+000 -6.8468423896E+000 
7267420.526 +1.5088991027E+000 +7.2271239437E+000  +5.2652231748E-002 -1.1526233101E+000  +6.4208179460E-002 +8.5777789516E+000  +1.2640439241E+000 -1.6094914241E+001 
7392565.707 +1.3471105838E+000 -7.2675959318E+000  +6.1917137927E-002 +9.8951648796E+000  +4.2692633730E-002 +2.6952548501E+000  +1.1920010456E+000 -6.7873094150E+000 
7517710.889 +1.2501332809E+000 -2.1136710089E+000  +4.6834619424E-002 +4.7520177336E+000  +4.6364089649E-002 +6.0782536007E+000  +1.1493343901E+000 -8.3418235400E+000 
7642856.070 +9.4808621572E-001 +9.3519915258E+000  +3.8706090111E-002 -1.5829261196E+000  +4.3329416966E-002 +1.0131606748E+001  +9.0058045846E-001 -8.6884685879E+000 
7768001.252 +9.6284745021E-001 +3.1097026311E+000  +4.0382509813E-002 +1.2244229585E+001  +4.7660010115E-002 +8.7332607199E+000  +9.7273256203E-001 -5.4621573987E+000 
7893146.433 +7.6265015192E-001 +8.3978313561E+000  +4.4375249417E-002 -3.5672888476E+000  +3.7527412657E-002 -2.8077354091E+000  +8.4210155356E-001 +2.4922598838E-001 
8018291.615 +8.4062254236E-001 +6.9369824138E+000  +4.3066162567E-002 -6.0825725839E+000  +4.0507890389E-002 +2.8951669298E+000  +7.8610682403E-001 +4.6220284612E+000 
8143436.796 +7.0197739027E-001 +1.0304291236E+001  +3.9497601758E-002 -2.2053103467E+000  +3.9119807931E-002 +7.4972716598E+000  +7.0624203917E-001 +2.7664827632E+000 
8268581.977 +7.1615091089E-001 +1.4152486255E+001  +3.0868061926E-002 -7.3496234455E+000  +4.4935852976E-002 +7.6332110220E+000  +7.7347947261E-001 -2.2619473272E+000 
8393727.159 +6.8539576026E-001 +7.3899013363E+000  +3.8630540610E-002 +5.7248132054E+000  +3.9240648967E-002 +1.0742862779E+001  +7.5362809020E-001 +3.8086396690E+000 
8518872.340 +6.7138887490E-001 +1.1395469108E+001  +3.3989143537E-002 -6.2617517244E+000  +3.1259859877E-002 +9.2606957918E+000  +6.9599306308E-001 -1.3436996607E+000 
8644017.522 +6.2764442677E-001 +8.3242521711E+000  +3.4466173467E-002 +2.6520053441E-002  +3.2657073461E-002 +2.5247235008E+000  +6.5334553373E-001 +2.7614091414E+000 
8769162.703 +5.8286770417E-001 +7.5924225902E+000  +3.0781581591E-002 -4.2070733066E+000  +3.3614481402E-002 +1.9437082340E+001  +6.6420341210E-001 +2.9848673313E+000 
8894307.885 +5.9145415725E-001 +1.0459536598E+001  +3.7636214772E-002 -6.6834169701E+000  +3.3063574728E-002 +1.4919013659E+001  +6.3306082749E-001 +2.4301899406E+000 
9019453.066 +5.3682305333E-001 +7.1823753515E+000  +3.2169040109E-002 -4.4787378247E+000  +3.4335711648E-002 +1.0178689491E+001  +6.5190255013E-001 -1.1379100361E+000 
9144598.248 +5.9322568564E-001 +9.6570509217E+000  +3.2962964801E-002 -4.6406448233E+000  +3.6189341140E-002 +1.2567341325E+001  +5.5579707333E-001 -6.3242051924E+000 
9269743.429 +5.4042650382E-001 +7.8542544862E+000  +3.1810871127E-002 -6.6992472923E-001  +3.6086971001E-002 +8.6301794767E+000  +5.8897889436E-001 -2.0206008209E+000 
9394888.611 +5.1312917182E-001 +1.1428514314E+001  +3.2372589383E-002 +4.8066654424E-001  +3.3620993974E-002 +1.2581390416E+001  +5.8897860805E-001 -6.6158132568E+000 
9520033.792 +4.8993841056E-001 +5.5458954478E+000  +3.3885815768E-002 -7.0638036299E+000  +3.6790546643E-002 +1.1832068657E+001  +5.4511380213E-001 -1.4315343140E-003 
9645178.974 +5.1273166667E-001 +2.8704338607E+000  +3.3954255729E-002 -2.3897902079E+000  +3.2943208205E-002 +1.3088484428E+001  +5.6462534211E-001 -4.2306754965E+000 
9770324.155 +4.9036310830E-001 +5.9612191378E+000  +3.4689052849E-002 -9.2547406351E-001  +3.4747446589E-002 +1.0502147396E+001  +5.0679384483E-001 -8.9563872399E-001 
9895469.337 +4.9997224076E-001 +1.0409317184E+000  +3.3234294344E-002 -3.8590691987E+000  +3.7623850554E-002 +1.0154145144E+001  +5.6407383782E-001 -4.8423915061E+000 
10020614.518 +4.5277572073E-001 -6.0684351654E-001  +3.4656738446E-002 -2.0111208538E+000  +3.4844336850E-002 +1.7202394581E+001  +5.2963101310E-001 -1.0174225337E+000 
10145759.700 +5.2589859383E-001 +3.4881104795E+000  +3.6567187110E-002 -5.3730829475E+000  +3.2451353487E-002 +1.2928584001E+001  +5.6291247953E-001 -9.8454184911E-001 
10270904.881 +5.3992154107E-001 +9.7189359985E+000  +3.4445188008E-002 -2.3515921999E+000  +3.5475082417E-002 +1.4693650559E+001  +5.2973357399E-001 +3.3794402494E-001 
10396050.063 +4.8529371992E-001 +4.5793848452E+000  +3.3111580614E-002 -3.0249128767E+000  +3.5428237739E-002 +1.2430711301E+001  +5.5307826446E-001 -1.8745006105E+000 
10521195.244 +5.6718680390E-001 +4.4298834255E+000  +3.5750149195E-002 -2.7132377314E-001  +3.5275521197E-002 +1.0039026982E+001  +5.3551116365E-001 -7.4645881777E-001 
10646340.426 +5.3228139099E-001 +9.0144372438E+000  +3.4940242347E-002 -1.8948991213E+000  +3.5071018848E-002 +1.7796942601E+001  +5.7338667385E-001 +1.0982178005E+000 
10771485.607 +5.1088644962E-001 +5.2014349978E+000  +3.5894558136E-002 +3.6067058186E+000  +3.6882130209E-002 +1.0750561715E+001  +5.7947716727E-001 +1.9764246648E+000 
10896630.788 +5.2113251265E-001 +9.0621218478E+000  +3.4534796288E-002 -8.9135209710E-001  +3.5865003200E-002 +1.4603151892E+001  +5.5748689500E-001 +3.9126728023E+000 
11021775.970 +5.2471292184E-001 +7.9035377327E+000  +3.6559484028E-002 -3.6033783855E+000  +3.6996004479E-002 +1.5671738171E+001  +5.9004710007E-001 +2.2747213693E+000 
11146921.151 +5.4544675226E-001 +7.9238042648E+000  +3.3391422140E-002 -2.7699401226E+000  +3.5556987563E-002 +1.4161713547E+001  +5.4237334194E-001 +2.1566990609E+000 
11272066.333 +5.7014644898E-001 +9.3121818319E+000  +3.8098726516E-002 +1.6087349068E+000  +3.7606843654E-002 +1.8006854268E+001  +6.1735939298E-001 +3.9100426788E+000 
11397211.514 +5.6976846808E-001 +1.0116991957E+001  +3.6096858727E-002 +1.5756456159E+000  +3.9298232232E-002 +1.3061731713E+001  +5.8761057700E-001 +1.2554564047E+000 
11522356.696 +6.0929254767E-001 +9.1567290235E+000  +3.7649377140E-002 +8.5251813634E-001  +3.6975516919E-002 +1.4403403910E+001  +6.3179646663E-001 +6.6025641182E-001 
11647501.877 +6.1244879391E-001 +7.5764269526E+000  +3.8311633832E-002 -1.0990256645E+000  +3.6286994696E-002 +1.0805118942E+001  +6.1698492326E-001 +7.8734232224E-001 
11772647.059 +6.3400732819E-001 +4.7890999274E+000  +3.8586666610E-002 -9.7329511144E-001  +3.9269790020E-002 +1.0936744964E+001  +6.2404719361E-001 +1.1403405714E+000 
11897792.240 +6.4062283074E-001 +5.8756368093E+000  +3.7996092613E-002 +1.4225332556E+000  +3.9522109945E-002 +1.1782818074E+001  +6.3216213192E-001 +4.0381783165E-002 
12022937.422 +6.1072815556E-001 +9.5372666683E+000  +3.9210469657E-002 +3.6511906677E+000  +3.7708236418E-002 +1.3751822767E+001  +6.6687044415E-001 +1.8985128190E+000 
12148082.603 +6.6793763760E-001 +5.8742822826E+000  +3.9695962665E-002 +5.9568015667E+000  +3.8329647923E-002 +7.9543093570E+000  +6.6965514747E-001 +2.7355839094E-001 
12273227.785 +6.6588394654E-001 +2.9500384981E+000  +3.9920933242E-002 +2.0800405573E+000  +3.9635557975E-002 +1.0702621068E+001  +6.7407816211E-001 -6.6378108450E-001 
12398372.966 +6.6891872389E-001 +3.3535606061E+000  +4.0653596837E-002 +5.5720634070E+000  +4.1801345240E-002 +1.1642731259E+001  +6.6811503129E-001 -9.6329916156E-001 
12523518.148 +6.9143139500E-001 +3.0826722815E+000  +4.1185859142E-002 +1.4090127573E+000  +3.9453654795E-002 +1.4003510197E+001  +6.9557022632E-001 +9.6930737536E-001 
12648663.329 +6.9773925224E-001 +4.3872413496E+000  +4.0232471375E-002 +6.6288882209E-001  +4.1497304146E-002 +6.9570197243E+000  +7.0061576962E-001 -1.2242339383E+000 
12773808.511 +7.2526349391E-001 +1.2692063229E+000  +4.1749244277E-002 +4.7067148023E+000  +4.2442348890E-002 +8.7250583017E+000  +7.3958766936E-001 -3.4202511578E-001 
12898953.692 +7.5234878442E-001 +2.3828275175E+000  +4.2523044505E-002 +2.3468158153E+000  +4.0083154894E-002 +9.3879914216E+000  +7.6047123920E-001 -1.9414046042E-001 
13024098.874 +7.6077652209E-001 +4.4721253679E-003  +4.4001852153E-002 +2.1832652032E+000  +4.2349965954E-002 +5.3626937258E+000  +7.4745877019E-001 -1.3071273228E+000 
13149244.055 +7.6104450110E-001 -6.7955751171E-002  +4.3661722090E-002 +2.8870902696E+000  +4.0940809410E-002 +7.2007773027E+000  +7.8747278239E-001 -1.8039769927E+000 
13274389.237 +7.8155559919E-001 -4.6783331848E-001  +4.2648466937E-002 +4.4756435692E+000  +4.2400290316E-002 +6.3103785358E+000  +8.0121807023E-001 -1.9183359547E+000 
13399534.418 +8.1913444211E-001 -1.1079712298E+000  +4.3125729064E-002 +1.9749789974E+000  +4.1014553716E-002 +4.8865178822E+000  +8.1183992281E-001 -1.2642753732E+000 
13524679.599 +8.2270167143E-001 -1.7535767703E-001  +4.3380680695E-002 +4.5883977897E+000  +4.2251272259E-002 +5.6016537230E+000  +8.2554537785E-001 -2.3973321679E+000 
13649824.781 +8.2621825612E-001 -2.7827914771E+000  +4.5238647486E-002 +4.7421653227E+000  +4.4566753088E-002 +4.6336448991E+000  +8.4606574670E-001 -3.0336341687E+000 
13774969.962 +8.5129471960E-001 -2.3078291988E+000  +4.5332985823E-002 +3.0478888063E+000  +4.3919267009E-002 +3.4664597270E+000  +8.2048511139E-001 -3.7846540474E+000 
13900115.144 +8.7993202702E-001 -4.3733109887E+000  +4.5316288858E-002 +4.5721563085E+000  +4.2652601093E-002 +4.0964109256E+000  +8.7816762724E-001 -3.3417973404E+000 
14025260.325 +8.9225669775E-001 -5.2831443508E+000  +4.5453062874E-002 +2.6204536566E+000  +4.3977041795E-002 +4.5742644962E+000  +8.8569653884E-001 -4.5699887323E+000 
14150405.507 +9.0228659016E-001 -4.7899670690E+000  +4.4723401295E-002 +2.6165651833E+000  +4.4174459608E-002 +4.0809681525E+000  +9.1935066051E-001 -4.3063221922E+000 
14275550.688 +9.3727887556E-001 -5.3199349891E+000  +4.6128397119E-002 +2.8511858884E+000  +4.3585115725E-002 +2.3862441293E+000  +9.0806549684E-001 -4.9656171507E+000 
14400695.870 +9.2869409042E-001 -6.1446655598E+000  +4.5960607534E-002 +2.7587614631E+000  +4.4192596640E-002 +4.0612580201E+000  +9.5883632532E-001 -4.1743999775E+000 
