!  2-Port S-parameters saved by WinCal
! VAR MeasName=S-Parameters (CALIBRATED_DATA) read from VNA (P5004A)
! VAR MeasDate=29/08/2024 11:54:09
! VAR NAME=S2_r9c4_SET2_9k-100M_3
! VAR FILENAME=S2_r9c4_SET2_9k-100M_3.S2P
! VAR DATE=29/08/2024 11:54:09
! VAR PHYS_PORTS=1,2
! VAR ObjTypeName=DATASET
! VAR IndexType=Frequency
!
# Hz S MA R 50
9000.000 +8.9808558688E-002 -1.7093263733E+002  +8.3993612795E-003 -9.0324339683E+001  +7.0207491788E-003 +1.1055581393E+002  +2.5841496269E-001 -1.4587212896E+002 
134145.181 +1.1125012639E-001 +1.6983516000E+002  +4.9199366109E-004 -9.3408342935E+001  +2.6730408098E-004 +6.6848918253E+001  +2.4109032217E-001 -1.7034876085E+002 
259290.363 +1.1123858159E-001 +1.7030702293E+002  +1.0327181481E-003 -3.1537731184E+001  +3.3822671356E-004 -1.3953047569E+002  +2.4518095560E-001 -1.6878770727E+002 
384435.544 +1.1296442864E-001 +1.7050332982E+002  +4.4815985192E-004 -4.3167913529E+001  +1.1861163569E-003 +1.7218829073E+002  +2.3994294986E-001 -1.6732472692E+002 
509580.726 +1.1573919292E-001 +1.7128225033E+002  +1.7985180209E-003 -1.0938416551E+002  +1.5033806430E-003 +1.0683143785E+002  +2.4832783556E-001 -1.6609477515E+002 
634725.907 +1.1427157004E-001 +1.7198988030E+002  +1.4855567113E-003 -1.0507700642E+002  +2.2746987334E-003 +1.3125024436E+002  +2.4482952565E-001 -1.6591378310E+002 
759871.089 +1.1950724113E-001 +1.7045585195E+002  +6.8571759116E-004 -2.8990931253E+001  +1.0783905753E-003 +9.6074636969E+001  +2.4304290716E-001 -1.6701320820E+002 
885016.270 +1.2130454133E-001 +1.6913263935E+002  +5.7950337462E-004 -7.9078720625E+001  +6.5298533093E-004 +1.2667460687E+002  +2.4623565418E-001 -1.6780289088E+002 
1010161.452 +1.1880789353E-001 +1.6929647827E+002  +1.9833215079E-003 +1.1210930463E+001  +9.5569276451E-004 -1.4137136492E+002  +2.1392403895E-001 -1.7230312065E+002 
1135306.633 +1.1073686851E-001 +1.6865884877E+002  +3.4437631175E-003 -1.5417283360E+001  +6.4774371904E-003 -1.6547353670E+002  +1.9655999852E-001 -1.6842010662E+002 
1260451.815 +1.1828378527E-001 +1.6873703503E+002  +4.5724958896E-003 -4.7201414491E+001  +6.9680360766E-004 -1.3772786363E+002  +2.0212156121E-001 -1.5779642310E+002 
1385596.996 +1.2439057366E-001 +1.7438266699E+002  +8.3839305296E-004 -7.0606881358E+001  +1.9045285763E-003 +1.3540322949E+002  +2.5093514168E-001 -1.5810040309E+002 
1510742.178 +1.2520193939E-001 +1.7099220523E+002  +1.0372045397E-003 -1.8460880443E+001  +1.1246074711E-003 -1.7391187576E+002  +2.5814091951E-001 -1.6054674863E+002 
1635887.359 +1.2836787700E-001 +1.7201001875E+002  +1.5160835538E-003 -3.1335231474E+001  +1.7897043310E-003 -1.6925045299E+002  +2.4985258011E-001 -1.6020323250E+002 
1761032.541 +1.2609625890E-001 +1.7009284789E+002  +2.9491081659E-003 +3.3136370015E+001  +3.3492045969E-003 -1.2652001210E+002  +2.3087643702E-001 -1.5596724297E+002 
1886177.722 +1.3020128935E-001 +1.6755145129E+002  +2.6665498407E-003 +7.6855602671E+001  +2.6925240123E-003 -4.8363294952E+001  +2.2107388526E-001 -1.6546127172E+002 
2011322.904 +1.3258314166E-001 +1.6778404738E+002  +5.6479591238E-003 +7.4608316353E+001  +6.7599834002E-003 -5.9024292246E+001  +2.2762089170E-001 -1.6396268624E+002 
2136468.085 +1.3131624639E-001 +1.6670397528E+002  +1.1490795128E-002 +7.0505626818E+001  +1.1236896087E-002 -7.5023659237E+001  +1.7971933706E-001 -1.6531026722E+002 
2261613.267 +1.2961774664E-001 +1.6325628127E+002  +1.9422041757E-002 +7.3327768815E+001  +1.7282791931E-002 -4.4961684807E+001  +1.5281928835E-001 -1.6491917598E+002 
2386758.448 +1.3550502588E-001 +1.6656894906E+002  +1.0852604961E-002 +8.2884593258E+001  +1.0919446066E-002 -2.2844568363E+001  +2.3976176265E-001 -1.7745218747E+002 
2511903.630 +1.3783086062E-001 +1.6543996459E+002  +1.2196669452E-002 +8.0990001642E+001  +1.3974190504E-002 -4.6132463848E+001  +2.1501242088E-001 -1.7336456725E+002 
2637048.811 +1.2660613485E-001 +1.5884232922E+002  +6.2036490485E-002 +8.1574226099E+001  +6.8852542923E-002 -2.3124746363E+001  +1.4816170811E-001 +8.9897471648E+001 
2762193.992 +1.3340179266E-001 +1.7463914321E+002  +4.5317329590E-002 +6.1564461795E+000  +3.9848274478E-002 -1.0493005247E+002  +8.9874276833E-002 -1.4040349149E+002 
2887339.174 +1.2793671092E-001 +1.7862886286E+002  +5.4433512996E-002 -3.9365980820E-001  +4.5035257694E-002 -1.0877122187E+002  +1.2010245936E-001 -1.3783341750E+002 
3012484.355 +1.3658397440E-001 +1.7046849379E+002  +4.7881032973E-002 -2.2801755278E+001  +4.0910284454E-002 -1.0481296234E+002  +2.1369986539E-001 -1.0130336400E+002 
3137629.537 +1.3603211063E-001 +1.7164739436E+002  +4.3497140564E-002 +1.0828418665E+001  +5.0015937461E-002 -8.5327141809E+001  +8.5955160376E-002 -1.0084569178E+002 
3262774.718 +1.3668755647E-001 +1.6761732811E+002  +7.0701609957E-002 -5.2422537241E+000  +6.5173434400E-002 -9.3729249171E+001  +2.8821943162E-001 -6.2802284895E+001 
3387919.900 +1.4234187259E-001 +1.5684165220E+002  +5.2274078355E-002 +3.4865174948E+001  +3.8454348927E-002 -4.4397499978E+001  +8.0096245861E-002 -1.5097451836E+002 
3513065.081 +1.5983088804E-001 +1.5923614707E+002  +3.5679133398E-002 +5.0537044377E+001  +3.5053626027E-002 -4.2418851760E+001  +1.2869780962E-001 -1.6330580351E+002 
3638210.263 +1.7973093259E-001 +1.5108945223E+002  +4.6470622098E-002 +1.1106871545E+002  +4.6967283102E-002 +3.0000233368E+001  +3.1422795479E-001 +1.4750398928E+002 
3763355.444 +1.8549651434E-001 +1.5544368048E+002  +4.0530169514E-002 +1.1762706040E+002  +4.2508410934E-002 +4.3817506948E+001  +3.7474518116E-001 +1.5678454955E+002 
3888500.626 +1.7222267001E-001 +1.5538378714E+002  +5.6650565182E-002 +7.9108091003E+001  +5.1844901825E-002 +1.6490600415E+000  +2.3815991007E-001 +1.4418628157E+002 
4013645.807 +1.8038009051E-001 +1.5709497470E+002  +3.9540842333E-002 +7.2015835294E+001  +4.2340174810E-002 +8.7974483704E+000  +2.3638323426E-001 +1.6030798864E+002 
4138790.989 +1.6467519625E-001 +1.5482871130E+002  +5.9943768032E-002 +9.2369891957E+001  +5.7526016598E-002 +3.4393991678E+001  +4.5612209245E-001 +1.5550814951E+002 
4263936.170 +1.9735445154E-001 +1.4962806924E+002  +1.1161546822E-001 +9.6388707092E+001  +1.1965243147E-001 +2.8581711075E+001  +7.0215691492E-001 +1.0869037559E+002 
4389081.352 +2.3049582826E-001 +1.4421642794E+002  +7.3340495616E-002 +1.1445020820E+002  +7.2381862699E-002 +5.3179151798E+001  +4.4006820702E-001 +1.4695582816E+002 
4514226.533 +2.1135797761E-001 +1.3786076232E+002  +1.4079851494E-001 +8.1652902674E+001  +1.2529790778E-001 +2.7094175064E+001  +4.2290483173E-001 +1.0034256461E+002 
4639371.715 +2.5179238363E-001 +1.3533882539E+002  +1.3497464614E-001 +1.0827795624E+002  +1.1414841645E-001 +5.7128083676E+001  +5.6011649995E-001 +1.3147568680E+002 
4764516.896 +3.4960342623E-001 +1.3488011405E+002  +3.0886835630E-001 +1.2173441982E+002  +3.0532457517E-001 +7.6094524077E+001  +1.4149566188E+000 +1.0370768633E+002 
4889662.078 +4.0587124146E-001 +1.4349893264E+002  +3.9182421883E-001 +1.7191933025E+002  +3.6589857434E-001 +1.2677817690E+002  +2.1988640764E+000 +1.3977467880E+002 
5014807.259 +4.3021471261E-001 +1.3251449932E+002  +5.7959043257E-001 +1.3665635427E+002  +5.9154922163E-001 +8.7237176250E+001  +2.9443296039E+000 +1.0741411807E+002 
5139952.441 +3.6005717215E-001 +1.4081020880E+002  +3.3305136489E-001 +1.3257304785E+002  +3.1348646481E-001 +9.5600443938E+001  +2.3011004192E+000 +1.1738315119E+002 
5265097.622 +3.5841872072E-001 +1.3408787603E+002  +2.4269596550E-001 +1.1164775578E+002  +2.4688992360E-001 +7.3565131740E+001  +1.3512685914E+000 +1.0998031333E+002 
5390242.804 +3.7800686782E-001 +1.3794985429E+002  +2.3908169888E-001 +1.1358245678E+002  +2.4530595830E-001 +7.2825258944E+001  +1.5552396636E+000 +1.0528787027E+002 
5515387.985 +4.4358889202E-001 +1.3434854626E+002  +3.1004999546E-001 +1.1258600928E+002  +3.0517936183E-001 +8.6458973246E+001  +1.8075502037E+000 +1.0251864037E+002 
5640533.166 +4.3046461000E-001 +1.2527910338E+002  +2.9804028657E-001 +8.6609112271E+001  +3.1109220586E-001 +5.2575528158E+001  +1.3061368423E+000 +7.9482466902E+001 
5765678.348 +4.0002063263E-001 +1.1631083488E+002  +3.3362261971E-001 +7.2407286516E+001  +3.2958043561E-001 +4.4293138851E+001  +1.3048434972E+000 +7.8125569298E+001 
5890823.529 +4.7867023210E-001 +1.1536691991E+002  +4.0532910093E-001 +8.1442278977E+001  +4.0772796330E-001 +6.0577962792E+001  +1.8983141098E+000 +8.6049495072E+001 
6015968.711 +4.9688978843E-001 +1.2551909031E+002  +2.4539410341E-001 +8.6315469779E+001  +2.3930569200E-001 +5.7346744024E+001  +1.2808539784E+000 +9.2563077274E+001 
6141113.892 +5.4521620155E-001 +1.0713065730E+002  +3.5524316522E-001 +5.6662693866E+001  +3.4177382253E-001 +3.5198798154E+001  +1.2027852000E+000 +5.3447845703E+001 
6266259.074 +6.2668397505E-001 +1.0382640485E+002  +3.8047722697E-001 +4.6228107155E+001  +3.7568942671E-001 +2.5661527084E+001  +1.3512632821E+000 +3.1052203176E+001 
6391404.255 +6.9271466266E-001 +1.0068646306E+002  +4.0043940812E-001 +4.1165862916E+001  +3.9562549843E-001 +2.4345671376E+001  +1.4491148072E+000 +2.1219573379E+001 
6516549.437 +6.8506396509E-001 +9.7993997827E+001  +3.3722647303E-001 +3.2569526415E+001  +3.1537999004E-001 +2.1193052874E+001  +1.0497064519E+000 +1.2709867056E+001 
6641694.618 +9.5671071554E-001 +6.7229649271E+001  +4.9694589785E-001 +2.0076560286E+001  +4.9437126805E-001 +9.2656151425E+000  +1.5013907112E+000 +2.6862102395E+000 
6766839.800 +1.1695075013E+000 +5.4563068475E+001  +4.7375190355E-001 +1.8281605796E+001  +4.9535077787E-001 +1.3447338577E+001  +1.1983750562E+000 +6.9071280624E+000 
6891984.981 +1.0703573511E+000 +4.2453189669E+001  +4.2971361286E-001 +1.5569601919E+001  +4.2300023533E-001 +7.6727277105E+000  +9.9060145703E-001 +1.3121327967E+001 
7017130.163 +9.7408588546E-001 +2.7878511530E+001  +3.7867573857E-001 +6.3945343648E+000  +3.8466090698E-001 -1.4165005144E+000  +9.4750082818E-001 -3.2356870212E+000 
7142275.344 +1.1307042238E+000 +2.2167994505E+001  +3.6032351657E-001 +2.7262322139E+000  +3.5845885059E-001 -6.0074127522E-001  +9.1501485476E-001 -1.1586912704E+001 
7267420.526 +1.2837082704E+000 -3.8923704038E+000  +3.4427444162E-001 -5.3326711445E-001  +3.4769257619E-001 -2.2673655886E+000  +1.0389951086E+000 -8.6855848773E+000 
7392565.707 +8.7456243487E-001 +4.1981953717E-001  +2.6762306326E-001 +2.2981859639E+000  +2.7143282656E-001 +4.8881358372E+000  +9.3697722611E-001 -4.2642183002E+000 
7517710.889 +1.0395923919E+000 -4.9894377417E+000  +2.6596393626E-001 +3.3846543336E+000  +2.6645234036E-001 +4.8706887931E+000  +9.1750529061E-001 -2.2597304102E+000 
7642856.070 +6.9967444675E-001 +5.9102887853E+000  +2.4625258099E-001 +1.6183753582E+000  +2.3544037166E-001 +5.6484038407E+000  +7.9448248510E-001 -1.4358469170E+000 
7768001.252 +6.7574222586E-001 +8.5895352594E+000  +2.3335944364E-001 +6.1704925234E-001  +2.3770726965E-001 +6.1552237200E+000  +7.8718916692E-001 -4.6299706462E+000 
7893146.433 +6.0129986707E-001 +1.1510604125E+001  +2.2466418175E-001 -1.5259821445E+000  +2.2296410236E-001 +5.1764739976E+000  +6.1033426331E-001 -2.0465966645E+000 
8018291.615 +5.3953710709E-001 +1.4019101740E+001  +2.1340695715E-001 -5.1229357032E-001  +2.1512640594E-001 +5.1229417716E+000  +6.1509632304E-001 +5.1558590754E+000 
8143436.796 +5.7015557780E-001 +1.3450579706E+001  +2.1489658666E-001 -2.0526570575E+000  +2.1160264758E-001 +7.0511496816E+000  +5.9282194580E-001 -3.3487478559E+000 
8268581.977 +5.4653787531E-001 +1.4903531660E+001  +1.9935583852E-001 -2.5262192653E+000  +2.0552883618E-001 +7.6130035480E+000  +5.4210954667E-001 +9.6115775109E+000 
8393727.159 +5.2981202727E-001 +1.3313133842E+001  +2.0215303091E-001 -3.4985087311E+000  +2.0079304347E-001 +8.0178939563E+000  +5.3327575294E-001 +4.2695901981E+000 
8518872.340 +4.6802095577E-001 +2.3225199879E+001  +1.9178926446E-001 -3.7862652812E+000  +1.9527366978E-001 +8.5962591431E+000  +4.9222178666E-001 +1.1535849080E+001 
8644017.522 +3.8360671228E-001 +1.4203898803E+001  +1.9545908873E-001 -4.0059418192E+000  +1.9419097492E-001 +8.2676378291E+000  +5.4337358661E-001 +5.5874651543E+000 
8769162.703 +3.6923189793E-001 +1.0885034490E+001  +1.9451805903E-001 -5.1665439081E+000  +1.9079204483E-001 +7.5532185442E+000  +4.3748441798E-001 +7.4525939128E+000 
8894307.885 +3.8072843142E-001 +9.1152168506E+000  +1.9290742072E-001 -4.0546701466E+000  +1.9184257044E-001 +9.8871117287E+000  +5.0599489515E-001 +5.8913188790E+000 
9019453.066 +4.4052277473E-001 +1.4887585378E+001  +1.9305742563E-001 -3.3024054131E+000  +1.9104773181E-001 +9.5432787926E+000  +4.5759426556E-001 +4.3958001517E+000 
9144598.248 +3.4818547020E-001 +2.1158020939E+001  +1.8697703858E-001 -5.6295396446E+000  +1.8853020657E-001 +1.0632206854E+001  +4.0912462470E-001 +1.2453544654E+001 
9269743.429 +3.7115571996E-001 +1.4263032305E+001  +1.8853514102E-001 -4.8515397336E+000  +1.8982204348E-001 +9.3728062283E+000  +4.2580629235E-001 +5.2839605687E+000 
9394888.611 +3.4562260871E-001 +1.7529908727E+001  +1.8758550620E-001 -5.1472228697E+000  +1.8837712208E-001 +1.0520597064E+001  +4.0198803052E-001 +7.1801237309E+000 
9520033.792 +3.5528870717E-001 +1.6069140224E+001  +1.8877400572E-001 -4.8759975371E+000  +1.8916340687E-001 +1.1198902642E+001  +3.9518604234E-001 -1.3550418671E+000 
9645178.974 +3.5216904414E-001 +1.2636016137E+001  +1.9140720861E-001 -3.6510991442E+000  +1.9202218392E-001 +1.2127770658E+001  +3.5520562207E-001 -4.0986747404E+000 
9770324.155 +3.4944369744E-001 +9.4788431173E+000  +1.9291622371E-001 -4.8190979432E+000  +1.9140146672E-001 +1.1702958357E+001  +3.8911418477E-001 +5.1109158796E-001 
9895469.337 +3.6136642078E-001 +1.1160197815E+001  +1.9327918139E-001 -5.0153179361E+000  +1.8812381799E-001 +1.1357553037E+001  +3.7672029641E-001 -1.5259120240E+000 
10020614.518 +3.4381303570E-001 +9.2551690804E+000  +1.9400415083E-001 -4.0229346020E+000  +1.9358417349E-001 +1.2154105785E+001  +4.0239639225E-001 -6.6599177089E+000 
10145759.700 +3.6346194651E-001 +2.7735340510E+000  +1.9713238315E-001 -4.0868075460E+000  +1.9453241255E-001 +1.1756033422E+001  +3.3671544179E-001 +2.4488957620E+000 
10270904.881 +3.3977329282E-001 +1.5271892969E+001  +1.9452424103E-001 -3.9724228443E+000  +1.8891811026E-001 +1.1495795968E+001  +3.5352798150E-001 +5.5375834949E+000 
10396050.063 +3.1822698487E-001 +1.4534561559E+001  +1.9534749533E-001 -4.4310187797E+000  +1.9416925834E-001 +1.0640363467E+001  +3.7628846241E-001 -6.2965197164E-002 
10521195.244 +3.5857948828E-001 +1.2507351799E+001  +1.9327021501E-001 -3.3290108389E+000  +1.9370550981E-001 +1.2855453178E+001  +4.2831586110E-001 +7.5744892579E+000 
10646340.426 +3.7299025895E-001 +1.3317363559E+001  +1.9538156081E-001 -3.3842330520E+000  +1.9639050002E-001 +1.2171148550E+001  +3.5756746932E-001 +2.3529046613E+000 
10771485.607 +3.8080682611E-001 +1.1631362284E+001  +1.9929825772E-001 -3.2085372435E+000  +1.9677602644E-001 +1.2542877182E+001  +3.9314769648E-001 +8.4138999124E+000 
10896630.788 +4.0167081964E-001 +1.1634595220E+001  +2.0220415087E-001 -2.5422849601E+000  +1.9686051515E-001 +1.1943309893E+001  +3.9839043735E-001 +7.6294099761E+000 
11021775.970 +4.0934008553E-001 +1.1299872814E+001  +2.0094593506E-001 -1.5016818934E+000  +1.9942906260E-001 +1.3082597964E+001  +4.1931255322E-001 +6.2183667288E+000 
11146921.151 +3.9562163042E-001 +7.6819506627E+000  +2.0396317046E-001 -1.9059709469E+000  +2.0165161979E-001 +1.1790652964E+001  +4.0794666382E-001 +8.5956106116E+000 
11272066.333 +4.2524608517E-001 +9.0276573146E+000  +2.0656645049E-001 -1.3262905545E+000  +2.0360877720E-001 +1.2258112525E+001  +4.1259616711E-001 +6.6766034435E+000 
11397211.514 +4.0457970929E-001 +9.4867784629E+000  +2.0751289386E-001 -1.4223088155E+000  +2.0395835493E-001 +1.1232922384E+001  +4.3086601480E-001 +1.0127210316E+001 
11522356.696 +4.0725872807E-001 +1.1702957053E+001  +2.0786555680E-001 -1.0023006153E+000  +2.1026825371E-001 +1.1161311332E+001  +4.3826268377E-001 +5.3639106739E+000 
11647501.877 +4.2676832289E-001 +1.0759153872E+001  +2.1047049136E-001 -2.0632622912E-001  +2.0786074181E-001 +1.1204250449E+001  +4.2619795353E-001 +6.7454113857E+000 
11772647.059 +4.3057396641E-001 +9.6793689619E+000  +2.1382818364E-001 +3.5439140632E-001  +2.1154975914E-001 +1.0767829316E+001  +4.5801814299E-001 +5.6679655243E+000 
11897792.240 +4.4639956531E-001 +1.1006678638E+001  +2.1414031714E-001 +6.2552409282E-001  +2.1193841271E-001 +1.0352831132E+001  +4.6214422564E-001 +6.0281450631E+000 
12022937.422 +4.6711018055E-001 +1.1970278875E+001  +2.1530658610E-001 +7.1606815396E-001  +2.1638799265E-001 +1.0307634574E+001  +4.7445051546E-001 +1.1124361410E+000 
12148082.603 +4.6636203791E-001 +8.1425669076E+000  +2.1966996391E-001 +7.1745379731E-001  +2.1632520869E-001 +9.6881267073E+000  +4.9788796569E-001 +2.6657652502E+000 
12273227.785 +4.7282657889E-001 +1.1204548584E+001  +2.1845194103E-001 +4.6922092351E-001  +2.1725514007E-001 +9.5932447783E+000  +4.6882331554E-001 +4.3090313408E+000 
12398372.966 +4.8946294830E-001 +5.8417511409E+000  +2.2404157290E-001 +1.1391330980E+000  +2.2250423851E-001 +9.1347142899E+000  +4.9218142677E-001 +4.6167463159E+000 
12523518.148 +4.8751406205E-001 +7.5051312021E+000  +2.2751000667E-001 +1.1392554807E+000  +2.2404684346E-001 +8.7978733729E+000  +5.0096130843E-001 +2.5915692324E+000 
12648663.329 +5.1394357008E-001 +2.9499896901E+000  +2.2993980206E-001 +8.4166489616E-001  +2.2716912557E-001 +8.0980525211E+000  +5.2008269270E-001 +1.7348835632E+000 
12773808.511 +5.1524231789E-001 +3.1646715718E+000  +2.3241835106E-001 +1.3027342445E+000  +2.3138525373E-001 +7.6837525022E+000  +5.3061574257E-001 +4.7500390827E-001 
12898953.692 +5.4838014689E-001 +3.4806435725E+000  +2.3222095120E-001 +2.0414800971E+000  +2.3310863664E-001 +7.2443669081E+000  +5.4314001150E-001 +3.8832740052E-001 
13024098.874 +5.5695345680E-001 +4.2553600950E+000  +2.3497760206E-001 +1.7947697597E+000  +2.3391309344E-001 +6.6962222009E+000  +5.4033131496E-001 -8.3998532606E-001 
13149244.055 +5.8364060387E-001 +2.6532991439E+000  +2.4082641510E-001 +1.9250436336E+000  +2.3640633542E-001 +6.2573817715E+000  +5.6058752744E-001 -2.4135155616E+000 
13274389.237 +5.9279011280E-001 +2.5663555504E-001  +2.4241947534E-001 +1.9069388660E+000  +2.4067074081E-001 +5.3650823845E+000  +5.6714856682E-001 -2.0799484706E+000 
13399534.418 +5.8365050062E-001 +1.6403047833E+000  +2.4327863488E-001 +1.8283622965E+000  +2.3934295649E-001 +5.0203830376E+000  +6.0989509755E-001 -3.4527154350E-001 
13524679.599 +5.8885483995E-001 -1.3157513855E+000  +2.4650696947E-001 +1.3968058785E+000  +2.4108531395E-001 +4.7909622568E+000  +6.3286670525E-001 -5.4333839874E-001 
13649824.781 +6.1871525366E-001 -2.3334560218E+000  +2.4824187641E-001 +2.1041144872E+000  +2.4483921856E-001 +4.5513036217E+000  +6.3027595009E-001 -1.3004857701E+000 
13774969.962 +6.4861899222E-001 -2.3994407925E+000  +2.5044537129E-001 +2.2877757647E+000  +2.4646632821E-001 +4.2229505774E+000  +6.4519652523E-001 -3.4501730940E+000 
13900115.144 +6.5209984212E-001 -3.5409222988E+000  +2.5155560006E-001 +2.0319092529E+000  +2.4865262989E-001 +3.5128722125E+000  +6.5142892893E-001 -4.0915404666E+000 
14025260.325 +6.7264829792E-001 -2.9854968476E+000  +2.5291745328E-001 +1.3445130036E+000  +2.4874571706E-001 +3.3138858190E+000  +6.7032040591E-001 -2.6676469853E+000 
14150405.507 +6.9293821156E-001 -2.7002311240E+000  +2.5370867885E-001 +1.7734351911E+000  +2.5084350017E-001 +2.9748022176E+000  +7.0923876532E-001 -5.2701990968E+000 
14275550.688 +7.0384604961E-001 -4.0874595887E+000  +2.5652169146E-001 +1.6937451043E+000  +2.5167260753E-001 +2.2198686655E+000  +7.1429096374E-001 -4.6910555443E+000 
14400695.870 +6.8749849935E-001 -4.5560872505E+000  +2.5692978396E-001 +1.3278143331E+000  +2.5193327564E-001 +1.8751798212E+000  +7.4859785401E-001 -5.0556266601E+000 
