!  2-Port S-parameters saved by WinCal
! VAR MeasName=S-Parameters (CALIBRATED_DATA) read from VNA (P5004A)
! VAR MeasDate=29/08/2024 11:42:32
! VAR NAME=S2_r9c4_RESET1_9k-100M_2
! VAR FILENAME=S2_r9c4_RESET1_9k-100M_2.S2P
! VAR DATE=29/08/2024 11:42:32
! VAR PHYS_PORTS=1,2
! VAR ObjTypeName=DATASET
! VAR IndexType=Frequency
!
# Hz S MA R 50
9000.000 +6.2026905728E-002 -1.6124362420E+002  +2.2355899927E-002 -1.0850371394E+002  +1.8038275365E-002 +2.9613638029E+001  +3.1134320545E-001 -1.4900128696E+002 
134145.181 +1.1110062151E-001 +1.6925428418E+002  +4.9381955516E-004 -9.8110259010E+000  +1.4805492479E-004 -1.7785546418E+002  +2.4509963314E-001 -1.7069639960E+002 
259290.363 +1.1144497273E-001 +1.6923793153E+002  +9.0235984873E-004 -7.0488590219E-001  +3.2147821106E-004 +1.7517652203E+002  +2.4323315363E-001 -1.6933134223E+002 
384435.544 +1.1485715306E-001 +1.7041403031E+002  +5.8017665697E-004 -3.2196096155E+001  +1.0831519103E-003 +1.2099138404E+002  +2.3740210528E-001 -1.6915552789E+002 
509580.726 +1.1342244864E-001 +1.7113281079E+002  +7.9928319413E-005 -4.7906640993E+001  +7.1053742410E-004 +2.0557770749E+001  +2.4384675493E-001 -1.6681051454E+002 
634725.907 +1.1668922091E-001 +1.7125139834E+002  +7.4901039097E-004 -9.0558593586E+001  +6.8584933024E-004 +1.3766533353E+002  +2.4004818838E-001 -1.6360058771E+002 
759871.089 +1.2035471543E-001 +1.7062470898E+002  +9.5618583644E-004 -7.8558126641E+001  +1.0400113448E-003 +5.0816534276E+001  +2.4840954548E-001 -1.6722851138E+002 
885016.270 +1.2162196101E-001 +1.6875092488E+002  +5.6924411816E-004 -6.3680959398E+001  +2.8177818510E-004 +1.0869599199E+002  +2.4715076424E-001 -1.6688605790E+002 
1010161.452 +1.1986970424E-001 +1.6973158603E+002  +1.2560337867E-003 -1.4758143488E+001  +8.9403387838E-004 +1.3524195899E+002  +2.1003553806E-001 -1.6715767857E+002 
1135306.633 +1.1127411971E-001 +1.6948068682E+002  +3.3971420143E-003 -7.9077415987E+000  +1.8802937095E-003 -1.7017106898E+002  +2.0233776108E-001 -1.7101586101E+002 
1260451.815 +1.1701024315E-001 +1.7076197124E+002  +1.6164194245E-003 -3.3636625024E+001  +6.9874377579E-004 +1.2253228867E+002  +2.2743394020E-001 -1.5935853900E+002 
1385596.996 +1.2642750466E-001 +1.7255952867E+002  +1.5264673499E-003 -6.9618809967E+001  +2.0329403809E-003 +1.0993176524E+002  +2.4278076283E-001 -1.5946047691E+002 
1510742.178 +1.2669824991E-001 +1.7206694460E+002  +1.2008130981E-003 -9.5088215784E+000  +1.0101461843E-003 -1.6294294020E+002  +2.4347503153E-001 -1.5960587247E+002 
1635887.359 +1.2966634283E-001 +1.7086887391E+002  +1.1347333306E-003 -4.3423196192E+001  +1.6859712943E-003 -1.7971581521E+002  +2.5550674481E-001 -1.5776893035E+002 
1761032.541 +1.3032567508E-001 +1.6943183438E+002  +1.3742403560E-003 +3.7523629092E+001  +9.7607965800E-004 +1.5956099846E+002  +2.3443239444E-001 -1.5776325483E+002 
1886177.722 +1.3089979856E-001 +1.6773216523E+002  +1.7581332486E-003 +6.8690482398E+001  +3.1533269167E-003 -7.8850833112E+001  +2.3596497172E-001 -1.6243210439E+002 
2011322.904 +1.3109572246E-001 +1.6672623490E+002  +4.9431919446E-003 +8.7851296744E+001  +7.0924579253E-003 -6.8202243577E+001  +1.8842550532E-001 -1.6364504446E+002 
2136468.085 +1.3320800502E-001 +1.6623463521E+002  +9.7059670600E-003 +5.0268608696E+001  +8.7114347156E-003 -7.8764277738E+001  +1.8907050577E-001 -1.5363713697E+002 
2261613.267 +1.3109322548E-001 +1.6744148439E+002  +7.1894018941E-003 +6.8466051015E+001  +7.4349561236E-003 -5.5925879219E+001  +2.1760805467E-001 -1.6762081680E+002 
2386758.448 +1.3991219554E-001 +1.6531667345E+002  +1.0636908987E-002 +1.0279487087E+002  +1.1153947655E-002 -1.8964031944E+001  +2.1853293241E-001 +1.7254251832E+002 
2511903.630 +1.2966570713E-001 +1.5958601969E+002  +1.9058479795E-002 +1.1129347728E+002  +1.6600991811E-002 +9.3220274721E-001  +2.4917487897E-001 +1.7522260671E+002 
2637048.811 +1.2526211850E-001 +1.6288914846E+002  +1.7802626203E-002 +6.5380062368E+001  +1.6099712549E-002 -6.1082104563E+001  +2.1428388442E-001 -1.6742854822E+002 
2762193.992 +1.2204624625E-001 +1.7152684693E+002  +5.7397578139E-002 +1.8348434083E+001  +5.6832746662E-002 -8.5648570789E+001  +6.6480450827E-002 -9.4302176508E+001 
2887339.174 +1.3751494743E-001 +1.7444900682E+002  +2.9790478593E-002 +7.2543261245E+000  +2.7623883607E-002 -8.8090464854E+001  +1.1733844626E-001 -1.5978219683E+002 
3012484.355 +1.1615888207E-001 +1.7538444238E+002  +4.0169649900E-002 -3.1260200486E+001  +3.7446351501E-002 -1.1901176331E+002  +2.2985392302E-001 -1.1452079929E+002 
3137629.537 +1.0403012460E-001 +1.6969988993E+002  +6.3986667707E-002 +1.9927753475E+001  +6.4615815250E-002 -6.2593777690E+001  +3.0376445416E-002 -3.1586699542E+001 
3262774.718 +1.3964648906E-001 +1.6729536223E+002  +3.5933812183E-002 +8.4058189002E+000  +3.2919041152E-002 -8.1796496781E+001  +1.3445657169E-001 -1.1590392100E+002 
3387919.900 +1.0234865016E-001 +1.6005424500E+002  +1.0489891697E-001 -1.3038313010E+001  +1.1430915442E-001 -9.2490178751E+001  +4.5263486882E-001 -7.1286983774E+001 
3513065.081 +1.8757886026E-001 +1.1343363295E+002  +1.0282519655E+000 +1.2063178860E+002  +9.8763172032E-001 +4.5356105890E+001  +7.9098828509E+000 +1.0840227958E+002 
3638210.263 +1.6271461513E-001 +1.4802616931E+002  +6.5623922946E-002 +1.2307827879E+002  +7.1507540734E-002 +4.3514067749E+001  +5.7955470105E-001 +1.3886980284E+002 
3763355.444 +1.8295187824E-001 +1.5432769386E+002  +6.8328724676E-002 +1.4628141042E+002  +6.1041860102E-002 +6.4656004427E+001  +7.6776096456E-001 +1.5265844100E+002 
3888500.626 +1.7735047647E-001 +1.4937123436E+002  +4.1239843708E-002 +8.5506640631E+001  +4.3267242465E-002 +6.1823230365E+000  +2.2328781195E-001 +1.5319780548E+002 
4013645.807 +1.9618943532E-001 +1.5144501582E+002  +5.4789170909E-002 +1.2650146104E+002  +5.7994845827E-002 +5.7396435521E+001  +5.4146713112E-001 +1.4490894615E+002 
4138790.989 +1.7092545965E-001 +1.5512741613E+002  +5.4691112373E-002 +6.4425955591E+001  +4.3325713607E-002 +9.0746663416E-001  +2.6317336631E-001 +1.3912789424E+002 
4263936.170 +1.9046686894E-001 +1.4976209834E+002  +5.8401676240E-002 +1.1116991663E+002  +4.9515966166E-002 +3.6303717283E+001  +4.9564755331E-001 +1.5189978977E+002 
4389081.352 +1.5760175672E-001 +1.4825781538E+002  +1.3054118704E-001 +6.6401218646E+001  +1.1834461584E-001 +8.9686419492E-002  +5.6154228113E-001 +8.8483419189E+001 
4514226.533 +2.2114958698E-001 +1.4288074052E+002  +1.2406531424E-001 +1.1221680491E+002  +1.2937778142E-001 +5.9312399589E+001  +9.1399840080E-001 +1.2431760136E+002 
4639371.715 +2.9236822046E-001 +1.4524336068E+002  +1.9343576934E-001 +1.5208038895E+002  +1.7876828428E-001 +9.4172944163E+001  +1.6600517554E+000 +1.3154970290E+002 
4764516.896 +3.2433976330E-001 +1.5040634155E+002  +6.0329858997E-001 -1.3379205313E+002  +5.2559643122E-001 +1.7837212424E+002  +3.9214751112E+000 -1.6646411309E+002 
4889662.078 +2.6882596695E-001 +1.5820453054E+002  +1.1492238001E+000 -8.9759449167E+001  +9.4551186265E-001 -1.3628525464E+002  +8.2960615969E+000 -1.3950996675E+002 
5014807.259 +2.5450774024E-001 +1.2558890909E+002  +7.0146759182E-001 -2.1064950625E+001  +6.4961199687E-001 -6.8696566214E+001  +4.6399344924E+000 -7.2738609833E+001 
5139952.441 +3.3023927974E-001 +1.2835198908E+002  +3.7064945669E-001 +8.4809232097E+001  +3.1556688266E-001 +4.8793093443E+001  +2.2298554762E+000 +7.1643059961E+001 
5265097.622 +4.4838891494E-001 +1.2947713493E+002  +2.8656159566E-001 +1.2595107113E+002  +2.8455355553E-001 +8.0953252403E+001  +1.4130865519E+000 +1.0380366397E+002 
5390242.804 +3.6608055358E-001 +1.3135886359E+002  +3.6942453156E-001 +1.1713870237E+002  +3.4150731287E-001 +8.3439711605E+001  +2.7779822507E+000 +1.1425326457E+002 
5515387.985 +4.3597239319E-001 +1.1999061159E+002  +3.7663475728E-001 +9.6540204606E+001  +3.2283480933E-001 +6.8430887526E+001  +1.9006512317E+000 +9.0302442768E+001 
5640533.166 +3.8669030884E-001 +1.1983810915E+002  +2.7026855619E-001 +1.0292969642E+002  +2.6735688626E-001 +7.3521602729E+001  +1.7460602193E+000 +1.1692923096E+002 
5765678.348 +4.5165961834E-001 +1.2302198452E+002  +1.9768243523E-001 +9.1193829105E+001  +1.9328270508E-001 +5.9447629785E+001  +9.4890648591E-001 +1.0581688625E+002 
5890823.529 +4.7992133323E-001 +1.2099001015E+002  +2.7766412946E-001 +7.1937368856E+001  +2.8822003963E-001 +4.4655781972E+001  +1.4952099989E+000 +6.5357714545E+001 
6015968.711 +4.9956701036E-001 +1.0726297023E+002  +3.2157198609E-001 +6.6366991003E+001  +3.3175634918E-001 +4.1671763090E+001  +1.5577301364E+000 +6.8837729861E+001 
6141113.892 +6.1678980253E-001 +1.1464993135E+002  +2.5359263148E-001 +5.7824980469E+001  +2.6085393475E-001 +3.9542565553E+001  +9.6814737234E-001 +4.3514708265E+001 
6266259.074 +5.5232025859E-001 +1.0759260530E+002  +2.8256612996E-001 +3.7171882287E+001  +2.8539195760E-001 +2.4718524912E+001  +1.2192538652E+000 +3.1619678053E+001 
6391404.255 +7.8177504431E-001 +9.7759317857E+001  +3.5074527288E-001 +4.4491874246E+001  +3.4425286380E-001 +2.9861756274E+001  +1.4667894430E+000 +2.6785764999E+001 
6516549.437 +8.5923019582E-001 +7.8498976186E+001  +3.3457881551E-001 +3.2282415139E+001  +3.4854608229E-001 +1.5813870190E+001  +9.8595316965E-001 +1.5476037822E+001 
6641694.618 +1.1938447564E+000 +6.9993751105E+001  +4.3909281777E-001 +3.7151929857E+001  +4.4870683533E-001 +2.7287431931E+001  +1.4303896889E+000 +3.1392709111E+001 
6766839.800 +1.3872675024E+000 +4.8465995958E+001  +4.2940520925E-001 +1.6081281877E+001  +4.1035141603E-001 +5.7649189923E+000  +1.0133759591E+000 -1.0323867348E+001 
6891984.981 +1.5055880151E+000 +2.9168428489E+001  +4.2815630096E-001 +1.0219710351E+001  +4.0316351931E-001 +1.2859097023E+000  +9.7838527904E-001 -5.7284458296E+000 
7017130.163 +1.2543358091E+000 +2.2317618743E+001  +3.4143025649E-001 +5.0614176788E+000  +3.3316468934E-001 -1.6877802038E+000  +9.1407263707E-001 -2.4597607353E+000 
7142275.344 +1.0191864062E+000 +1.1813095267E+001  +2.7670501908E-001 +7.8646362742E-002  +2.8328333955E-001 -4.1514538901E+000  +9.1094440297E-001 -6.1206104136E+000 
7267420.526 +1.1175551499E+000 +9.6893996134E+000  +2.6377499723E-001 +3.7158877782E+000  +2.5568112643E-001 +7.2613372839E-001  +1.0750618989E+000 -1.5023832853E+001 
7392565.707 +1.0440113214E+000 -2.3000644487E+000  +2.4015586266E-001 +3.2107174778E+000  +2.2963709374E-001 +3.1396615713E+000  +1.1311253575E+000 -1.4417118619E+001 
7517710.889 +9.7826792506E-001 -7.1649487696E-001  +2.1331330343E-001 +4.2510952501E+000  +2.0608663752E-001 +4.4368349679E+000  +9.0682614084E-001 -5.7640782098E+000 
7642856.070 +7.6907478335E-001 -3.6625233130E+000  +1.9834405473E-001 +8.4635846682E-001  +1.9773450218E-001 +5.1934626679E+000  +8.9634600664E-001 -1.0251895464E+001 
7768001.252 +6.3865472153E-001 +2.7493143071E+000  +1.8407006206E-001 +1.0460806447E+000  +1.8537206704E-001 +4.4023859078E+000  +8.3400307723E-001 +1.0821879919E+000 
7893146.433 +7.4878768836E-001 +4.6456227064E+000  +1.7935497553E-001 +1.1821143113E+000  +1.8440940419E-001 +6.3771769089E+000  +7.5517994397E-001 -2.1264788662E+000 
8018291.615 +5.7947728818E-001 +3.2607338634E+000  +1.8331124309E-001 -2.7001715981E+000  +1.7717341886E-001 +6.2255313278E+000  +6.8162187924E-001 -3.5371108344E+000 
8143436.796 +6.1666040230E-001 +1.0403274579E+001  +1.6590320244E-001 -2.4441323621E+000  +1.6784945655E-001 +7.2719985474E+000  +5.9353978925E-001 -7.1769578263E+000 
8268581.977 +5.3231331252E-001 +1.2489097213E+001  +1.6337276487E-001 -2.4327944570E+000  +1.6127760486E-001 +6.9719994971E+000  +5.9725603194E-001 +1.2957905475E+000 
8393727.159 +5.3448523899E-001 +1.8993304037E+001  +1.5947945152E-001 -3.0429052520E+000  +1.6124445307E-001 +8.5442865776E+000  +5.3199000333E-001 +6.5603980393E+000 
8518872.340 +5.2692696450E-001 +1.6882550275E+001  +1.5915322256E-001 -4.6542945347E+000  +1.5942928142E-001 +8.1625811677E+000  +5.0109708118E-001 +4.9524456064E+000 
8644017.522 +4.4555287434E-001 +1.0976455219E+001  +1.5480822474E-001 -3.3748610806E+000  +1.5528528903E-001 +8.8147612827E+000  +5.3350100455E-001 +8.3308714895E+000 
8769162.703 +4.5743049709E-001 +1.5423279614E+001  +1.5383286516E-001 -4.0655157150E+000  +1.5202640591E-001 +9.2358807089E+000  +4.9096963402E-001 +5.9823320201E+000 
8894307.885 +4.1584464631E-001 +2.5701222588E+000  +1.5685707363E-001 -6.9274099106E+000  +1.5390339655E-001 +8.6475715294E+000  +4.1069797680E-001 +2.4442011974E+000 
9019453.066 +4.2582702583E-001 +9.9206272278E+000  +1.5978249553E-001 -4.5931490524E+000  +1.5291083597E-001 +1.0345804103E+001  +4.7613505885E-001 -3.4845278343E-001 
9144598.248 +4.1785979296E-001 +1.7503657256E+001  +1.5449582076E-001 -5.7057270036E+000  +1.4872286601E-001 +1.0344763997E+001  +4.5804061526E-001 +7.5523772159E+000 
9269743.429 +4.0078206728E-001 +9.1425533800E+000  +1.5703477840E-001 -2.9846943653E+000  +1.5136666074E-001 +1.0038454539E+001  +4.7096679303E-001 -4.7491149304E+000 
9394888.611 +4.0534782078E-001 +5.5757179108E+000  +1.5584852925E-001 -5.1133541407E+000  +1.4971310948E-001 +1.2059047047E+001  +3.9161115698E-001 +2.1640234869E-002 
9520033.792 +3.9438728203E-001 +8.1534116518E+000  +1.5178590393E-001 -5.2334885446E+000  +1.4957896603E-001 +1.0185899173E+001  +3.5620350282E-001 +5.2492058689E+000 
9645178.974 +3.5530084115E-001 +3.7620443320E+000  +1.5507138398E-001 -3.2035461304E+000  +1.5186804113E-001 +1.0475628911E+001  +4.5418758055E-001 +1.5128589322E+000 
9770324.155 +3.2034007272E-001 +2.4422253125E+000  +1.5197247965E-001 -4.4441092414E+000  +1.5218220452E-001 +1.0413603335E+001  +4.1623092692E-001 +4.1577358698E+000 
9895469.337 +3.4639074402E-001 +3.8545950246E+000  +1.5280517157E-001 -4.9563902493E+000  +1.5305216118E-001 +1.1803444990E+001  +4.0906942604E-001 -4.8649551790E+000 
10020614.518 +3.8812982682E-001 +5.8513148337E+000  +1.5851805227E-001 -4.1974186799E+000  +1.5344814152E-001 +1.0640372480E+001  +4.2607417888E-001 +1.3487639068E+000 
10145759.700 +3.7155956731E-001 +4.6076720896E+000  +1.5629655474E-001 -3.8830899510E+000  +1.5655641132E-001 +1.1626085777E+001  +4.4110505587E-001 +8.9099298411E-001 
10270904.881 +4.1112188589E-001 +8.1290455156E+000  +1.5596807994E-001 -3.4979278516E+000  +1.5412016099E-001 +1.1913586893E+001  +3.8539482960E-001 -1.0826568453E+000 
10396050.063 +3.6389324372E-001 +6.6387141718E+000  +1.5612128865E-001 -3.7446452065E+000  +1.5444282626E-001 +1.1915334897E+001  +4.1224169731E-001 +4.4186461092E+000 
10521195.244 +4.2174376480E-001 +1.0459876138E+001  +1.5828572265E-001 -2.3070584612E+000  +1.5464086680E-001 +1.3019209531E+001  +4.1853190345E-001 +4.8478560844E+000 
10646340.426 +3.7542936047E-001 +1.1056699397E+001  +1.5927183231E-001 -2.9907105895E+000  +1.5503580889E-001 +1.2273677426E+001  +4.0742941876E-001 +5.3039371514E+000 
10771485.607 +4.3446428302E-001 +1.0908200681E+001  +1.6206189306E-001 -1.8837559259E+000  +1.5647524720E-001 +1.2314552490E+001  +4.2747547413E-001 +4.9829505952E+000 
10896630.788 +4.1926295535E-001 +1.5512169142E+001  +1.5784181506E-001 -2.0915476040E+000  +1.5741793329E-001 +1.2911909083E+001  +4.2275773903E-001 +1.1544764158E+001 
11021775.970 +4.2447206487E-001 +7.4256634267E+000  +1.6480858786E-001 -1.1384201636E+000  +1.6089903824E-001 +1.1953458790E+001  +4.2155768477E-001 +5.8549592701E+000 
11146921.151 +4.3277618812E-001 +1.2268718003E+001  +1.6191567760E-001 -7.5212124378E-001  +1.6151613029E-001 +1.2630395496E+001  +4.7610523363E-001 +4.2313357667E+000 
11272066.333 +4.7247004706E-001 +9.0716047936E+000  +1.6508439880E-001 -7.6072329458E-001  +1.6359501332E-001 +1.3066457349E+001  +4.5355548573E-001 +3.7995282988E+000 
11397211.514 +4.4444246207E-001 +1.4178847717E+001  +1.6587599758E-001 -1.9991734769E-001  +1.6348988471E-001 +1.1629047136E+001  +4.7155062397E-001 +6.5411444677E+000 
11522356.696 +4.5737612404E-001 +1.0950495979E+001  +1.6850737556E-001 -7.9133735324E-001  +1.6827368492E-001 +1.1402079045E+001  +4.5829791295E-001 +1.4423172700E+000 
11647501.877 +4.8410478511E-001 +8.3443881722E+000  +1.7091615477E-001 +6.7585925485E-001  +1.6856289840E-001 +1.2597387135E+001  +5.0043179156E-001 +7.2363059353E+000 
11772647.059 +4.6145625406E-001 +6.4728040512E+000  +1.7194810492E-001 +2.8820947705E-001  +1.7067296346E-001 +1.1503610351E+001  +4.9261736816E-001 +6.7983421430E+000 
11897792.240 +4.3594429331E-001 +6.4147105749E+000  +1.7237666378E-001 -3.9728208162E-001  +1.7069736141E-001 +9.9287820735E+000  +4.9264764763E-001 +4.0713378282E+000 
12022937.422 +5.2811649583E-001 +4.7724187162E+000  +1.7582271717E-001 +1.3679554969E+000  +1.7551999866E-001 +1.1178605191E+001  +5.1458076278E-001 +4.9832615916E+000 
12148082.603 +5.0270401568E-001 +5.9369968678E+000  +1.7875458609E-001 +3.3349522439E-001  +1.7656146003E-001 +1.0031154961E+001  +5.3615678679E-001 +1.1897434629E+000 
12273227.785 +5.3739625961E-001 +6.3356322793E+000  +1.7977752794E-001 +1.4842081656E+000  +1.7820670012E-001 +1.0220501424E+001  +5.3840513692E-001 +3.6300624435E+000 
12398372.966 +5.4286242919E-001 +8.4658743043E+000  +1.8113978870E-001 +1.1091019744E+000  +1.7746580468E-001 +1.0136742201E+001  +5.5766244973E-001 +3.2426253731E+000 
12523518.148 +5.5461308991E-001 +6.1027777957E+000  +1.8445464733E-001 +1.6408609486E+000  +1.7981764199E-001 +8.9417962263E+000  +5.6300736660E-001 +3.8696131342E+000 
12648663.329 +5.6773692117E-001 +4.3065918137E+000  +1.8552565180E-001 +1.7921014893E+000  +1.8344285908E-001 +9.1966239938E+000  +5.7210348237E-001 +1.7098516032E+000 
12773808.511 +5.6561783531E-001 +1.9731517293E+000  +1.8820272723E-001 +2.0521377595E+000  +1.8566177679E-001 +7.8253776972E+000  +5.6832175823E-001 -8.6273310818E-001 
12898953.692 +5.7951897131E-001 +3.0640958510E+000  +1.8745588462E-001 +1.1623231719E+000  +1.8576549859E-001 +7.6605048485E+000  +5.6944777654E-001 +1.7653398152E-001 
13024098.874 +6.0123249898E-001 +2.6247539936E+000  +1.9129325345E-001 +2.7441446212E+000  +1.8971018997E-001 +6.2988450206E+000  +6.1619942298E-001 +8.6452168947E-001 
13149244.055 +6.1652687004E-001 +9.2346429880E-001  +1.9346270989E-001 +2.5826772676E+000  +1.9220716928E-001 +6.6007875952E+000  +6.2817193354E-001 -2.4708451909E+000 
13274389.237 +6.0311912255E-001 +1.5087095786E+000  +1.9372064430E-001 +1.7148492125E+000  +1.9179511812E-001 +6.6110424743E+000  +6.3481139921E-001 -1.0386657142E+000 
13399534.418 +6.5034572304E-001 -1.4155238529E+000  +1.9672139876E-001 +1.9857033040E+000  +1.9607330688E-001 +5.9199264977E+000  +6.3925481878E-001 -2.8548116764E+000 
13524679.599 +6.7034775034E-001 -2.4184033579E+000  +2.0065703156E-001 +2.4912955956E+000  +1.9503556565E-001 +4.8095971081E+000  +6.4375120592E-001 -1.5352578925E+000 
13649824.781 +6.7606645595E-001 -1.0009958054E+000  +1.9795586255E-001 +1.9393208984E+000  +1.9522388280E-001 +4.7155887291E+000  +6.8566988974E-001 -1.5560046199E+000 
13774969.962 +7.0160209931E-001 -1.7456746141E+000  +2.0025888384E-001 +2.2142170785E+000  +1.9786581861E-001 +4.4200407229E+000  +6.9842550394E-001 -2.4859421371E+000 
13900115.144 +7.0643017008E-001 -2.5048871833E+000  +2.0193477578E-001 +1.8570430777E+000  +1.9844559025E-001 +3.9928063448E+000  +7.3775723807E-001 -5.6182629993E+000 
14025260.325 +7.1331779664E-001 -3.8082878573E+000  +2.0473862731E-001 +1.7817118295E+000  +2.0177754300E-001 +3.5727060073E+000  +7.3365117052E-001 -3.9955910952E+000 
14150405.507 +7.3870969934E-001 -4.1571852419E+000  +2.0583850122E-001 +1.6007832748E+000  +2.0240934850E-001 +2.8496972871E+000  +7.4954867028E-001 -5.4262804743E+000 
14275550.688 +7.2933233315E-001 -4.9189051225E+000  +2.0551192699E-001 +1.3078703737E+000  +2.0310123048E-001 +2.5028141012E+000  +7.6405659123E-001 -4.4193847553E+000 
14400695.870 +7.5962071748E-001 -5.7718585407E+000  +2.0834444138E-001 +1.5257011137E+000  +2.0479409919E-001 +1.7879834158E+000  +7.7487275086E-001 -5.1223382659E+000 
