!  2-Port S-parameters saved by WinCal
! VAR MeasName=S-Parameters (CALIBRATED_DATA) read from VNA (P5004A)
! VAR MeasDate=29/08/2024 14:14:47
! VAR NAME=S2_r9c6_SET2_9k-100M_3
! VAR FILENAME=S2_r9c6_SET2_9k-100M_3.S2P
! VAR DATE=29/08/2024 14:14:47
! VAR PHYS_PORTS=1,2
! VAR ObjTypeName=DATASET
! VAR IndexType=Frequency
!
# Hz S MA R 50
9000.000 +8.8145529059E-002 -1.7368996474E+002  +5.9936892750E-004 -1.7086265208E+002  +1.4674585569E-003 +9.0988779973E+001  +2.7059906856E-001 -1.5314713877E+002 
134145.181 +1.1125292450E-001 +1.6979010754E+002  +3.4754441473E-004 -1.5252176612E+002  +6.7616553608E-004 +1.5910544081E+001  +2.4385909606E-001 -1.6978083335E+002 
259290.363 +1.1273513640E-001 +1.6988279100E+002  +3.5939889402E-004 -1.1311028061E+002  +9.2440716901E-005 -8.1529296650E+001  +2.5271231491E-001 -1.6903371996E+002 
384435.544 +1.1502573898E-001 +1.6962606759E+002  +3.7996111049E-004 -1.5170997404E+001  +4.6504036315E-004 -3.9009001095E+000  +2.4695583742E-001 -1.6956995773E+002 
509580.726 +1.1526751772E-001 +1.7119365292E+002  +9.2275936078E-004 -1.1570794548E+002  +4.0634732426E-004 -9.0543323379E+001  +2.5013620757E-001 -1.6307137288E+002 
634725.907 +1.1366227211E-001 +1.7203435858E+002  +4.6104672533E-004 -1.3548261651E+001  +1.6537346313E-003 -9.1204579009E+001  +2.5805111453E-001 -1.6180106680E+002 
759871.089 +1.2112032197E-001 +1.7124209405E+002  +7.4705617391E-005 +7.3955322704E+001  +8.1742421447E-005 -1.1004471568E+002  +2.5127849671E-001 -1.6665360862E+002 
885016.270 +1.2072396582E-001 +1.6948443577E+002  +2.8343356762E-004 +1.7664117634E+002  +3.5438665672E-004 +8.4680524234E+001  +2.4898394520E-001 -1.6740293705E+002 
1010161.452 +1.1908150300E-001 +1.7102539445E+002  +8.5633931280E-004 +2.1586859305E+001  +1.4591295422E-003 -1.6028794466E+002  +2.0642008150E-001 -1.7066366415E+002 
1135306.633 +1.1687149735E-001 +1.6902014354E+002  +1.0122495056E-003 +2.7472123715E+001  +2.0359702709E-003 +1.3961646462E+002  +2.1311703338E-001 -1.6380481633E+002 
1260451.815 +1.1937896639E-001 +1.6999973836E+002  +1.4319031380E-003 +1.4226676814E+002  +5.8782712744E-004 -6.1935304319E+001  +2.4146948698E-001 -1.5977024193E+002 
1385596.996 +1.2692176103E-001 +1.7198311325E+002  +1.0054277025E-003 -5.4782545078E+001  +3.6853003843E-004 +7.4271609262E+001  +2.9157719374E-001 -1.5781785213E+002 
1510742.178 +1.2359948609E-001 +1.7345084600E+002  +1.4785822648E-003 +1.5130044537E+002  +5.6449941008E-004 -5.1444274745E+001  +2.6468012488E-001 -1.5772113472E+002 
1635887.359 +1.2919011515E-001 +1.7164430917E+002  +1.4043724868E-003 -5.0078005865E+001  +5.6279286461E-004 +1.2970012035E+002  +2.2927558435E-001 -1.5531148010E+002 
1761032.541 +1.3048657524E-001 +1.6918413337E+002  +7.2983624402E-004 +1.3738973375E+002  +7.1741875112E-004 -6.4719662214E-001  +2.3681940092E-001 -1.6079245527E+002 
1886177.722 +1.3083493599E-001 +1.7047019607E+002  +1.4558425284E-003 +1.5859630551E+002  +8.4437260812E-004 -7.3616531040E+001  +2.0513124498E-001 -1.6260688422E+002 
2011322.904 +1.3213273418E-001 +1.6611831279E+002  +1.4318249839E-003 +6.3971138840E+001  +2.7004986194E-003 -1.0326051722E+002  +1.9779788505E-001 -1.5715301277E+002 
2136468.085 +1.2230379025E-001 +1.6985213860E+002  +2.5381636655E-003 +1.0306824797E+002  +2.8305057844E-003 -2.9628476943E+001  +1.7108652497E-001 -1.6984780783E+002 
2261613.267 +1.4035227246E-001 +1.6477866799E+002  +1.6885740623E-003 +3.8218970365E+001  +1.6505534211E-003 -1.3985574421E+002  +1.9338932324E-001 +1.7844135748E+002 
2386758.448 +1.3070083946E-001 +1.6346589941E+002  +8.5237870009E-004 -1.2638152271E+002  +4.1059886192E-003 -2.1831396487E+001  +2.3897826946E-001 +1.7510051650E+002 
2511903.630 +1.3789124039E-001 +1.6028494323E+002  +1.0987146777E-002 +1.1780556385E+002  +1.9553628532E-002 -4.8433718775E+001  +2.6055267868E-001 +9.9740287244E+001 
2637048.811 +1.3373690362E-001 +1.5598810447E+002  +1.2738599165E-002 -1.5138493570E+002  +2.3494437414E-002 -3.3598699429E+000  +2.7411958225E-001 +1.3099167263E+002 
2762193.992 +1.2127926720E-001 +1.7049829228E+002  +3.6596580784E-002 -1.2658591054E+001  +2.8336711418E-002 -9.3637853616E+001  +2.6606276331E-001 +2.5912433836E+001 
2887339.174 +1.2322389433E-001 +1.6405672025E+002  +3.6197152602E-002 +2.6749219903E+001  +4.0842860930E-002 -8.6904784138E+001  +6.2859473186E-001 +2.9041204461E+001 
3012484.355 +1.3801678435E-001 +1.7991746000E+002  +6.3221080236E-003 -6.8519807776E+000  +6.3794909340E-003 -1.4589737117E+002  +1.7180678915E-001 -1.3296775128E+002 
3137629.537 +1.1202235703E-001 +1.7498903475E+002  +1.5902206738E-002 +3.8298858499E+001  +1.9867873929E-002 -1.0120412187E+002  +1.0232359368E-001 +9.3234660918E+001 
3262774.718 +1.3715723584E-001 +1.7121230379E+002  +1.3846618633E-002 +2.9280415274E+001  +2.2088363938E-002 -9.9361218799E+001  +1.5201341770E-001 -5.6143577186E+001 
3387919.900 +1.3728097899E-001 +1.7820344784E+002  +2.1511748998E-002 -2.2738795317E+001  +2.1468452114E-002 -1.2952402533E+002  +1.1985522815E-001 -1.5463481563E+000 
3513065.081 +1.3684213649E-001 +1.5430857713E+002  +1.4516260349E-002 +2.9377678727E+001  +1.1345594524E-002 +9.1145402048E+000  +2.4062219827E-001 +6.0904895227E+001 
3638210.263 +1.2701616992E-001 +1.3963321300E+002  +5.1028783998E-002 +7.8548780361E+001  +6.4269813780E-002 +4.4764512640E+001  +1.2448593924E+000 +1.3168391293E+002 
3763355.444 +1.6155274478E-001 +1.4630658766E+002  +2.0075908800E-002 +5.0006419181E+001  +1.5204817732E-002 +3.3555095063E+000  +1.2315975895E-001 +1.3121263416E+002 
3888500.626 +1.8106390438E-001 +1.3644603505E+002  +1.4921018773E-002 +1.0285008439E+002  +7.3251082472E-003 +3.9456169647E+001  +2.8739611567E-001 +1.5408783475E+002 
4013645.807 +1.9762726287E-001 +1.5195492703E+002  +1.4191704365E-002 +1.1625562730E+002  +1.7415326579E-002 +3.6597631767E+001  +4.1773410046E-001 +1.1147403521E+002 
4138790.989 +1.7603050468E-001 +1.4797961493E+002  +2.2022515038E-002 +9.8267526575E+001  +2.8870603971E-002 -3.6814351759E+001  +5.7776289883E-001 +3.2542688182E+001 
4263936.170 +1.9868069983E-001 +1.4060905153E+002  +3.5501376219E-003 +1.4173843531E+002  +9.2584404244E-003 +3.1455339922E+001  +3.4923928649E-001 +1.6019368393E+002 
4389081.352 +1.9575078054E-001 +1.4734227146E+002  +2.5498445915E-002 +9.0624794225E+001  +1.8963379537E-002 +5.4576837356E+000  +6.4500077312E-001 +1.0851911603E+002 
4514226.533 +2.0599886236E-001 +1.3031383681E+002  +3.2796472040E-002 +1.5357371965E+002  +3.0914366980E-002 +9.0036644806E+001  +7.5438524048E-001 +1.3939658979E+002 
4639371.715 +2.5871416927E-001 +1.2064850357E+002  +7.7630783423E-002 +2.3558841244E+001  +8.4647939300E-002 -7.7482508009E+000  +1.2424665988E+000 +1.1382472834E+001 
4764516.896 +4.8291689124E-001 +1.2634754843E+002  +7.5528096677E-002 +1.2838107664E+002  +1.3258214452E-001 +8.3031088006E+001  +1.6809753939E+000 +9.7068237770E+001 
4889662.078 +4.4021937494E-001 +1.3529370753E+002  +6.3552222552E-002 -1.4225802616E+002  +6.6083559769E-002 +1.3206638070E+002  +1.7468905140E+000 +1.6180511823E+002 
5014807.259 +4.5476467197E-001 +1.2089560623E+002  +7.7025634515E-001 +6.4838554247E+001  +3.4060050990E-001 -3.6385313132E+001  +1.5615787846E+001 -1.9944237490E+001 
5139952.441 +4.3370334944E-001 +1.1615610553E+002  +7.6115022962E-002 +1.2832467001E+002  +7.6673789476E-002 +1.1305140937E+002  +1.5210911728E+000 +1.3157616180E+002 
5265097.622 +3.8838404066E-001 +1.3473477270E+002  +7.1611452868E-002 +1.5918431384E+002  +5.9280419335E-002 +1.2641989642E+002  +2.9254102604E+000 +1.3843124845E+002 
5390242.804 +4.3384729595E-001 +1.2629265734E+002  +5.5028458706E-002 +8.3247245095E+001  +5.6338775010E-002 +5.1459891292E+001  +1.5584809823E+000 +7.5986028213E+001 
5515387.985 +3.6617896328E-001 +1.2981187779E+002  +9.3259416296E-002 +1.1914288477E+002  +6.0750583706E-002 +5.8185533817E+001  +3.0075681376E+000 +1.1758511898E+002 
5640533.166 +4.1988344899E-001 +1.2322995652E+002  +1.0052195718E-001 +7.5851462233E+001  +8.7210873414E-002 +7.5788339292E+001  +2.2829009436E+000 +7.6634884370E+001 
5765678.348 +5.3098452881E-001 +1.2653504914E+002  +7.9086991654E-002 +1.1261775113E+002  +8.8419700651E-002 +7.8588606837E+001  +2.9844185402E+000 +8.0126878871E+001 
5890823.529 +5.6990932812E-001 +1.2566142786E+002  +7.5424342196E-002 +5.3756326040E+001  +5.7505872427E-002 +2.9299231600E+001  +2.1079417962E+000 +2.2627226223E+001 
6015968.711 +6.2697685904E-001 +1.1872522408E+002  +6.2407701934E-002 +7.3968230962E+001  +9.4741491737E-002 +3.8124661370E+001  +1.5056832979E+000 +3.9453802970E+001 
6141113.892 +7.5143382362E-001 +1.1049208120E+002  +6.8065098679E-002 +4.8273475331E+001  +7.4775110094E-002 +7.0130801078E+000  +1.5381551444E+000 +2.3103880537E+001 
6266259.074 +7.9198763786E-001 +1.0618695115E+002  +8.2023308718E-002 +6.6498381878E+001  +7.0933841030E-002 +2.0180295431E+001  +1.5673311825E+000 +2.4004983576E+001 
6391404.255 +8.4033246911E-001 +9.7637585512E+001  +7.0660914078E-002 +5.4702515157E+001  +7.8480566756E-002 +6.6219932316E+000  +1.7942932510E+000 +2.1340119067E+001 
6516549.437 +9.1265440590E-001 +8.7260249747E+001  +7.0606586676E-002 +3.2663441144E+001  +5.1777592525E-002 +3.1184725381E+001  +1.2320768636E+000 +2.9472438247E+001 
6641694.618 +1.1137028831E+000 +7.0781997874E+001  +9.2784269088E-002 +3.3309146780E+001  +1.1112569838E-001 +2.6235007300E+000  +1.7069414300E+000 +2.0909057830E+000 
6766839.800 +1.2474288429E+000 +6.8445838813E+001  +8.8255198990E-002 +1.6400523302E+001  +7.3598484407E-002 +5.8331304332E+000  +1.2679919818E+000 -3.3763520677E-001 
6891984.981 +1.3703709609E+000 +3.4179632721E+001  +7.7815385861E-002 -6.2666811698E+000  +5.7353465639E-002 +6.0636928372E+000  +1.1477021602E+000 -1.2456934611E+001 
7017130.163 +1.8724151991E+000 +2.1786923064E+001  +8.2495119021E-002 -2.7623140231E+000  +7.1601316440E-002 +6.7211645979E+000  +1.0781937053E+000 -1.1454383057E+000 
7142275.344 +1.5237308617E+000 +5.8213945673E+000  +6.4725724839E-002 +3.5367646435E+000  +6.8356534437E-002 +3.6150516252E+000  +1.2001701075E+000 -1.0629529977E+001 
7267420.526 +1.5690262265E+000 -1.3499255343E+000  +6.2580101107E-002 +7.5995697073E+000  +5.1699732124E-002 -4.4929854786E+000  +1.1862373466E+000 -9.9934944899E+000 
7392565.707 +1.2335473381E+000 -3.5707953480E+000  +4.4128381464E-002 +5.8750920624E+000  +3.6929272248E-002 +1.8890190856E+001  +1.2717352069E+000 -5.0009140531E+000 
7517710.889 +1.0274427693E+000 +8.6323909194E+000  +4.3775163453E-002 +1.1215921545E+001  +3.9030757131E-002 +1.2991272921E+001  +1.1368040887E+000 +8.0013851406E-001 
7642856.070 +1.0548195528E+000 +1.7337533344E+000  +4.4368814365E-002 +4.6284546684E+000  +4.3853929895E-002 +8.3776848032E+000  +1.0120007194E+000 -1.5380041547E+000 
7768001.252 +8.6379241128E-001 +3.3986260053E+000  +2.6824760558E-002 +1.4257664150E+000  +3.2524096427E-002 +5.3309301968E+000  +9.2035241687E-001 -1.8079112865E+000 
7893146.433 +8.1890233476E-001 -2.5713225932E-001  +3.3514140084E-002 -1.3699124654E+001  +3.4689539040E-002 +9.1552263370E+000  +8.8980626189E-001 -4.6826454556E+000 
8018291.615 +7.6732010145E-001 +7.0030306209E+000  +3.6697888986E-002 +4.2623116319E+000  +3.1361051821E-002 +1.4789125619E+000  +8.6085609626E-001 +7.7363951146E+000 
8143436.796 +6.9416562432E-001 +2.4840516787E+000  +2.9735609308E-002 +6.5110431061E+000  +3.7980647299E-002 +8.3710608436E+000  +8.1731589968E-001 -5.6155704409E+000 
8268581.977 +6.9001413546E-001 +9.5317409955E+000  +3.0393401434E-002 -2.6581467822E+000  +3.2361396295E-002 +9.3211374725E+000  +7.7408806694E-001 +2.1114693571E+000 
8393727.159 +6.3199953217E-001 +1.6471063223E+001  +3.2203670329E-002 -4.7893805203E+000  +3.2256820862E-002 +9.5916188630E+000  +7.2789400917E-001 +2.5654933935E+000 
8518872.340 +6.0504142646E-001 +8.3165200890E+000  +2.6843631932E-002 -8.0983759978E+000  +2.9141006573E-002 +7.2589483078E+000  +6.7128967192E-001 +2.5759697572E-001 
8644017.522 +5.8714570890E-001 +8.7606785890E+000  +2.8595756406E-002 -6.6648833725E+000  +2.6922686102E-002 +4.3619364031E+000  +6.3409458480E-001 +7.9023155820E-001 
8769162.703 +6.1311462556E-001 +1.0393265023E+001  +3.1999388813E-002 +3.9587929850E+000  +2.8671068648E-002 +1.8686497425E+001  +6.7330774634E-001 -2.4023948998E+000 
8894307.885 +5.9177042634E-001 +1.0893273706E+001  +2.5577277225E-002 -4.9623788896E-002  +2.7578299403E-002 +1.0839209918E+001  +5.9034517317E-001 +4.6849374137E+000 
9019453.066 +5.6260916415E-001 +1.0308045934E+001  +2.8621088628E-002 -4.4791943678E+000  +2.6990355905E-002 +1.0758186800E+001  +6.3637987520E-001 -9.0390971176E-001 
9144598.248 +5.6161256065E-001 +4.5293132616E+000  +2.7848499873E-002 -5.9229609791E+000  +2.9986175550E-002 +4.4162781016E+000  +6.1359943997E-001 +3.2375003513E-001 
9269743.429 +5.6698479089E-001 +8.1022262144E+000  +3.0711164447E-002 -3.3456160555E+000  +2.6273702012E-002 +1.1699597810E+001  +5.9598404622E-001 -6.5585609924E-001 
9394888.611 +5.2161508930E-001 +6.8875480106E+000  +2.8940492646E-002 -1.6255391087E+000  +3.1571261303E-002 +1.4027493989E+001  +5.9051362382E-001 -5.2630860870E+000 
9520033.792 +5.1827302857E-001 +4.2056147450E+000  +3.1904191503E-002 -3.6557899046E+000  +2.8735177255E-002 +1.5651538113E+001  +5.8635997721E-001 -3.3491741708E+000 
9645178.974 +5.3655729157E-001 +6.2487782567E+000  +3.0841423261E-002 -6.5483832614E+000  +3.0615934537E-002 +8.8674364264E+000  +5.3785423037E-001 -5.0918776143E+000 
9770324.155 +5.2690026353E-001 +5.3273100290E+000  +2.9543930023E-002 -3.2520062959E+000  +2.9198308197E-002 +9.0931725494E+000  +5.6664484163E-001 -5.2345984984E+000 
9895469.337 +4.8140918615E-001 +6.8124489961E-001  +3.0598033333E-002 +1.4990498958E+000  +3.1079403574E-002 +1.5610620854E+001  +5.1577907107E-001 -1.0593940813E+001 
10020614.518 +5.1719212741E-001 +3.8852563445E+000  +3.0205547703E-002 -1.6300097187E+000  +2.7851666482E-002 +7.4148773006E+000  +5.6036538668E-001 -1.9216417728E+000 
10145759.700 +4.8403604430E-001 +2.3453731744E+000  +2.8505633888E-002 +4.3033885065E-001  +3.0468973246E-002 +1.3864852938E+001  +5.8108687406E-001 -7.5447485038E+000 
10270904.881 +5.3526398931E-001 +3.8577309404E+000  +3.0225969128E-002 -4.5717389978E+000  +3.1331171706E-002 +1.3743400036E+001  +5.3757351511E-001 -1.3229204352E+000 
10396050.063 +5.3847185876E-001 +5.2496640863E+000  +3.1173560285E-002 -3.9667471373E+000  +2.9948663708E-002 +6.6082719150E+000  +5.5056330202E-001 -2.9993554929E+000 
10521195.244 +5.5667619123E-001 +5.6618428796E+000  +3.2019251682E-002 -2.8899914022E+000  +3.1763003533E-002 +8.1898287078E+000  +5.7070940215E-001 -4.4969521178E-001 
10646340.426 +5.4103418200E-001 +9.0954436075E+000  +3.0857395222E-002 -1.1593571252E-001  +3.0272862966E-002 +1.3449050193E+001  +5.5172927461E-001 +1.1637224217E+000 
10771485.607 +5.3878213046E-001 +6.6969502148E+000  +3.1680443693E-002 -4.5074542866E+000  +3.0978898250E-002 +1.1087756174E+001  +5.9931675380E-001 +7.9612271274E-001 
10896630.788 +5.4522814019E-001 +5.3023956731E+000  +3.0326115638E-002 +1.6276853014E+000  +3.2546191723E-002 +1.4439108118E+001  +5.5930573608E-001 -1.6730399131E+000 
11021775.970 +5.8148550494E-001 +8.6954807993E+000  +3.2587461711E-002 +1.6227277210E+000  +3.1304986553E-002 +1.7337394695E+001  +5.7846313948E-001 +8.3274855460E-001 
11146921.151 +5.7631989343E-001 +8.7060790852E+000  +3.0964617112E-002 +4.6191252844E-001  +3.1788814156E-002 +1.4646284132E+001  +5.7828821506E-001 +1.4776430708E+000 
11272066.333 +6.1084876974E-001 +8.8444063157E+000  +3.2208958186E-002 +2.8688014568E-001  +3.1228520226E-002 +1.4038817882E+001  +6.1882505890E-001 -1.4247404326E+000 
11397211.514 +5.8470751653E-001 +9.7761302204E+000  +3.2389362285E-002 +2.5458165447E+000  +3.1233549103E-002 +1.7215827791E+001  +6.4181201492E-001 +3.2485548072E+000 
11522356.696 +5.8634554006E-001 +5.1198640689E+000  +3.4995549714E-002 +1.8944083832E+000  +3.2894260899E-002 +1.5951368736E+001  +6.3700108048E-001 +1.4636185430E+000 
11647501.877 +6.2924972185E-001 +5.1419420721E+000  +3.4632474043E-002 +1.3162273492E+000  +3.2527839522E-002 +1.7118225125E+001  +6.0752953395E-001 -1.1835608473E-002 
11772647.059 +6.3446849338E-001 +3.6196833975E+000  +3.3362477672E-002 -1.0576908777E+000  +3.3886891911E-002 +1.7115436846E+001  +6.3955565619E-001 +5.5999761685E+000 
11897792.240 +6.1827742830E-001 +6.3444469353E+000  +3.2566704478E-002 +5.1873542495E+000  +3.0358071011E-002 +1.2387314960E+001  +6.5275972776E-001 +4.3453217979E-001 
12022937.422 +6.7642201797E-001 +6.0829474055E+000  +3.4162632323E-002 +4.2302866620E+000  +3.5303958054E-002 +1.1964603444E+001  +6.4797750122E-001 +1.7929712112E+000 
12148082.603 +6.5415873222E-001 +7.3909014460E+000  +3.4274446370E-002 +1.3009668624E+000  +3.2566156822E-002 +5.0559040096E+000  +6.5090881228E-001 +7.0545170136E-001 
12273227.785 +6.6843047642E-001 +6.5010238004E+000  +3.5109458568E-002 +3.0726198389E-001  +3.4409109207E-002 +8.9316079897E+000  +6.9811930846E-001 +1.4175359853E+000 
12398372.966 +6.7101449311E-001 +2.7700297574E+000  +3.3651931105E-002 +1.9953757999E+000  +3.4465504605E-002 +1.2746981063E+001  +7.0988679678E-001 +6.4048417112E-001 
12523518.148 +7.0480038648E-001 +1.0122463070E+000  +3.4546582667E-002 +7.9052963008E-001  +3.4775541730E-002 +1.2593629875E+001  +7.2895423435E-001 +1.8760941410E+000 
12648663.329 +7.1957619138E-001 +2.9928520034E+000  +3.4821212467E-002 +2.3602844043E+000  +3.6155656461E-002 +8.7717529596E+000  +7.2843870661E-001 -6.0153318155E-001 
12773808.511 +7.3532839944E-001 +2.1949324977E+000  +3.6070556723E-002 +3.5977291005E+000  +3.6776232022E-002 +1.0396155337E+001  +7.3007044503E-001 +7.8689309449E-002 
12898953.692 +7.0847123438E-001 +1.2250787006E+000  +3.6963373765E-002 +2.3299714527E+000  +3.7100287983E-002 +7.4057402356E+000  +7.6406766172E-001 -9.0135346713E-001 
13024098.874 +7.6931972905E-001 +3.1997157246E-001  +3.6800809853E-002 +6.2924697616E+000  +3.6436523563E-002 +8.0302995712E+000  +7.8569516495E-001 -2.6105924350E+000 
13149244.055 +7.6201878394E-001 -3.2741030214E-001  +3.8558690015E-002 +3.8017195198E+000  +3.7191713541E-002 +6.0831280064E+000  +7.8924733036E-001 -3.5195863350E+000 
13274389.237 +7.8135375222E-001 -2.2190782104E+000  +3.7498690544E-002 +1.3330013691E+000  +3.7602843144E-002 +9.0175537709E+000  +7.9605464834E-001 -1.2516736831E+000 
13399534.418 +8.1810056253E-001 -1.7110423883E+000  +3.7456970943E-002 +1.1774479769E+000  +3.9583998588E-002 +4.9356480096E+000  +8.0290753776E-001 -3.0837020857E+000 
13524679.599 +8.5127881867E-001 -1.9178903942E+000  +3.8955505502E-002 +3.6047356565E+000  +3.6172431325E-002 +6.6605035539E+000  +8.3870646376E-001 -1.2222439145E+000 
13649824.781 +8.4212389842E-001 -3.3127202905E+000  +3.9002685090E-002 +2.9150618879E+000  +4.0042672216E-002 +6.0108788190E+000  +8.5038424316E-001 -2.9281297825E+000 
13774969.962 +8.6209464886E-001 -3.8694541151E+000  +3.9060263413E-002 +4.8068317928E+000  +3.9177771734E-002 +5.7490440105E+000  +8.7845372472E-001 -3.0138556585E+000 
13900115.144 +8.6651329600E-001 -3.0788157838E+000  +3.9607555509E-002 +4.4923759665E+000  +3.8914703266E-002 +3.9745989075E+000  +8.8642015087E-001 -3.0580536832E+000 
14025260.325 +8.9032659312E-001 -5.1009992253E+000  +3.9767113027E-002 +1.5372839722E+000  +3.8912764765E-002 +2.1897594968E+000  +8.8766895009E-001 -2.4352376654E+000 
14150405.507 +9.1836958814E-001 -4.4238165122E+000  +3.9207408386E-002 +4.1427718233E+000  +3.7287403051E-002 +1.9298260544E+000  +9.1275572017E-001 -5.5556419934E+000 
14275550.688 +9.0795223925E-001 -5.8835961127E+000  +3.9676314493E-002 +1.4097164343E+000  +4.0017584697E-002 +3.0962800571E+000  +9.2845194153E-001 -5.3473384457E+000 
14400695.870 +9.5679411911E-001 -6.1588457007E+000  +4.0437722268E-002 +2.4572747916E+000  +4.0399195926E-002 +2.9002664212E+000  +9.6334673794E-001 -4.6584917844E+000 
