!  2-Port S-parameters saved by WinCal
! VAR NAME=S2_r9c9_formed(1)_9k-100M_2
! VAR DATE=30/08/2024 12:18:43
! VAR FILENAME=S2_r9c9_formed(1)_9k-100M_2.S2P
! VAR MeasName=S-Parameters (CALIBRATED_DATA) read from VNA (P5004A)
! VAR MeasDate=28/08/2024 17:07:16
! VAR PHYS_PORTS=1,2
! VAR ObjTypeName=DATASET
! VAR IndexType=Frequency
!
# Hz S MA R 50
9000.000 +1.0175427394E-001 -1.6152547023E+002  +9.6969992201E-003 -1.4822486958E+002  +1.6199076565E-002 -6.8695223544E+001  +2.7398441765E-001 -1.5012472380E+002 
134145.181 +1.1158698790E-001 +1.6989343888E+002  +4.4812487217E-004 -8.7407330669E+001  +4.6563508176E-004 +6.8200046220E+001  +2.4099237989E-001 -1.7070293882E+002 
259290.363 +1.1300473862E-001 +1.7022714975E+002  +1.5251763618E-003 -1.3108973036E+002  +6.8434810490E-004 +1.4213094914E+002  +2.4622803513E-001 -1.6884444645E+002 
384435.544 +1.1239703357E-001 +1.6942570083E+002  +9.4261726183E-004 +5.4809597997E+000  +1.2253355247E-003 +8.7346351016E+001  +2.5174942448E-001 -1.6794312467E+002 
509580.726 +1.1343466675E-001 +1.7153236044E+002  +1.2375059657E-003 +1.7480642275E+002  +1.2925160277E-003 -1.1835214669E+002  +2.5219475882E-001 -1.6510572034E+002 
634725.907 +1.1736883571E-001 +1.7155080167E+002  +5.7487303887E-004 +1.5149651215E+002  +9.3679829601E-004 +3.7796308322E-001  +2.4463299144E-001 -1.6328756462E+002 
759871.089 +1.1976333498E-001 +1.7035651843E+002  +3.3191286507E-004 +9.9573871912E+001  +5.8642740666E-004 +6.3677108072E+001  +2.4562452686E-001 -1.6779845415E+002 
885016.270 +1.2058517995E-001 +1.6953328816E+002  +3.2238439358E-004 -1.3231459093E+002  +4.6855463487E-004 +1.4568651272E+002  +2.4923048158E-001 -1.6634251409E+002 
1010161.452 +1.1676375782E-001 +1.6935084182E+002  +1.1997662826E-004 -3.5031081507E+001  +5.7068240958E-005 +1.4703820385E+001  +2.2121780141E-001 -1.6655360088E+002 
1135306.633 +1.1831661185E-001 +1.7151870163E+002  +7.3109385181E-004 +1.6185032591E+002  +5.9335044690E-004 +1.5589151814E+002  +2.0877923856E-001 -1.6472486633E+002 
1260451.815 +1.2097806811E-001 +1.7040682671E+002  +6.9613716509E-004 +1.5354413979E+002  +5.3004813966E-004 -1.4187846469E+002  +2.2031920628E-001 -1.6075693558E+002 
1385596.996 +1.2735812942E-001 +1.7381426198E+002  +1.2800688010E-003 +1.1137002178E+002  +6.5916705318E-004 +1.5753854653E+002  +2.5872786606E-001 -1.6035528401E+002 
1510742.178 +1.2795395428E-001 +1.7189066599E+002  +1.2236819558E-003 -5.7606138584E+001  +2.3749066198E-004 +3.5859417787E+001  +2.5900856357E-001 -1.6023293161E+002 
1635887.359 +1.2828298101E-001 +1.7083176610E+002  +9.2635462117E-004 -1.5419971876E+001  +1.4861453917E-003 -1.3152727340E+002  +2.5713835841E-001 -1.5814966784E+002 
1761032.541 +1.2828261288E-001 +1.6863642502E+002  +1.1318194564E-003 +9.5719789376E+001  +5.3697993496E-004 -1.0343532559E+002  +2.2944968688E-001 -1.5966272028E+002 
1886177.722 +1.2563148762E-001 +1.7002642032E+002  +3.2091071417E-003 +1.5583459101E+001  +1.5474735128E-003 +2.0600123578E+001  +2.1648925988E-001 -1.6168385452E+002 
2011322.904 +1.3105794847E-001 +1.6683228934E+002  +7.4044032918E-004 -3.6951475913E+001  +1.6091411129E-003 -1.3202503706E+002  +1.9293154348E-001 -1.5282753256E+002 
2136468.085 +1.3182744380E-001 +1.6579006529E+002  +1.3818140173E-003 -1.5218974757E+002  +2.3309670150E-003 -8.5885642377E+001  +1.9194781391E-001 -1.6214931398E+002 
2261613.267 +1.3245101407E-001 +1.6600574096E+002  +4.0554435906E-003 +6.7363799855E+001  +4.3163387025E-003 -1.5084398791E+002  +1.3929145121E-001 -1.5155556376E+002 
2386758.448 +1.3579570531E-001 +1.6453857468E+002  +5.1624348046E-003 +1.1375084297E+002  +3.9005118943E-003 -3.4986627999E+001  +2.2038563877E-001 +1.7539246962E+002 
2511903.630 +1.3486686245E-001 +1.6302195438E+002  +3.5391800019E-003 +6.2358069707E+001  +3.8854241147E-003 +1.0822646321E+001  +1.9377245149E-001 +1.7808586164E+002 
2637048.811 +1.1255174238E-001 +1.5553888538E+002  +1.9550211085E-002 +4.5195900547E+000  +1.9041535538E-002 -1.0142193542E+001  +1.5059866024E-001 +9.1490824344E+001 
2762193.992 +1.0226883548E-001 +1.6132861587E+002  +2.8639048906E-002 -2.9704540932E+001  +2.5355286220E-002 -1.0870071832E+002  +9.8761517718E-002 -7.6395051311E+001 
2887339.174 +1.2514872424E-001 +1.7820619653E+002  +1.9031200380E-002 +1.2294857949E+001  +1.6073379488E-002 -8.2108123157E+001  +1.2276233322E-001 +7.9622551862E+001 
3012484.355 +1.2181875714E-001 +1.7355442620E+002  +2.0622644468E-002 -3.1890902039E+001  +1.2944664371E-002 -1.2814886891E+002  +2.8863078665E-001 -6.3085276743E+001 
3137629.537 +1.0649693823E-001 +1.5617133416E+002  +1.7400424494E-002 +5.6146415553E+001  +1.8048369045E-002 -8.6363080743E+001  +1.4482728434E-001 +1.3077504989E+002 
3262774.718 +1.2167859103E-001 +1.7411481410E+002  +1.5600078832E-002 -2.0132641171E+001  +1.2590419791E-002 -5.7131757491E+001  +1.3355170764E-001 +9.2033726415E+001 
3387919.900 +1.1651704505E-001 +1.5134811976E+002  +1.3033833048E-002 +8.5083148269E+001  +1.4833785647E-002 -3.8034764946E+001  +1.4916011248E-001 +1.3071376756E+002 
3513065.081 +1.3147673152E-001 +1.5685882516E+002  +3.5050833880E-002 +6.5252252916E+001  +2.5130552701E-002 -3.7174329107E+001  +4.8342901875E-001 +1.1029988784E+002 
3638210.263 +1.5824257172E-001 +1.4890497738E+002  +2.0319977005E-002 +5.9714361386E+001  +1.3222541428E-002 -3.6500825995E+001  +1.2300540116E-001 +7.8453991256E+001 
3763355.444 +1.6854586853E-001 +1.5253117042E+002  +6.2740299408E-003 +9.9572754691E+001  +1.3638614771E-002 +2.8680052438E+001  +4.2632500420E-001 +1.5514951976E+002 
3888500.626 +1.6740433912E-001 +1.4653368645E+002  +3.6982665398E-002 +4.0556981903E+001  +4.6109101804E-002 -4.3966485989E+001  +8.3449054389E-001 -2.2360599774E+001 
4013645.807 +1.6319194621E-001 +1.4315932357E+002  +3.0283288623E-002 +3.2135474645E+001  +2.5185293328E-002 -5.0263774579E+001  +4.0531761452E-001 +7.3846431491E+001 
4138790.989 +1.7132658924E-001 +1.4410058376E+002  +2.1433018788E-002 +6.2625400641E+001  +1.2504385835E-002 -3.7777004496E+001  +1.6197262072E-001 +9.6461187944E+001 
4263936.170 +2.0321956864E-001 +1.4779455043E+002  +1.5047284977E-002 +7.3521116644E+001  +1.2491845086E-002 -2.1896060083E+001  +1.6897401678E-001 +1.2530263305E+002 
4389081.352 +1.7703511103E-001 +1.2400505062E+002  +3.0897340650E-002 +8.9968839500E+001  +1.9933964234E-002 +8.6512159948E+000  +3.6937724842E-001 +1.3076072849E+002 
4514226.533 +2.1295480694E-001 +1.3425740680E+002  +2.7803085525E-002 +4.7215057963E+001  +3.7311608039E-002 +1.7538001391E+001  +4.2150790316E-001 +9.7066272041E+001 
4639371.715 +2.6291448262E-001 +1.3954607351E+002  +1.1771066202E-001 +1.3904745021E+002  +8.5124245207E-002 +8.3979097463E+001  +2.8126570950E+000 +1.1285684113E+002 
4764516.896 +3.3890673117E-001 +1.2954686993E+002  +1.1394377772E-001 +1.2775713516E+002  +6.7688602621E-002 +6.3205105970E+001  +1.4578553232E+000 +1.0196917048E+002 
4889662.078 +3.6005781189E-001 +1.3108773997E+002  +1.0239505626E-001 +1.6492270708E+002  +8.5037897851E-002 +1.1752424508E+002  +2.5312882946E+000 +1.4354287759E+002 
5014807.259 +3.6024005736E-001 +1.3077619818E+002  +1.2221778945E-001 +1.4242174674E+002  +1.0128034133E-001 +8.1602438275E+001  +3.1358098626E+000 +1.1655869233E+002 
5139952.441 +4.2970835955E-001 +1.2314072488E+002  +2.0305531931E-001 +1.0607591622E+002  +1.5606317210E-001 +5.0115950421E+001  +3.7682647002E+000 +8.0056198880E+001 
5265097.622 +3.3089363053E-001 +1.3085443623E+002  +7.6326371217E-002 +1.3474213908E+002  +6.3041942418E-002 +1.3521425605E+002  +2.2550110988E+000 +1.5178253687E+002 
5390242.804 +3.4605894973E-001 +1.3819359850E+002  +7.7264013581E-002 +1.1715301569E+002  +5.6049757396E-002 +9.0603342696E+001  +2.8272226597E+000 +1.1476881449E+002 
5515387.985 +4.9578005927E-001 +1.2750942654E+002  +6.8296503011E-002 +1.0391396849E+002  +7.9969870621E-002 +6.6626668638E+001  +1.4450413428E+000 +7.9961240336E+001 
5640533.166 +3.8524103435E-001 +1.2011938503E+002  +6.8965687172E-002 +7.5954690437E+001  +4.6408858633E-002 +4.9625325289E+001  +1.3453324994E+000 +7.7406695688E+001 
5765678.348 +5.5333853690E-001 +1.2678769418E+002  +7.5195328693E-002 +1.1225237284E+002  +5.0236429528E-002 +6.4548993330E+001  +1.6603789039E+000 +8.6979746194E+001 
5890823.529 +5.3709357252E-001 +1.2471530925E+002  +6.5413983945E-002 +9.0406811703E+001  +6.2276902469E-002 +6.2846435295E+001  +1.5254081520E+000 +7.8065893388E+001 
6015968.711 +6.8465671903E-001 +1.0964578941E+002  +1.1598694083E-001 +5.5129361233E+001  +1.0507338939E-001 +2.9685119663E+001  +1.9928831725E+000 +4.4636243447E+001 
6141113.892 +5.9993016174E-001 +1.0769346895E+002  +9.2301562488E-002 +5.3406748232E+001  +6.7622372983E-002 +3.3831072933E+001  +1.8395167076E+000 +5.7600483759E+001 
6266259.074 +8.2243461439E-001 +1.0562285593E+002  +1.0526215343E-001 +5.2450415060E+001  +7.8675329709E-002 +3.7379642269E+001  +1.4185828766E+000 +2.6778750261E+001 
6391404.255 +1.0573577322E+000 +9.8479867866E+001  +7.3164789934E-002 +5.8386845234E+001  +8.1152567480E-002 +3.0736344205E+001  +1.2951297541E+000 +3.2613327045E+001 
6516549.437 +1.1580325052E+000 +7.3667059220E+001  +1.3364715420E-001 +4.1155766408E+001  +1.1791379564E-001 +2.5096057338E+001  +1.4708024567E+000 +3.4559320907E+001 
6641694.618 +1.2992640836E+000 +8.3774674718E+001  +6.2757479769E-002 +2.7719599213E+001  +7.7630913993E-002 +2.6152458553E+001  +1.3134680898E+000 -9.4028566153E+000 
6766839.800 +1.3588667347E+000 +4.5297910149E+001  +1.2649810176E-001 +9.7633307708E+000  +8.1919589445E-002 +2.1960455053E+000  +1.3625406175E+000 -1.8851542052E+000 
6891984.981 +1.7448516137E+000 +2.9180073804E+001  +1.1400259132E-001 +1.1666077051E+001  +9.6882621369E-002 -4.5289018336E+000  +1.3707912214E+000 -5.3988934859E+000 
7017130.163 +1.8509224983E+000 +1.6752932993E+001  +1.1026271111E-001 -1.1192879978E+001  +8.9925123210E-002 -1.0211517825E+001  +1.1901320642E+000 -8.6311120361E+000 
7142275.344 +1.7501335225E+000 +6.5365890198E+000  +6.9691041683E-002 +4.0305259784E+000  +8.5535912481E-002 -3.7890449779E+000  +1.1303700144E+000 -4.6430853626E+000 
7267420.526 +1.4249373736E+000 +7.2850224331E+000  +6.0287958237E-002 +1.1655716921E+000  +7.0238885582E-002 +7.1209403428E+000  +1.3731148213E+000 -1.2720191046E+001 
7392565.707 +1.3416149946E+000 +3.1238949647E-001  +4.2554138669E-002 -2.4707846370E+000  +6.5031341919E-002 +6.0739691447E+000  +1.1142516602E+000 -1.1657835003E+001 
7517710.889 +1.0273420269E+000 -6.3603736344E+000  +4.5006372453E-002 +3.8596319281E-001  +5.0874824478E-002 +9.8933025361E+000  +1.1809028902E+000 -6.8654770625E+000 
7642856.070 +9.8754207381E-001 -2.6018189708E+000  +4.3152373530E-002 -3.5562052237E+000  +4.5117254363E-002 +4.2887353486E+000  +1.0214749267E+000 -6.4611102655E+000 
7768001.252 +8.6974833005E-001 +8.7959352117E+000  +4.5350409194E-002 -8.2264634039E-001  +4.3820059214E-002 +2.2659286816E+000  +9.7776179218E-001 -8.4367501374E-002 
7893146.433 +8.3407180766E-001 +4.4451255125E+000  +3.6977473091E-002 +4.5829674835E+000  +3.9354462775E-002 +9.0370613503E+000  +8.9544900659E-001 +1.3122272876E-001 
8018291.615 +7.3674919684E-001 +1.8870589623E+000  +3.3935559123E-002 -8.9954610318E+000  +3.6389922024E-002 +1.1464816030E+001  +8.5036181307E-001 -4.0776520913E+000 
8143436.796 +8.1220437167E-001 +1.0309641701E+001  +3.6066486014E-002 -1.5375129675E+000  +4.1427500903E-002 +5.4954296055E+000  +8.0821642884E-001 -3.9741752767E+000 
8268581.977 +6.5830401073E-001 +1.0391534762E+001  +3.2255935971E-002 -4.3289361788E+000  +3.6900223121E-002 +9.7671739379E+000  +6.9790409230E-001 +1.6330591305E+000 
8393727.159 +6.3029777566E-001 +1.1000510277E+001  +3.2923127483E-002 -2.8069850014E+000  +3.3618623753E-002 +1.4965731420E+001  +7.3047123315E-001 +2.3497594254E+000 
8518872.340 +6.2937736621E-001 +1.4891521072E+001  +3.4188008827E-002 -8.4707341686E+000  +3.3669570421E-002 +4.1008877023E+000  +6.2229103345E-001 +3.0455825675E+000 
8644017.522 +5.8742687108E-001 +6.3398935322E+000  +3.5096368292E-002 -7.6038064731E-001  +3.6241126400E-002 +7.6157711151E+000  +6.8775437288E-001 +5.6223720588E+000 
8769162.703 +6.2217602475E-001 +4.2765029285E+000  +3.4998426616E-002 +1.1936255978E+000  +3.2821418659E-002 +7.7132668728E+000  +5.9484877551E-001 +4.1438215892E+000 
8894307.885 +6.0883433906E-001 +6.9672237285E+000  +3.0999409556E-002 -1.6178464800E+000  +3.5764036503E-002 +1.1851379546E+001  +6.2790503713E-001 +6.8311459625E+000 
9019453.066 +5.7246200068E-001 +1.0305183759E+001  +3.6531680558E-002 -5.2275252712E+000  +2.8615019932E-002 +1.0696939961E+001  +5.8951209859E-001 +4.8068411399E+000 
9144598.248 +5.2742877480E-001 +7.5910683309E+000  +3.6429860684E-002 -4.2795169590E+000  +3.6986499977E-002 +5.2885362577E+000  +5.6924095042E-001 -3.1061150270E+000 
9269743.429 +5.6165422744E-001 +8.6337138019E+000  +3.3567008811E-002 -4.5048374411E+000  +3.2471960799E-002 +8.6832153481E+000  +5.9000697335E-001 -1.6850338438E+000 
9394888.611 +5.7491512809E-001 +2.2822947492E+000  +3.4889329262E-002 -9.1758305629E-002  +3.6742772333E-002 +7.9699827009E+000  +5.6377750433E-001 -3.6943314310E-002 
9520033.792 +4.9038987819E-001 +2.5524195455E+000  +3.5616401992E-002 -4.9033868593E-001  +3.3310998194E-002 +6.6316029997E+000  +5.4895966359E-001 -1.8919771021E+000 
9645178.974 +5.3433833324E-001 +5.1047383404E+000  +3.6786437802E-002 -3.4714413616E+000  +3.5462757144E-002 +1.4240245936E+001  +5.2779765848E-001 +5.1472407126E-001 
9770324.155 +4.8529246934E-001 +2.5513946910E+000  +3.4775671123E-002 -4.3932353351E+000  +3.6163729395E-002 +8.8152145865E+000  +5.4527492233E-001 -1.0971013032E+001 
9895469.337 +4.9443840179E-001 +2.2211364382E+000  +3.6578159109E-002 -7.1905919243E+000  +3.1725693793E-002 +1.0267560638E+001  +5.4999991748E-001 -3.0182737203E+000 
10020614.518 +4.9719431741E-001 +3.3516992139E+000  +3.6790920933E-002 -4.0522406942E+000  +3.5253670891E-002 +1.1379757437E+001  +5.1848891141E-001 -1.6805215275E+000 
10145759.700 +4.9458645597E-001 +7.1899826506E+000  +3.4299080761E-002 +1.2634269721E-001  +3.5122951921E-002 +1.5555266895E+001  +5.7329760797E-001 -2.9766473882E-001 
10270904.881 +5.0029655068E-001 +5.4266111635E+000  +3.8753013690E-002 -2.6716286760E+000  +3.4441317785E-002 +1.2064763087E+001  +5.9901576456E-001 -3.5199222622E+000 
10396050.063 +4.8307231624E-001 +5.4663057844E+000  +3.5152828147E-002 -3.8149523968E+000  +3.5012764374E-002 +1.0543059768E+001  +5.2662793922E-001 +2.6662466488E+000 
10521195.244 +5.6743759275E-001 +7.4530504859E+000  +3.6834910277E-002 -1.5784447020E+000  +3.6454018005E-002 +1.3441773006E+001  +5.5195678408E-001 -8.0773201868E-001 
10646340.426 +5.3038866568E-001 +9.9903854542E+000  +3.5758866762E-002 -7.4420457755E-001  +3.7280785764E-002 +1.0480644246E+001  +5.7727668749E-001 +1.9449618240E+000 
10771485.607 +5.2921237152E-001 +4.6264661964E+000  +3.8186783096E-002 -3.6569789465E+000  +3.6823463729E-002 +1.0138648421E+001  +5.6089333283E-001 +2.8856984756E+000 
10896630.788 +5.5204221883E-001 +8.8101429004E+000  +3.6952262118E-002 -9.0535779140E-001  +3.3969206276E-002 +1.5793529340E+001  +5.7767816378E-001 +1.0830072651E+000 
11021775.970 +6.1506459681E-001 +5.4641189563E+000  +3.6956866618E-002 +5.6733982912E-001  +3.7005245848E-002 +1.3596346605E+001  +5.8720436302E-001 +3.4078192623E+000 
11146921.151 +5.7884974264E-001 +6.7505306679E+000  +3.6020939928E-002 +1.2563411781E+000  +3.6907172422E-002 +1.5311614656E+001  +5.5870784239E-001 +7.6300766546E-001 
11272066.333 +5.5817654035E-001 +1.0675334019E+001  +3.5393346565E-002 +8.9654984014E-001  +3.7260609886E-002 +1.2879316165E+001  +5.8767643458E-001 -1.2504510866E-001 
11397211.514 +5.8891017668E-001 +1.1100350829E+001  +3.7472521071E-002 +4.5983072065E+000  +3.7714891832E-002 +1.0646736463E+001  +6.0792201891E-001 +5.5877427052E-001 
11522356.696 +5.7291950193E-001 +9.9492206143E+000  +3.6935868884E-002 +2.9147387366E+000  +3.8126160838E-002 +1.1056318738E+001  +6.0050508931E-001 +3.8448565975E+000 
11647501.877 +6.0781015968E-001 +6.2544711476E+000  +3.7761804324E-002 +3.7105486820E+000  +3.9694230181E-002 +1.6179085470E+001  +6.3043252210E-001 +3.3290591324E+000 
11772647.059 +6.2804793708E-001 +6.4937146283E+000  +3.7799427718E-002 +1.6001148069E+000  +3.6921791366E-002 +1.3492195383E+001  +6.0031400604E-001 +2.5072691872E+000 
11897792.240 +6.3912464029E-001 +7.7145588086E+000  +3.9370595930E-002 +3.3428218164E-001  +3.8918485388E-002 +1.0451608203E+001  +6.0242891095E-001 +2.4883102707E+000 
12022937.422 +6.4561099748E-001 +3.6072004362E+000  +3.9390677585E-002 +2.4084519938E+000  +4.0958461562E-002 +1.3284428059E+001  +6.6345607933E-001 +3.7630216567E+000 
12148082.603 +6.2967482898E-001 +6.8081898529E+000  +4.2417012946E-002 +3.3547714984E+000  +3.9299911522E-002 +8.8857147929E+000  +6.7925346106E-001 +1.1501601056E+000 
12273227.785 +6.3583950472E-001 +3.8405979392E+000  +4.0824002429E-002 +4.3252167520E+000  +4.0235189579E-002 +1.0201926416E+001  +6.7244542533E-001 +1.7992367496E+000 
12398372.966 +6.5534183866E-001 +3.0110890952E+000  +4.1712023124E-002 +3.9982135980E+000  +4.0506358591E-002 +7.5724751586E+000  +6.9963009235E-001 -8.6969063411E-001 
12523518.148 +6.8939144920E-001 +4.3148604846E+000  +4.2169251257E-002 +2.0344421366E+000  +4.1476444101E-002 +9.6060335770E+000  +6.9406006655E-001 +5.1514708790E-001 
12648663.329 +6.9382360197E-001 +3.2310867856E+000  +4.0492100565E-002 +6.5823955978E+000  +4.2278551101E-002 +9.4230551333E+000  +7.1048736499E-001 +4.0566088263E-002 
12773808.511 +7.0848489911E-001 +1.2696315183E+000  +4.2326887919E-002 +1.5475927097E+000  +4.1790790628E-002 +9.6086223183E+000  +7.2514640635E-001 -5.7276892782E-001 
12898953.692 +6.9895281846E-001 +2.8424475737E+000  +4.4459520170E-002 +2.8190407617E+000  +4.2977445220E-002 +6.3177454257E+000  +7.6037662756E-001 -1.6689926197E+000 
13024098.874 +7.4471343424E-001 +1.2375434286E-001  +4.3246969667E-002 +3.3968487070E+000  +4.4511456791E-002 +9.8970900420E+000  +7.5669330265E-001 -2.0313608172E+000 
13149244.055 +7.6047635685E-001 +1.7671705437E+000  +4.4203286015E-002 +4.9406196418E+000  +4.1795406438E-002 +8.8167034173E+000  +7.6892079048E-001 +3.0367080304E-001 
13274389.237 +7.9790853077E-001 -1.3161543225E+000  +4.4369602337E-002 +4.4024830796E+000  +4.5742486572E-002 +8.3027922836E+000  +7.9738920693E-001 -1.2734118604E+000 
13399534.418 +7.9890989776E-001 +3.9151256487E-001  +4.4456057122E-002 +3.5950086011E+000  +4.4894546965E-002 +6.9683571426E+000  +7.9549356801E-001 -3.3143642544E+000 
13524679.599 +8.1852674448E-001 -2.0056664371E+000  +4.5140244641E-002 +3.0646168962E+000  +4.4740403899E-002 +6.4211499609E+000  +7.9698027938E-001 -1.6755780657E+000 
13649824.781 +8.0252336298E-001 -9.0990785536E-001  +4.5330161971E-002 +3.6714684382E+000  +4.3682439139E-002 +4.3064848072E+000  +8.5422409162E-001 -2.5564348232E+000 
13774969.962 +8.5958853497E-001 -2.8515947011E+000  +4.6212444064E-002 +1.7909115209E+000  +4.4967279651E-002 +5.7256510304E+000  +8.4459752106E-001 -2.9995022635E+000 
13900115.144 +8.6369143494E-001 -3.6967122431E+000  +4.6109371927E-002 +3.8899616055E+000  +4.4188176660E-002 +3.1525937766E+000  +8.6405357580E-001 -3.6224093753E+000 
14025260.325 +8.7045813996E-001 -2.8276701583E+000  +4.6191748104E-002 +4.0762737428E+000  +4.5474427145E-002 +5.0199650374E+000  +9.0253947188E-001 -3.5498259121E+000 
14150405.507 +9.1105656697E-001 -4.5635855770E+000  +4.7198687614E-002 +2.1803010200E+000  +4.6145340785E-002 +1.0458565800E+000  +9.2014557716E-001 -2.5892014551E+000 
14275550.688 +9.1682597510E-001 -3.8807014980E+000  +4.6832486433E-002 +1.4727506594E+000  +4.6073266952E-002 +4.8162033244E+000  +9.3155467473E-001 -2.7059832732E+000 
14400695.870 +9.2326659431E-001 -6.4092225052E+000  +4.8029996075E-002 +1.9892569839E+000  +4.6477347414E-002 +3.0147749624E+000  +9.3596089852E-001 -3.5744712147E+000 
