!  2-Port S-parameters saved by WinCal
! VAR MeasName=S-Parameters (CALIBRATED_DATA) read from VNA (P5004A)
! VAR MeasDate=29/08/2024 10:41:22
! VAR NAME=S2_r9c2_RESET3_9k-100M_3
! VAR FILENAME=S2_r9c2_RESET3_9k-100M_3.S2P
! VAR DATE=29/08/2024 10:41:22
! VAR PHYS_PORTS=1,2
! VAR ObjTypeName=DATASET
! VAR IndexType=Frequency
!
# Hz S MA R 50
9000.000 +9.5167791904E-002 -1.6755972669E+002  +1.8708655142E-003 -1.3011354981E+002  +3.8015141959E-003 +1.4305401261E+001  +2.4745595609E-001 -1.4446541372E+002 
134145.181 +1.1061348618E-001 +1.6965147594E+002  +1.1675842371E-004 +1.5512924978E+001  +4.4587291070E-004 +3.2504562494E+001  +2.3988962482E-001 -1.7011778900E+002 
259290.363 +1.1203622597E-001 +1.7003921868E+002  +8.2642777815E-005 +1.2488574376E+002  +4.0452698616E-004 +8.9666535646E+001  +2.3478217642E-001 -1.6763214255E+002 
384435.544 +1.1348096913E-001 +1.6995995213E+002  +3.5452063290E-004 -1.2715108526E+002  +2.1157997021E-004 +3.3193462433E+001  +2.5347159895E-001 -1.6855301115E+002 
509580.726 +1.1487220331E-001 +1.7117245629E+002  +1.7676892132E-003 -9.2261709534E+001  +6.1616892818E-004 -9.5192233816E+001  +2.5146930888E-001 -1.6246756581E+002 
634725.907 +1.1656371768E-001 +1.7186430564E+002  +1.2040264932E-003 +1.4893064557E+002  +4.5500215570E-004 +1.6643251615E+002  +2.4853713628E-001 -1.6477386492E+002 
759871.089 +1.1979530291E-001 +1.7147613553E+002  +8.9518008073E-004 -2.4367349370E+001  +1.3466631099E-003 -5.2691540519E+000  +2.5726437570E-001 -1.6661012580E+002 
885016.270 +1.2148681774E-001 +1.6956538461E+002  +3.5151374022E-004 -1.3255990234E+002  +4.7309278088E-004 +8.9789049425E+001  +2.4439267718E-001 -1.6713623750E+002 
1010161.452 +1.1629776508E-001 +1.6897447391E+002  +9.6402980666E-004 -1.0183671663E+000  +8.6401658979E-004 -1.2064925618E+002  +2.2108881554E-001 -1.6759868012E+002 
1135306.633 +1.2011129078E-001 +1.6941708904E+002  +1.1862593687E-003 +2.2929493202E+001  +1.3389064402E-003 +7.0309674333E+001  +1.9635607167E-001 -1.7076404945E+002 
1260451.815 +1.1824366088E-001 +1.7114477990E+002  +1.1402844471E-003 -1.6640938929E+002  +5.8413937922E-004 +1.5306815503E+002  +2.2245551059E-001 -1.5700591875E+002 
1385596.996 +1.2491717555E-001 +1.7331087793E+002  +2.0998911772E-003 -9.7794242083E+001  +1.7525060026E-003 +1.1771218840E+001  +2.4934932422E-001 -1.5440779416E+002 
1510742.178 +1.2828154769E-001 +1.7337548134E+002  +1.2388403618E-003 -6.7814536028E+001  +3.7132381511E-004 -3.8324527482E+000  +2.8693523271E-001 -1.5495540072E+002 
1635887.359 +1.2989451770E-001 +1.7066464757E+002  +6.2023684178E-004 +9.3812567762E+001  +1.5402015784E-003 -1.6838883488E+002  +2.3601026495E-001 -1.5622744037E+002 
1761032.541 +1.2430288228E-001 +1.6958003196E+002  +1.0947574442E-003 +3.1367878204E+001  +3.6843170319E-003 -8.9451473251E+001  +2.2571491369E-001 -1.5637148039E+002 
1886177.722 +1.2933729891E-001 +1.6859234373E+002  +2.2432226586E-003 +6.4400636407E+001  +1.2777052612E-003 -1.3087354711E+002  +2.0143857441E-001 -1.6525047358E+002 
2011322.904 +1.2795656156E-001 +1.6789711300E+002  +9.4719196467E-003 +7.1022306859E+001  +6.3750089932E-003 -8.5763010059E+001  +1.3728877667E-001 +1.7164530155E+002 
2136468.085 +1.3570292474E-001 +1.6652474667E+002  +3.7903008772E-003 +6.3124089056E+001  +5.9787897183E-003 -5.6697326908E+001  +1.6842251332E-001 -1.7809335646E+002 
2261613.267 +1.3225273547E-001 +1.6817222290E+002  +9.3249010045E-003 +3.8098519886E+001  +6.3266777438E-003 -4.4546647638E+001  +1.4486032772E-001 -1.6738606764E+002 
2386758.448 +1.2857925188E-001 +1.6687754397E+002  +4.2670365818E-003 +7.5066281893E+001  +7.5703819279E-003 -1.0669337032E+001  +2.3395115379E-001 -1.7913572958E+002 
2511903.630 +1.3501458432E-001 +1.6130590133E+002  +1.3915030365E-002 +6.7005161219E+001  +1.3148466398E-002 -6.4515373185E+001  +1.4717465602E-001 -1.7332598681E+002 
2637048.811 +1.3740801274E-001 +1.6157172972E+002  +1.4455011820E-002 +8.7051520960E+001  +2.1131746848E-002 -1.8376073721E+001  +2.1739727054E-001 +1.6583877247E+002 
2762193.992 +1.3027004619E-001 +1.7005768335E+002  +4.8847381599E-002 +9.6623431415E+000  +3.0303266968E-002 -9.5275884817E+001  +1.2342280028E-001 -7.3669020218E+000 
2887339.174 +1.1601830151E-001 +1.6511229984E+002  +1.9625226913E-002 -1.7276460495E+001  +2.3964760980E-002 -1.0703605883E+002  +2.1923839159E-001 -1.2432506714E+002 
3012484.355 +1.3866039906E-001 +1.7562715339E+002  +2.4503552707E-002 -1.5536910445E+001  +2.6774437035E-002 -1.2448486713E+002  +1.1562954038E-001 -1.2287366800E+002 
3137629.537 +1.2270527796E-001 +1.6835603519E+002  +2.3686954988E-002 -5.3320652247E+001  +2.3256908580E-002 -1.3621050476E+002  +3.3840088958E-001 -1.1697223481E+002 
3262774.718 +1.2771844082E-001 +1.6078293990E+002  +4.1142937363E-002 +4.6980412303E+001  +5.0833055366E-002 -4.6363220243E+001  +3.2965013856E-001 +6.7094325367E+001 
3387919.900 +1.3531113373E-001 +1.6227185040E+002  +5.6339590878E-002 +2.0169369999E+001  +6.5140875349E-002 -6.8041228634E+001  +4.0538840130E-001 -4.3749626029E-001 
3513065.081 +1.4434786390E-001 +1.5506450248E+002  +2.2409719620E-002 +7.2492140440E+001  +2.2885250330E-002 -2.1777670910E+001  +2.2448784845E-001 +1.5485218692E+002 
3638210.263 +1.6989384258E-001 +1.5337506463E+002  +7.0685227927E-002 +1.5215549983E+002  +7.1697560989E-002 +6.0084141938E+001  +1.2024733980E+000 +1.4464252271E+002 
3763355.444 +1.8720462361E-001 +1.5263412778E+002  +4.5843220452E-002 +9.9663801047E+001  +3.7457457440E-002 +1.6495862894E+001  +3.8185719950E-001 +1.2292313050E+002 
3888500.626 +1.8213790845E-001 +1.4732388940E+002  +3.1221254983E-002 +8.3392677056E+001  +3.0455737892E-002 +4.3069327238E+000  +2.4957744229E-001 +1.4290260046E+002 
4013645.807 +1.6019041034E-001 +1.5629943287E+002  +4.6411162917E-002 +1.0074439388E+002  +2.9086340553E-002 +6.0618905061E+000  +4.2053240033E-001 +1.2678299523E+002 
4138790.989 +2.0753117031E-001 +1.4857838301E+002  +4.5289117545E-002 +1.1708133556E+002  +4.1468504624E-002 +4.6297300650E+001  +5.3045383126E-001 +1.3065337535E+002 
4263936.170 +2.0643854802E-001 +1.5198760605E+002  +2.5737014800E-002 +1.0641515409E+002  +2.9529050510E-002 +3.6052646680E+001  +4.4475327331E-001 +1.4730525519E+002 
4389081.352 +2.3188341264E-001 +1.4826549703E+002  +3.5354659724E-002 +8.5860997013E+001  +3.4106810137E-002 +3.4821955465E+001  +3.0773966862E-001 +1.4206254106E+002 
4514226.533 +2.1426017402E-001 +1.3946557601E+002  +5.8036299566E-002 +7.3680942930E+001  +5.8577537326E-002 +2.4346096068E+001  +3.7397084488E-001 +1.0666019785E+002 
4639371.715 +2.7639811375E-001 +1.3937097466E+002  +1.1601582992E-001 +1.6816444121E+002  +1.2189804749E-001 +1.1262908517E+002  +1.8474297550E+000 +1.5308148121E+002 
4764516.896 +2.8654075504E-001 +1.4183923763E+002  +2.8393647401E-001 -1.4224888794E+002  +3.2373226160E-001 +1.6967166214E+002  +4.5142011433E+000 -1.6621393215E+002 
4889662.078 +2.7906948269E-001 +1.4588996208E+002  +1.0897330574E+000 -6.1329428146E+001  +1.1257547329E+000 -1.0179231394E+002  +1.4144539313E+001 -1.1519597165E+002 
5014807.259 +3.6836161679E-001 +1.2653700339E+002  +4.9622848138E-001 +1.6936764848E+002  +5.8943513327E-001 +1.2529193161E+002  +5.2397284642E+000 +1.4580565254E+002 
5139952.441 +3.9058319899E-001 +1.3275361960E+002  +2.2982993319E-001 +1.3128425929E+002  +2.5517765657E-001 +8.3157878955E+001  +2.5841949099E+000 +9.8464991409E+001 
5265097.622 +3.9899379094E-001 +1.3848308309E+002  +1.4619815967E-001 +1.4073065585E+002  +1.4487407177E-001 +1.0495265427E+002  +1.7414538451E+000 +1.2006738160E+002 
5390242.804 +4.0220190076E-001 +1.3712848964E+002  +1.0986135550E-001 +1.1867090399E+002  +1.2028199946E-001 +7.8569533838E+001  +1.4371413852E+000 +9.9798742097E+001 
5515387.985 +3.4400671118E-001 +1.3140603749E+002  +2.1650346151E-001 +8.2910032504E+001  +2.0582674614E-001 +3.9490917396E+001  +2.5946097179E+000 +7.4176482051E+001 
5640533.166 +4.0163266531E-001 +1.2637400155E+002  +1.5060990468E-001 +9.4714216890E+001  +1.4793009813E-001 +6.5350668539E+001  +1.4843845989E+000 +1.0518840741E+002 
5765678.348 +4.6606060754E-001 +1.3101867409E+002  +1.2031350479E-001 +1.0114963875E+002  +1.1822510055E-001 +8.2828773910E+001  +1.4616039598E+000 +1.1212372741E+002 
5890823.529 +4.9218052816E-001 +1.2130960306E+002  +1.7104585031E-001 +7.1555424224E+001  +1.5986478891E-001 +5.7868951603E+001  +1.4508775320E+000 +7.0449173925E+001 
6015968.711 +5.5686975758E-001 +1.1881566190E+002  +2.1895289980E-001 +7.5470315331E+001  +2.2372876553E-001 +5.6106941259E+001  +2.3234803643E+000 +6.7020256428E+001 
6141113.892 +6.3608556351E-001 +1.1725895877E+002  +2.0248948480E-001 +6.9981639378E+001  +2.2587938909E-001 +4.7096045176E+001  +2.1404926101E+000 +5.4971714606E+001 
6266259.074 +8.2884875920E-001 +1.1416604221E+002  +1.9774527199E-001 +6.1361947952E+001  +1.6629776271E-001 +4.0342390108E+001  +1.1570237861E+000 +3.2158673960E+001 
6391404.255 +9.7495692073E-001 +1.0498180581E+002  +2.2951673334E-001 +5.7268765986E+001  +2.3171570547E-001 +4.1499908787E+001  +1.6916865882E+000 +3.3197220452E+001 
6516549.437 +9.9922731056E-001 +9.4691597175E+001  +1.9098498902E-001 +3.8727849018E+001  +1.8493438481E-001 +2.9540861772E+001  +1.0130177175E+000 +1.4637340484E+001 
6641694.618 +1.4676255105E+000 +7.1501168980E+001  +2.8170480134E-001 +3.0079638679E+001  +2.6872349280E-001 +2.2953969601E+001  +1.0989024778E+000 -2.3485585940E+000 
6766839.800 +1.2788676355E+000 +5.0671875967E+001  +2.5352361758E-001 +1.4940301794E+001  +2.4963238194E-001 +9.5157044874E+000  +1.2539447262E+000 +4.7827627905E+000 
6891984.981 +1.1536999081E+000 +2.3824551962E+001  +2.2763048872E-001 -1.2287104666E+000  +2.2650032384E-001 -7.9032784356E+000  +1.1227733281E+000 -2.9040349914E+000 
7017130.163 +1.8067206161E+000 +2.2342255497E+001  +2.5144057255E-001 +1.0484788932E+000  +2.3897574045E-001 -6.5454302374E-002  +1.0692340677E+000 -3.1310626922E+000 
7142275.344 +1.1947688929E+000 +1.1436090084E+001  +1.7881160991E-001 -6.8397201764E-001  +1.9532948066E-001 -9.9776580541E-001  +1.1770855791E+000 -4.9917734179E+000 
7267420.526 +1.4049290882E+000 -8.2926853126E-001  +1.6892304026E-001 +3.7145623366E+000  +1.7836346856E-001 -1.2775252640E-001  +1.1873328800E+000 -6.0727433791E+000 
7392565.707 +1.1526129956E+000 -3.3935855275E-001  +1.3841450680E-001 +3.3483702629E+000  +1.3959845457E-001 +2.6325177748E+000  +1.2794720014E+000 -9.4574567436E+000 
7517710.889 +1.0764083798E+000 -1.7748556800E+000  +1.1300704241E-001 +2.7967897561E+000  +1.3131375170E-001 +4.2609932186E+000  +9.8105185736E-001 -6.1556117228E+000 
7642856.070 +9.0659245981E-001 +2.9666780197E+000  +1.2142448709E-001 +3.5024752129E+000  +1.1496908091E-001 +5.5154772952E+000  +9.5604940926E-001 -1.0114979875E+000 
7768001.252 +8.0028221745E-001 +1.2825885629E+001  +1.0834274947E-001 -1.7609385689E-001  +1.1604064221E-001 +4.8517588994E+000  +8.4654559328E-001 -1.0812260263E+001 
7893146.433 +7.8661455011E-001 +9.3202196851E+000  +1.0378739444E-001 +7.6519636886E-001  +1.0711807604E-001 +5.7739934905E+000  +7.6471601906E-001 -2.6837532730E+000 
8018291.615 +6.8678561086E-001 +7.6632382889E+000  +1.0184860715E-001 -1.5760989827E+000  +1.0217002853E-001 +3.3510943371E+000  +7.0421684138E-001 +3.8439322746E+000 
8143436.796 +6.1255785120E-001 +7.5557092164E+000  +9.8394707820E-002 -9.2099583525E-001  +9.8891786556E-002 +7.7262656296E+000  +7.0267525546E-001 -1.9279640519E+000 
8268581.977 +6.3727265784E-001 +1.0504679884E+001  +9.0372484144E-002 -1.6145423452E+000  +1.0025348600E-001 +7.5046284431E+000  +6.3553133732E-001 +6.8198775977E+000 
8393727.159 +5.4910447490E-001 +7.9121783502E+000  +9.4052821393E-002 -4.5749165929E+000  +9.2624353146E-002 +6.9986482443E+000  +6.0789246199E-001 +1.7916955350E+000 
8518872.340 +5.6165088310E-001 +1.7675309084E+001  +9.2491919516E-002 -4.1911723419E+000  +8.7666427008E-002 +6.8005382845E+000  +5.5050096169E-001 +9.9335782506E+000 
8644017.522 +5.7765173783E-001 +1.1613569810E+001  +9.5079833965E-002 -3.6744944443E+000  +9.3824293642E-002 +8.0645839629E+000  +5.8503578712E-001 -4.5036115275E+000 
8769162.703 +5.1803687529E-001 +6.9284783078E+000  +9.4873019421E-002 -3.4967781921E+000  +9.1463973820E-002 +8.3141956773E+000  +5.4086676607E-001 +3.5700727310E+000 
8894307.885 +5.2851182586E-001 +1.0955959239E+001  +9.0659259326E-002 -4.1199757033E+000  +9.1108512142E-002 +1.3248262754E+001  +5.1674738738E-001 +1.3731187506E+000 
9019453.066 +4.4884206460E-001 +7.5347980205E+000  +9.4788513439E-002 -5.2391089336E+000  +9.2414936815E-002 +1.0110125305E+001  +5.2235171278E-001 +1.3861468220E+000 
9144598.248 +5.0793672558E-001 +4.9392499546E+000  +9.0722089251E-002 -3.7117353248E+000  +9.3443145676E-002 +8.9887568144E+000  +4.7320471797E-001 +2.3113055251E+000 
9269743.429 +4.5374257555E-001 +6.5320153117E+000  +8.9854429508E-002 -3.3638886003E+000  +8.8330126045E-002 +8.7256017783E+000  +5.4186463368E-001 +6.5399005295E+000 
9394888.611 +4.6565350046E-001 +7.2799876742E+000  +9.1077022564E-002 -5.8509838256E+000  +9.1009039522E-002 +1.1364786236E+001  +5.1123825870E-001 +1.3755417132E+000 
9520033.792 +4.7797777254E-001 -1.4546541015E+000  +9.0514035277E-002 -3.7540437406E+000  +9.2709314279E-002 +9.6064296290E+000  +4.9466409221E-001 +8.9204658670E-001 
9645178.974 +4.5785356930E-001 +4.9308672372E+000  +9.3455244799E-002 -3.1801016134E+000  +9.3143383226E-002 +1.1612811542E+001  +4.8767267153E-001 -3.9728346655E+000 
9770324.155 +4.6512032429E-001 +2.9897164141E+000  +9.2755253013E-002 -3.7236744996E+000  +9.2970224017E-002 +1.0397835397E+001  +4.6043150028E-001 -8.8359893745E+000 
9895469.337 +4.6511005060E-001 +4.8419953917E+000  +9.1995193015E-002 -2.3747168585E+000  +9.1318553600E-002 +1.4201802969E+001  +5.0361253507E-001 -4.3043268662E+000 
10020614.518 +4.4649643939E-001 +6.3461429527E+000  +9.0777440947E-002 -4.3481316212E+000  +9.1285062591E-002 +1.3517115441E+001  +4.8267097716E-001 -4.5118155276E+000 
10145759.700 +4.1046256389E-001 +5.8106940697E+000  +9.3073634645E-002 -3.5835572832E+000  +9.0269685526E-002 +1.2130922881E+001  +5.1906968516E-001 +6.3226330100E-001 
10270904.881 +4.5445851300E-001 +4.4945562275E+000  +9.2935234376E-002 -3.8049524208E+000  +9.4902030596E-002 +1.1854461483E+001  +4.7268317080E-001 +1.1270271844E+000 
10396050.063 +4.4916952135E-001 +7.5344139251E+000  +9.1927525070E-002 -2.6672202191E+000  +9.4458835008E-002 +1.3198183618E+001  +4.9410237488E-001 -1.9531951098E+000 
10521195.244 +4.6860777547E-001 +1.0435581713E+001  +9.3989724334E-002 -1.7103565530E+000  +9.5167838838E-002 +1.4496921729E+001  +5.1021121385E-001 +1.6498892675E+000 
10646340.426 +4.5872486124E-001 +7.1129206233E+000  +9.4451841721E-002 -1.4799188701E+000  +9.5219878981E-002 +1.4449104482E+001  +5.1888539817E-001 +1.9554265172E+000 
10771485.607 +4.6327317542E-001 +1.4308442009E+001  +9.6557104287E-002 -1.1256885992E+000  +9.4434833566E-002 +1.3086403823E+001  +4.9387071660E-001 +1.4892257924E+000 
10896630.788 +4.8172872403E-001 +1.1095871974E+001  +9.5067077834E-002 -1.4481159800E+000  +9.5471920236E-002 +1.1690003318E+001  +4.8674835357E-001 +4.2220267150E+000 
11021775.970 +5.1181675731E-001 +8.6645901101E+000  +9.6272608289E-002 -9.8405637386E-001  +9.4339360172E-002 +1.1853543109E+001  +5.0203985397E-001 +3.9610454441E+000 
11146921.151 +4.7957997843E-001 +8.7107979806E+000  +9.8722411866E-002 -1.8329580297E+000  +9.7160297490E-002 +1.2369724586E+001  +5.2954830994E-001 +4.9957626018E+000 
11272066.333 +5.0758414294E-001 +1.2477775708E+001  +9.7771021009E-002 +8.6756011134E-001  +9.7257849376E-002 +1.2072497057E+001  +5.0068731725E-001 +8.5956040871E-001 
11397211.514 +5.1507131805E-001 +6.5957159105E+000  +1.0203440057E-001 +1.1040096669E-001  +1.0103177501E-001 +1.1786307694E+001  +5.3956877355E-001 +2.8836770765E+000 
11522356.696 +5.3632715769E-001 +1.1216104649E+001  +9.7372656089E-002 -5.7884845236E-002  +9.8593008953E-002 +1.2704607706E+001  +5.5411921266E-001 +2.4742137802E+000 
11647501.877 +5.4766693549E-001 +8.7511161745E+000  +1.0120220147E-001 -4.1422310063E-002  +9.7253331802E-002 +1.2506004391E+001  +5.4003721827E-001 +4.5303736491E+000 
11772647.059 +5.3989200707E-001 +7.8021355006E+000  +1.0106550601E-001 +2.8735269741E-001  +9.9530351583E-002 +1.1224915459E+001  +5.5133013574E-001 +3.2936381008E+000 
11897792.240 +5.6862723216E-001 +7.3915520881E+000  +1.0352620334E-001 +1.3994910906E+000  +1.0231136364E-001 +1.1466589198E+001  +5.7676928415E-001 +3.4892258035E+000 
12022937.422 +5.7452750494E-001 +4.7191067222E+000  +1.0385490693E-001 -1.0098268601E-001  +1.0570532282E-001 +1.1013228954E+001  +5.6407881270E-001 +1.2760886976E+000 
12148082.603 +5.9785344467E-001 +6.9910849355E+000  +1.0503395576E-001 +1.3338405886E+000  +1.0380308380E-001 +1.1459142705E+001  +5.9354730657E-001 +9.9726192154E-001 
12273227.785 +6.1830142320E-001 +4.9790875857E+000  +1.0816185367E-001 +2.4669424682E+000  +1.0606707566E-001 +1.0704470119E+001  +6.0617801952E-001 +1.6928357396E+000 
12398372.966 +6.1669487520E-001 +5.9476598687E+000  +1.0708708417E-001 +2.4528779443E+000  +1.0812534325E-001 +1.0312360823E+001  +6.0874160981E-001 +8.3613209051E-001 
12523518.148 +6.1673062960E-001 +3.9372055277E+000  +1.0771239550E-001 +1.8237391651E+000  +1.0792557969E-001 +9.9839379729E+000  +6.3256858462E-001 +2.2328473444E+000 
12648663.329 +6.4233840384E-001 +3.9345872981E+000  +1.1360103360E-001 +1.7433624314E+000  +1.0757296950E-001 +9.5512524280E+000  +6.3818253423E-001 -2.3704819852E+000 
12773808.511 +6.7460421465E-001 +3.1384869349E+000  +1.1080673783E-001 +3.0944829355E+000  +1.0955033615E-001 +8.8028543799E+000  +6.3451657587E-001 +3.0284004044E+000 
12898953.692 +6.7962281427E-001 +1.8996994885E+000  +1.1480154121E-001 +2.8996598420E+000  +1.1093717383E-001 +7.8240696012E+000  +6.6360472096E-001 -1.3193856334E+000 
13024098.874 +6.7076604244E-001 +1.5733705878E+000  +1.1285833569E-001 +1.4833923494E+000  +1.1207665484E-001 +6.9277503040E+000  +6.7754763068E-001 -1.4620969564E+000 
13149244.055 +6.6699552235E-001 +9.5976330604E-001  +1.1355492388E-001 +2.9234968381E+000  +1.1208623748E-001 +6.2010391433E+000  +6.8494874585E-001 -1.1416264050E+000 
13274389.237 +6.9162285831E-001 +9.5271195922E-001  +1.1562449468E-001 +2.4501111938E+000  +1.1435072987E-001 +7.0012029910E+000  +7.4309554286E-001 -7.3451343419E-001 
13399534.418 +7.3560490639E-001 -2.6543687165E+000  +1.1792517394E-001 +2.6989431914E+000  +1.1565839281E-001 +5.5724611527E+000  +7.4426429385E-001 -1.3172515393E+000 
13524679.599 +7.3385888045E-001 -9.6602744933E-001  +1.1893668237E-001 +1.8971674727E+000  +1.1653618842E-001 +5.0940569933E+000  +7.4499455535E-001 -2.1627638479E+000 
13649824.781 +7.4653301159E-001 -2.7458893768E+000  +1.1820620423E-001 +2.5084184250E+000  +1.1750034315E-001 +4.7246575960E+000  +7.5808090989E-001 -1.5750269406E+000 
13774969.962 +7.7119774780E-001 -1.9834844226E+000  +1.2015868201E-001 +2.5949232629E+000  +1.1841333743E-001 +5.0045399840E+000  +7.7952539400E-001 -2.3152324481E+000 
13900115.144 +7.9006647124E-001 -1.4987850269E+000  +1.1900795476E-001 +2.6982708554E+000  +1.1877529797E-001 +4.2127742202E+000  +7.9298264271E-001 -3.1530528561E+000 
14025260.325 +8.1945072154E-001 -4.7923852654E+000  +1.2130050559E-001 +3.3317553524E+000  +1.2137244891E-001 +3.5762885215E+000  +8.1718755096E-001 -4.8152428939E+000 
14150405.507 +8.3276950090E-001 -3.4123174985E+000  +1.2194358522E-001 +2.1677654626E+000  +1.2069895000E-001 +3.2993469412E+000  +8.6101240181E-001 -5.7587553493E+000 
14275550.688 +8.4522957236E-001 -4.9849406429E+000  +1.2343726422E-001 +2.1969839560E+000  +1.2114206684E-001 +2.9656677583E+000  +8.3711642865E-001 -5.6411307913E+000 
14400695.870 +8.6453724940E-001 -4.3170813131E+000  +1.2168504178E-001 +1.7841649052E+000  +1.2066836746E-001 +2.5161907409E+000  +8.6552223122E-001 -4.5528400719E+000 
