!  2-Port S-parameters saved by WinCal
! VAR MeasName=S-Parameters (CALIBRATED_DATA) read from VNA (P5004A)
! VAR MeasDate=29/08/2024 12:38:40
! VAR NAME=S2_r9c5_SET3_9k-100M_2
! VAR FILENAME=S2_r9c5_SET3_9k-100M_2.S2P
! VAR DATE=29/08/2024 12:38:40
! VAR PHYS_PORTS=1,2
! VAR ObjTypeName=DATASET
! VAR IndexType=Frequency
!
# Hz S MA R 50
9000.000 +9.1816058406E-002 -1.7061019950E+002  +7.9334961614E-004 +3.3315460795E+001  +9.5559527755E-003 +2.6167751404E+001  +3.2032227635E-001 -1.3257018524E+002 
134145.181 +1.1174366984E-001 +1.6983696662E+002  +3.1048808661E-004 -4.6911347448E+001  +3.4998680163E-004 +3.4772998906E+001  +2.3885869845E-001 -1.7182033337E+002 
259290.363 +1.1215679302E-001 +1.7008696428E+002  +9.3374087170E-004 -4.5778581672E-001  +7.2649058387E-004 +9.3667920500E+001  +2.3736589268E-001 -1.6892581941E+002 
384435.544 +1.1461930182E-001 +1.6994209308E+002  +3.7027210947E-004 -1.9547271149E+001  +4.3599171142E-004 +8.7328171243E+001  +2.4120432687E-001 -1.6905471902E+002 
509580.726 +1.1509624201E-001 +1.7037961615E+002  +1.9752462437E-003 -8.3274150073E+001  +1.5181095935E-003 +8.3700513322E+001  +2.5277994006E-001 -1.6690383342E+002 
634725.907 +1.1693223824E-001 +1.7112218719E+002  +7.5007135469E-004 -1.1500067255E+002  +6.1245049914E-004 +1.2435472370E+002  +2.4245705674E-001 -1.6045426519E+002 
759871.089 +1.1987457539E-001 +1.7102593693E+002  +3.1478680029E-004 -1.0328516257E+002  +2.7657388432E-004 +5.0215273849E+001  +2.5447546065E-001 -1.6676511790E+002 
885016.270 +1.2229755659E-001 +1.6870833111E+002  +6.1569078786E-004 -2.4429548379E+001  +6.4460181555E-005 +7.1168166689E+001  +2.4149753851E-001 -1.6662777231E+002 
1010161.452 +1.1726682438E-001 +1.6890029097E+002  +1.3611410309E-003 +1.4309814842E+001  +1.4041000660E-003 +1.4749696797E+002  +2.2412118977E-001 -1.6934762573E+002 
1135306.633 +1.1880886298E-001 +1.7091634891E+002  +3.9468624874E-003 -1.9192077113E+001  +3.6043525149E-003 +1.5558422040E+002  +1.7727612266E-001 -1.6184664412E+002 
1260451.815 +1.1808161289E-001 +1.7043733715E+002  +1.6486096025E-003 -7.6067264581E+000  +2.3818307327E-003 -1.7794845332E+002  +2.0635664478E-001 -1.6017111421E+002 
1385596.996 +1.2424452543E-001 +1.7401823620E+002  +8.1721848471E-004 -2.9885277485E+001  +2.0532811397E-003 +9.5665587929E+001  +2.6893475427E-001 -1.5731992805E+002 
1510742.178 +1.2682289647E-001 +1.7196102833E+002  +6.9095488861E-004 -4.3893438851E+001  +1.4318973341E-003 +1.2275306956E+002  +2.5265689086E-001 -1.5836606191E+002 
1635887.359 +1.3078749884E-001 +1.7231399499E+002  +2.2368076981E-003 -1.4472051955E+001  +4.3062745469E-004 -1.1662293158E+002  +2.3351326731E-001 -1.5852791990E+002 
1761032.541 +1.2981931835E-001 +1.6949125994E+002  +1.9441581887E-003 +2.2909704022E+001  +2.5290251441E-003 -1.3808164118E+002  +2.2003531577E-001 -1.5272545446E+002 
1886177.722 +1.2783408052E-001 +1.6884955355E+002  +2.3562838401E-003 +2.3621532592E+001  +3.5610662466E-003 -1.1123911711E+002  +2.1303488390E-001 -1.5458143879E+002 
2011322.904 +1.3131662761E-001 +1.6628131650E+002  +5.4888587818E-003 +5.8676835766E+001  +6.3085328545E-003 -5.3236247540E+001  +1.9142404029E-001 -1.6225561239E+002 
2136468.085 +1.3180210988E-001 +1.6723408754E+002  +6.7048531649E-003 +8.8160562563E+001  +9.1907384759E-003 -4.7332661221E+001  +2.0809221744E-001 -1.7708557187E+002 
2261613.267 +1.2965613019E-001 +1.6626383706E+002  +1.0242243623E-002 +9.3258049904E+001  +9.4736363623E-003 -2.6427863516E+001  +2.3544830673E-001 +1.7949513928E+002 
2386758.448 +1.3107424294E-001 +1.6438722798E+002  +2.1630531137E-002 +8.4159051948E+001  +2.1215636956E-002 -3.5618022966E+001  +1.6790617557E-001 +1.6906811101E+002 
2511903.630 +1.3578152720E-001 +1.6589985788E+002  +1.3500996399E-002 +7.4265388351E+001  +1.2439039976E-002 -3.5938772613E+001  +1.9722176989E-001 -1.7861746365E+002 
2637048.811 +1.2339636271E-001 +1.6942492782E+002  +2.0410057829E-002 +7.0027012655E+001  +2.0430081245E-002 -3.3390646704E+001  +2.2343901601E-001 +1.7620720631E+002 
2762193.992 +1.1736353478E-001 +1.7894842601E+002  +1.1569699755E-001 +8.6744099333E+000  +1.1426559818E-001 -8.3304905637E+001  +3.1460361653E-001 +1.8845403796E+000 
2887339.174 +1.3472928708E-001 +1.7269896435E+002  +4.5915895226E-002 -3.0594077319E+001  +4.8741397421E-002 -1.4172975125E+002  +2.7754256529E-001 -9.1471017209E+001 
3012484.355 +1.2715494025E-001 +1.6828108601E+002  +2.0752897644E-002 +1.0693609629E+001  +2.2666829041E-002 -9.3890560004E+001  +1.7290757790E-001 -1.4879566942E+002 
3137629.537 +1.2805108744E-001 +1.6501262118E+002  +3.7641364724E-002 +6.1085911559E+001  +2.9576365598E-002 -3.4932061023E+001  +2.2529272161E-001 +1.5358581905E+002 
3262774.718 +1.4493621645E-001 +1.6858408680E+002  +3.2093323056E-002 -4.3651266949E+000  +3.5891842419E-002 -9.9121317638E+001  +1.7152955773E-001 -1.1083793950E+002 
3387919.900 +1.4405576316E-001 +1.5856075342E+002  +5.6006226897E-002 +3.5732139722E+001  +6.4599921310E-002 -5.6210702336E+001  +9.7317262219E-002 +4.2200963934E+000 
3513065.081 +1.4298255254E-001 +1.4835645792E+002  +5.9387551451E-002 +9.2932833227E+001  +5.5732121399E-002 +2.2406582903E+000  +3.0222051978E-001 +1.3831954462E+002 
3638210.263 +1.8104139046E-001 +1.4844393778E+002  +1.3721703221E-001 +1.3938816005E+002  +1.7693786975E-001 +6.6736432971E+001  +1.4165504611E+000 +1.2579269893E+002 
3763355.444 +1.5905037648E-001 +1.4528953763E+002  +6.8029877018E-002 +1.2056250084E+002  +6.3999835765E-002 +4.4957601112E+001  +5.5627411480E-001 +1.5239538102E+002 
3888500.626 +1.6009497553E-001 +1.5327888915E+002  +5.9217887525E-002 +8.5733636738E+001  +5.6815742543E-002 +8.8589252348E+000  +4.4186608813E-001 +1.3317025392E+002 
4013645.807 +1.9857639538E-001 +1.5289000487E+002  +5.5026747986E-002 +7.9554796278E+001  +6.5342087737E-002 +1.4967069007E+001  +2.7261245106E-001 +9.9881353609E+001 
4138790.989 +1.8032963775E-001 +1.5373985148E+002  +4.9705624708E-002 +8.7635208224E+001  +4.6980877148E-002 +3.5098804366E+001  +4.0225828583E-001 +1.4853361958E+002 
4263936.170 +1.9325727639E-001 +1.3933931834E+002  +9.2753964243E-002 +8.6372862108E+001  +9.5787361376E-002 +2.3979119711E+001  +3.5222857361E-001 +1.1424443225E+002 
4389081.352 +2.2510085506E-001 +1.4677517910E+002  +1.0260643590E-001 +9.8531398096E+001  +1.0528192646E-001 +3.5523014108E+001  +5.9178527568E-001 +1.0437852011E+002 
4514226.533 +2.1263693477E-001 +1.4232363747E+002  +8.5643230056E-002 +7.6281755624E+001  +8.3072558779E-002 +1.8322306128E+001  +3.0418687976E-001 +1.0887638311E+002 
4639371.715 +2.8013089032E-001 +1.2555820037E+002  +3.4807915506E-001 +1.4073846403E+002  +2.9491554620E-001 +8.7499587958E+001  +1.9476072374E+000 +1.3593785447E+002 
4764516.896 +3.4232125789E-001 +1.3772333577E+002  +1.7691684253E-001 -1.5894479827E+002  +1.6881341074E-001 +1.4665461178E+002  +1.3967417530E+000 +1.7443857698E+002 
4889662.078 +3.8219474301E-001 +1.4405413210E+002  +7.3269493549E-001 -1.4257452798E+002  +7.2960799638E-001 +1.6870903224E+002  +4.1068555123E+000 -1.7897608292E+002 
5014807.259 +6.0801535815E-001 +1.2604464583E+002  +2.2340503371E+000 +1.2712250032E+002  +2.0101224826E+000 +7.9375143978E+001  +1.4895152182E+001 +9.2162293940E+001 
5139952.441 +4.6182815721E-001 +1.2476910769E+002  +3.8545780261E-001 +1.2100322995E+002  +3.3031888346E-001 +7.3318227694E+001  +1.5578765323E+000 +9.3740943440E+001 
5265097.622 +3.8514153217E-001 +1.2031855415E+002  +2.8593289431E-001 +1.2976952783E+002  +2.8059144759E-001 +8.7413925557E+001  +1.6096434584E+000 +1.2763662845E+002 
5390242.804 +3.0469461436E-001 +1.2667129764E+002  +1.4965163601E-001 +1.0799782626E+002  +1.3933621633E-001 +7.0971431989E+001  +1.0765929919E+000 +1.3810199167E+002 
5515387.985 +4.2657528448E-001 +1.2338488417E+002  +6.1224417898E-001 +1.1230538763E+002  +6.1120889726E-001 +7.6748771586E+001  +4.1922382393E+000 +1.0097758574E+002 
5640533.166 +3.8160538470E-001 +1.2611729231E+002  +3.9018177384E-001 +1.0942033520E+002  +3.7599103563E-001 +7.7096365648E+001  +3.1215627867E+000 +1.0920903524E+002 
5765678.348 +4.6095420784E-001 +1.2427274370E+002  +3.1516779795E-001 +9.1318605457E+001  +3.2513898070E-001 +6.0311430193E+001  +2.1485015331E+000 +8.5596227174E+001 
5890823.529 +4.5112322646E-001 +1.1494625636E+002  +4.0050824311E-001 +7.9094322505E+001  +3.5501489723E-001 +5.2249876062E+001  +2.3497643586E+000 +7.6861583193E+001 
6015968.711 +5.4832956066E-001 +1.2257740726E+002  +2.8006168157E-001 +8.8261888001E+001  +2.6128816741E-001 +6.3623204918E+001  +1.6809411717E+000 +8.6232164744E+001 
6141113.892 +4.4680913413E-001 +1.1054908449E+002  +2.9029600418E-001 +4.8524363326E+001  +2.8629484791E-001 +2.5631123043E+001  +1.5276890128E+000 +5.2398440863E+001 
6266259.074 +6.4549520430E-001 +9.5743631735E+001  +3.7140481255E-001 +5.4753603176E+001  +3.7108261075E-001 +3.6597103268E+001  +1.5258153459E+000 +5.4504127691E+001 
6391404.255 +8.8819982113E-001 +9.5283271641E+001  +3.8171852886E-001 +5.4914895723E+001  +3.7602480574E-001 +4.1689520734E+001  +1.3244480175E+000 +4.2866684271E+001 
6516549.437 +7.6201853504E-001 +8.0695901692E+001  +3.7902472863E-001 +2.4496703461E+001  +3.5840778229E-001 +1.0502149768E+001  +1.4976482457E+000 +1.0362375924E+001 
6641694.618 +1.1963454606E+000 +5.9729066292E+001  +4.2441204271E-001 +2.4866807963E+001  +4.2442318489E-001 +1.5424668440E+001  +9.9982123791E-001 +1.3343751752E+001 
6766839.800 +1.0472673963E+000 +4.5188463989E+001  +4.0981709439E-001 +1.2630769750E+001  +3.8503526535E-001 +1.7654399258E+000  +1.2582844599E+000 +7.9657245263E-001 
6891984.981 +1.3936848271E+000 +2.8748235824E+001  +4.1630652095E-001 +5.5773719406E+000  +4.2604853226E-001 -1.6142589791E+000  +1.1446361153E+000 -4.1910724415E+000 
7017130.163 +1.3502778836E+000 +2.1620663659E+001  +3.5738334233E-001 +3.9015735418E+000  +3.5834149276E-001 +1.7086571106E+000  +1.1151749051E+000 +1.2873311947E+000 
7142275.344 +1.2038821185E+000 +1.3411125076E+001  +3.0100745986E-001 +2.2029092798E+000  +2.8586500876E-001 -1.3307299967E+000  +1.0326490792E+000 -3.3220260634E+000 
7267420.526 +1.1229143264E+000 +1.1628911751E+000  +2.5443889183E-001 +1.0720730020E+000  +2.6432098998E-001 +3.7669597756E-001  +1.1108915796E+000 -1.0474200909E+001 
7392565.707 +9.6795892424E-001 +8.4917694405E+000  +2.2093553579E-001 +3.2597703560E+000  +2.1107667553E-001 +7.6657778438E+000  +1.1937533490E+000 -9.9720469743E+000 
7517710.889 +9.8632334174E-001 +4.6148261558E-001  +2.0819350488E-001 +4.0863937453E+000  +2.0865648279E-001 +7.3190339524E+000  +1.0247527279E+000 -6.5687575775E-001 
7642856.070 +7.8783324238E-001 +3.8334760277E+000  +1.9347185572E-001 +2.8356125676E+000  +1.9689599545E-001 +5.4587397485E+000  +8.3041130545E-001 -7.0345011215E+000 
7768001.252 +7.4375303710E-001 +7.7600403771E+000  +1.8475644893E-001 +1.5206266907E+000  +1.8027374736E-001 +5.2604732170E+000  +8.3019576466E-001 +1.5762818174E+000 
7893146.433 +5.9276186791E-001 +1.2818368797E+001  +1.7343414344E-001 -1.7781166777E+000  +1.7471563343E-001 +6.5450790166E+000  +7.0274632187E-001 +3.0347931515E+000 
8018291.615 +6.1751484352E-001 +6.7039148779E+000  +1.7106632656E-001 -6.6826695947E-001  +1.6850799207E-001 +6.1799731656E+000  +6.6621439925E-001 +1.8177973429E+000 
8143436.796 +5.1471501763E-001 +1.2069052568E+001  +1.7015294315E-001 -2.2258765366E+000  +1.7199343866E-001 +5.8487678798E+000  +6.0608535737E-001 +3.3126723985E-001 
8268581.977 +5.5862541579E-001 +1.1351499379E+001  +1.6744443647E-001 -2.8465288283E+000  +1.6298148324E-001 +7.4461632846E+000  +5.9978880483E-001 -1.4439363953E+000 
8393727.159 +5.3346560570E-001 +3.5967136800E+000  +1.5740050996E-001 -2.4688180625E+000  +1.6117228727E-001 +5.6836939880E+000  +5.0162160418E-001 +1.2284932998E+001 
8518872.340 +4.9617287471E-001 +1.5124127044E+001  +1.5119674780E-001 -4.6872855134E+000  +1.6040956087E-001 +8.8907588917E+000  +5.3902977564E-001 +5.1213846446E+000 
8644017.522 +4.3786037274E-001 +6.8957411008E+000  +1.6030849142E-001 -4.1297907827E+000  +1.5673776118E-001 +7.3533432237E+000  +4.9924119151E-001 +5.2969556297E+000 
8769162.703 +4.9159203555E-001 +1.1566394716E+001  +1.6273137379E-001 -3.5494358062E+000  +1.5433716351E-001 +9.1629725619E+000  +4.7665614143E-001 -8.3712735494E-001 
8894307.885 +4.0700860412E-001 +1.6938823450E+001  +1.5225259738E-001 -5.1088516672E+000  +1.5213851019E-001 +1.0143858292E+001  +4.6740623756E-001 +1.3065877697E+000 
9019453.066 +4.0921711729E-001 +1.1141615212E+001  +1.5743341980E-001 -4.9034502064E+000  +1.5121963555E-001 +9.6171913852E+000  +4.8997358968E-001 -1.2421531256E+000 
9144598.248 +4.2497497652E-001 +9.5248103264E+000  +1.5675106228E-001 -4.5930335099E+000  +1.5500474264E-001 +1.1715984114E+001  +4.9568773423E-001 +4.3455246311E-001 
9269743.429 +4.0481245490E-001 +7.0354738673E+000  +1.5724858103E-001 -5.0780809950E+000  +1.4968489834E-001 +1.1384054565E+001  +4.2585504814E-001 -5.7468286303E+000 
9394888.611 +3.6685508384E-001 +1.0957294488E+001  +1.5317929802E-001 -4.4366012425E+000  +1.4886707717E-001 +1.0922498287E+001  +4.6482465990E-001 +2.5977716061E+000 
9520033.792 +3.7949737470E-001 +9.9032108904E+000  +1.4939295243E-001 -5.0461419517E+000  +1.5263924584E-001 +1.0886249564E+001  +4.5282269495E-001 +3.8103061447E+000 
9645178.974 +4.0783858171E-001 +9.1959249407E+000  +1.5378791580E-001 -4.2013113147E+000  +1.5337247938E-001 +1.1229935103E+001  +4.0996873007E-001 +1.1510510411E+000 
9770324.155 +3.6718660474E-001 -6.5372940478E-001  +1.5467852450E-001 -5.4047443576E+000  +1.5550456951E-001 +1.0693071039E+001  +4.5852670119E-001 -4.5708920902E+000 
9895469.337 +3.8034218787E-001 +6.0989006875E+000  +1.5869395098E-001 -5.4899062264E+000  +1.5564837682E-001 +1.1506093907E+001  +4.2562686961E-001 -2.8051285048E+000 
10020614.518 +4.1499159840E-001 +6.4108743741E+000  +1.5689873960E-001 -4.3398489848E+000  +1.5390256757E-001 +1.2737586288E+001  +3.8995825476E-001 -7.5191543520E-001 
10145759.700 +3.9869617082E-001 +1.2597789639E+001  +1.5410574305E-001 -3.0661928847E+000  +1.5500531121E-001 +1.1890189191E+001  +4.2751205974E-001 +2.4857801043E+000 
10270904.881 +4.0117087705E-001 +6.9330851161E+000  +1.5670723907E-001 -3.0744838709E+000  +1.5417589367E-001 +1.2379331689E+001  +4.0756470564E-001 +2.7609106929E+000 
10396050.063 +4.0960130541E-001 +1.1174021007E+001  +1.5886319449E-001 -3.6077984490E+000  +1.5300313835E-001 +1.2417706457E+001  +3.9081120928E-001 -4.8154815756E-001 
10521195.244 +3.9089713142E-001 +1.2757675931E+001  +1.5804184783E-001 -2.9143117140E+000  +1.5565747285E-001 +1.2647929034E+001  +4.5339595376E-001 +5.9986257799E+000 
10646340.426 +3.5442739664E-001 +1.1826923240E+001  +1.6137191266E-001 -2.5656636162E+000  +1.5997540314E-001 +1.0373201434E+001  +4.2685236763E-001 +9.8459592484E-001 
10771485.607 +4.2309759162E-001 +1.0227871044E+001  +1.6005034841E-001 -2.3056059773E+000  +1.6115935749E-001 +1.2842355275E+001  +4.6145857095E-001 +1.0853946768E+000 
10896630.788 +4.0393086836E-001 +9.2984450449E+000  +1.6065107917E-001 -2.6843907118E+000  +1.5953734430E-001 +1.2248631481E+001  +4.2833884835E-001 +8.9065919687E+000 
11021775.970 +4.0554204539E-001 +8.0540777016E+000  +1.6386871684E-001 -2.0874146267E+000  +1.6023579605E-001 +1.2262244101E+001  +4.5319887339E-001 +6.9213219177E+000 
11146921.151 +4.4366435278E-001 +1.1301072639E+001  +1.6085831566E-001 -1.3801791329E+000  +1.6325031864E-001 +1.1973244882E+001  +4.3276795768E-001 +2.5992484155E+000 
11272066.333 +4.2287404612E-001 +1.2515277694E+001  +1.6676383426E-001 -1.0472790533E+000  +1.6287615022E-001 +1.2215848785E+001  +4.7024982265E-001 +7.5622105864E+000 
11397211.514 +4.8748561143E-001 +6.1221386078E+000  +1.6955141746E-001 +2.7284627681E-001  +1.6833394881E-001 +1.1927603311E+001  +4.8534253226E-001 +1.5330217568E+000 
11522356.696 +4.5292941155E-001 +7.1995798904E+000  +1.6959615921E-001 -9.7964177180E-001  +1.6813385988E-001 +1.1868841730E+001  +4.6315480412E-001 +3.1711791944E-002 
11647501.877 +4.5814496502E-001 +9.4697478798E+000  +1.7017997998E-001 +2.2122768580E-001  +1.6791213247E-001 +1.1009279029E+001  +4.7175428713E-001 +4.2456556996E+000 
11772647.059 +4.8219382178E-001 +8.6633993828E+000  +1.7260683416E-001 -1.6590325138E-001  +1.7047915181E-001 +1.0839074939E+001  +4.7180052067E-001 +2.8782887558E+000 
11897792.240 +4.9476895837E-001 +8.8705230092E+000  +1.7393187761E-001 +5.4740567741E-001  +1.7220410882E-001 +1.0211581446E+001  +5.0253783266E-001 +5.8858839784E+000 
12022937.422 +5.1328032739E-001 +7.4564992228E+000  +1.7707590131E-001 +1.2893113016E+000  +1.7302125989E-001 +1.0247270567E+001  +5.2306169446E-001 +4.3426416842E+000 
12148082.603 +4.8496417080E-001 +5.6688986543E+000  +1.7783774163E-001 +3.1616048322E-002  +1.7599107844E-001 +9.0577989445E+000  +5.2838539575E-001 +4.3384112982E+000 
12273227.785 +5.1930156367E-001 +5.7773102798E+000  +1.7880124780E-001 +1.1613014544E+000  +1.7929730378E-001 +9.4515441880E+000  +5.3444159848E-001 +4.2655852184E+000 
12398372.966 +5.2453466893E-001 +5.4317107857E+000  +1.8089080683E-001 +1.5657573821E+000  +1.7677884602E-001 +8.8912010665E+000  +5.5812239933E-001 +3.9308469951E+000 
12523518.148 +5.4083541044E-001 +4.6017295381E+000  +1.8379241620E-001 +1.7074268263E+000  +1.8085922324E-001 +8.6228988928E+000  +5.3238813410E-001 +2.7138671167E+000 
12648663.329 +5.7279376044E-001 +3.2341635800E+000  +1.8576447504E-001 +1.3491381816E+000  +1.8566747066E-001 +8.6653857145E+000  +5.5663252289E-001 +6.0118226033E-001 
12773808.511 +5.6187637884E-001 +1.8495991451E+000  +1.8772593028E-001 +1.6742038849E+000  +1.8569555120E-001 +8.0869089664E+000  +5.9227093189E-001 +5.3642054430E-002 
12898953.692 +5.8372049456E-001 +2.5499151985E+000  +1.8888903053E-001 +1.7796465186E+000  +1.8756552204E-001 +7.2540003938E+000  +5.8218203196E-001 +9.1434685732E-001 
13024098.874 +5.9401956694E-001 +1.2481395651E+000  +1.9199361289E-001 +1.9348975355E+000  +1.9003103869E-001 +6.7767722564E+000  +6.0949218562E-001 -2.4569251823E+000 
13149244.055 +6.2019876707E-001 +2.4182480616E-001  +1.9295032813E-001 +2.0831376161E+000  +1.9093541119E-001 +7.3472263768E+000  +6.3787392248E-001 +1.3918873220E-001 
13274389.237 +6.4848502448E-001 +1.4078045516E-002  +1.9436965199E-001 +2.2211898867E+000  +1.9266761339E-001 +6.2993781458E+000  +6.3027419888E-001 +6.0902909042E-001 
13399534.418 +6.3792246351E-001 -9.3399053534E-001  +1.9774976706E-001 +2.4871390291E+000  +1.9555559150E-001 +5.7224754484E+000  +6.6527357224E-001 -2.3554487616E+000 
13524679.599 +6.6932386762E-001 -1.7258765138E+000  +1.9905778142E-001 +2.4506643496E+000  +1.9595098767E-001 +5.7448640378E+000  +6.7806245308E-001 -2.4022302696E+000 
13649824.781 +6.6645971250E-001 -2.1921062680E+000  +1.9956085636E-001 +2.4112166143E+000  +1.9675349515E-001 +4.8687179707E+000  +6.9484769320E-001 -2.6766774923E+000 
13774969.962 +6.8105937425E-001 -1.1333223151E+000  +2.0007199976E-001 +1.9325279152E+000  +1.9771643116E-001 +4.5294945805E+000  +7.0468108488E-001 -2.2599749678E+000 
13900115.144 +7.0337300454E-001 -3.2609018111E+000  +2.0320654803E-001 +2.3567344157E+000  +2.0051567606E-001 +4.2721591201E+000  +7.2188991542E-001 -3.0816811604E+000 
14025260.325 +7.2478821957E-001 -4.1858705463E+000  +2.0433963420E-001 +2.1475771038E+000  +2.0253172446E-001 +3.8109391353E+000  +7.6579060484E-001 -2.1987752479E+000 
14150405.507 +7.2127887322E-001 -3.5646719972E+000  +2.0500252178E-001 +1.3697758374E+000  +2.0059784609E-001 +2.3495874794E+000  +7.3148521554E-001 -4.0996747662E+000 
14275550.688 +7.6226206926E-001 -4.9949477674E+000  +2.0588333392E-001 +1.6833428942E+000  +2.0373184310E-001 +2.1382164815E+000  +7.5283117888E-001 -4.7543905252E+000 
14400695.870 +7.7681858114E-001 -7.2892177071E+000  +2.0773792534E-001 +1.6523924894E+000  +2.0382877293E-001 +2.0889620033E+000  +7.8853558077E-001 -3.8516307784E+000 
