!  2-Port S-parameters saved by WinCal
! VAR MeasName=S-Parameters (CALIBRATED_DATA) read from VNA (P5004A)
! VAR MeasDate=29/08/2024 10:40:55
! VAR NAME=S2_r9c2_RESET3_9k-100M_1
! VAR FILENAME=S2_r9c2_RESET3_9k-100M_1.S2P
! VAR DATE=29/08/2024 10:40:55
! VAR PHYS_PORTS=1,2
! VAR ObjTypeName=DATASET
! VAR IndexType=Frequency
!
# Hz S MA R 50
9000.000 +9.3229036766E-002 -1.5113125856E+002  +6.6466508237E-003 -7.8211703447E+001  +3.3275195546E-003 +1.7461907208E+002  +2.1080539830E-001 -1.4927435968E+002 
134145.181 +1.1116525990E-001 +1.6960450578E+002  +4.1904698579E-004 -1.9578885759E+001  +2.6095987016E-004 -4.2287980628E+001  +2.3457435376E-001 -1.7138309667E+002 
259290.363 +1.1066518731E-001 +1.6977902805E+002  +5.8319707023E-004 -1.6827114341E+002  +5.4741659748E-004 +1.2400203839E+002  +2.4002214355E-001 -1.7005660210E+002 
384435.544 +1.1404871324E-001 +1.6991910404E+002  +6.8194823064E-004 +1.5398039945E+002  +2.8189255509E-004 +1.7393471487E+002  +2.4968133152E-001 -1.6656004645E+002 
509580.726 +1.1352741365E-001 +1.7164920748E+002  +1.0569880221E-003 -8.2254715035E+001  +1.4785201495E-004 -1.7180726201E+002  +2.3588277313E-001 -1.6888303442E+002 
634725.907 +1.1808872056E-001 +1.7172674444E+002  +1.2759588734E-003 -8.0918908628E+001  +2.7024829386E-003 +5.0323019114E+001  +2.3927856922E-001 -1.6162243334E+002 
759871.089 +1.1866036846E-001 +1.7044756689E+002  +5.6326153546E-004 -1.5550527332E+001  +3.8260631206E-004 -2.7036438245E+001  +2.5104592408E-001 -1.6579448112E+002 
885016.270 +1.2073893861E-001 +1.6872444607E+002  +1.9754113010E-004 -1.5922405024E+002  +6.4198999236E-004 +8.3503758180E+001  +2.4876998638E-001 -1.6798301693E+002 
1010161.452 +1.1595716229E-001 +1.6984706769E+002  +1.1092663297E-003 -2.9497462375E+001  +1.4955524948E-003 +1.4115622176E+002  +2.1386281950E-001 -1.6888622966E+002 
1135306.633 +1.2006023057E-001 +1.7057203752E+002  +1.7349788007E-003 -1.2175479490E+001  +1.1859615636E-003 +1.0670103730E+002  +1.7290337893E-001 -1.6690990771E+002 
1260451.815 +1.2282025798E-001 +1.6989545774E+002  +1.1047937693E-003 -1.0236920361E+001  +2.5003435539E-003 +1.1977590073E+002  +2.3478201953E-001 -1.5682289700E+002 
1385596.996 +1.2740626696E-001 +1.7303485060E+002  +1.0168899237E-003 -1.2141253099E+002  +2.2637391609E-003 +9.5087733566E+001  +2.5758107084E-001 -1.5669357022E+002 
1510742.178 +1.2839473719E-001 +1.7142368255E+002  +1.0446442738E-003 -7.9593642540E+001  +9.4329720524E-004 +1.6913994395E+002  +2.6994161708E-001 -1.5593245212E+002 
1635887.359 +1.3013599958E-001 +1.7267680204E+002  +8.0388310269E-004 -1.3089193685E+001  +1.2927683097E-003 -1.5144714653E+002  +2.4663848635E-001 -1.6029524773E+002 
1761032.541 +1.3102417657E-001 +1.6882251476E+002  +1.3121701780E-003 -4.8224498874E+000  +1.1553777204E-003 +5.2639554076E+001  +2.3972640449E-001 -1.6160036241E+002 
1886177.722 +1.3034930373E-001 +1.6795409850E+002  +2.0399493169E-003 +5.6917701744E+001  +3.8058814348E-003 -3.3629834690E+001  +2.2098279079E-001 -1.6491005150E+002 
2011322.904 +1.2795173373E-001 +1.6562208063E+002  +6.6040553813E-003 +6.4461649137E+001  +5.5870950589E-003 -4.6544046843E+001  +1.9208195489E-001 -1.6063285128E+002 
2136468.085 +1.2821420175E-001 +1.6595928854E+002  +6.8916899837E-003 +6.5791241199E+001  +9.6043522402E-003 -4.7720975057E+001  +1.5075794735E-001 -1.7400712680E+002 
2261613.267 +1.3504558201E-001 +1.6429969598E+002  +1.4235004470E-002 +7.9897902961E+001  +1.1135106029E-002 -5.2070154497E+001  +1.1218286306E-002 -1.5302709033E+002 
2386758.448 +1.3610154803E-001 +1.6596882141E+002  +6.0712351210E-003 +8.6087481885E+001  +4.5613232906E-003 -4.0750494498E+001  +1.9171453688E-001 -1.7650747966E+002 
2511903.630 +1.3730565782E-001 +1.5814653945E+002  +1.0559050628E-002 +1.0209029041E+002  +1.4089484719E-002 -1.7487140634E+001  +1.8819545670E-001 +1.7485292776E+002 
2637048.811 +1.3451545768E-001 +1.6059978419E+002  +1.5320953196E-002 +8.3298767078E+001  +1.4128819835E-002 -4.4393889725E+001  +4.3822338944E-002 +1.7590270774E+002 
2762193.992 +1.2518207529E-001 +1.6233736232E+002  +4.6315913964E-002 -3.3202864573E+001  +4.5386005451E-002 -1.5146379919E+002  +4.8971537623E-001 -9.0462473600E+001 
2887339.174 +1.1868176366E-001 +1.6798171867E+002  +2.9171145507E-002 -1.6480778247E+001  +2.8731905941E-002 -1.3402735897E+002  +2.3762817898E-001 -1.1022092504E+002 
3012484.355 +1.4838756932E-001 +1.7499996362E+002  +2.9337397156E-002 -5.1356410405E+001  +2.0750777112E-002 -1.3258310071E+002  +2.9038509757E-001 -9.2316560983E+001 
3137629.537 +1.3251376855E-001 +1.6340071172E+002  +1.0842373079E-002 -1.0738250034E-001  +1.9253836355E-002 -9.9865489439E+001  +2.1300949612E-001 -1.2714859171E+002 
3262774.718 +1.3336864890E-001 +1.5672829314E+002  +4.6745091042E-002 +2.1981147214E+001  +4.3556474025E-002 -8.1614537899E+001  +2.6086885652E-001 -1.9147407937E+001 
3387919.900 +1.2585868783E-001 +1.6707990875E+002  +4.9042127399E-002 +1.8929519814E+001  +3.4691659427E-002 -6.3009850213E+001  +9.6763103892E-002 +7.1965567318E+001 
3513065.081 +1.4715223628E-001 +1.5323172716E+002  +3.3947668276E-002 +5.2996933948E+001  +3.5659619672E-002 -3.3123887689E+001  +1.2311136672E-001 +1.1201720814E+002 
3638210.263 +1.9925973077E-001 +1.4083220146E+002  +5.2677214051E-002 +1.3695497095E+002  +6.0389542638E-002 +8.3321971803E+001  +5.4798210907E-001 +1.4529950587E+002 
3763355.444 +1.6116372116E-001 +1.5102772426E+002  +3.8280581686E-002 +6.3861605280E+001  +4.1132754867E-002 -3.3217431330E+000  +2.1550282947E-001 +1.2706151161E+002 
3888500.626 +1.9706585379E-001 +1.4693954957E+002  +5.4287465829E-002 +1.1602564481E+002  +5.4508546535E-002 +4.0811077827E+001  +6.1807191940E-001 +1.1102749810E+002 
4013645.807 +1.7954851296E-001 +1.4784346075E+002  +3.5011226359E-002 +9.6782913722E+001  +3.5583812218E-002 +2.4486194367E+001  +3.8637359343E-001 +1.3399571354E+002 
4138790.989 +1.9482356782E-001 +1.4622203505E+002  +5.0246384482E-002 +1.1589187233E+002  +3.5933045072E-002 +4.8507327209E+001  +5.5307042905E-001 +1.4458492841E+002 
4263936.170 +1.9453265899E-001 +1.4143781445E+002  +3.8812537259E-002 +8.4370769155E+001  +4.2950631282E-002 +2.1974230675E+001  +3.3143305805E-001 +1.3534153726E+002 
4389081.352 +2.3320433085E-001 +1.4691145868E+002  +4.6651793495E-002 +9.9997365406E+001  +3.5514028570E-002 +4.6788293156E+001  +4.4210822580E-001 +1.3267480673E+002 
4514226.533 +2.1910644370E-001 +1.4227072683E+002  +5.8906502169E-002 +5.4860514118E+001  +7.0427291419E-002 +1.5996650460E+001  +3.2144294632E-001 +6.8033653395E+001 
4639371.715 +2.7404254815E-001 +1.2540004188E+002  +1.3995175357E-001 +7.4329741699E+001  +1.5107407771E-001 +1.8814813878E+001  +7.8611903207E-001 +4.6049911248E+001 
4764516.896 +3.0820412422E-001 +1.1393472176E+002  +3.9658967919E-001 +1.3509286346E+002  +4.1819228907E-001 +9.3421525056E+001  +3.2068409687E+000 +1.2092218790E+002 
4889662.078 +3.7852236722E-001 +1.3440572585E+002  +2.0713747843E-001 -7.7550384053E+000  +2.5249867544E-001 -5.3917494512E+001  +2.6307003175E+000 -7.9798273462E+001 
5014807.259 +3.8371254411E-001 +1.3617922380E+002  +1.5003782995E-001 +1.6528066824E+002  +1.2617560969E-001 +1.2098142038E+002  +1.6621258967E+000 +1.4297302957E+002 
5139952.441 +3.3028747751E-001 +1.4115357465E+002  +6.6533758984E-001 -1.1046601325E+002  +6.0101801355E-001 -1.4488949930E+002  +7.6376556842E+000 -1.4689064180E+002 
5265097.622 +3.7509108288E-001 +1.3013591402E+002  +1.7511454698E-001 +1.0952277417E+002  +2.0109751310E-001 +7.0548399204E+001  +1.8311748207E+000 +1.0353207617E+002 
5390242.804 +3.2080684102E-001 +1.3042163514E+002  +2.3400061168E-001 +9.8961970547E+001  +1.6482550995E-001 +6.1710933009E+001  +2.3121231958E+000 +9.8632250940E+001 
5515387.985 +4.1063662154E-001 +1.2840832231E+002  +9.5084930677E-002 +1.1503456159E+002  +9.8958081356E-002 +7.6576398943E+001  +1.0964981195E+000 +1.2419318339E+002 
5640533.166 +4.7722514375E-001 +1.2655513639E+002  +1.3682107238E-001 +1.0013922188E+002  +1.4210419047E-001 +6.4239485664E+001  +1.3157840784E+000 +9.0471572056E+001 
5765678.348 +4.8242834271E-001 +1.2905516953E+002  +1.7591904166E-001 +1.1021081207E+002  +1.5008680651E-001 +7.9551131422E+001  +1.8724308039E+000 +9.9335250401E+001 
5890823.529 +6.0759339288E-001 +1.1770646424E+002  +1.8827546546E-001 +9.4483570952E+001  +1.9419106604E-001 +6.4337432324E+001  +1.3619523336E+000 +7.3650447036E+001 
6015968.711 +5.6067151996E-001 +1.1694357875E+002  +1.8368682363E-001 +7.1602769384E+001  +1.7111492787E-001 +4.7168307531E+001  +1.4007445199E+000 +6.7129593544E+001 
6141113.892 +6.7234615690E-001 +1.1436330562E+002  +2.4804493219E-001 +9.0474829277E+001  +2.1099405636E-001 +6.5505683318E+001  +2.2637421899E+000 +8.3289692030E+001 
6266259.074 +6.7427600572E-001 +1.1319124044E+002  +2.4099319506E-001 +6.2803170620E+001  +2.2064096892E-001 +4.4988743435E+001  +2.2012571769E+000 +5.1061632743E+001 
6391404.255 +7.4030567424E-001 +8.8444954236E+001  +2.4513575224E-001 +3.1290276633E+001  +2.8540721463E-001 +1.8076570596E+001  +1.9185509562E+000 +2.2574633891E+001 
6516549.437 +9.5231356702E-001 +8.6343045487E+001  +2.3014494036E-001 +2.9635634758E+001  +2.4816076685E-001 +1.0864891434E+001  +1.5666453412E+000 -7.8697134181E-001 
6641694.618 +1.0928550819E+000 +7.3642922695E+001  +2.4158684209E-001 +2.7452052197E+001  +2.2897744236E-001 +1.6454396048E+001  +1.3172636529E+000 +1.6512686108E+001 
6766839.800 +1.8413580575E+000 +5.7896201176E+001  +2.5908244319E-001 +3.3881231608E+001  +2.7343671052E-001 +2.8342551135E+001  +8.3993349815E-001 +1.5078865314E+001 
6891984.981 +1.2042246616E+000 +2.2125341442E+001  +2.4279710543E-001 +4.4561463131E-002  +2.2930975604E-001 -5.7909630135E+000  +1.1104749533E+000 +2.7828035151E+000 
7017130.163 +1.4298397923E+000 +3.2255018332E+001  +2.1202662099E-001 +4.9230635139E+000  +2.1274515643E-001 +2.0014431671E+000  +1.1913609285E+000 -1.1649101036E+001 
7142275.344 +1.2320970279E+000 +5.6230398133E+000  +1.8061980359E-001 -2.0191324759E+000  +1.8979053949E-001 -7.1292111737E+000  +1.1687381829E+000 -4.7634155299E+000 
7267420.526 +1.2623232855E+000 -3.6614038414E-001  +1.7244283214E-001 +1.1563811622E-001  +1.7620671495E-001 -3.0570136379E+000  +1.4164342584E+000 -1.1435772713E+001 
7392565.707 +1.0996119897E+000 +2.5738868281E+000  +1.3722273213E-001 +6.0715709403E+000  +1.2752186236E-001 +4.0497754064E+000  +1.1580934362E+000 -1.2955311213E+001 
7517710.889 +1.1033460411E+000 +3.4880125086E+000  +1.2869906404E-001 +5.2362638330E+000  +1.2312704339E-001 +6.8315857840E+000  +1.0847640658E+000 -7.6304522837E+000 
7642856.070 +9.3646140834E-001 +5.9535114519E+000  +1.1915543025E-001 +5.4674434431E+000  +1.1774293149E-001 +6.9917598356E+000  +1.1065534403E+000 -2.3073800625E+000 
7768001.252 +7.8522893870E-001 +6.1843382348E+000  +1.0450017858E-001 +9.5359649549E-001  +1.0601440010E-001 +8.1797550341E+000  +8.6131296450E-001 -8.1566793157E+000 
7893146.433 +7.2842785624E-001 -8.1290192996E+000  +1.0891406362E-001 +1.9512433574E+000  +1.1276316390E-001 +2.7099567823E+000  +9.0057923259E-001 -6.2623625192E+000 
8018291.615 +6.7573174359E-001 +5.6077603659E+000  +1.0212147527E-001 -2.6528631136E+000  +1.0194089292E-001 +5.6282948746E+000  +7.7368650885E-001 -3.5035522419E-001 
8143436.796 +6.1148600778E-001 +2.6243705925E+000  +9.4428914782E-002 -1.7899735851E+000  +1.0204418945E-001 +6.2686491618E+000  +7.4954375589E-001 -2.1674132806E+000 
8268581.977 +6.2618485036E-001 +7.0763367738E+000  +1.0200805800E-001 -1.1700637063E+000  +9.9583734789E-002 +5.3634487534E+000  +6.8020552546E-001 -7.1931608001E+000 
8393727.159 +6.4166188244E-001 +7.4138537732E+000  +9.5914879470E-002 -2.9903366498E+000  +9.6832303079E-002 +1.0783777673E+001  +6.2253165567E-001 -1.5867916670E-001 
8518872.340 +5.8210283376E-001 +1.1809965964E+001  +9.6503357571E-002 -4.8974092900E+000  +9.4031214778E-002 +9.8028032362E+000  +5.7762564666E-001 +2.0862252462E-001 
8644017.522 +5.4736420038E-001 +1.1989535405E+001  +9.8426092131E-002 -1.6215817537E+000  +9.1389256003E-002 +8.4975423923E+000  +5.9183811314E-001 +2.8269627743E-001 
8769162.703 +4.9808381314E-001 +1.3021020401E+001  +9.6032068316E-002 -8.6262598803E+000  +8.9835949054E-002 +7.8743434886E+000  +5.4695819633E-001 -1.4016710932E+000 
8894307.885 +5.2570104998E-001 +8.0553273008E+000  +9.1313040789E-002 -2.7354325118E+000  +9.3320784562E-002 +7.9178132369E+000  +5.5189152611E-001 +2.1777284871E+000 
9019453.066 +5.3936090390E-001 +7.9833036058E+000  +9.1643986094E-002 -2.7270367796E+000  +9.0293392037E-002 +1.2714286597E+001  +4.8984599606E-001 +4.0613296194E+000 
9144598.248 +4.8783341010E-001 +1.1936527810E+001  +8.8471096536E-002 -3.4398447955E+000  +8.9469369432E-002 +1.1895540658E+001  +5.0453709830E-001 +3.4063285273E+000 
9269743.429 +4.7339421466E-001 +5.0500247336E+000  +9.3760632656E-002 -4.8497482542E+000  +9.2015863239E-002 +1.2150677759E+001  +5.5523936316E-001 -1.3883699613E+000 
9394888.611 +4.4301737102E-001 +3.3219580886E+000  +9.2983804630E-002 -5.2556254774E+000  +8.9769968347E-002 +1.1473053141E+001  +4.3981822077E-001 +3.5769012552E-001 
9520033.792 +4.9343230266E-001 +5.7648748728E+000  +9.2104082132E-002 -1.7826140222E+000  +8.8282148446E-002 +1.0562154892E+001  +4.9659744950E-001 +6.4179111173E-001 
9645178.974 +4.3294360162E-001 +7.2994343205E+000  +9.2587197654E-002 -3.4783895611E+000  +8.7655631113E-002 +1.0896548314E+001  +4.7295145572E-001 +8.0862986447E-001 
9770324.155 +4.7226120357E-001 +4.2077152925E+000  +9.2542396018E-002 -4.8211517738E+000  +9.6299331875E-002 +1.2297040676E+001  +4.7533660499E-001 -2.9090024361E+000 
9895469.337 +4.4893638301E-001 -2.5632843561E+000  +9.0513246857E-002 -3.3611234878E+000  +9.2910845874E-002 +1.3603426669E+001  +4.6345819866E-001 -5.1393437492E+000 
10020614.518 +4.2131325811E-001 +3.7035352959E+000  +8.9682448070E-002 -4.2433129018E+000  +9.2169467732E-002 +1.2203848513E+001  +4.9424846122E-001 -3.7416065061E+000 
10145759.700 +4.4137309438E-001 +2.3239231508E+000  +9.5789431082E-002 -4.1277603358E+000  +9.1525404353E-002 +1.1007918298E+001  +4.9424895794E-001 -5.8632946731E+000 
10270904.881 +4.5542535042E-001 +6.6955626838E+000  +9.4487015448E-002 -1.9015350467E+000  +9.0735210358E-002 +1.3367600976E+001  +4.7929389448E-001 +4.1673174905E-001 
10396050.063 +4.5549580036E-001 +4.1390355636E+000  +9.5633159088E-002 -2.3429624257E+000  +9.5690027269E-002 +1.2367740087E+001  +4.7033262734E-001 -1.7002430811E+000 
10521195.244 +4.5386217821E-001 +5.2019814522E+000  +9.5771353838E-002 -2.0601559530E+000  +9.4174924662E-002 +1.3072494217E+001  +4.7662816640E-001 +2.4431675730E-001 
10646340.426 +4.9153616492E-001 +9.2388217576E+000  +9.5864325860E-002 -1.5417630744E+000  +9.4471647202E-002 +1.1994749207E+001  +4.9019437000E-001 -1.8867896420E+000 
10771485.607 +4.7501178454E-001 +9.1503071191E+000  +9.5313808402E-002 -2.7445285719E+000  +9.4121797969E-002 +1.2065932011E+001  +5.3343294944E-001 +8.2503437252E-001 
10896630.788 +4.7708297014E-001 +1.0889332436E+001  +9.4367682075E-002 +1.1127067023E-001  +9.3955966745E-002 +1.2942445762E+001  +5.1477619295E-001 +2.8168670278E+000 
11021775.970 +4.8479222432E-001 +8.4607239256E+000  +9.6856912831E-002 +8.4321608238E-001  +9.5559097156E-002 +1.1844565365E+001  +5.0255543452E-001 +1.0253467067E+000 
11146921.151 +4.9044949666E-001 +9.1370265940E+000  +9.8768551205E-002 -1.6131367479E-001  +9.7275384255E-002 +1.2716638828E+001  +5.2221773683E-001 -2.2865768569E-001 
11272066.333 +5.3742557764E-001 +8.8060682158E+000  +9.7766038392E-002 -1.8247704088E-001  +9.9724903754E-002 +1.2227116497E+001  +5.0753005128E-001 +3.8055728492E+000 
11397211.514 +5.0380286823E-001 +6.9969157833E+000  +1.0160663980E-001 -5.5175940271E-001  +9.9359334178E-002 +1.2364869829E+001  +5.2475611149E-001 +1.5746507471E+000 
11522356.696 +5.3491192643E-001 +9.2800973711E+000  +1.0031440532E-001 -3.7836038228E-001  +9.8684539246E-002 +1.3075772642E+001  +5.2366494297E-001 +4.9029727878E+000 
11647501.877 +5.3568079450E-001 +1.0414448037E+001  +1.0143109346E-001 +4.8359305612E-001  +1.0120047507E-001 +1.0903721914E+001  +5.4756609429E-001 +5.4762101421E+000 
11772647.059 +5.4303554682E-001 +7.5948032638E+000  +1.0333758143E-001 +6.7741807615E-001  +1.0200186575E-001 +1.0999833021E+001  +5.6089392397E-001 +2.6745430853E+000 
11897792.240 +5.7525428363E-001 +7.6773583082E+000  +1.0180370671E-001 +2.5520664161E+000  +1.0250643420E-001 +1.2941767782E+001  +5.6055097421E-001 +3.7955587215E+000 
12022937.422 +5.8525230152E-001 +6.3076249486E+000  +1.0350226575E-001 +2.1846365845E+000  +1.0515234560E-001 +1.1184086181E+001  +5.9099479142E-001 +3.0480610011E+000 
12148082.603 +5.8114293657E-001 +8.2395914388E+000  +1.0427067144E-001 +2.3065400137E+000  +1.0517149032E-001 +1.0711205447E+001  +5.9429829265E-001 +4.1711336437E+000 
12273227.785 +6.0846911324E-001 +8.5662735838E+000  +1.0576211912E-001 +1.7529829357E+000  +1.0589586361E-001 +1.0440694622E+001  +6.0187398547E-001 +1.2329414111E+000 
12398372.966 +6.0613189527E-001 +6.3982013058E+000  +1.0669100185E-001 +2.5252417462E+000  +1.0506275302E-001 +1.0099651217E+001  +6.0524576534E-001 +3.8970389402E+000 
12523518.148 +6.1897710625E-001 +4.4745427882E+000  +1.0746248100E-001 +1.9322327874E+000  +1.0785890549E-001 +9.1478781434E+000  +6.5353472486E-001 +2.0071697136E+000 
12648663.329 +6.0739813547E-001 +3.7049567809E+000  +1.1027949225E-001 +2.7366008639E+000  +1.0877489372E-001 +8.4204012538E+000  +6.6847265056E-001 -1.3979542513E+000 
12773808.511 +6.4038763084E-001 +1.3224242178E+000  +1.1043854750E-001 +1.6948872345E+000  +1.1020896720E-001 +8.6173533385E+000  +6.4779702987E-001 -1.4617353324E+000 
12898953.692 +6.3299067483E-001 +1.9586001565E+000  +1.1257942816E-001 +2.7798712676E+000  +1.1022234979E-001 +7.7823677204E+000  +6.8420460583E-001 +1.9768012095E+000 
13024098.874 +6.6130366831E-001 +1.7897535001E+000  +1.1358660416E-001 +2.1254939440E+000  +1.1255609447E-001 +7.8874489064E+000  +6.8482291779E-001 -2.2276714281E+000 
13149244.055 +7.0835255167E-001 +4.7112852946E-001  +1.1541856798E-001 +2.6797276746E+000  +1.1303078800E-001 +7.6002811064E+000  +7.0328830094E-001 -1.3673314747E+000 
13274389.237 +6.9471541437E-001 -1.6403892478E+000  +1.1590465890E-001 +2.2110605237E+000  +1.1521996384E-001 +6.2156574883E+000  +7.3493556468E-001 -2.1110912213E+000 
13399534.418 +7.1398799148E-001 -3.3339615825E+000  +1.1917768577E-001 +2.6724796706E+000  +1.1546696900E-001 +6.5337370567E+000  +7.2110594367E-001 -2.5393649630E+000 
13524679.599 +7.5627807247E-001 -2.5655200541E+000  +1.1865598211E-001 +2.7983933224E+000  +1.1691378796E-001 +5.6410768561E+000  +7.4038734362E-001 -6.0364544992E-001 
13649824.781 +7.7462684517E-001 -1.0974434396E+000  +1.1935713833E-001 +2.8501024188E+000  +1.1698497517E-001 +4.9625043750E+000  +7.7824520783E-001 -3.3235027565E+000 
13774969.962 +7.7598964713E-001 -1.8780128256E+000  +1.1887807451E-001 +2.1518116253E+000  +1.1854321557E-001 +3.8686121078E+000  +7.6819348435E-001 -4.4595410216E+000 
13900115.144 +7.8731437651E-001 -2.4551839903E+000  +1.2137775045E-001 +2.5295319688E+000  +1.1834422944E-001 +4.9194578410E+000  +8.0431751760E-001 -4.5482083937E+000 
14025260.325 +7.9522462666E-001 -4.7424455606E+000  +1.1951807610E-001 +1.5064844676E+000  +1.2026381546E-001 +2.9397558972E+000  +7.9982804439E-001 -3.8972029728E+000 
14150405.507 +8.0302105341E-001 -4.0507343144E+000  +1.2342232290E-001 +1.8404751057E+000  +1.2198689309E-001 +2.7025080245E+000  +8.3890260500E-001 -4.9975086488E+000 
14275550.688 +8.4174755185E-001 -3.5456109631E+000  +1.2234339699E-001 +2.1984893187E+000  +1.2013885606E-001 +3.5243245773E+000  +8.5519422646E-001 -4.4163037668E+000 
14400695.870 +8.5038663594E-001 -5.2097167636E+000  +1.2353418281E-001 +1.6712913101E+000  +1.2216181272E-001 +2.1588820373E+000  +8.7829162292E-001 -4.5859724168E+000 
