!  2-Port S-parameters saved by WinCal
! VAR MeasName=S-Parameters (CALIBRATED_DATA) read from VNA (P5004A)
! VAR MeasDate=29/08/2024 11:26:46
! VAR NAME=S2_r9c3_SET2_9k-100M_1
! VAR FILENAME=S2_r9c3_SET2_9k-100M_1.S2P
! VAR DATE=29/08/2024 11:26:47
! VAR PHYS_PORTS=1,2
! VAR ObjTypeName=DATASET
! VAR IndexType=Frequency
!
# Hz S MA R 50
9000.000 +7.9504207413E-002 -1.6284173691E+002  +1.6607807964E-003 -1.7202663095E+002  +4.9402063954E-003 +1.5343708391E+002  +2.3089609298E-001 -1.4724633469E+002 
134145.181 +1.1060084581E-001 +1.6961507617E+002  +2.1408589511E-004 +8.0093319448E+001  +3.1732270531E-004 +1.9795000329E+001  +2.3975792542E-001 -1.7105237353E+002 
259290.363 +1.1242849381E-001 +1.7011113087E+002  +6.6439254907E-004 +1.3007193643E+001  +4.8238655221E-004 +8.9570943318E+001  +2.2756113552E-001 -1.6779004269E+002 
384435.544 +1.1521488096E-001 +1.6958562685E+002  +3.6576460445E-004 -1.2665292444E+002  +6.1242360724E-004 -8.3169389269E+001  +2.4193506468E-001 -1.7019495952E+002 
509580.726 +1.1452887074E-001 +1.7033842753E+002  +5.4506183178E-004 -7.0839850756E+001  +5.8764426191E-004 +6.1070646100E+001  +2.3883171663E-001 -1.6740556194E+002 
634725.907 +1.1615534826E-001 +1.7177126080E+002  +7.4672459982E-004 -1.7064711976E+002  +2.1708232708E-003 +2.0612252070E+001  +2.6993470949E-001 -1.6410920310E+002 
759871.089 +1.2018542233E-001 +1.7095301324E+002  +4.3974433382E-004 -1.2618083687E+002  +1.4551168616E-004 +8.5329214236E+001  +2.5191989945E-001 -1.6602511083E+002 
885016.270 +1.2088011463E-001 +1.6935222461E+002  +2.7937935077E-004 -1.2313010135E+002  +2.6577409502E-004 +9.8998322457E+001  +2.4377118399E-001 -1.6750239995E+002 
1010161.452 +1.1627588134E-001 +1.6941644181E+002  +1.7153445275E-003 -6.5909817319E+001  +1.0229138357E-003 +3.8216406358E+001  +2.0138816780E-001 -1.6742842767E+002 
1135306.633 +1.1803268371E-001 +1.6859698063E+002  +1.7526655527E-003 -1.7866830282E+001  +2.1847335555E-003 +1.7191602546E+002  +2.0316664728E-001 -1.6424685795E+002 
1260451.815 +1.1874558767E-001 +1.6771131513E+002  +1.2532118274E-003 -6.6829092992E+001  +9.5108405160E-004 -5.0406525866E+001  +2.1807900923E-001 -1.6052808739E+002 
1385596.996 +1.2615998539E-001 +1.7401742887E+002  +8.7522311670E-004 +9.1384345305E+001  +3.9017373479E-003 +1.0338560773E+002  +2.5858293733E-001 -1.4792267201E+002 
1510742.178 +1.2715803811E-001 +1.7121264067E+002  +4.4853777537E-004 -1.4795987594E+002  +3.4447305633E-004 -1.7317364744E+002  +2.5789923963E-001 -1.5864764161E+002 
1635887.359 +1.2814140302E-001 +1.7037311073E+002  +1.2415354003E-003 +4.7354564267E+001  +1.4356102427E-003 -1.7929819291E+002  +2.3211362224E-001 -1.5625780573E+002 
1761032.541 +1.2905600829E-001 +1.6877603114E+002  +5.3436978500E-005 -1.4454302147E+002  +6.0590011846E-004 +2.5463335478E+001  +2.3147614399E-001 -1.6048789128E+002 
1886177.722 +1.2972222937E-001 +1.6860299940E+002  +2.2719080729E-003 +5.4892280838E+001  +2.4720239733E-003 -1.0749402037E+002  +2.0980207727E-001 -1.6042555948E+002 
2011322.904 +1.2932514942E-001 +1.6765309118E+002  +2.3457241790E-003 +4.2823899584E+001  +4.2604651651E-003 -5.3173914851E+001  +2.1036773203E-001 -1.6839079386E+002 
2136468.085 +1.2956328316E-001 +1.6471841559E+002  +5.4330407542E-003 +7.3760318588E+001  +8.3022495856E-003 -8.5575900130E+001  +1.3876755093E-001 -1.5852591711E+002 
2261613.267 +1.3359071168E-001 +1.6731599470E+002  +4.5117280405E-003 +9.3337416271E+001  +4.6261529907E-003 -2.9758546550E+001  +2.1654851188E-001 -1.7254159989E+002 
2386758.448 +1.3882949140E-001 +1.6600289917E+002  +2.0742057911E-003 +8.3235276200E+001  +4.1894576602E-003 -1.1083640756E+001  +2.3055319336E-001 -1.7973467187E+002 
2511903.630 +1.3298563475E-001 +1.6030899354E+002  +1.0621386204E-002 +9.1834865977E+001  +1.1461067770E-002 -2.2941524027E+001  +2.3387992544E-001 +1.7789234620E+002 
2637048.811 +1.2914031592E-001 +1.6289096749E+002  +5.4111009645E-002 +8.4048484380E+001  +5.9677883636E-002 -2.7742217493E+001  +5.9394680940E-001 +6.6307214666E+001 
2762193.992 +1.3324078411E-001 +1.7863197076E+002  +7.9476495614E-002 +4.3417968389E+001  +8.4030861357E-002 -7.2930384416E+001  +6.9769082555E-001 +8.6656567249E+001 
2887339.174 +1.2825947371E-001 +1.6945619351E+002  +4.7490106850E-002 -3.2939538766E+001  +4.6328805374E-002 -1.4860034791E+002  +3.3754853440E-001 -7.8929536244E+001 
3012484.355 +1.2151084202E-001 +1.6357223216E+002  +2.4039613247E-002 +2.2681363086E+001  +2.8221055608E-002 -7.6585428499E+001  +8.2645758216E-002 -1.2239769003E+002 
3137629.537 +1.2970090374E-001 +1.6618795209E+002  +2.2839457887E-002 -2.7287913098E+001  +2.5690093157E-002 -1.4064834361E+002  +3.0244420430E-001 -1.0399263082E+002 
3262774.718 +1.4049492317E-001 +1.6373323127E+002  +4.8161176353E-002 -3.5767353945E+001  +4.9879978925E-002 -1.2699116086E+002  +6.0660263254E-001 -7.1866001229E+001 
3387919.900 +1.4589928222E-001 +1.5966260055E+002  +4.7877797988E-002 +4.5488175928E+000  +5.2115757027E-002 -1.0161045484E+002  +4.2317706809E-001 -2.7944671256E+001 
3513065.081 +1.3824112537E-001 +1.4887912798E+002  +4.0622709408E-002 +5.1201746724E+001  +3.7216696638E-002 -3.2609037655E+001  +1.6186813462E-001 +8.4905368413E+001 
3638210.263 +1.7723368427E-001 +1.4210378307E+002  +3.6312692247E-002 +1.1611993069E+002  +3.7714100628E-002 +3.3585756867E+001  +3.7451719360E-001 +1.3531414481E+002 
3763355.444 +1.9065008566E-001 +1.5082018025E+002  +2.8183287897E-002 +1.1272500657E+002  +3.3900674646E-002 +4.1703121055E+001  +4.4968308826E-001 +1.4315654242E+002 
3888500.626 +1.7956963184E-001 +1.4832929789E+002  +6.7591673668E-002 +1.1406375750E+002  +5.1238403226E-002 +2.8461064816E+001  +6.5838703409E-001 +1.2409245771E+002 
4013645.807 +1.6551120757E-001 +1.4721834029E+002  +4.2068338827E-002 +8.9968410953E+001  +5.4059310479E-002 +1.4307038797E+001  +4.0240035274E-001 +1.1086720872E+002 
4138790.989 +1.7513998618E-001 +1.5007026800E+002  +2.8280958135E-002 +8.5206630068E+001  +2.1189334696E-002 +6.6215001308E+000  +3.4297896269E-001 +1.4752745294E+002 
4263936.170 +1.6665479646E-001 +1.4128229160E+002  +4.0311222784E-002 +7.5482155696E+001  +4.3767276894E-002 +1.8987242852E+001  +3.0492765122E-001 +1.4723380240E+002 
4389081.352 +1.9583525520E-001 +1.4365242996E+002  +4.8193212685E-002 +8.6159244328E+001  +6.8332131221E-002 +3.3956723090E+001  +6.7882379886E-001 +1.2123577696E+002 
4514226.533 +2.3980696420E-001 +1.2827994105E+002  +1.6633348091E-001 +1.3500297075E+002  +1.2265215273E-001 +7.7345569421E+001  +1.5333871455E+000 +1.2930676477E+002 
4639371.715 +2.6457815811E-001 +1.1911745460E+002  +2.2748209487E-001 +7.4803027859E+001  +2.4850109956E-001 +1.6197415196E+001  +1.8000997377E+000 +4.4101460328E+001 
4764516.896 +2.9647116349E-001 +1.3815510133E+002  +2.3787155531E-001 +1.7465804592E+002  +1.8954268066E-001 +1.2514685304E+002  +3.1227068456E+000 +1.4917076435E+002 
4889662.078 +4.1368861184E-001 +1.3157518758E+002  +4.2910785669E-001 +1.6084863835E+002  +4.0210439804E-001 +1.1962656375E+002  +3.6740137593E+000 +1.2780948620E+002 
5014807.259 +3.6059293877E-001 +1.2586022195E+002  +4.3650620555E-001 +1.4808844837E+002  +4.1124294453E-001 +1.0494907771E+002  +4.2363098599E+000 +1.2857958977E+002 
5139952.441 +3.9270966626E-001 +1.3074161477E+002  +3.0768944812E-001 +1.7061060614E+002  +2.9472040564E-001 +1.3235873389E+002  +3.5703356818E+000 +1.4012145799E+002 
5265097.622 +5.1820686537E-001 +1.2757192928E+002  +2.7360255395E-001 +1.1345447250E+002  +2.7627086029E-001 +7.2489628268E+001  +2.2403248132E+000 +7.7829192706E+001 
5390242.804 +4.4322988555E-001 +1.3481001572E+002  +1.3116301092E-001 +1.3946885525E+002  +1.3697731423E-001 +1.0042091943E+002  +1.7521097503E+000 +1.2417295180E+002 
5515387.985 +4.1640392759E-001 +1.2995135091E+002  +1.5699812726E-001 +8.8499884055E+001  +1.7889152259E-001 +5.7246512507E+001  +1.8573669550E+000 +7.1336873106E+001 
5640533.166 +3.8607110075E-001 +1.2871333184E+002  +2.0487705402E-001 +8.3393583141E+001  +2.0869136089E-001 +4.6535676166E+001  +2.6541188352E+000 +7.6565832457E+001 
5765678.348 +3.9578858227E-001 +1.1857952304E+002  +2.0664014297E-001 +4.9881230162E+001  +1.7583060681E-001 +1.6215204777E+001  +1.5197964265E+000 +3.8918829627E+001 
5890823.529 +5.3164700609E-001 +1.1903910289E+002  +2.0185979855E-001 +9.1531609216E+001  +1.9013641168E-001 +6.4539010294E+001  +1.8800410214E+000 +8.1808465148E+001 
6015968.711 +5.5496018139E-001 +1.2154432111E+002  +1.3637840997E-001 +6.9559227209E+001  +1.5941922851E-001 +3.8163139640E+001  +1.3039680139E+000 +4.5847768614E+001 
6141113.892 +6.0195271172E-001 +1.1349555819E+002  +2.0100989852E-001 +5.1011123025E+001  +1.9045291727E-001 +4.0439065249E+001  +1.9981351547E+000 +5.2125164152E+001 
6266259.074 +8.2596714025E-001 +1.0442897518E+002  +2.1960244730E-001 +5.4791141076E+001  +2.3058937416E-001 +2.9540880842E+001  +1.5618986964E+000 +2.6347472942E+001 
6391404.255 +7.6518516706E-001 +9.8438666734E+001  +2.1173611826E-001 +4.8856227428E+001  +1.9976659595E-001 +2.9608825074E+001  +1.6475020797E+000 +3.2506742296E+001 
6516549.437 +9.6415858767E-001 +9.0267946171E+001  +1.7322196359E-001 +3.3327068153E+001  +2.0683473443E-001 +1.6940951733E+001  +1.3108880255E+000 +9.6867124793E+000 
6641694.618 +1.3668836638E+000 +6.2750721392E+001  +2.4446708916E-001 +2.9499496666E+001  +2.4804217521E-001 +1.6725471625E+001  +1.2063594507E+000 +1.1026661005E+001 
6766839.800 +1.1727089791E+000 +5.7813137907E+001  +2.0662794693E-001 +2.1182079700E+001  +1.9860404571E-001 +8.6155074714E+000  +1.1045179294E+000 +2.0771373261E+000 
6891984.981 +1.4200890184E+000 +3.3409947755E+001  +2.4177143286E-001 +4.2766696640E+000  +2.1323433917E-001 +3.7232525566E+000  +1.1976015190E+000 +9.7958971632E-002 
7017130.163 +1.2650661104E+000 +1.5358305879E+001  +1.9113750298E-001 -3.6295786409E+000  +1.9863309094E-001 -1.4806030958E+001  +1.3544049463E+000 -4.9329506212E+000 
7142275.344 +1.2867023403E+000 +1.5672230776E+001  +1.7794624028E-001 -2.4893207546E+000  +1.8420571229E-001 +6.5565201458E-002  +1.2891548098E+000 -1.4181366407E+001 
7267420.526 +1.3661978018E+000 +9.7333671195E+000  +1.5320165797E-001 +2.0183128316E+000  +1.5289000353E-001 +3.5601277414E+000  +1.3729798493E+000 -1.1043685058E+001 
7392565.707 +1.0990554194E+000 -2.8891874560E+000  +1.2392097053E-001 +1.3318149078E+000  +1.3262972620E-001 +8.2013208977E+000  +1.3370443223E+000 -5.2949188833E+000 
7517710.889 +9.9169488550E-001 -2.5469077976E+000  +1.1187388939E-001 -1.4525949782E-001  +1.0077046307E-001 +6.4902922724E+000  +1.0649677314E+000 -6.9698413631E+000 
7642856.070 +8.9552352358E-001 +2.0481699282E+000  +1.1101040696E-001 +3.2965012528E-001  +1.0568228557E-001 +5.7710688656E+000  +9.2171664320E-001 -1.0335581759E+001 
7768001.252 +8.6474110701E-001 +5.7056144592E-001  +1.0150862506E-001 -6.5748610436E-001  +1.0278288351E-001 +2.6414038999E+000  +8.2732966277E-001 -7.2823706495E+000 
7893146.433 +7.2627266897E-001 +1.1100455965E+001  +9.2947919838E-002 +1.4132147891E+000  +9.3199698466E-002 +6.0897253675E+000  +9.0882505283E-001 -1.2466732260E+000 
8018291.615 +6.9680466762E-001 +3.9728642683E+000  +9.5945930265E-002 -1.7025186457E+000  +9.3889201392E-002 +7.5994185742E+000  +7.9463178525E-001 -1.1376873372E+000 
8143436.796 +6.4498888014E-001 +1.5051428376E+001  +8.7195760036E-002 +3.5591873756E-001  +8.7802719460E-002 +7.9010457438E+000  +6.9486652197E-001 +4.1477422039E+000 
8268581.977 +6.5287910729E-001 +1.7172022389E+001  +8.8826499224E-002 +1.4023674731E+000  +9.0419519710E-002 +9.2149731401E+000  +7.0901990961E-001 +2.9697497263E+000 
8393727.159 +6.2397933973E-001 +5.1109791979E+000  +8.5963107443E-002 -1.0734766280E+000  +8.3920385935E-002 +9.1504419713E+000  +5.9279708644E-001 +4.3402693536E+000 
8518872.340 +6.2028427252E-001 +1.5639714007E+001  +8.5537130618E-002 -3.0344713988E+000  +8.5046465923E-002 +1.1226983800E+001  +5.4335522409E-001 -6.7732038114E-001 
8644017.522 +5.8006960423E-001 +1.3883894795E+001  +8.4270814511E-002 -3.5890357821E+000  +8.5176488488E-002 +1.2032303681E+001  +5.9892419980E-001 +3.6643267154E+000 
8769162.703 +5.1682321174E-001 +1.2078998028E+001  +8.6130040702E-002 -4.4118494879E+000  +8.5280331487E-002 +1.0768240778E+001  +6.8180098017E-001 -1.0134392556E+000 
8894307.885 +4.8025791711E-001 +9.3164724250E+000  +8.7979182275E-002 -2.7408101868E+000  +8.7531151731E-002 +8.6541227075E+000  +6.0404423477E-001 -6.4673665880E-001 
9019453.066 +5.1019228179E-001 +1.0662060400E+001  +8.4661493136E-002 -3.4058863093E+000  +8.4907005239E-002 +9.9868495941E+000  +5.3070692427E-001 -3.7988124944E-001 
9144598.248 +4.9699558861E-001 +1.5544041790E+001  +7.9343416747E-002 -3.0689735622E+000  +8.3751405097E-002 +1.1684268006E+001  +5.5184238454E-001 +4.3206494403E+000 
9269743.429 +4.4966585938E-001 +1.2731015675E+001  +8.3227201864E-002 -4.4883362864E+000  +7.9620150783E-002 +7.1025799878E+000  +5.2076447322E-001 +1.2308815434E+000 
9394888.611 +4.6968684529E-001 +1.4232815144E+001  +7.8013475329E-002 -4.8112914535E+000  +8.3073494648E-002 +1.0595835461E+001  +5.0987221027E-001 +3.4884421311E+000 
9520033.792 +4.3257337267E-001 +7.1432638764E+000  +8.2250354204E-002 -5.9586652576E+000  +8.3163478734E-002 +1.0192876557E+001  +5.1933271512E-001 -6.8634931664E-001 
9645178.974 +4.3797292964E-001 +3.3958239748E+000  +8.2418575940E-002 -3.5000920017E+000  +8.4066332790E-002 +1.1110037445E+001  +5.5621376200E-001 -2.0136403073E+000 
9770324.155 +4.8737813560E-001 +9.1262412115E-001  +8.6567862313E-002 -5.4496320058E+000  +8.4293216179E-002 +1.1247883254E+001  +5.2552269661E-001 -4.4795383973E+000 
9895469.337 +4.7704222309E-001 +1.3432693243E+000  +9.0968258841E-002 -4.8695089359E+000  +8.7074015847E-002 +1.2422590683E+001  +5.1113188153E-001 -7.3743869810E+000 
10020614.518 +4.5784625881E-001 +4.1530973180E+000  +8.5192796887E-002 -3.6341924368E+000  +8.2032115526E-002 +1.3198895871E+001  +4.9327405997E-001 -5.8824089228E+000 
10145759.700 +4.5927193150E-001 +1.0243985599E+001  +8.5170632920E-002 -2.5031779641E+000  +8.5131198664E-002 +1.0265437522E+001  +5.2012412934E-001 -7.1172200745E+000 
10270904.881 +4.9329226419E-001 +6.9598527930E+000  +8.5643165700E-002 -1.0787006570E+000  +8.2416517128E-002 +1.4745439003E+001  +5.0379435974E-001 -1.4186604990E+000 
10396050.063 +4.6936296163E-001 +2.4322619506E+000  +8.9145302540E-002 -3.9657437597E+000  +8.6321111459E-002 +1.1591854216E+001  +4.5502804355E-001 +6.3325811971E-001 
10521195.244 +4.7862398085E-001 +6.6993502410E+000  +8.9223981159E-002 -3.4462503594E+000  +8.6121377344E-002 +1.4303891798E+001  +4.9981218433E-001 -6.5621854487E-001 
10646340.426 +5.2253269102E-001 +6.3551300137E+000  +8.4832539432E-002 -9.7977224173E-001  +8.7476254178E-002 +1.2778264105E+001  +5.0155775795E-001 +4.2531806186E-001 
10771485.607 +4.8251679117E-001 +5.4047174138E+000  +8.7678239880E-002 -1.6530029179E+000  +8.6994987078E-002 +1.3992136090E+001  +5.3024414300E-001 +1.4960768488E+000 
10896630.788 +5.1609013931E-001 +1.0885091177E+001  +8.9129853312E-002 -1.0551275064E+000  +8.6247016117E-002 +1.3923306224E+001  +5.3566153726E-001 +2.6794473805E+000 
11021775.970 +5.2247880292E-001 +1.0527210440E+001  +8.9659535082E-002 -4.4753100122E-001  +8.6317398265E-002 +1.1540222196E+001  +5.1541134589E-001 +2.1201530283E+000 
11146921.151 +5.1828553189E-001 +6.7997595627E+000  +9.0447833184E-002 -1.8096600003E+000  +8.8849304131E-002 +1.2909791647E+001  +5.3401246271E-001 +7.7366051775E+000 
11272066.333 +5.1442274262E-001 +9.3443298409E+000  +9.0288657164E-002 -1.1632420580E+000  +8.7934932014E-002 +1.2818980829E+001  +5.2016095385E-001 +4.0803723825E+000 
11397211.514 +5.3765284187E-001 +1.0892396294E+001  +9.0089692939E-002 -6.2695639699E-001  +9.0441621503E-002 +1.2749072092E+001  +5.5233181635E-001 +6.3512268750E+000 
11522356.696 +5.6390181885E-001 +5.0409542379E+000  +9.2216469191E-002 +8.6851873308E-001  +9.1220879617E-002 +1.2111674237E+001  +5.2102204606E-001 +8.8155887938E+000 
11647501.877 +5.5402005961E-001 +7.4399222549E+000  +9.3053331513E-002 +1.0224953328E+000  +9.0670475168E-002 +1.3179105708E+001  +5.8378898922E-001 +5.1486477522E+000 
11772647.059 +5.4611525354E-001 +6.9412181705E+000  +9.2504925375E-002 +1.3319890180E+000  +9.0388338000E-002 +1.1520958978E+001  +5.6545033768E-001 +5.2722057363E+000 
11897792.240 +5.9699656121E-001 +5.2267335588E+000  +9.6160760067E-002 +1.0530332769E+000  +9.4333279706E-002 +1.2331059160E+001  +5.7599960950E-001 +1.5628644707E+000 
12022937.422 +6.0179912438E-001 +3.8020880622E+000  +9.5526883422E-002 +1.3158865311E+000  +9.5656869600E-002 +1.1163267607E+001  +5.8689801212E-001 +2.1238019415E+000 
12148082.603 +5.9308108592E-001 +6.1976598019E+000  +9.8398862477E-002 +1.7845984750E+000  +9.4248621943E-002 +9.8825797016E+000  +6.3044005925E-001 -6.1277129750E-002 
12273227.785 +6.0469270873E-001 +3.9565573515E+000  +9.8087678315E-002 +1.7121097256E+000  +9.6578514733E-002 +1.0544770924E+001  +6.2403767954E-001 +1.0460893229E+000 
12398372.966 +6.0902285655E-001 +6.6712792085E+000  +9.7738441409E-002 +1.6010856879E+000  +9.6238646049E-002 +1.0050786902E+001  +6.2966486839E-001 +2.3039261112E+000 
12523518.148 +6.4607824565E-001 +2.9577135922E+000  +9.8831787520E-002 +2.4154568626E+000  +9.9057472221E-002 +8.8954038634E+000  +6.1685138287E-001 +1.2290383490E+000 
12648663.329 +6.3615097615E-001 +2.5264628351E+000  +1.0103227676E-001 +2.7180570618E+000  +1.0026379100E-001 +8.3313200970E+000  +6.5743606469E-001 +5.2148961307E-001 
12773808.511 +6.1761529553E-001 +3.8856675470E+000  +1.0251192498E-001 +3.0048930120E+000  +1.0159829518E-001 +7.7213770828E+000  +6.5494718786E-001 +1.2220924822E+000 
12898953.692 +6.9689875925E-001 +1.9978295154E+000  +1.0340033058E-001 +2.6308380962E+000  +1.0235051493E-001 +8.3408031878E+000  +6.8388613072E-001 +3.3347348136E-001 
13024098.874 +6.9818644436E-001 +1.7409177030E+000  +1.0552912454E-001 +3.1055236048E+000  +1.0217821930E-001 +8.0684080782E+000  +6.7679479487E-001 -1.4127381488E+000 
13149244.055 +7.0252269332E-001 +3.8491537308E-001  +1.0642077478E-001 +3.4286984200E+000  +1.0345046179E-001 +6.4820369273E+000  +7.0342748013E-001 +3.0460247455E-001 
13274389.237 +7.3127673700E-001 -3.8518526344E-002  +1.0654942106E-001 +2.4883078255E+000  +1.0639727344E-001 +6.5194230580E+000  +7.1591442716E-001 -3.4815066092E+000 
13399534.418 +7.0519184768E-001 +9.9777976607E-001  +1.0752009342E-001 +1.8243287005E+000  +1.0325064754E-001 +6.4316617557E+000  +7.3286317926E-001 -2.7841996844E+000 
13524679.599 +7.7056808680E-001 +1.6977744212E+000  +1.0835063891E-001 +2.0005234208E+000  +1.0720204397E-001 +5.6055727125E+000  +7.5337011909E-001 -3.4906380305E+000 
13649824.781 +7.5732262636E-001 -2.6585470835E+000  +1.0914239044E-001 +3.2473432646E+000  +1.0713923883E-001 +5.0373039587E+000  +7.7427753087E-001 -3.1949834928E+000 
13774969.962 +7.7947962899E-001 -2.5971716624E+000  +1.1037955491E-001 +2.4852010085E+000  +1.0842240948E-001 +5.1937132648E+000  +7.7993944483E-001 -3.5025792419E+000 
13900115.144 +7.9449438204E-001 -2.3974022641E+000  +1.0997901920E-001 +2.0395374675E+000  +1.0700192220E-001 +3.8995033302E+000  +7.9774070636E-001 -2.0818666173E+000 
14025260.325 +8.2970581009E-001 -4.7132680032E+000  +1.1166669680E-001 +2.8124264811E+000  +1.0881845043E-001 +4.6796558816E+000  +8.3699245056E-001 -2.8680351900E+000 
14150405.507 +8.3167010879E-001 -4.2625919420E+000  +1.1201932699E-001 +2.4790839049E+000  +1.0934356394E-001 +2.6820137271E+000  +8.1975860586E-001 -3.1725386103E+000 
14275550.688 +8.4389094070E-001 -5.2163314352E+000  +1.1202634452E-001 +1.3574069143E+000  +1.1173756698E-001 +2.9096770536E+000  +8.3123808716E-001 -3.6620805535E+000 
14400695.870 +8.5474557033E-001 -4.4505798858E+000  +1.1211589617E-001 +1.3321045738E+000  +1.1098690437E-001 +2.1919941497E+000  +8.8000986940E-001 -4.7358890079E+000 
