!  2-Port S-parameters saved by WinCal
! VAR MeasName=S-Parameters (CALIBRATED_DATA) read from VNA (P5004A)
! VAR MeasDate=27/08/2024 12:54:33
! VAR NAME=S2_r9c9_pristine_9k-100M_1
! VAR FILENAME=S2_r9c9_pristine_9k-100M_1.S2P
! VAR DATE=27/08/2024 12:54:33
! VAR PHYS_PORTS=1,2
! VAR ObjTypeName=DATASET
! VAR IndexType=Frequency
!
# Hz S MA R 50
9000.000 +9.8346743288E-002 -6.6836795378E+000  +1.0245766458E-002 +9.2296266919E+001  +4.2526910120E-002 +4.7736276738E+001  +1.5410708112E-001 -1.1878762222E+002 
134145.181 +1.1028191097E-001 +1.6962236885E+002  +1.5739952325E-004 -1.2801674331E+001  +3.5254859031E-004 +1.4120302881E+002  +2.4280743839E-001 -1.7098534209E+002 
259290.363 +1.1042915461E-001 +1.6965051011E+002  +1.0824608542E-003 -1.2139724032E+001  +1.0239960635E-003 +1.2791022446E+002  +2.4388191794E-001 -1.6870969481E+002 
384435.544 +1.1373034644E-001 +1.6926493092E+002  +3.6744761884E-004 -9.1720331646E+000  +2.7011388834E-004 +1.5214522780E+002  +2.3887946640E-001 -1.6846009145E+002 
509580.726 +1.1370614655E-001 +1.7012728004E+002  +2.4242481351E-003 -3.5901664724E+001  +5.3060069815E-004 -1.6955993561E+002  +2.5021980736E-001 -1.6532919050E+002 
634725.907 +1.1768433468E-001 +1.7089353406E+002  +1.7011566345E-003 -6.5406071801E+001  +6.9076818387E-004 +1.0197452027E+002  +2.3920405833E-001 -1.6794063800E+002 
759871.089 +1.1776823380E-001 +1.7008017888E+002  +1.4692879457E-003 -1.5320381003E+001  +6.8936810469E-004 +1.4472478323E+002  +2.3342648882E-001 -1.6624797809E+002 
885016.270 +1.1788847510E-001 +1.6905074243E+002  +1.1446765452E-003 -2.8936513949E+001  +9.9565468098E-004 +1.7128998293E+002  +2.4300674464E-001 -1.6683650185E+002 
1010161.452 +1.1990358016E-001 +1.7048995873E+002  +4.2005172594E-003 +3.2861816407E+001  +4.6982411536E-003 -1.3009310039E+002  +1.5563603769E-001 -1.7286064520E+002 
1135306.633 +1.1405045238E-001 +1.6962899846E+002  +6.1255172934E-003 +5.2720815187E+001  +7.8378049691E-003 -1.3004930756E+002  +1.7966221928E-001 -1.6704542993E+002 
1260451.815 +1.2219903770E-001 +1.7090385383E+002  +3.2302406426E-003 -1.0790346150E+001  +2.7140530503E-003 +1.7098963970E+002  +2.4151913902E-001 -1.5916961207E+002 
1385596.996 +1.2607884688E-001 +1.6989037143E+002  +2.2565780802E-003 -2.3666339550E+001  +2.4588742701E-003 +1.7814312852E+002  +2.5316077847E-001 -1.6071628198E+002 
1510742.178 +1.2681461524E-001 +1.7102414101E+002  +3.6668773781E-003 -2.8746244387E+001  +3.5997789855E-003 -1.3972597370E+002  +2.5366565440E-001 -1.5948417667E+002 
1635887.359 +1.2805588952E-001 +1.7038866772E+002  +3.8467774415E-003 +4.4547079340E+001  +6.2427289898E-003 -1.3475803491E+002  +2.1548144045E-001 -1.5784572995E+002 
1761032.541 +1.2347099750E-001 +1.6655926252E+002  +8.8225795615E-003 +5.1883791871E+001  +7.9001297884E-003 -8.6705296527E+001  +2.3071307270E-001 -1.5702640571E+002 
1886177.722 +1.3108750695E-001 +1.6949121674E+002  +9.2188939009E-003 +5.9756241318E+001  +8.5865074251E-003 -6.7886050710E+001  +2.2223746000E-001 -1.5972886976E+002 
2011322.904 +1.3394406444E-001 +1.6776186600E+002  +9.2877183218E-003 +8.2650248877E+001  +9.1635004101E-003 -5.8367483058E+001  +2.2870482457E-001 -1.6142838884E+002 
2136468.085 +1.3458897386E-001 +1.6739498146E+002  +1.9523962038E-002 +6.8568788047E+001  +2.0913378967E-002 -6.3152926847E+001  +1.9592048713E-001 -1.4965484145E+002 
2261613.267 +1.3109032571E-001 +1.6756800209E+002  +1.8857370452E-002 +7.1282322410E+001  +1.9481698874E-002 -5.6929594197E+001  +2.2243736729E-001 -1.6043046380E+002 
2386758.448 +1.3351351833E-001 +1.6466344658E+002  +3.3058324198E-002 +9.0734585802E+001  +2.6991423334E-002 -3.1331403325E+001  +1.8090636515E-001 -1.6891565733E+002 
2511903.630 +1.3365953853E-001 +1.6240645994E+002  +4.8997249120E-002 +1.0085602866E+002  +4.8170155065E-002 -2.0448966642E+001  +1.6304430557E-001 +1.7294857419E+002 
2637048.811 +6.3879873874E-002 +1.5883113093E+002  +1.8128193420E-001 +6.1370779879E+001  +1.9020145565E-001 -5.4794363486E+001  +1.6223483250E-001 -5.2478657238E+000 
2762193.992 +1.1672634315E-001 -1.6498293740E+002  +1.1124768054E-001 -7.2449978112E+000  +1.1581667042E-001 -1.1526914126E+002  +3.1255794441E-001 -1.1987110656E+002 
2887339.174 +1.3646937365E-001 -1.7898336828E+002  +8.3419597404E-002 -9.0648238791E+000  +8.3042665992E-002 -1.1522238084E+002  +3.0881729669E-001 -1.1750561421E+002 
3012484.355 +1.4059714872E-001 +1.7719460247E+002  +4.5289200717E-002 +1.6582162982E+001  +4.4987811172E-002 -7.9240543602E+001  +2.2740266327E-001 -1.4894286348E+002 
3137629.537 +1.4816345025E-001 -1.6947829812E+002  +1.1507077909E-001 -1.1555928129E+001  +1.1495103032E-001 -1.1194633271E+002  +2.9816223905E-001 -1.0561499411E+002 
3262774.718 +1.4638432656E-001 -1.7326000311E+002  +8.3195380358E-002 -1.2388757364E+001  +8.3269799220E-002 -1.0161313466E+002  +2.7503020912E-001 -1.2502136440E+002 
3387919.900 +1.1530183976E-001 +1.6427705547E+002  +1.1452428993E-001 +4.9500467364E+001  +1.0793354413E-001 -3.8243632621E+001  +8.2519003966E-002 -1.4258435110E+002 
3513065.081 +1.3889650934E-001 +1.5730600564E+002  +1.0997476268E-001 +6.0033070239E+001  +1.0745992681E-001 -2.3501827262E+001  +6.4389141829E-002 -1.4656451898E+002 
3638210.263 +1.7755977618E-001 +1.1359987951E+002  +3.0681849209E-001 +1.0621236220E+002  +3.2318273680E-001 +2.5385910655E+001  +5.4145405798E-001 +1.1011833212E+002 
3763355.444 +1.5966799169E-001 +1.3756021836E+002  +1.9036033109E-001 +1.1446606012E+002  +1.8717411618E-001 +3.8909123239E+001  +4.8932227415E-001 +1.4438229404E+002 
3888500.626 +1.2705798152E-001 +1.6805659065E+002  +1.6492932838E-001 +3.8979310791E+001  +1.6397214812E-001 -3.3281106598E+001  +9.4367128952E-002 -1.1075238910E+001 
4013645.807 +1.3373986640E-001 +1.5742657404E+002  +1.6195654027E-001 +5.2216515814E+001  +1.5868674047E-001 -1.7549803954E+001  +2.2637787018E-002 +7.5458231028E+001 
4138790.989 +1.4338157454E-001 +1.6607074523E+002  +1.4185964744E-001 +4.7692976540E+001  +1.3562554508E-001 -1.9516921817E+001  +7.6014869873E-002 +1.6091943679E+002 
4263936.170 +1.7469278107E-001 +1.5639243173E+002  +1.1937564369E-001 +6.9242443898E+001  +1.1492490080E-001 +4.1656248797E+000  +1.8379415940E-001 +1.6599692267E+002 
4389081.352 +1.6704589419E-001 +1.4500093960E+002  +1.6663042823E-001 +7.4413330982E+001  +1.5612359565E-001 +1.3116737608E+001  +2.1188652747E-001 +1.5176183305E+002 
4514226.533 +1.8630270749E-001 +1.4331164538E+002  +1.5116103467E-001 +8.9783652996E+001  +1.4728496817E-001 +3.2998449444E+001  +3.5668661755E-001 +1.6464020359E+002 
4639371.715 +1.6733741912E-001 +1.1760070825E+002  +3.1533375902E-001 +7.9027839612E+001  +3.0919222536E-001 +2.4648948389E+001  +4.1725093204E-001 +1.1467807274E+002 
4764516.896 +2.7727286398E-001 +1.1717993052E+002  +3.5993064424E-001 +8.9307026519E+001  +3.4151945042E-001 +3.9558485583E+001  +4.1516467076E-001 +1.1181496115E+002 
4889662.078 +8.3133361084E-001 +1.0556393590E+002  +1.6311410946E+000 +1.3040037554E+002  +1.6397966598E+000 +8.2130142697E+001  +3.6966619826E+000 +1.2907705906E+002 
5014807.259 +4.1018151118E-001 +1.2783543044E+002  +4.5778905644E-001 +1.2456128977E+002  +4.4562201044E-001 +8.0748917738E+001  +9.4246873074E-001 +1.3965736358E+002 
5139952.441 +2.9047884981E-001 +1.0366685722E+002  +6.0014509062E-001 +8.5448496509E+001  +5.7596432403E-001 +4.3378780843E+001  +1.0541268138E+000 +1.0129684841E+002 
5265097.622 +2.8504017913E-001 +1.3814436253E+002  +2.8762653642E-001 +9.2809089770E+001  +2.7759499256E-001 +5.3256600408E+001  +6.0948047926E-001 +1.3428465183E+002 
5390242.804 +3.1607736790E-001 +1.2578704859E+002  +3.4345559726E-001 +9.7381183131E+001  +3.3606630290E-001 +6.0461297311E+001  +6.9745305196E-001 +1.4368269132E+002 
5515387.985 +3.3979207125E-001 +1.2414692859E+002  +4.3269841346E-001 +9.3409345521E+001  +4.2229544708E-001 +5.9401854356E+001  +8.5800839510E-001 +1.2729045227E+002 
5640533.166 +3.3633930239E-001 +1.3243437332E+002  +3.4932227567E-001 +9.0397827057E+001  +3.4209358328E-001 +5.9868166581E+001  +7.6460871297E-001 +1.3710683503E+002 
5765678.348 +4.0618795512E-001 +1.2228500053E+002  +4.5476760980E-001 +8.9770101687E+001  +4.4110612481E-001 +6.2391234756E+001  +8.1678502094E-001 +1.2974529710E+002 
5890823.529 +4.0259251699E-001 +1.2856707730E+002  +4.2307894160E-001 +9.7140000440E+001  +4.1851070610E-001 +7.0248764381E+001  +1.0646694286E+000 +1.4094488797E+002 
6015968.711 +4.7467906558E-001 +1.2268972235E+002  +5.0242090692E-001 +8.9818960691E+001  +4.8624424114E-001 +6.6503702803E+001  +9.8093516806E-001 +1.2889147019E+002 
6141113.892 +3.7626074220E-001 +1.1983409676E+002  +5.5334418591E-001 +7.5124652312E+001  +5.3676134820E-001 +5.3071694168E+001  +1.1367973282E+000 +1.2038193922E+002 
6266259.074 +4.7282193867E-001 +1.1011539326E+002  +6.9032558018E-001 +7.4951048573E+001  +6.7781237414E-001 +5.6088713999E+001  +1.3198517382E+000 +1.1188215262E+002 
6391404.255 +3.1727160262E-001 +9.6235596252E+001  +6.6086998587E-001 +4.7858309064E+001  +6.6352403027E-001 +3.0648621640E+001  +7.7848294628E-001 +9.9598734949E+001 
6516549.437 +2.9307280105E-001 +9.3262026289E+001  +7.5084417781E-001 +3.7970576289E+001  +7.4868710628E-001 +2.3888851988E+001  +8.9003860925E-001 +7.6816403222E+001 
6641694.618 +3.3192408731E-001 +6.6983296722E+001  +9.4354499506E-001 +2.9470139221E+001  +9.4789385902E-001 +1.6731557235E+001  +1.1268152474E+000 +5.4216003632E+001 
6766839.800 +5.3425317340E-001 +6.0506548721E+001  +9.3768995980E-001 +2.9075910526E+001  +9.3291531099E-001 +1.9108582984E+001  +6.3090720125E-001 +5.2376159302E+001 
6891984.981 +3.5609961792E-001 +4.9717487440E+001  +8.9104304936E-001 +1.8024612274E+001  +8.9009885857E-001 +1.0391544490E+001  +5.7347377258E-001 +5.1258145812E+001 
7017130.163 +1.5692921823E-001 +1.8427897688E+000  +8.8148757402E-001 +4.3102513001E+000  +8.8498389073E-001 -6.7616077648E-001  +5.0711750166E-001 +3.3373452498E+001 
7142275.344 +3.0180813969E-001 +3.4132829197E-001  +9.0339412837E-001 +4.3237357625E+000  +9.1341589491E-001 +3.2317007223E-001  +3.5230558750E-001 +4.1374726158E+001 
7267420.526 +2.6786549116E-001 +2.9984751760E+001  +8.8056918356E-001 +3.3633451308E+000  +8.7649091067E-001 +2.1719556982E+000  +4.0680030952E-001 -1.0975295477E+001 
7392565.707 +1.6498828496E-001 +2.7950816222E+001  +8.5847225066E-001 +1.1464963738E+000  +8.5907267190E-001 +2.0598030564E+000  +2.7696707238E-001 -1.5980516269E+001 
7517710.889 +2.1322498294E-001 +1.1021038165E+001  +8.3865568990E-001 +8.0062442481E-001  +8.2724295165E-001 +2.9694938037E+000  +1.8326527544E-001 +1.6610828772E+001 
7642856.070 +9.4970266188E-002 +4.9951119176E+001  +7.8679203431E-001 -7.1781225624E-001  +7.8737026174E-001 +1.7810760944E+000  +2.0489241449E-001 +3.0943122487E+001 
7768001.252 +1.9681205429E-001 +7.3680700585E+001  +7.4403094173E-001 -1.0916953442E+000  +7.4018270540E-001 +4.0892896071E+000  +1.8511719090E-001 +3.1058471311E+001 
7893146.433 +1.7137288559E-001 +6.4043726256E+001  +7.3760923863E-001 -2.8604275824E+000  +7.3336304420E-001 +3.6341374126E+000  +7.7116233855E-002 +8.7979557787E+001 
8018291.615 +1.1469518480E-001 +1.1059708526E+002  +7.0527625453E-001 -5.6286048345E+000  +7.0272807851E-001 +1.8916129893E+000  +1.6649075234E-001 +1.1591432842E+002 
8143436.796 +1.6774418175E-001 +9.9140785236E+001  +6.7786837035E-001 -5.0836016819E+000  +6.7567170782E-001 +4.0810234105E+000  +2.2344318483E-001 +9.7106969845E+001 
8268581.977 +1.7634479920E-001 +1.1526775395E+002  +6.7233015569E-001 -5.8185941074E+000  +6.6885935986E-001 +3.9360070072E+000  +1.7181434033E-001 +9.5565975170E+001 
8393727.159 +1.6868412131E-001 +1.0883171089E+002  +6.6462730724E-001 -6.1081469827E+000  +6.5912758940E-001 +4.6114033101E+000  +1.7823813996E-001 +1.0179883678E+002 
8518872.340 +1.6988744009E-001 +1.0832017754E+002  +6.5397887359E-001 -6.9092860929E+000  +6.5280101840E-001 +4.9267957491E+000  +1.6787607726E-001 +1.0415718677E+002 
8644017.522 +2.0085409339E-001 +1.1326917567E+002  +6.3853115724E-001 -7.3037928967E+000  +6.3691837526E-001 +5.3748474327E+000  +2.3043926389E-001 +1.1212301247E+002 
8769162.703 +1.6249889923E-001 +1.3199771831E+002  +6.4419747167E-001 -8.2029828727E+000  +6.3364649044E-001 +5.4401728281E+000  +1.8817311416E-001 +9.9213345340E+001 
8894307.885 +1.7420767424E-001 +1.3372993783E+002  +6.3274658110E-001 -8.7160178563E+000  +6.3235583829E-001 +5.2766839678E+000  +1.9814977033E-001 +1.1861807493E+002 
9019453.066 +2.0484051024E-001 +1.2005512904E+002  +6.2889733803E-001 -8.3762988317E+000  +6.2190968004E-001 +6.0854947237E+000  +1.9185041127E-001 +1.1729067672E+002 
9144598.248 +2.2969216349E-001 +1.2533144937E+002  +6.1748786000E-001 -8.3812198098E+000  +6.1499490758E-001 +6.3425735362E+000  +1.8246772155E-001 +1.0787014140E+002 
9269743.429 +1.6689149674E-001 +1.2251161218E+002  +6.2043863818E-001 -8.7428073656E+000  +6.1929752629E-001 +6.3282874325E+000  +2.1869174984E-001 +1.2479896013E+002 
9394888.611 +1.9203853154E-001 +1.2171711777E+002  +6.1847782935E-001 -8.1747921994E+000  +6.1367617320E-001 +7.3419115539E+000  +1.6717321440E-001 +1.0740422982E+002 
9520033.792 +1.8545692165E-001 +1.2450984529E+002  +6.1782690050E-001 -9.0899023267E+000  +6.1362895636E-001 +6.6756509431E+000  +1.7018202524E-001 +1.2472490409E+002 
9645178.974 +1.5583753840E-001 +1.3299349791E+002  +6.2258229059E-001 -8.8187929109E+000  +6.1927901457E-001 +6.7943613899E+000  +1.6107021272E-001 +1.2551010533E+002 
9770324.155 +1.3902182986E-001 +1.4230555632E+002  +6.2961886981E-001 -9.0559500335E+000  +6.2185392728E-001 +7.2605876914E+000  +1.6231849570E-001 +1.1369927569E+002 
9895469.337 +1.7043188207E-001 +1.3860787220E+002  +6.1878687385E-001 -9.3046224262E+000  +6.1213666011E-001 +6.9461105412E+000  +2.1331461698E-001 +1.2379707392E+002 
10020614.518 +1.4797168427E-001 +1.2692025628E+002  +6.2520635790E-001 -8.6138076474E+000  +6.1966152172E-001 +7.3380802259E+000  +1.8567502044E-001 +1.3308956808E+002 
10145759.700 +1.6569013651E-001 +1.2256792174E+002  +6.2119205792E-001 -8.0455114072E+000  +6.1558762678E-001 +7.5617340795E+000  +1.7795906222E-001 +1.2167874532E+002 
10270904.881 +2.0840670225E-001 +1.3034299569E+002  +6.1519307673E-001 -8.1101204556E+000  +6.1236252412E-001 +7.1261072092E+000  +2.0092154066E-001 +1.1303321516E+002 
10396050.063 +1.8726017680E-001 +1.2202761475E+002  +6.2289669445E-001 -7.6323337671E+000  +6.1712921665E-001 +8.0553407371E+000  +1.4984811912E-001 +1.1609459085E+002 
10521195.244 +1.6579339355E-001 +1.2077256366E+002  +6.2351172054E-001 -7.6063923151E+000  +6.1929628741E-001 +7.2581435130E+000  +2.1963259668E-001 +1.2278593491E+002 
10646340.426 +1.6890061507E-001 +1.1809176152E+002  +6.2743884329E-001 -7.0840317566E+000  +6.2550549304E-001 +7.9494520555E+000  +1.6696532987E-001 +1.2041022881E+002 
10771485.607 +1.5954173267E-001 +1.2157178558E+002  +6.3080833807E-001 -6.6271388539E+000  +6.2304970053E-001 +7.8793733410E+000  +1.9518947075E-001 +1.0827207421E+002 
10896630.788 +1.8447654850E-001 +1.2384802633E+002  +6.3010251278E-001 -6.7898657915E+000  +6.2412175060E-001 +7.4893589654E+000  +2.0375530127E-001 +1.1329880299E+002 
11021775.970 +1.7258472794E-001 +1.1908167846E+002  +6.3137158989E-001 -6.3789173813E+000  +6.2786957775E-001 +7.5179190205E+000  +2.0436538284E-001 +1.1227568099E+002 
11146921.151 +1.6873703320E-001 +1.2065245224E+002  +6.3927537870E-001 -5.8969559760E+000  +6.3505618008E-001 +7.6304308765E+000  +1.8247610791E-001 +1.0559872610E+002 
11272066.333 +1.8045105322E-001 +1.1528298716E+002  +6.4274651876E-001 -5.8250945723E+000  +6.3781034371E-001 +7.1351071727E+000  +1.7424204367E-001 +1.1502265912E+002 
11397211.514 +1.6919190630E-001 +1.0571512394E+002  +6.4684540648E-001 -5.0098617733E+000  +6.4320633012E-001 +7.4649857682E+000  +1.6301463966E-001 +1.0957854612E+002 
11522356.696 +1.5655120406E-001 +1.1641947062E+002  +6.5231816912E-001 -5.2537522359E+000  +6.4798424529E-001 +6.5924995215E+000  +1.7941797672E-001 +1.1094359105E+002 
11647501.877 +1.5131605646E-001 +1.1922526053E+002  +6.5976888142E-001 -4.9930954870E+000  +6.5562941891E-001 +6.3801914230E+000  +1.8500848443E-001 +1.1014422882E+002 
11772647.059 +1.3750708080E-001 +1.0856254555E+002  +6.6545994854E-001 -4.2688499283E+000  +6.6142266031E-001 +6.5764881464E+000  +1.8586058763E-001 +1.0559770301E+002 
11897792.240 +1.2837634877E-001 +1.0927642144E+002  +6.7372405165E-001 -3.9546813867E+000  +6.6786095968E-001 +6.1924682305E+000  +1.7845226373E-001 +1.0901539379E+002 
12022937.422 +1.1384224102E-001 +1.1431965932E+002  +6.8702986616E-001 -3.6372251162E+000  +6.7907436858E-001 +6.0913658043E+000  +1.2884990679E-001 +1.0359042874E+002 
12148082.603 +1.3965304285E-001 +1.0952462874E+002  +6.8461696380E-001 -3.5630075573E+000  +6.7965565315E-001 +5.8068479397E+000  +1.4880797025E-001 +1.0160665955E+002 
12273227.785 +1.3181280010E-001 +1.1073880560E+002  +6.9286986225E-001 -3.4081637175E+000  +6.9036390585E-001 +4.9528905473E+000  +1.4220222941E-001 +1.1529658534E+002 
12398372.966 +1.1590084471E-001 +9.5665658915E+001  +7.0087737365E-001 -2.4317477366E+000  +6.9590116474E-001 +5.2615447180E+000  +1.3296198070E-001 +1.0154863126E+002 
12523518.148 +1.2119892239E-001 +1.0690204353E+002  +7.0827700535E-001 -2.9371720129E+000  +7.0248855887E-001 +4.2214022814E+000  +1.3252754060E-001 +1.1238820152E+002 
12648663.329 +1.3471604421E-001 +8.8922814200E+001  +7.1174624947E-001 -1.6926738028E+000  +7.0625569230E-001 +5.0769312761E+000  +1.0736738684E-001 +8.4365041767E+001 
12773808.511 +1.0577490396E-001 +1.0018052860E+002  +7.2183892985E-001 -2.0034249127E+000  +7.1655890691E-001 +4.1706510195E+000  +1.2328603935E-001 +8.9955033300E+001 
12898953.692 +7.6713621121E-002 +9.0679435640E+001  +7.3259993503E-001 -1.4576489696E+000  +7.2626299542E-001 +4.0488375257E+000  +1.0896467278E-001 +8.4687860003E+001 
13024098.874 +6.8491070512E-002 +8.4753900169E+001  +7.4505857449E-001 -1.2731037988E+000  +7.4032143731E-001 +3.7068940122E+000  +8.2516436473E-002 +8.0844904607E+001 
13149244.055 +5.9776603296E-002 +9.1625074082E+001  +7.4813651227E-001 -1.2324909958E+000  +7.4380144665E-001 +3.2884300739E+000  +1.1085055705E-001 +7.8398463492E+001 
13274389.237 +8.1115031506E-002 +7.2876489445E+001  +7.5404986664E-001 -9.9758383223E-001  +7.5100049834E-001 +3.0169932872E+000  +9.8120468389E-002 +8.2307747220E+001 
13399534.418 +6.8213007152E-002 +7.5835403251E+001  +7.6506876298E-001 -7.4768562707E-001  +7.6126395652E-001 +2.8427396937E+000  +8.0508036763E-002 +5.9185049782E+001 
13524679.599 +7.5445654729E-002 +5.4460812337E+001  +7.7278893652E-001 -4.2094629354E-001  +7.6821819989E-001 +2.4967997375E+000  +7.8649588852E-002 +6.6047666421E+001 
13649824.781 +7.6591936052E-002 +5.8929741043E+001  +7.7950127623E-001 -4.5385013926E-001  +7.7573569847E-001 +1.9713079099E+000  +7.1916578303E-002 +5.8172992455E+001 
13774969.962 +8.0230293593E-002 +2.8664328894E+001  +7.9413692577E-001 +7.9226019528E-002  +7.8867189476E-001 +2.2011106775E+000  +7.3237697750E-002 +3.3272540881E+001 
13900115.144 +9.1753739926E-002 +2.7174945600E+001  +8.0332736796E-001 +1.4093123086E-001  +7.9734816701E-001 +1.9929118327E+000  +7.2919934958E-002 +1.4521827539E+001 
14025260.325 +8.9174260545E-002 +2.6734346336E+001  +8.0540996483E-001 +1.1010094789E-001  +7.9993779232E-001 +1.4541528399E+000  +8.3955212989E-002 +2.9406735717E+001 
14150405.507 +9.8733635584E-002 +2.2428767861E+001  +8.1571385398E-001 -3.8472725579E-001  +8.1071105305E-001 +1.0190982507E+000  +6.7012558603E-002 +7.8092841133E+000 
14275550.688 +9.5324380114E-002 +1.0899940603E+001  +8.3210396873E-001 -2.8944645713E-003  +8.2125789072E-001 +6.9956965489E-001  +7.9362074267E-002 +3.0131657032E+000 
14400695.870 +1.1891000995E-001 -9.0647847147E-001  +8.3474916383E-001 +8.3934833946E-002  +8.2974836221E-001 +9.7305482783E-001  +1.1046894827E-001 +4.6402768060E-001 
