!  2-Port S-parameters saved by WinCal
! VAR MeasName=S-Parameters (CALIBRATED_DATA) read from VNA (P5004A)
! VAR MeasDate=29/08/2024 10:50:32
! VAR NAME=S2_r9c2_RESET5_9k-100M_3
! VAR FILENAME=S2_r9c2_RESET5_9k-100M_3.S2P
! VAR DATE=29/08/2024 10:50:32
! VAR PHYS_PORTS=1,2
! VAR ObjTypeName=DATASET
! VAR IndexType=Frequency
!
# Hz S MA R 50
9000.000 +7.5071997606E-002 -1.5945919628E+002  +4.6460402789E-003 -1.0254893153E+002  +7.6777430914E-003 -6.1607474162E+001  +2.3329054641E-001 -1.4086723335E+002 
134145.181 +1.1109211198E-001 +1.6966851537E+002  +1.2915281610E-004 +1.5678305009E+002  +4.1694205091E-004 -8.5169012850E+001  +2.3816387249E-001 -1.7020301793E+002 
259290.363 +1.1117937698E-001 +1.6975969759E+002  +7.1869412488E-004 -5.8711650540E+001  +5.3233585554E-004 +1.1726105390E+002  +2.4739642096E-001 -1.6834954702E+002 
384435.544 +1.1363577190E-001 +1.6967224571E+002  +4.1940304230E-004 -1.1206805614E+001  +3.3098267899E-004 -1.7075373943E+002  +2.4089258449E-001 -1.6985246158E+002 
509580.726 +1.1375334073E-001 +1.7097695070E+002  +1.1049596348E-003 -1.0178544287E+002  +1.5913069714E-003 -1.6791262587E+002  +2.4601109438E-001 -1.6625037586E+002 
634725.907 +1.1734036257E-001 +1.7230266505E+002  +1.1438035949E-003 -7.2252498907E+001  +3.6946169460E-004 +6.9125612063E+001  +2.4782057452E-001 -1.6405799475E+002 
759871.089 +1.2095257126E-001 +1.7044558147E+002  +2.3364125671E-004 +1.0204388150E+002  +4.6077033166E-004 +4.1231909979E+001  +2.5703950046E-001 -1.6750657304E+002 
885016.270 +1.2082287194E-001 +1.6859091481E+002  +1.2676752809E-004 -4.4289215251E+001  +2.7390863444E-004 +1.2069957213E+002  +2.4386748246E-001 -1.6731008199E+002 
1010161.452 +1.1387870260E-001 +1.6916499700E+002  +2.0941315751E-003 -1.5977417473E+001  +1.9271569652E-003 +1.7057486216E+002  +2.2067592106E-001 -1.6550392699E+002 
1135306.633 +1.1623836941E-001 +1.6963169802E+002  +1.7659378203E-003 -1.2825553666E+002  +6.6801111200E-004 +6.0409861372E+001  +1.8873867409E-001 -1.7110944292E+002 
1260451.815 +1.2246414677E-001 +1.7158382795E+002  +1.6701405912E-003 -5.1903240428E+001  +2.7935888067E-004 +1.7297326817E+002  +2.1785172000E-001 -1.5086302607E+002 
1385596.996 +1.2715660403E-001 +1.7363989036E+002  +5.1854615516E-004 -9.0835285931E+000  +7.5039025771E-004 +5.5718166660E+001  +2.4775739151E-001 -1.5841330970E+002 
1510742.178 +1.2761352886E-001 +1.7082317198E+002  +7.6645782408E-004 -1.6723570242E+002  +9.0943003400E-004 -1.3037612221E+002  +2.5987947366E-001 -1.5904413417E+002 
1635887.359 +1.2756499784E-001 +1.7146774284E+002  +1.1940134970E-003 +9.8308359187E+001  +3.8876770437E-004 +1.7291994818E+002  +2.4083098357E-001 -1.5879916486E+002 
1761032.541 +1.3081868468E-001 +1.6975164639E+002  +5.0463828947E-004 -1.7780059166E+002  +1.5355447708E-003 -1.4781537917E+002  +2.3021121742E-001 -1.6184267784E+002 
1886177.722 +1.2834337836E-001 +1.6839572014E+002  +1.6559659771E-003 +8.2010883207E+001  +7.5550202210E-004 -3.4980495158E+001  +2.3590620902E-001 -1.6265620530E+002 
2011322.904 +1.3175956451E-001 +1.6642583711E+002  +8.7544003162E-004 +1.2899181310E+002  +1.2001696505E-003 -5.6207097183E+001  +2.1812535861E-001 -1.6702685249E+002 
2136468.085 +1.3060280011E-001 +1.6558425363E+002  +2.7646790930E-003 +4.8072328805E+001  +8.4418852756E-004 -7.6691821990E+001  +2.1240907335E-001 -1.7695666823E+002 
2261613.267 +1.3266545198E-001 +1.6544296326E+002  +3.7925963372E-003 +1.1186812573E+002  +3.6272224609E-003 -4.0198558276E+001  +2.1216554218E-001 +1.7578828352E+002 
2386758.448 +1.3601851908E-001 +1.6549953819E+002  +3.8454154717E-003 +1.2896429382E+002  +3.8256250431E-003 -2.3266797333E+001  +2.0033888031E-001 +1.7777648573E+002 
2511903.630 +1.3599510505E-001 +1.6420829352E+002  +7.9479911910E-003 +4.3097459867E+001  +1.1138533247E-002 -4.0401144668E+001  +1.3137771426E-001 +1.4488709206E+002 
2637048.811 +1.1922021968E-001 +1.6601855666E+002  +1.8012825064E-002 +1.4379411599E+002  +2.1000841693E-002 +5.4918479926E+000  +4.4221496724E-001 +1.5981563035E+002 
2762193.992 +1.1209680170E-001 +1.7040287484E+002  +2.3500320563E-002 -2.4635334054E+000  +1.8738026232E-002 -9.5240169785E+001  +2.5051154233E-002 -1.0546120551E+002 
2887339.174 +1.3905208180E-001 +1.6559600047E+002  +3.3452505926E-002 -5.2645430014E+001  +3.3603225020E-002 -1.6348062529E+002  +7.0793935059E-001 -7.2628861942E+001 
3012484.355 +1.3336692913E-001 +1.6976354633E+002  +1.0878634144E-002 -6.0406067744E+001  +6.1778951463E-003 -1.6227982560E+002  +3.4591888633E-001 -1.1399194285E+002 
3137629.537 +1.1700657181E-001 +1.7695241881E+002  +1.4506746543E-002 -5.3838665018E+001  +2.0885957631E-002 -1.5515129069E+002  +2.8466423655E-001 -9.7874540129E+001 
3262774.718 +1.3449825979E-001 +1.5523900393E+002  +3.7972687662E-002 +1.5592596581E+002  +2.3277112047E-002 +7.8014006241E+001  +9.9816803186E-001 +1.5774240974E+002 
3387919.900 +1.2414455832E-001 +1.5293421916E+002  +2.8447697371E-002 +4.6096036168E+001  +2.1849410908E-002 -6.0111002165E+001  +5.2988194192E-002 +3.7401778151E+001 
3513065.081 +1.5685291164E-001 +1.4888020165E+002  +2.9502658857E-002 +6.4952304891E+001  +1.9623194650E-002 -2.2231169706E+001  +2.1143864448E-001 +8.2497869108E+001 
3638210.263 +1.6555546966E-001 +1.4564516786E+002  +4.8648220806E-002 +5.2433939416E+001  +5.7658940114E-002 -2.8440446697E+001  +5.4046836565E-001 +4.2296941995E+000 
3763355.444 +1.8014109323E-001 +1.4109591457E+002  +1.3916570868E-001 +1.5176112128E+002  +1.0116407625E-001 +4.7231775255E+001  +2.8739991790E+000 +1.0978295618E+002 
3888500.626 +1.8778918452E-001 +1.5118649637E+002  +1.8589761679E-002 +1.2023280491E+002  +2.3828475803E-002 +3.9186065517E+001  +5.9928500325E-001 +1.2574125325E+002 
4013645.807 +1.5999071287E-001 +1.4981107347E+002  +1.5985566297E-002 +4.3077993060E+001  +6.6852840391E-003 -4.9135200293E+001  +2.4048004268E-001 +1.5179397561E+002 
4138790.989 +1.8784391446E-001 +1.4676546038E+002  +2.1643196102E-002 +9.0381392747E+001  +1.8232358374E-002 +5.2175630663E+001  +4.9433774979E-001 +1.4616327578E+002 
4263936.170 +1.6191083229E-001 +1.5568908667E+002  +2.2333559676E-002 +9.3521952928E+001  +1.8006153841E-002 +2.9533122736E+001  +4.6757978929E-001 +1.3794807860E+002 
4389081.352 +2.4075541747E-001 +1.4502976054E+002  +6.3426275899E-002 +5.1849501021E+001  +2.5742895569E-002 -3.0940412294E+001  +1.0973358218E+000 +1.9244765473E+001 
4514226.533 +2.5768028083E-001 +1.3784612780E+002  +1.9506138255E-002 +1.1864223761E+002  +2.2285868694E-002 +7.1266289610E+001  +5.5655245530E-001 +1.4119800326E+002 
4639371.715 +2.5776759656E-001 +1.2322227527E+002  +1.3233857149E-001 +1.0326237821E+002  +1.0946207161E-001 +7.0586654961E+001  +2.4914088010E+000 +9.3510139176E+001 
4764516.896 +3.2049106570E-001 +1.3313580988E+002  +1.1741947913E-001 -1.2951497461E+002  +7.6949760631E-002 -1.7524140071E+002  +2.5478478790E+000 -1.6111678262E+002 
4889662.078 +4.8795107382E-001 +1.2658142078E+002  +3.1181752768E-001 +1.0994799051E+001  +4.1290399017E-001 -3.0132410023E+001  +4.6172443269E+000 -5.6720369861E+001 
5014807.259 +4.1873877224E-001 +1.3357937635E+002  +5.2327529956E-001 -1.0262386740E+002  +3.6131527193E-001 -1.6426372193E+002  +8.7610064074E+000 -1.6337702712E+002 
5139952.441 +3.2781431086E-001 +1.2877552706E+002  +1.9705453199E-001 +3.3362024079E+001  +2.1817269222E-001 -2.0703717621E+001  +4.3430902535E+000 -7.9640222013E+000 
5265097.622 +3.5019669272E-001 +1.3330786820E+002  +6.2046843957E-002 +8.3399956135E+001  +6.5703544709E-002 +5.3550423373E+001  +1.0283581047E+000 +8.6625189302E+001 
5390242.804 +3.8839983329E-001 +1.2084389401E+002  +1.4075834054E-001 +1.4055899755E+002  +1.6508919394E-001 +9.1820866535E+001  +2.7291524838E+000 +1.3176964965E+002 
5515387.985 +4.3474986959E-001 +1.3836604447E+002  +7.4590675527E-002 +1.0506538197E+002  +6.5983542029E-002 +7.4530447130E+001  +1.7170751094E+000 +7.7554631972E+001 
5640533.166 +4.6125282280E-001 +1.2162166107E+002  +9.3016353197E-002 +9.2059144579E+001  +1.3934417289E-001 +6.2456156482E+001  +2.1548143001E+000 +8.7496062149E+001 
5765678.348 +5.0327322259E-001 +1.2510998751E+002  +1.5723119344E-001 +9.4569823585E+001  +1.7129189200E-001 +7.7291028026E+001  +3.4293492393E+000 +8.3463418540E+001 
5890823.529 +4.5669623779E-001 +1.2120561001E+002  +7.5583938122E-002 +7.0972860886E+001  +7.6476072590E-002 +5.4485259833E+001  +1.3899903944E+000 +8.2675905990E+001 
6015968.711 +6.1917739353E-001 +1.1907063058E+002  +1.2378867883E-001 +7.4364585744E+001  +1.3786324792E-001 +4.8470905054E+001  +2.3691090304E+000 +5.7358731796E+001 
6141113.892 +6.9647550664E-001 +1.0962233739E+002  +1.3400840594E-001 +5.0537364151E+001  +8.4228928514E-002 +4.4422492047E+001  +1.5981207272E+000 +3.5643063813E+001 
6266259.074 +6.1953333430E-001 +1.0141349792E+002  +8.0832792595E-002 +4.8177644874E+001  +8.6873418127E-002 +2.4501794807E+001  +1.3386708210E+000 +3.6323857248E+001 
6391404.255 +1.0006294075E+000 +9.6784394804E+001  +1.3383269075E-001 +4.7487696959E+001  +1.4522761701E-001 +2.6515758013E+001  +2.0381558921E+000 +2.3663995863E+001 
6516549.437 +1.3246234980E+000 +7.0478246529E+001  +1.8895102834E-001 +1.8796635654E+001  +1.6614645422E-001 +6.9854859116E+000  +1.5304956411E+000 -6.1889007549E-001 
6641694.618 +1.3227356048E+000 +7.5789987647E+001  +1.2184769291E-001 +3.1756868619E+001  +1.3517395045E-001 +2.2344914359E+001  +1.4461920182E+000 -2.4738117570E+000 
6766839.800 +1.5815914110E+000 +4.3962364101E+001  +1.2766489575E-001 +1.0761676882E+001  +1.3218566331E-001 +5.9660036406E+000  +1.1308615868E+000 -2.9903869712E+000 
6891984.981 +1.4515081689E+000 +2.6615790367E+001  +1.3125521460E-001 -3.6525535088E+000  +1.2308422194E-001 -1.2501260281E+001  +1.3860752890E+000 -5.7098238155E+000 
7017130.163 +1.8017296346E+000 +2.3957644712E+001  +1.2187846226E-001 +2.7288142402E+000  +1.1492877231E-001 -1.3859453915E+001  +1.2095617581E+000 +6.9452481923E-001 
7142275.344 +1.3649051878E+000 +1.7841347019E+001  +8.8212979437E-002 +5.0871847971E-001  +9.9059042033E-002 +8.4804493682E+000  +1.1852331920E+000 -7.5372827159E+000 
7267420.526 +1.2054634660E+000 -2.9266893075E+000  +7.3705210274E-002 +6.2388702094E-002  +7.5260525239E-002 -7.2611528840E+000  +1.2826950583E+000 -1.1892693623E+001 
7392565.707 +1.2089630946E+000 +4.4967277338E+000  +6.5771825585E-002 +1.2686743154E+001  +6.0862817675E-002 +9.4931123561E+000  +1.2595769544E+000 -1.1904710543E+001 
7517710.889 +1.1504500293E+000 +4.6536266998E-001  +5.8427604276E-002 -5.3884491279E-001  +5.8110419465E-002 +9.3858738514E-001  +1.0305121974E+000 -5.8196970518E+000 
7642856.070 +9.6937862512E-001 -2.2143651170E+000  +5.7686054606E-002 +3.2379964021E+000  +4.7399375186E-002 +1.4678609956E+001  +1.0746004463E+000 -6.9166809501E+000 
7768001.252 +9.3096462270E-001 +4.5868942569E+000  +5.7175248991E-002 -3.1252354110E+000  +4.8296334950E-002 +8.6000406153E+000  +8.4160331690E-001 -6.7347545766E+000 
7893146.433 +8.1268520976E-001 +2.8997722069E+000  +5.1333366082E-002 +3.6949216642E-001  +5.0885168324E-002 +6.0790895895E+000  +8.6133712750E-001 +1.6096090000E+000 
8018291.615 +8.0373644466E-001 +2.3852190503E+000  +4.8993231586E-002 -8.8084473871E+000  +5.4326312883E-002 +2.7374806228E+000  +8.2744633542E-001 -1.6745965941E+000 
8143436.796 +6.9674389840E-001 +5.9377816039E+000  +4.8310219850E-002 -1.2511782070E+000  +4.9008519127E-002 +8.2576667375E+000  +7.5670688683E-001 -4.7294333342E+000 
8268581.977 +6.0241135270E-001 +1.7842831120E+000  +4.8016717697E-002 -4.2808436037E+000  +5.1103273813E-002 +1.2057817345E+001  +7.1503962230E-001 +1.5671605398E+000 
8393727.159 +7.2056682177E-001 +1.4264114897E+001  +4.7296679085E-002 +2.2092122523E+000  +4.3050906409E-002 +9.9163160638E+000  +6.4915540583E-001 -2.7632593217E+000 
8518872.340 +5.6608111881E-001 +1.4569205034E+001  +4.1205242357E-002 +1.2924518748E+000  +4.8852283648E-002 +1.0823841746E+001  +6.7800031998E-001 +4.6426178327E+000 
8644017.522 +6.2992223497E-001 +6.0169321319E+000  +4.7102114777E-002 -3.7385605449E+000  +4.4572708581E-002 +1.0490038186E+001  +7.1135675419E-001 +1.5893729755E-001 
8769162.703 +5.4493391364E-001 +1.4619576217E+001  +4.7809086764E-002 -9.1397762480E+000  +4.4808427205E-002 +1.5727254179E+001  +6.0962976429E-001 -1.5318463910E+000 
8894307.885 +5.5021142736E-001 +3.5931392904E+000  +4.5095934779E-002 -1.5266350215E+000  +4.5549784763E-002 +9.2248229643E+000  +5.9699212868E-001 -3.9468970091E+000 
9019453.066 +5.2921937096E-001 +1.3527531802E+001  +4.4694071143E-002 -8.6183552567E+000  +4.6084756515E-002 +1.0590088941E+001  +5.8392071522E-001 +2.2711767517E-001 
9144598.248 +5.6421780873E-001 +3.9294716270E+000  +4.6656208021E-002 -2.8301176450E+000  +4.4868321737E-002 +1.8283437860E+001  +6.1637714953E-001 -3.9290135866E+000 
9269743.429 +5.0457371266E-001 +5.9133315532E+000  +4.4738181392E-002 -6.1283414602E+000  +4.3237034305E-002 +1.6084185461E+001  +5.5811664993E-001 +2.3623390637E-001 
9394888.611 +5.0270553091E-001 +6.0301096226E+000  +4.3870505562E-002 -3.9626119558E+000  +4.3830157596E-002 +8.3336430570E+000  +5.5798195628E-001 -5.0848095134E+000 
9520033.792 +5.2637123337E-001 +5.6601044364E+000  +4.2912990240E-002 -4.7631278478E+000  +4.1905618682E-002 +1.3409600494E+001  +5.3491116537E-001 -5.7786705946E+000 
9645178.974 +5.0406172749E-001 -7.0681528550E-001  +4.3663854157E-002 -7.2864439849E+000  +4.3461681281E-002 +1.3312938360E+001  +5.9039117612E-001 -4.8566030958E+000 
9770324.155 +5.0368217783E-001 +6.1438144948E+000  +4.2649315994E-002 -2.3295581952E+000  +4.3472459111E-002 +1.3513050690E+001  +5.6261415485E-001 -5.0498677029E+000 
9895469.337 +4.7139865931E-001 +8.3040690036E-001  +4.7692070091E-002 -2.6724492562E+000  +4.4152626169E-002 +1.1518687817E+001  +5.6005783815E-001 -4.0161065557E+000 
10020614.518 +4.8505899436E-001 +2.2342469285E+000  +4.5441965534E-002 -2.4923128977E+000  +4.5240911221E-002 +1.7398123610E+001  +5.6175886857E-001 -1.2701921655E+000 
10145759.700 +5.2740981445E-001 +9.3934392563E+000  +4.2609476444E-002 -3.1146775556E+000  +4.5499437768E-002 +1.7091991427E+001  +5.5224584727E-001 -5.1585695304E+000 
10270904.881 +4.8924481110E-001 +6.5175868486E+000  +4.4890016173E-002 -1.5476681377E-001  +4.2937763701E-002 +1.4586257993E+001  +5.1486210752E-001 +7.9370196404E-001 
10396050.063 +4.9398069270E-001 +1.1412593804E+001  +4.2061377018E-002 -6.7301512935E-001  +4.7412440826E-002 +1.4045398693E+001  +5.5017034908E-001 +9.5560847804E-001 
10521195.244 +5.2388908781E-001 +1.0641640786E+001  +4.9852478194E-002 -1.9410620042E+000  +4.5304214951E-002 +1.1559723243E+001  +5.3345775736E-001 +4.7843354013E-001 
10646340.426 +5.2146772912E-001 +9.2193458596E+000  +4.6849133885E-002 -2.6608803164E-001  +4.4785112321E-002 +1.2514232861E+001  +5.2459274696E-001 +1.1914453232E+000 
10771485.607 +5.2431810338E-001 +7.6987799803E+000  +5.0060770182E-002 -1.4201447556E+000  +4.6184973075E-002 +1.3015470399E+001  +5.3477056000E-001 +2.1933540039E+000 
10896630.788 +5.4196680344E-001 +7.8766105899E+000  +4.6889305768E-002 -3.3685321433E-002  +4.6745515874E-002 +1.3905810741E+001  +5.4048215949E-001 +4.7600828809E-001 
11021775.970 +5.4342044342E-001 +5.7573171447E+000  +4.7630295404E-002 -1.1569483196E-001  +4.7542991614E-002 +1.2267103806E+001  +5.7227345651E-001 +2.6919954430E+000 
11146921.151 +5.3710974217E-001 +9.1227012827E+000  +4.8554856498E-002 -8.7361145440E-001  +4.6416486740E-002 +1.2081683573E+001  +5.6030054895E-001 +3.8973913299E+000 
11272066.333 +6.0275480309E-001 +7.2399903348E+000  +4.9032067340E-002 -2.0391235073E-001  +4.7453900098E-002 +1.4412219552E+001  +5.9299161462E-001 +2.4926483903E+000 
11397211.514 +5.5462361795E-001 +9.3840263656E+000  +4.8465725187E-002 +3.5876159380E-001  +4.8281468384E-002 +1.3302841662E+001  +5.6751941027E-001 +1.6953249961E+000 
11522356.696 +5.7456592816E-001 +7.3474762198E+000  +4.7220536268E-002 +1.7503165608E+000  +4.8121386160E-002 +1.3582084425E+001  +6.1468776857E-001 +1.3640659910E+000 
11647501.877 +6.1949871076E-001 +6.0894759922E+000  +4.7187895247E-002 +2.3511275604E+000  +4.7476027607E-002 +1.2464358327E+001  +6.3349136136E-001 +2.5078593290E+000 
11772647.059 +5.8607403043E-001 +6.6505585932E+000  +4.9213418805E-002 +1.3207155343E+000  +5.0105091601E-002 +1.0357571604E+001  +6.2216354626E-001 +2.9632821275E+000 
11897792.240 +6.3449635972E-001 +4.8948210577E+000  +5.2675162651E-002 +2.5245225431E+000  +5.1999043345E-002 +1.3398053057E+001  +6.1217020900E-001 +9.6472007556E-001 
12022937.422 +6.1643619696E-001 +4.6589699550E+000  +4.9739000272E-002 +3.6654335590E-001  +4.9266126395E-002 +1.1233615978E+001  +6.2789986570E-001 +2.3959968491E+000 
12148082.603 +6.3792625545E-001 +5.7695508737E+000  +5.1738723665E-002 +2.5344740934E-001  +5.0329613836E-002 +1.3356249874E+001  +6.4115520941E-001 +8.2142322066E-001 
12273227.785 +6.7755593049E-001 +4.1025576764E+000  +5.2471905043E-002 +3.9281918451E+000  +5.0362661220E-002 +9.7799979798E+000  +6.7028766985E-001 -1.2086038565E-001 
12398372.966 +6.4778833733E-001 +3.2491998787E+000  +5.2728830706E-002 +3.0935053913E+000  +5.2071874483E-002 +1.2653467157E+001  +6.6441107837E-001 +1.4106239816E+000 
12523518.148 +6.7074072772E-001 +4.3519018917E+000  +5.3887969300E-002 +1.3986261713E+000  +5.1619539842E-002 +1.2160288737E+001  +7.1149400365E-001 +1.1969306000E+000 
12648663.329 +6.8679650432E-001 +3.0358962852E+000  +5.3233515130E-002 +3.2140331264E+000  +5.4323184723E-002 +1.0949776345E+001  +7.0379457994E-001 -1.4812492564E+000 
12773808.511 +7.5205143847E-001 +2.5812898947E+000  +5.5717637689E-002 +4.4542777845E+000  +5.3983932509E-002 +8.9298647189E+000  +7.1559301281E-001 -2.2454510654E+000 
12898953.692 +7.2197801158E-001 +1.3100379229E+000  +5.6772603705E-002 +2.7526964544E+000  +5.3611601112E-002 +9.4661256254E+000  +7.0116383313E-001 +4.5016332394E-001 
13024098.874 +7.4346378309E-001 +1.4464362591E+000  +5.7659305427E-002 +1.9204887092E+000  +5.5589943572E-002 +9.6608981401E+000  +7.4610479497E-001 -8.3658291585E-001 
13149244.055 +7.4206849550E-001 -1.0178418694E+000  +5.7275786456E-002 +2.4901044629E+000  +5.5665493061E-002 +6.0601139571E+000  +7.6125426123E-001 -1.5033586180E+000 
13274389.237 +7.7873553807E-001 +1.2375159529E+000  +5.5845899586E-002 +2.6710921400E+000  +5.5478722706E-002 +7.7054802959E+000  +7.4836034879E-001 -6.1028212273E-001 
13399534.418 +7.7274241178E-001 +1.3380884101E-001  +5.8983028875E-002 +4.2910178878E+000  +5.5349681630E-002 +9.2602723332E+000  +7.8689970062E-001 -1.5722464730E+000 
13524679.599 +8.0952033859E-001 -3.1988525391E+000  +5.7422288810E-002 +2.3469022233E+000  +5.7423655088E-002 +6.5367410486E+000  +7.9609446615E-001 -1.8885487971E+000 
13649824.781 +7.9617641730E-001 -1.0312883972E+000  +5.8942043899E-002 +2.7348969727E+000  +5.6594181469E-002 +5.5977625265E+000  +8.1993317286E-001 -3.3658850845E+000 
13774969.962 +8.1904479010E-001 -2.3780533634E-001  +5.7948425039E-002 +4.4686133454E+000  +5.8913907363E-002 +4.8667175845E+000  +8.4933840841E-001 -3.1525072326E+000 
13900115.144 +8.4995928490E-001 -3.9109985990E+000  +5.7700553219E-002 +3.0248721812E+000  +5.7518295458E-002 +4.2326323805E+000  +8.5772837625E-001 -2.4674632295E+000 
14025260.325 +8.9214326551E-001 -4.7585815920E+000  +6.1231041765E-002 +2.9316746996E+000  +5.8018615494E-002 +4.4682512343E+000  +8.8478431442E-001 -3.9465680676E+000 
14150405.507 +8.8428348336E-001 -5.2256616289E+000  +5.9605280561E-002 +2.3374266019E+000  +5.8549067943E-002 +3.0592938714E+000  +9.0964599840E-001 -2.8808726109E+000 
14275550.688 +9.1054438496E-001 -5.0773585608E+000  +6.1330058153E-002 +2.1321747879E+000  +5.9366569610E-002 +3.3925910480E+000  +9.0651662332E-001 -4.6242090065E+000 
14400695.870 +9.2645789167E-001 -4.6397262831E+000  +5.9292758627E-002 +1.7814504303E+000  +6.0288237373E-002 +1.9165920140E+000  +9.2269118622E-001 -4.9836464462E+000 
