!  2-Port S-parameters saved by WinCal
! VAR MeasName=S-Parameters (CALIBRATED_DATA) read from VNA (P5004A)
! VAR MeasDate=29/08/2024 12:27:29
! VAR NAME=S2_r9c5_RESET3_9k-100M_3
! VAR FILENAME=S2_r9c5_RESET3_9k-100M_3.S2P
! VAR DATE=29/08/2024 12:27:29
! VAR PHYS_PORTS=1,2
! VAR ObjTypeName=DATASET
! VAR IndexType=Frequency
!
# Hz S MA R 50
9000.000 +6.6584185356E-002 -1.6706070199E+002  +6.9657064139E-003 -1.6678066928E+002  +1.5700661003E-002 -4.8696555985E+000  +2.7076542829E-001 -1.4160638672E+002 
134145.181 +1.1137035240E-001 +1.6943683293E+002  +3.5574217813E-004 -1.4983010653E+001  +2.2739687382E-004 +1.1235957018E+002  +2.4255467851E-001 -1.7108107195E+002 
259290.363 +1.1302403778E-001 +1.6975401956E+002  +3.2156459339E-004 +6.4361189181E+001  +4.6144291808E-004 +1.9864560025E+001  +2.4189214554E-001 -1.6963256542E+002 
384435.544 +1.1387164070E-001 +1.7010392774E+002  +1.7278517471E-004 -5.3492183078E+001  +6.1901305371E-004 +7.4067115684E+001  +2.4675639846E-001 -1.7055397728E+002 
509580.726 +1.1608110100E-001 +1.7048685477E+002  +8.2909703992E-004 -8.1391421328E+001  +1.3758522793E-003 +1.0996550558E+002  +2.3202633260E-001 -1.6247198569E+002 
634725.907 +1.1711956003E-001 +1.7161332266E+002  +1.2455945332E-003 -1.6928783930E+002  +1.2688014786E-003 +9.6392060247E+001  +2.6833760074E-001 -1.6494997964E+002 
759871.089 +1.2070620608E-001 +1.7110787688E+002  +3.0085483446E-004 -9.9174804248E+001  +3.9389213826E-004 +1.0250389656E+002  +2.5324219016E-001 -1.6633790485E+002 
885016.270 +1.2073196667E-001 +1.6914253601E+002  +7.6038489886E-004 -4.4875600645E+001  +7.2976336496E-004 -1.8083518128E+001  +2.4249242151E-001 -1.6466164677E+002 
1010161.452 +1.1728501995E-001 +1.7019739152E+002  +1.5656476305E-003 -1.2704252299E+002  +7.4384912978E-004 -3.3021616942E+001  +2.0507655496E-001 -1.6450042999E+002 
1135306.633 +1.1971120874E-001 +1.6783903537E+002  +1.5162167056E-003 +6.8952025743E+001  +1.5383585183E-003 +9.9550137698E+001  +2.0838717500E-001 -1.7120477100E+002 
1260451.815 +1.1763742453E-001 +1.7186753413E+002  +1.8348817469E-003 -1.3511656756E+002  +1.7230567698E-003 +1.4628288838E+002  +1.9847540295E-001 -1.5945183461E+002 
1385596.996 +1.2158690604E-001 +1.7367998989E+002  +1.1670431038E-004 +2.1877452822E+000  +1.7522917403E-003 -1.1837119243E+002  +2.6413292713E-001 -1.5908243326E+002 
1510742.178 +1.2487924098E-001 +1.7123845326E+002  +1.5712217466E-003 -4.9581349172E+001  +1.1612838059E-003 -2.8687674414E+001  +2.6418385621E-001 -1.5631622251E+002 
1635887.359 +1.2686652993E-001 +1.6945168969E+002  +5.4754132271E-004 -6.1824482239E+001  +1.1669975991E-003 -1.6389471831E+002  +2.3330269135E-001 -1.5959839532E+002 
1761032.541 +1.2910341655E-001 +1.7139544201E+002  +1.8963448795E-003 -9.0146816063E+001  +2.7301505482E-004 +4.1969648506E+001  +2.3083217189E-001 -1.5903020040E+002 
1886177.722 +1.2786580566E-001 +1.6944180974E+002  +2.1692570158E-003 -5.4350539932E+001  +2.0406262913E-003 +1.3020022405E+002  +2.1637283029E-001 -1.5729099898E+002 
2011322.904 +1.2725354286E-001 +1.6624226665E+002  +1.0773754578E-003 +1.0081909939E+002  +1.6872970435E-003 +1.7369198201E+002  +2.0297590417E-001 -1.6324563092E+002 
2136468.085 +1.3522546764E-001 +1.6779561925E+002  +3.9477888721E-003 +7.7121580892E+001  +2.8930346011E-003 +6.9259434650E+001  +1.4554652924E-001 -1.7559372664E+002 
2261613.267 +1.2864556408E-001 +1.6960993328E+002  +3.4065700881E-003 -1.5646535495E+002  +1.2533967127E-003 +7.2743707521E+001  +1.7924652585E-001 -1.7931937389E+002 
2386758.448 +1.3494232384E-001 +1.6323280391E+002  +1.3644762080E-003 +1.1918334598E+002  +2.5522610308E-003 -1.2519422723E+002  +1.8358875915E-001 +1.7864167802E+002 
2511903.630 +1.2865642088E-001 +1.6760061737E+002  +5.3891459062E-003 -2.6517625765E+000  +2.5358592262E-003 -1.1356142575E+001  +2.1828637632E-001 +1.4356145604E+002 
2637048.811 +1.1642779296E-001 +1.6684260176E+002  +1.7805670721E-003 +1.5772846176E+002  +5.8169378265E-003 +4.8743658826E+001  +4.1696013510E-001 +1.5442369461E+002 
2762193.992 +7.5532929090E-002 -1.6660473565E+002  +3.2546594066E-002 +8.7065814671E+001  +5.8275840897E-002 +6.3644298168E+001  +1.0661558621E+000 -8.4842640409E+000 
2887339.174 +6.0030412258E-002 +1.7589616661E+002  +1.6053067902E-002 -1.1469410131E+002  +5.0697573850E-003 +1.0951496102E+002  +4.5165250801E-001 -1.2215045479E+002 
3012484.355 +1.1901500263E-001 +1.7536940721E+002  +8.2395511721E-003 +3.1041643007E+001  +8.8902359162E-003 -9.9900155843E+001  +3.5258041321E-002 -1.1614985838E+002 
3137629.537 +1.2804910287E-001 +1.6722807842E+002  +7.3606909493E-003 -9.1636396449E+001  +8.8828962229E-003 -4.5947060029E+001  +2.3176450604E-001 -7.0888922763E+001 
3262774.718 +1.1242927297E-001 +1.6487728612E+002  +1.1478497016E-002 +6.5500210978E+001  +4.0640383162E-003 +1.6978197266E+002  +2.9677302014E-001 -3.5499327607E+001 
3387919.900 +1.2587012514E-001 +1.6476643296E+002  +8.4308631144E-003 -3.2259168532E+001  +6.6288627491E-003 -7.0922097369E+001  +9.0764861835E-002 -1.5054922820E+002 
3513065.081 +1.5710547528E-001 +1.5004221924E+002  +1.0899436215E-002 -2.7298429654E+001  +9.5181880096E-003 +7.3392327472E+001  +4.4636981829E-001 -2.9784387757E+001 
3638210.263 +1.8444531677E-001 +1.4971375268E+002  +8.8282265699E-003 +1.4514923620E+002  +3.3925479622E-003 +5.8058533904E+001  +4.1942918017E-001 +1.3524204044E+002 
3763355.444 +1.7213880035E-001 +1.4243572358E+002  +1.2630528325E-002 +1.0489331768E+002  +1.4069146593E-002 +1.0921291796E+002  +3.6571095433E-001 +1.3848354972E+002 
3888500.626 +1.7564022726E-001 +1.4913781773E+002  +2.8187819333E-002 +1.5681438629E+002  +1.7883586011E-002 +6.1959373442E+001  +1.0130959322E+000 +1.4342692719E+002 
4013645.807 +1.5019508438E-001 +1.4324675663E+002  +1.1107275550E-002 +9.8300939830E+001  +1.3111098088E-002 +1.1449622179E+002  +9.6278231994E-001 +1.1352707536E+002 
4138790.989 +1.6051298726E-001 +1.4334537683E+002  +2.7785189479E-003 +1.1013313006E+002  +8.0225572631E-003 -8.8947166408E+001  +2.6743254241E-001 +1.4105045356E+002 
4263936.170 +1.8779174936E-001 +1.5091175714E+002  +1.5461434005E-002 +1.2736529371E+002  +8.4082688054E-003 +2.1465881708E+001  +1.0476777146E+000 +1.2638344121E+002 
4389081.352 +1.8346596403E-001 +1.4202407301E+002  +1.0542230767E-002 +1.1129780920E+002  +1.5066806343E-002 +7.8235908948E+001  +9.1089767285E-001 +1.3213663510E+002 
4514226.533 +2.7711103815E-001 +1.2451472653E+002  +2.2482633516E-001 +1.6266295996E+000  +4.0494164223E-002 +1.4180901872E+002  +6.6208037460E+000 -4.9511991549E+001 
4639371.715 +2.7656964252E-001 +1.3459002296E+002  +3.3962830949E-002 +9.4244095590E+001  +2.8443013120E-002 -9.4012239236E+001  +1.5032270865E+000 +4.8149555878E+001 
4764516.896 +3.1188755604E-001 +1.2825761292E+002  +5.0948276821E-003 +6.6519174903E+001  +7.4685264620E-002 -1.4901058680E+002  +2.2711826265E+000 -1.3544364579E+002 
4889662.078 +3.5740661295E-001 +1.2953851121E+002  +4.0643414380E-002 -2.0109818062E+001  +4.4559085801E-002 -1.3952789656E+001  +2.0619548601E+000 -6.8403430807E+001 
5014807.259 +3.7530013618E-001 +1.3123968847E+002  +2.3785364539E-001 -1.6234344738E+002  +1.0759647134E-001 +1.5954776401E+002  +8.8130011618E+000 +1.6499289629E+002 
5139952.441 +3.7672754473E-001 +1.3027629315E+002  +8.5180395638E-002 +2.5379472379E+001  +1.0773026908E-001 -1.4153317968E+001  +4.4113038429E+000 -2.6172322319E+001 
5265097.622 +4.0388114136E-001 +1.3062806071E+002  +2.2199906547E+000 +1.3308499855E+002  +2.1161358755E+000 +9.5533916664E+001  +1.2953188702E+002 +1.0705162853E+002 
5390242.804 +4.3799971894E-001 +1.3671680706E+002  +3.0097325093E-002 -1.7515270145E+002  +6.4985833845E-002 +1.0800422174E+002  +3.1110713840E+000 +9.7151583610E+001 
5515387.985 +4.2201558272E-001 +1.2096367569E+002  +5.0956383603E-002 +9.2264192465E+001  +1.5988529400E-002 +1.0202918818E+002  +1.8351406149E+000 +1.0834827830E+002 
5640533.166 +4.6440395007E-001 +1.2903412248E+002  +3.3785844564E-002 +7.4921771513E+001  +1.0292790799E-001 +8.4651783632E+001  +5.4808983199E+000 +1.0016731855E+002 
5765678.348 +4.9361896626E-001 +1.1976575322E+002  +3.8034394815E-002 +8.4214273747E+001  +8.8053802474E-002 +6.2471767679E+001  +3.6510991159E+000 +4.1595615947E+001 
5890823.529 +5.4623480807E-001 +1.1520941038E+002  +2.2145981635E-002 +1.6519079795E+002  +5.7318079617E-002 +7.3581475248E+001  +3.3037086620E+000 +8.8181275459E+001 
6015968.711 +6.7771539531E-001 +1.1533157218E+002  +4.8030439686E-002 +8.3064731975E+001  +4.5201256041E-002 +4.3703987707E+001  +2.2119614267E+000 +5.0930124119E+001 
6141113.892 +7.9797611253E-001 +1.0831483885E+002  +2.6641840666E-002 +5.7531137898E+001  +1.8159484104E-002 -7.7309623097E+000  +1.0629328667E+000 +3.0906593912E+001 
6266259.074 +8.4990193439E-001 +9.4021494898E+001  +5.0523392577E-002 +4.3156500207E+001  +3.9122225779E-002 +1.5852008499E+001  +2.4042388056E+000 +1.4281924670E+001 
6391404.255 +8.8248132370E-001 +1.0749753414E+002  +3.0247230059E-002 +5.9771353640E+001  +1.5980964413E-002 -4.5088043193E+000  +1.6714755095E+000 +1.1244101556E+001 
6516549.437 +1.1361165849E+000 +8.2235671852E+001  +2.7447890020E-002 +4.4611152051E+001  +6.2683659892E-002 +1.2981733811E+000  +1.7587778903E+000 +2.4536133197E-001 
6641694.618 +1.2659831173E+000 +5.7383356935E+001  +4.5435202046E-002 +1.4584984029E+001  +4.0666577951E-002 +5.1815607113E-001  +1.5878502494E+000 +1.3560378227E-001 
6766839.800 +1.5481907160E+000 +5.7645624825E+001  +4.2647124001E-002 +2.1079334397E+001  +4.0249391865E-002 +2.6038670804E+001  +1.2928594739E+000 -1.2246987914E+001 
6891984.981 +1.4278250780E+000 +3.4182928584E+001  +2.7763009821E-002 -1.6842387403E+001  +4.3610436107E-002 -1.6986973294E+001  +1.1540433244E+000 +4.1754473976E-001 
7017130.163 +1.6504062512E+000 +2.6890530801E+001  +3.2417898984E-002 -7.4963525543E+000  +3.4665784618E-002 +4.1858102050E+000  +1.1761913497E+000 -5.1235223702E+000 
7142275.344 +1.6089678025E+000 +8.0224275426E+000  +3.5976505938E-002 +4.1541174055E+000  +3.4223073636E-002 -9.0712851626E+000  +1.3780331793E+000 -1.2786752442E+001 
7267420.526 +1.5591563970E+000 -3.3068566754E+000  +3.2901316967E-002 +1.0305281801E+001  +7.9373848023E-004 -2.5443771599E+001  +1.4026917788E+000 -1.1708136028E+001 
7392565.707 +1.2837005748E+000 -5.8766303363E+000  +1.9524190937E-002 +1.5586463457E+001  +1.7692377124E-002 +1.3353660841E+001  +1.2195996170E+000 -5.2389958381E+000 
7517710.889 +1.2429538919E+000 +5.0510247234E+000  +2.2389582871E-002 +9.3759775584E+000  +2.4229325781E-002 +1.6335022066E+000  +1.2494241237E+000 -9.9497041430E+000 
7642856.070 +1.0461456149E+000 +5.5887283445E-001  +1.2977222860E-002 +2.4414034572E+001  +1.9122108915E-002 -2.9673106471E+001  +1.0643286174E+000 -6.9495223321E+000 
7768001.252 +8.7188767425E-001 -5.7112076693E+000  +1.3426163589E-002 -1.5138197416E+001  +1.4780813585E-002 +1.5819941253E+001  +1.0299350250E+000 -1.9323692703E+000 
7893146.433 +8.5132474798E-001 +6.9777953099E-001  +1.3962111530E-002 -4.1090280317E+000  +2.3193073816E-002 +1.3813647043E+001  +9.1116672179E-001 -1.5720764612E+000 
8018291.615 +7.8907377176E-001 +4.8458636855E+000  +1.4178884493E-002 -2.2284498687E+001  +1.7743413753E-002 +1.6752687571E+001  +9.0463717258E-001 -7.5516499587E-001 
8143436.796 +6.6675708410E-001 +2.3378318907E+000  +1.1116824316E-002 -1.8395280125E+001  +1.0209886298E-002 +3.6385282124E+001  +8.2734912703E-001 -1.1914475742E+000 
8268581.977 +7.8617397740E-001 +1.0166897036E+001  +9.9603410321E-003 +1.9682811214E+001  +1.7822358185E-002 +3.6330446308E+001  +7.2638176389E-001 +2.5744230383E+000 
8393727.159 +6.5581761757E-001 +1.0438500673E+001  +1.3062766794E-002 -7.8366625410E+000  +1.0889601622E-002 +2.2883466902E+001  +7.2565687787E-001 -2.8997202842E+000 
8518872.340 +6.2868003753E-001 +7.4869813655E+000  +1.4344923043E-002 +8.0642756751E+000  +1.4101491044E-002 +2.4120014319E+001  +6.8387993589E-001 +1.3467483184E+000 
8644017.522 +6.2673692134E-001 +7.0123399056E+000  +1.4285486202E-002 -1.9520715673E+001  +1.3457081965E-002 +9.7116892248E+000  +6.0045941469E-001 +1.0333284525E+000 
8769162.703 +6.1231634106E-001 +5.4645543408E+000  +1.5770618915E-002 +9.1709851344E+000  +1.4895622951E-002 +1.2958175751E+001  +6.9619318499E-001 +6.1618200847E-001 
8894307.885 +6.3000496079E-001 +1.2502517279E+001  +1.5838229567E-002 -5.1332890418E+000  +1.0248545705E-002 +3.4670742096E+001  +6.5247976544E-001 -4.2627329427E-001 
9019453.066 +4.8754873064E-001 +4.7711988749E+000  +1.3671913399E-002 +9.7443154961E-002  +1.0462470439E-002 +9.7548166973E+000  +6.0681496222E-001 -3.4136658091E-001 
9144598.248 +5.9301846618E-001 +1.0715626088E+001  +1.2538992419E-002 +3.7393074396E+000  +1.3431516321E-002 +1.4014433563E+001  +5.9398769604E-001 -2.5492039773E+000 
9269743.429 +5.4805905156E-001 +9.8223832571E+000  +1.3041067183E-002 -7.7774364353E+000  +1.5615675619E-002 +1.9547311089E+000  +5.8247399395E-001 -3.3374488790E+000 
9394888.611 +5.9149325121E-001 +3.8815974396E+000  +1.3495238109E-002 -8.2789388578E+000  +1.2023960066E-002 +3.0316835667E+001  +6.6390221156E-001 -3.5656464436E+000 
9520033.792 +5.0588805492E-001 +3.7312720100E+000  +1.1081123693E-002 +2.4124063731E+000  +1.3438123838E-002 +7.3885274970E+000  +5.9337146951E-001 -1.8253023989E+000 
9645178.974 +5.4815176133E-001 +6.1750910403E+000  +1.0356178912E-002 +1.6788749638E+001  +1.0598214825E-002 -2.0777341767E+000  +5.8826833595E-001 -1.0219672562E+000 
9770324.155 +5.3010247140E-001 -1.5489245785E+000  +1.5653720964E-002 +2.0174940990E+000  +1.2353677088E-002 +1.5350010185E+001  +5.6315422869E-001 -5.3058003820E+000 
9895469.337 +5.4409507121E-001 +1.6991029334E+000  +1.2634882496E-002 -4.3572198307E+000  +1.2386961176E-002 +1.3427364898E+001  +5.5516173668E-001 -4.2841785629E+000 
10020614.518 +5.3637873353E-001 +7.6887396255E+000  +1.6456916026E-002 +4.7045899128E+000  +1.1517376902E-002 +1.7545105550E+001  +5.6717698457E-001 -1.0385334714E+001 
10145759.700 +5.1602200468E-001 +6.4515028418E+000  +1.1274602751E-002 +4.6094669709E+000  +1.4634559748E-002 +1.7369801026E+001  +5.8392172176E-001 -5.1820963923E+000 
10270904.881 +5.2936370756E-001 +2.8473118642E+000  +1.1246376542E-002 +4.3009089133E+000  +1.1448768927E-002 +1.8449147138E+001  +5.7279017782E-001 +9.9655387667E-002 
10396050.063 +5.7601487556E-001 +7.8683242015E+000  +1.0932437762E-002 -1.9742140756E+000  +1.5706173175E-002 +1.3290064438E+001  +5.4569321768E-001 +1.2733886346E+000 
10521195.244 +5.7906943921E-001 +5.4309807312E+000  +1.5397864448E-002 +2.5795335089E+000  +1.2504770913E-002 +2.4682995555E+001  +5.2891441177E-001 -1.2575627717E+000 
10646340.426 +5.6063254380E-001 +6.6255749152E+000  +1.3895437097E-002 -6.2458318402E+000  +1.1584184349E-002 +1.3249943367E+001  +6.3931798226E-001 +1.4320072713E+000 
10771485.607 +5.6065950616E-001 +7.7679333655E+000  +1.1251262269E-002 +1.0187372320E+001  +1.2505532230E-002 +2.4339554489E+001  +6.1345231297E-001 +1.8273464772E+000 
10896630.788 +5.8251615494E-001 +5.9971300252E+000  +1.4893846668E-002 +7.2653447690E+000  +1.5861783622E-002 +1.5406178005E+001  +6.2067747065E-001 -1.4155724483E+000 
11021775.970 +5.9522233621E-001 +7.9897260390E+000  +1.3442659229E-002 +1.3673661080E+001  +1.3030798826E-002 +1.0505238016E+001  +6.0768348257E-001 +2.9193290341E+000 
11146921.151 +5.9806274131E-001 +7.6798482094E+000  +1.3814822264E-002 +7.7792263106E+000  +1.2109664274E-002 +1.4540560200E+001  +6.3070992045E-001 +9.5076470806E-002 
11272066.333 +5.7470524072E-001 +6.0493884322E+000  +1.3812726503E-002 -7.0513055113E-001  +1.3645266967E-002 +1.1986761714E+001  +5.9676306271E-001 +4.5335059818E+000 
11397211.514 +6.1941247908E-001 +7.6097778071E+000  +1.3078631276E-002 +8.3086805379E+000  +1.2963401732E-002 +2.2013088277E+001  +6.2864246225E-001 +1.5646486845E+000 
11522356.696 +6.2100409916E-001 +5.0456972839E+000  +1.4787727790E-002 +9.9991323047E+000  +1.5672893348E-002 +2.1934298820E+001  +6.1737053036E-001 -5.3214948100E-001 
11647501.877 +6.1233834863E-001 +5.9943602974E+000  +1.5299437137E-002 +6.9298301929E+000  +1.3618326020E-002 +2.2373987692E+001  +6.3086110813E-001 +1.1809298235E+000 
11772647.059 +6.4635179250E-001 +7.5020176955E+000  +1.1234128702E-002 +8.4189928774E+000  +1.4248858059E-002 +2.1905017254E+001  +6.5861710643E-001 +3.3954482634E+000 
11897792.240 +6.5467359763E-001 +5.6653202359E+000  +1.3859753055E-002 +4.3834173668E+000  +1.4911780038E-002 +1.6566974055E+001  +6.7155168814E-001 +1.2938485505E-001 
12022937.422 +6.5889986892E-001 +5.5549213090E+000  +1.4315434999E-002 +4.5789048165E+000  +1.5495626476E-002 +2.1594781337E+001  +6.6248092504E-001 +2.0733766459E+000 
12148082.603 +6.8868009570E-001 +5.6170212268E+000  +1.7249634791E-002 +4.5415327024E+000  +1.5010346955E-002 +1.2513960482E+001  +7.1159174592E-001 +1.7320214140E+000 
12273227.785 +7.0019445887E-001 +3.2369079268E+000  +1.5051205180E-002 +4.3922163312E+000  +1.5280150820E-002 +1.4137094543E+001  +7.2795462259E-001 +6.7436990605E-001 
12398372.966 +7.2657917943E-001 +4.0654755396E+000  +1.6598317509E-002 +5.7264346334E+000  +1.4252819600E-002 +7.7021448029E+000  +7.1057762781E-001 +1.0329551404E+000 
12523518.148 +7.2823843130E-001 +3.2513391248E+000  +1.5476869017E-002 +8.5288616693E+000  +1.5799311471E-002 +7.5752553159E+000  +7.1885454313E-001 +1.0255576910E+000 
12648663.329 +7.2851740861E-001 +1.1401598684E+000  +1.7320685248E-002 +5.3220449600E+000  +1.7060348816E-002 +1.0199129587E+001  +7.5506017249E-001 -8.3170129520E-001 
12773808.511 +7.5760808950E-001 +3.2964060930E+000  +1.5458892654E-002 +8.2772922986E+000  +1.5576932314E-002 +1.5886189800E+001  +7.2898063953E-001 -1.7894616182E-001 
12898953.692 +7.5765133340E-001 +5.8655108809E-001  +1.6765376418E-002 +5.9022175740E+000  +1.5962415138E-002 +8.1058129777E+000  +7.5059596884E-001 +3.7505504448E-002 
13024098.874 +7.8993551542E-001 +5.3082470649E-001  +1.7339651727E-002 -2.2161564156E-001  +1.6029849023E-002 +1.3733959688E+001  +8.0521349702E-001 -1.8675859484E-001 
13149244.055 +8.0506394900E-001 +1.7363481481E+000  +1.6908539955E-002 +9.1213472231E+000  +1.4561421649E-002 +7.4433301645E+000  +7.8575724231E-001 -6.1157411705E-001 
13274389.237 +7.9993542410E-001 -7.4035333965E-001  +1.5899098696E-002 +5.1047615076E+000  +1.6284190397E-002 +1.0978121885E+001  +8.0257144425E-001 -2.0943435998E+000 
13399534.418 +8.2984322167E-001 -2.7632362827E+000  +1.8299389203E-002 +8.1842947978E+000  +1.6064870254E-002 +1.5576019131E+001  +8.3712330832E-001 -2.2408043349E+000 
13524679.599 +8.3812687802E-001 -2.5582017077E+000  +1.5324848871E-002 +9.2707352235E+000  +1.6632018700E-002 +3.3592957518E+000  +8.5766925184E-001 -2.9141116691E+000 
13649824.781 +8.4936542421E-001 -2.1943108143E+000  +1.6434544150E-002 +1.4652598623E+001  +1.6476884939E-002 +1.3898959345E+001  +8.9229656254E-001 -2.3668417614E+000 
13774969.962 +8.8229836053E-001 -3.1843300769E+000  +1.7133284749E-002 +1.3789311913E+001  +1.8397963183E-002 +6.1333319096E+000  +8.8520137591E-001 -1.8760798565E+000 
13900115.144 +9.0202124899E-001 -4.5761829739E+000  +1.6698391570E-002 +7.6713352065E+000  +1.6439109112E-002 +9.8559960301E+000  +9.2666244997E-001 -3.2976694160E+000 
14025260.325 +9.1292656902E-001 -4.4103792409E+000  +1.8274966857E-002 +9.7645865186E+000  +1.6662509393E-002 +9.5273529740E+000  +9.1658683661E-001 -3.6575622167E+000 
14150405.507 +9.5503989541E-001 -4.6538534697E+000  +1.7953352174E-002 +4.1613328374E+000  +1.5918518280E-002 +9.6711452605E-001  +9.4904498236E-001 -4.1777265675E+000 
14275550.688 +9.3786927785E-001 -5.2879741990E+000  +1.6276427152E-002 +7.6716258513E-001  +1.7445622236E-002 +5.3618561530E+000  +9.6058043060E-001 -4.4629416205E+000 
14400695.870 +9.5305793934E-001 -5.1294178486E+000  +1.8490911127E-002 +3.4671377666E+000  +1.7786254291E-002 +6.3288158040E+000  +9.7951157132E-001 -6.1142538257E+000 
