!  2-Port S-parameters saved by WinCal
! VAR MeasName=S-Parameters (CALIBRATED_DATA) read from VNA (P5004A)
! VAR MeasDate=29/08/2024 14:05:50
! VAR NAME=S2_r9c6_RESET4_9k-100M_2
! VAR FILENAME=S2_r9c6_RESET4_9k-100M_2.S2P
! VAR DATE=29/08/2024 14:05:50
! VAR PHYS_PORTS=1,2
! VAR ObjTypeName=DATASET
! VAR IndexType=Frequency
!
# Hz S MA R 50
9000.000 +8.5213621721E-002 -1.6832823852E+002  +3.8833996678E-003 -1.6032004338E+001  +1.3296716391E-003 -2.2814850319E+001  +2.5261755953E-001 -1.4576025379E+002 
134145.181 +1.1108829842E-001 +1.6947663250E+002  +4.8206780357E-004 +2.0019549302E+001  +6.5519285040E-004 +4.1463997901E+001  +2.3769011290E-001 -1.7083753725E+002 
259290.363 +1.1304775308E-001 +1.6973231924E+002  +1.1514212406E-003 +1.5308371537E+002  +6.2598360920E-004 +2.5135149564E+001  +2.4724695636E-001 -1.6622706815E+002 
384435.544 +1.1418244045E-001 +1.7066813891E+002  +6.9595351432E-004 +5.2320422764E+001  +9.5549783329E-004 +8.5798282522E+001  +2.4507573107E-001 -1.6984769911E+002 
509580.726 +1.1392751437E-001 +1.7059000669E+002  +4.9164396670E-004 +5.0475294596E+001  +1.9223359600E-003 +1.1326614643E+002  +2.3833377435E-001 -1.6619418017E+002 
634725.907 +1.1610988650E-001 +1.7211261999E+002  +7.5698488850E-004 -4.7611573405E+001  +2.0142671245E-003 -1.5020977096E+002  +2.6086047853E-001 -1.6404968851E+002 
759871.089 +1.2019633807E-001 +1.7073590177E+002  +4.5368194210E-004 -8.4793992434E+001  +7.0350316056E-005 +1.1488175508E+002  +2.5252765551E-001 -1.6629071761E+002 
885016.270 +1.2184110072E-001 +1.6907214452E+002  +7.1593689904E-005 -1.0568272195E+002  +5.6682044631E-004 +1.3589158493E+002  +2.4175481160E-001 -1.6723023239E+002 
1010161.452 +1.1596835580E-001 +1.6890226832E+002  +1.0461025365E-003 +6.8223123140E+001  +5.0890693384E-004 +1.8377581848E+001  +2.1751166960E-001 -1.6706689636E+002 
1135306.633 +1.1665883156E-001 +1.6758887307E+002  +1.0254166118E-003 -7.2648780911E+001  +1.6442509717E-003 -6.3490179637E+001  +1.8744138515E-001 -1.7256840969E+002 
1260451.815 +1.1936221158E-001 +1.7162390388E+002  +2.4276607532E-003 -5.2042445061E+001  +2.1731390137E-003 +5.2640695977E+001  +2.1102626167E-001 -1.6243267149E+002 
1385596.996 +1.2651336025E-001 +1.7190081109E+002  +2.7589220809E-004 +7.0587330223E+001  +5.1201982915E-004 +1.0868820090E+002  +2.6284760669E-001 -1.5529274825E+002 
1510742.178 +1.2965380440E-001 +1.7205075067E+002  +7.9497452390E-004 -4.3531546777E+001  +1.3860716376E-003 +7.0435616637E+001  +2.3388637290E-001 -1.5035863368E+002 
1635887.359 +1.2911249437E-001 +1.7023653951E+002  +1.7333359946E-003 -1.4629666458E+002  +6.0507295211E-004 +1.5856176523E+002  +2.5985427819E-001 -1.5616498665E+002 
1761032.541 +1.2990929191E-001 +1.7117592135E+002  +2.5534409974E-003 -1.7135753541E+002  +1.6374397552E-003 -2.8598552373E+001  +2.2694025407E-001 -1.5152358086E+002 
1886177.722 +1.2976832901E-001 +1.6948640714E+002  +2.3687708374E-003 +6.6876889588E+001  +3.4844935470E-004 +1.6324642493E+002  +2.0290932512E-001 -1.6083222267E+002 
2011322.904 +1.2687853196E-001 +1.6659957550E+002  +7.1135167410E-004 -1.3148154010E+002  +1.2567859415E-003 +2.0339065271E+001  +2.0232555703E-001 -1.7742262357E+002 
2136468.085 +1.1794230011E-001 +1.6350180822E+002  +3.0502780091E-003 +1.9176924087E+001  +6.7515653001E-004 +8.4852114433E+001  +1.6465471573E-001 -1.7330435552E+002 
2261613.267 +1.3731631817E-001 +1.6596024444E+002  +3.0210093194E-003 +8.8960778777E+001  +2.2710356062E-004 -1.2283863354E+002  +2.0293840462E-001 -1.5848359064E+002 
2386758.448 +1.4119639844E-001 +1.6544244333E+002  +4.9416554302E-003 +1.1810260066E+002  +3.8697867161E-003 -1.4246119064E+000  +1.8937916687E-001 +1.4262740594E+002 
2511903.630 +1.1666122624E-001 +1.7040986536E+002  +1.0623054263E-002 +1.7540594094E+001  +8.3387998591E-003 -5.7454921870E+001  +1.6862636192E-001 +1.5963225185E+002 
2637048.811 +1.1719887973E-001 +1.5465980238E+002  +4.1838401707E-002 +1.4186300996E+002  +3.5519091800E-002 +1.3594278721E+000  +4.7490688207E-001 +7.6074742004E+001 
2762193.992 +9.5604712689E-002 +1.6842462898E+002  +2.0880518248E-002 -2.6414960294E+001  +1.4567403040E-002 -1.2114022013E+002  +1.6593337569E-002 +9.7391355364E+001 
2887339.174 +1.1028300992E-001 +1.6520530483E+002  +2.9045889841E-002 -2.3080619347E+001  +9.7897447650E-003 -1.4042644315E+002  +5.9601258356E-001 -9.5920812972E+001 
3012484.355 +1.2979785761E-001 +1.6942528737E+002  +1.8676882505E-002 +2.9776642829E+000  +1.2928454328E-002 -8.5719771348E+001  +3.3989650253E-001 -3.9577657515E+001 
3137629.537 +1.2085593137E-001 +1.6991042922E+002  +9.1357968233E-003 +4.0630606157E+001  +1.1625244214E-002 -1.1281400683E+002  +1.6698244699E-001 -4.4742562430E+001 
3262774.718 +1.0964902108E-001 +1.4885921912E+002  +2.2596514788E-002 -3.5853729148E+001  +1.1232370102E-002 -7.3526998999E+001  +6.6386488571E-002 -8.5862539197E+001 
3387919.900 +1.1162386666E-001 +1.5654815456E+002  +4.0696698165E-002 -7.4356343244E+001  +2.0648003209E-002 -1.5549630002E+002  +7.3052348951E-001 -9.8037813238E+001 
3513065.081 +1.4663341290E-001 +1.5073858338E+002  +1.9995962398E-002 +1.1173653321E+002  +6.2380100922E-003 +4.5280956964E+001  +4.5236994683E-001 +1.3800475201E+002 
3638210.263 +1.8313212802E-001 +1.4731420697E+002  +2.1259664558E-002 +1.5388619330E+002  +1.4981547298E-002 +9.1614743538E+001  +7.2577845947E-001 +1.2542192442E+002 
3763355.444 +1.6457210721E-001 +1.4941611960E+002  +1.1283052918E-002 +6.6646031339E+001  +1.4655671856E-002 +4.8149286936E+001  +7.5057887085E-001 +1.2573817563E+002 
3888500.626 +1.6880945424E-001 +1.4504354228E+002  +9.9002595671E-003 +9.4129030896E+001  +1.4454204937E-002 +1.0087812780E+001  +2.4461334749E-001 +1.4464403921E+002 
4013645.807 +1.7296145274E-001 +1.5473572498E+002  +7.9396112895E-003 +1.3283850059E+002  +7.1879472416E-003 -3.7171996590E+001  +2.3286785067E-001 +7.7903734423E+001 
4138790.989 +1.7085875820E-001 +1.4389197067E+002  +4.4549962445E-003 +5.4637133373E+001  +1.8087113455E-002 +5.7084582424E+000  +4.2684428500E-001 +1.3266745857E+002 
4263936.170 +1.9460842594E-001 +1.4099794561E+002  +1.7301538421E-002 +1.0320170867E+002  +1.1472364975E-002 +1.2170713977E+001  +5.7057192730E-001 +1.3116828906E+002 
4389081.352 +2.4108426479E-001 +1.4843344813E+002  +3.5510727877E-003 +1.0349471885E+001  +7.7743504946E-003 +4.5987028277E+001  +1.0789100623E-001 +7.8096339534E+001 
4514226.533 +2.3953789585E-001 +1.3387409614E+002  +2.7317384642E-002 +1.4893727485E+002  +2.7579099998E-002 +6.0824083138E+001  +1.3337930357E+000 +1.2524810439E+002 
4639371.715 +2.9021795884E-001 +1.2281735345E+002  +7.0838853088E-002 +1.0272244424E+002  +6.1744213630E-002 +4.8975576608E+001  +1.4110502623E+000 +6.6018906358E+001 
4764516.896 +3.1479870328E-001 +1.3875670152E+002  +2.3746886495E-001 -5.7948115881E+001  +1.7468713024E-001 -9.4183573819E+001  +8.2625195591E+000 -1.1328119999E+002 
4889662.078 +3.5196572776E-001 +1.0309901512E+002  +2.1715615211E-002 -5.1128904247E+001  +5.5422483216E-002 -1.0140846721E+002  +1.2365470011E+000 -1.0034826679E+002 
5014807.259 +4.3676946205E-001 +1.3123636540E+002  +9.8742809042E-002 +1.2173190615E+002  +6.2775832298E-002 +9.6458504823E+001  +2.2575697216E+000 +9.5540296460E+001 
5139952.441 +3.8627691502E-001 +1.2890029460E+002  +1.7385890037E-001 +1.6087199769E+002  +1.4722744765E-001 +1.2710652698E+002  +1.2854952331E+001 +1.3975462796E+002 
5265097.622 +4.1007262665E-001 +1.2895906639E+002  +5.3653798792E-002 +9.4164734632E+001  +1.0381542642E-001 +2.4119787080E+000  +2.6996060048E+000 -9.3333055896E-001 
5390242.804 +4.2995092830E-001 +1.2794836000E+002  +1.1922066957E-001 +1.1067885164E+002  +8.9621890043E-002 +5.7866872444E+001  +3.5968096352E+000 +5.9693994402E+001 
5515387.985 +4.3819356029E-001 +1.2785967095E+002  +6.0628156853E-002 +5.2603368315E+001  +4.8380219719E-002 +3.2802591299E+001  +1.9610916147E+000 +2.2005920402E+001 
5640533.166 +4.5556559055E-001 +1.3709164249E+002  +4.8019137170E-002 +1.0708893432E+002  +2.5739510116E-002 +8.1515533486E+001  +2.3216837035E+000 +9.8370176959E+001 
5765678.348 +4.4578502808E-001 +1.2011022395E+002  +4.4766652842E-002 +6.1228738347E+001  +3.0217057121E-002 +7.0585262284E+001  +1.1493771380E+000 +7.5033853633E+001 
5890823.529 +5.3477083364E-001 +1.1452597212E+002  +6.5234290082E-002 +8.2001019333E+001  +8.3988277773E-002 +6.5499634574E+001  +2.4120658014E+000 +7.3954977812E+001 
6015968.711 +6.6843035076E-001 +1.1699714026E+002  +7.1660163681E-002 +8.0362446664E+001  +6.5448605664E-002 +5.4389756155E+001  +1.1775383335E+000 +5.7380326809E+001 
6141113.892 +6.7892034966E-001 +1.0685627240E+002  +4.5239697976E-002 +9.3756548038E+001  +6.9795580931E-002 +5.3178172982E+001  +1.2527182899E+000 +4.8274990572E+001 
6266259.074 +7.5580834927E-001 +1.0071699619E+002  +1.0102872594E-001 +2.4934452432E+001  +7.1994213912E-002 +2.5825302574E+001  +1.9409514064E+000 +2.5620649349E+001 
6391404.255 +9.3121584613E-001 +9.2058532248E+001  +6.5595798753E-002 +3.6401358033E+001  +7.1732949353E-002 +2.1661511588E+001  +1.5626278843E+000 +1.1831906496E+001 
6516549.437 +1.3348940841E+000 +7.0919893132E+001  +7.5354651956E-002 +5.6113922869E+000  +1.1020287386E-001 +1.5937401308E+001  +1.3941753474E+000 -2.2364704819E+000 
6641694.618 +1.5263761686E+000 +5.5736972530E+001  +9.3656531751E-002 -4.5156147846E-002  +8.5935788329E-002 -4.7842145218E+000  +1.3311263093E+000 +6.9400808552E+000 
6766839.800 +1.5505743058E+000 +6.1445232604E+001  +6.8826123198E-002 +4.0374165845E+001  +9.1874621417E-002 +6.3084316623E+000  +1.4252338246E+000 -2.7692589919E+000 
6891984.981 +1.5448010499E+000 +3.9418525968E+001  +6.3695699287E-002 +6.1727658892E+000  +6.5077412753E-002 +1.0658591880E+001  +1.1772381351E+000 -7.7028498645E+000 
7017130.163 +1.5032902147E+000 +2.9807988878E+001  +6.0500964104E-002 -9.1415632445E+000  +5.3868491253E-002 +5.4855972630E+000  +1.0419986104E+000 -1.1734638666E+001 
7142275.344 +1.6467977678E+000 +6.7259703058E+000  +4.8151597598E-002 -6.3311812615E+000  +5.8669021436E-002 -2.1511100610E+001  +1.2316148970E+000 -1.0402170539E+001 
7267420.526 +1.3230975841E+000 +5.4449292803E+000  +3.4584010953E-002 +5.0141387666E+000  +5.8413768310E-002 +1.8248795089E-001  +1.2431417595E+000 -1.4495922527E+001 
7392565.707 +1.2726015679E+000 +1.6593587928E+000  +4.1849231277E-002 +5.1211009550E+000  +3.5193960027E-002 +1.8075790717E+001  +1.3402534329E+000 -8.0549194431E+000 
7517710.889 +1.1694038695E+000 +4.7363934230E+000  +3.9913006941E-002 +1.4420417663E+000  +2.8570118679E-002 -8.2386677357E-001  +1.1519603493E+000 -1.8155109060E+000 
7642856.070 +9.2958387082E-001 +9.1055025498E-001  +2.9454361545E-002 -1.6412367722E+001  +3.4992984234E-002 +3.4479756778E+000  +1.1113566084E+000 -4.4728985662E+000 
7768001.252 +9.0936720485E-001 +7.3244421197E+000  +2.5126599121E-002 +2.1140237091E+000  +3.3639813861E-002 +7.3047735993E+000  +9.7668559342E-001 -3.5648690224E-001 
7893146.433 +8.6904222726E-001 -2.7753974436E+000  +3.0465808073E-002 -2.3009185351E+000  +2.3224063196E-002 +9.3097995412E+000  +9.2362797147E-001 -1.2174350045E-001 
8018291.615 +8.5899754493E-001 +2.1050328289E+000  +2.5516531547E-002 +1.0082200440E+001  +3.4364650363E-002 +1.2957586830E+001  +9.5274495473E-001 +2.0256796748E+000 
8143436.796 +7.0682401714E-001 +7.6035964481E-001  +3.3270324616E-002 -6.0883556223E+000  +3.0665977733E-002 +1.0348700662E+001  +7.8497696248E-001 +4.3376111098E+000 
8268581.977 +6.8102158242E-001 +7.4381302009E+000  +2.0631481480E-002 +9.1537762319E+000  +2.5719188114E-002 +6.3482764493E+000  +6.9911071269E-001 +1.2711432135E+000 
8393727.159 +6.9157689149E-001 +8.9590592948E+000  +2.4092205042E-002 +2.1159288167E+000  +2.3107779889E-002 +1.1504767837E+001  +7.7008456111E-001 +1.9916698573E+000 
8518872.340 +6.8535182016E-001 +7.1381118601E+000  +2.8035170480E-002 -9.1853461878E+000  +2.1576459830E-002 +3.2348837654E+000  +6.8815881827E-001 -3.0179232407E+000 
8644017.522 +6.1746577879E-001 +1.1852421881E+001  +2.3566719176E-002 -2.3586378941E+000  +2.6520181189E-002 +1.5819303970E+001  +6.3829027021E-001 +4.0162885862E+000 
8769162.703 +6.0173978585E-001 +8.2532633377E-001  +2.6196075847E-002 -6.3292078242E+000  +2.3393663574E-002 +1.4989039458E+000  +6.6847921861E-001 +4.5437692576E+000 
8894307.885 +5.9706623686E-001 +4.5800511097E+000  +2.7152899104E-002 -8.5061758273E+000  +2.6071521418E-002 +7.7203798746E+000  +6.5242422476E-001 +1.3513106148E+000 
9019453.066 +6.4750828385E-001 +1.3579795164E+001  +2.4662432972E-002 -1.1256576165E+001  +2.6661572856E-002 +2.3240199415E+001  +6.0301407967E-001 -1.1117505400E+000 
9144598.248 +5.4187212773E-001 +5.3212798403E+000  +2.3425668600E-002 -1.0429100408E+001  +2.2779657175E-002 +1.0836419806E+001  +5.9263721995E-001 +3.9830690651E+000 
9269743.429 +5.2911959550E-001 +7.5062507688E+000  +2.5423317202E-002 -1.2921456228E+001  +2.1879940504E-002 +3.5916923374E+000  +5.9117870466E-001 -1.2130503272E+000 
9394888.611 +4.8328848514E-001 +4.5918155633E+000  +2.4350926561E-002 +7.9994266850E-001  +3.1572827609E-002 +1.3579209251E+001  +6.0921409737E-001 -1.2885174044E+000 
9520033.792 +4.9685492587E-001 +5.3324314655E+000  +2.6875565455E-002 -2.0430871011E+000  +2.4836369154E-002 +1.5798133724E+001  +5.8302144634E-001 -3.2113242980E+000 
9645178.974 +5.6004117608E-001 +3.4400011868E+000  +2.4626792647E-002 -4.1413214651E+000  +2.6413603948E-002 +1.3459420893E+001  +5.6873908893E-001 -3.7752265387E+000 
9770324.155 +5.0964986757E-001 +7.2504878250E+000  +2.1342261065E-002 +4.6566055048E+000  +2.5118343684E-002 +6.0934998581E+000  +5.2788604376E-001 -1.1488707498E+001 
9895469.337 +5.1136408273E-001 +6.5875765518E-002  +2.6562565979E-002 +3.8394126359E+000  +2.7167459168E-002 +6.7667610698E+000  +5.0193123401E-001 -1.0568631448E+001 
10020614.518 +5.4288927964E-001 +4.0611850359E+000  +2.9147192707E-002 -6.8820190135E+000  +2.5550950762E-002 +1.9898391250E+001  +5.5851236008E-001 -1.6366281216E+000 
10145759.700 +5.3538412513E-001 +4.1400919257E+000  +2.6694461393E-002 -4.9250010896E+000  +2.3846942086E-002 +1.1683631511E+001  +5.7618082128E-001 -7.8793525405E+000 
10270904.881 +5.1289767787E-001 +8.6213308516E-001  +2.6954411946E-002 -8.2351583146E-001  +2.5909970790E-002 +1.6789103842E+001  +5.3320902949E-001 -2.1071593923E+000 
10396050.063 +5.3414636312E-001 +3.5136850738E+000  +2.8951396678E-002 +1.7626605018E+000  +2.7824228018E-002 +1.4666251760E+001  +5.4753003300E-001 +1.0493707857E+000 
10521195.244 +5.6410752335E-001 +5.5406339340E+000  +2.4245270095E-002 -7.1888457550E+000  +2.5393375125E-002 +1.4866239518E+001  +5.7982251503E-001 -6.7225286786E-001 
10646340.426 +5.6102653327E-001 +7.1993805189E+000  +2.6235390777E-002 -4.2549910382E+000  +2.7672342901E-002 +1.5398521601E+001  +5.9386348463E-001 +4.7815969167E-001 
10771485.607 +5.5017461578E-001 +7.9903944918E+000  +2.6070359899E-002 -3.0477470744E+000  +2.7586581828E-002 +1.1773489832E+001  +5.9969227536E-001 +3.7603565184E+000 
10896630.788 +5.7598976337E-001 +7.8450171115E+000  +2.8290422821E-002 +4.1153741493E+000  +2.5859590558E-002 +1.2021921703E+001  +6.0792209006E-001 +2.5201130209E+000 
11021775.970 +5.5230108520E-001 +7.1531689853E+000  +2.4625548017E-002 -4.8388638658E+000  +2.7385161655E-002 +1.6148078023E+001  +5.9428318087E-001 +5.3168963676E-001 
11146921.151 +5.6139445353E-001 +9.4192398554E+000  +2.6453213205E-002 -2.8742493541E-001  +2.5931431655E-002 +1.4435725820E+001  +5.7502965020E-001 +1.7760628210E+000 
11272066.333 +5.9090136262E-001 +6.9718085709E+000  +2.8869387437E-002 +3.4140095840E+000  +2.8030078714E-002 +1.0652381405E+001  +6.3560563579E-001 +2.1546041851E+000 
11397211.514 +5.8858974824E-001 +6.5967725667E+000  +2.6007339444E-002 +4.0333856730E+000  +2.7760274613E-002 +1.1584846556E+001  +5.8847576950E-001 +3.2829056053E+000 
11522356.696 +6.0363898716E-001 +7.2020871532E+000  +2.7598551615E-002 +5.8358495050E+000  +2.5626633411E-002 +1.8733260131E+001  +6.4308653963E-001 +3.4461537302E+000 
11647501.877 +6.0973748527E-001 +5.3862781672E+000  +2.6788673831E-002 +2.9732107551E+000  +2.7329792038E-002 +9.2560628244E+000  +6.2678313276E-001 +1.4749262876E+000 
11772647.059 +6.1931499549E-001 +7.2196923225E+000  +2.9339714194E-002 +4.5665503125E+000  +2.8731262083E-002 +9.7810836449E+000  +6.5351953899E-001 +2.5644546768E+000 
11897792.240 +6.6720765338E-001 +5.3106104723E+000  +2.8302758238E-002 +3.0423188805E+000  +2.9140826548E-002 +1.4262521167E+001  +6.5632654172E-001 +1.5265693723E+000 
12022937.422 +6.8182026894E-001 +6.0509433963E+000  +2.9269640354E-002 +1.9676598504E+000  +2.9036454633E-002 +1.9688300484E+001  +6.4517288431E-001 +3.7341346095E+000 
12148082.603 +6.6127326181E-001 +3.8818092819E+000  +2.7917877927E-002 +1.9014127035E+000  +3.0396089914E-002 +9.1310321631E+000  +6.7652732805E-001 +1.3467022244E+000 
12273227.785 +6.6315680266E-001 +5.5125245930E+000  +2.8958792612E-002 +2.8107116642E+000  +2.8683140882E-002 +7.2628159500E+000  +6.7702513836E-001 +1.6225030866E+000 
12398372.966 +7.0305653593E-001 +2.9845785433E+000  +3.0331867934E-002 +2.3565460555E+000  +2.8812449504E-002 +1.4127088783E+001  +7.0815138595E-001 -3.0898701901E-001 
12523518.148 +7.1300964350E-001 +2.2457609592E+000  +3.0663078128E-002 +3.2214018299E+000  +3.0955617122E-002 +8.5694157508E+000  +7.0455565092E-001 -8.1449345043E-001 
12648663.329 +7.2699739064E-001 +2.1941246562E+000  +3.0046753513E-002 +2.7252379429E+000  +3.2584682272E-002 +6.9664932083E+000  +7.2292772334E-001 -1.0963994347E+000 
12773808.511 +7.2867590170E-001 +3.4970524884E+000  +3.1781896487E-002 +1.7539010545E+000  +2.8373218062E-002 +8.8000558266E+000  +7.5323465020E-001 -1.3715217218E+000 
12898953.692 +7.5326700874E-001 +2.0149809438E+000  +2.8968531432E-002 +1.3743345855E+000  +3.1757512557E-002 +1.0011096559E+001  +7.6765532771E-001 +1.1209698318E-002 
13024098.874 +7.8737980572E-001 +2.3951917833E+000  +3.0770496989E-002 +1.8438825381E+000  +3.0681360878E-002 +8.1775324014E+000  +7.9526741112E-001 -1.4019846011E+000 
13149244.055 +7.9990418902E-001 -1.5630344007E+000  +3.2690837901E-002 -1.5708095599E-001  +2.9389757870E-002 +7.2133406180E+000  +7.9127696056E-001 -2.2513342344E-001 
13274389.237 +8.2155022469E-001 -5.6391316717E-001  +3.1461556496E-002 +5.0773971620E+000  +3.1026120432E-002 +9.2668850376E+000  +8.2316657823E-001 -1.0141836948E+000 
13399534.418 +8.1587628518E-001 -4.1994566918E-001  +3.3547114105E-002 +4.1876552479E+000  +3.1130150708E-002 +6.2721847085E+000  +8.0943701319E-001 -1.8668136274E+000 
13524679.599 +8.2390429479E-001 -2.0255890843E+000  +3.1525411836E-002 +1.5003624135E+000  +3.2401705349E-002 +6.9533443837E+000  +8.1638674197E-001 -2.0699814194E+000 
13649824.781 +8.6488013038E-001 -2.8993970019E+000  +3.2253733326E-002 +3.1597577555E+000  +3.1636573793E-002 +4.8411174197E+000  +8.3436824473E-001 -3.6169518701E+000 
13774969.962 +8.7808457686E-001 -1.1723221293E+000  +3.3629376067E-002 +2.7449577827E+000  +3.1042890609E-002 +6.5583930686E+000  +8.9114303568E-001 -3.6285727846E+000 
13900115.144 +8.8975226228E-001 -3.1320529764E+000  +3.4000657742E-002 +1.1874547961E+000  +3.3406257733E-002 +4.9906275919E+000  +8.8537437588E-001 -3.7367269367E+000 
14025260.325 +8.9076551580E-001 -4.8613598054E+000  +3.1811523269E-002 +6.7395612906E-001  +3.3860646481E-002 +4.8819617483E+000  +8.8296775294E-001 -3.5727434115E+000 
14150405.507 +9.0684711425E-001 -3.4828118362E+000  +3.4282236013E-002 +3.2893841238E-001  +3.1649158612E-002 +4.4660694245E+000  +9.1302946041E-001 -5.3893470225E+000 
14275550.688 +9.3536974012E-001 -4.0844789822E+000  +3.2650578669E-002 +1.6707348428E+000  +3.2619373182E-002 +4.2249736948E+000  +9.4432311596E-001 -5.1652069554E+000 
14400695.870 +9.5163942951E-001 -5.7747454989E+000  +3.3765645279E-002 +1.5793808326E+000  +3.2679037443E-002 +4.0296328697E+000  +9.4088966196E-001 -4.6814263411E+000 
