!  2-Port S-parameters saved by WinCal
! VAR MeasName=S-Parameters (CALIBRATED_DATA) read from VNA (P5004A)
! VAR MeasDate=29/08/2024 11:42:23
! VAR NAME=S2_r9c4_RESET1_9k-100M_1
! VAR FILENAME=S2_r9c4_RESET1_9k-100M_1.S2P
! VAR DATE=29/08/2024 11:42:23
! VAR PHYS_PORTS=1,2
! VAR ObjTypeName=DATASET
! VAR IndexType=Frequency
!
# Hz S MA R 50
9000.000 +8.1964382681E-002 -1.7208564653E+002  +4.5685324194E-003 -1.4202826475E+002  +8.1202708611E-003 +7.5292216795E+000  +2.7396020124E-001 -1.4160147534E+002 
134145.181 +1.1158337006E-001 +1.6962191303E+002  +2.2871858983E-004 +9.2713316963E+001  +5.5728837237E-004 +1.8084987579E+001  +2.4091966956E-001 -1.7134476236E+002 
259290.363 +1.1147381820E-001 +1.6970813381E+002  +7.6714664270E-004 -9.5908277453E+001  +2.5391464137E-004 +1.1441643340E+002  +2.4365522182E-001 -1.6959500719E+002 
384435.544 +1.1414104677E-001 +1.6977395832E+002  +8.0709712618E-004 -1.0986046873E+002  +9.5907133274E-004 +1.4143979178E+002  +2.4534534464E-001 -1.6841245026E+002 
509580.726 +1.1293517019E-001 +1.7063965600E+002  +8.2313334706E-004 -9.0293252051E+001  +1.3153738938E-003 +9.4706285128E+001  +2.4236925161E-001 -1.6592179721E+002 
634725.907 +1.1761047195E-001 +1.7132028537E+002  +1.6836686002E-003 -1.6629210089E+002  +2.3762122805E-003 +5.7001633511E+001  +2.6435198917E-001 -1.6029493246E+002 
759871.089 +1.2053026457E-001 +1.7064346722E+002  +4.5327252964E-004 -1.1181849261E+002  +3.6236554772E-004 +1.1887841559E+002  +2.5710393247E-001 -1.6553043315E+002 
885016.270 +1.2169627908E-001 +1.6938807840E+002  +7.5109364847E-004 -9.0048514319E+001  +1.0530812669E-003 +1.2803319049E+002  +2.4768455666E-001 -1.6719321754E+002 
1010161.452 +1.1936552963E-001 +1.6977316504E+002  +1.1574453954E-003 -2.3634216499E+001  +1.0608177868E-003 +1.3932126081E+002  +2.2140477191E-001 -1.6844890382E+002 
1135306.633 +1.1653918485E-001 +1.6733582033E+002  +2.6037565120E-003 -1.0014371062E+001  +2.0642934275E-003 -1.0790168666E+002  +2.0745918071E-001 -1.6970622083E+002 
1260451.815 +1.1847496907E-001 +1.7020775666E+002  +2.4194171334E-003 -4.1754864794E+001  +1.8518979154E-003 +1.2317195868E+002  +2.0688917801E-001 -1.6138345657E+002 
1385596.996 +1.2611537952E-001 +1.7116005463E+002  +1.6565047101E-003 -8.0264980947E+001  +1.7066481240E-003 -1.6749391035E+002  +2.3699398553E-001 -1.5552748820E+002 
1510742.178 +1.2925513034E-001 +1.7186069162E+002  +7.6809147314E-004 -2.3390747209E+001  +1.0574504152E-003 +7.8034478011E+001  +2.3816568490E-001 -1.5764387192E+002 
1635887.359 +1.2955095087E-001 +1.7050339749E+002  +1.1203243903E-003 +7.6658399830E+000  +9.5681473733E-004 -1.0429950749E+002  +2.4488213585E-001 -1.5880998649E+002 
1761032.541 +1.2994671906E-001 +1.6958056617E+002  +1.5022224473E-003 -7.0107092387E+000  +3.1113356871E-003 -1.0074209412E+002  +2.3466181214E-001 -1.5751928815E+002 
1886177.722 +1.2951509912E-001 +1.6823587627E+002  +2.1324810242E-003 +6.4976803726E+001  +3.2247601252E-003 -9.1363777861E+001  +2.1868400954E-001 -1.6456320474E+002 
2011322.904 +1.3076563502E-001 +1.6707279379E+002  +7.5047119671E-003 +6.4376436730E+001  +6.5368218335E-003 -6.0436753984E+001  +1.9592652112E-001 -1.6084062504E+002 
2136468.085 +1.3069943959E-001 +1.6758548719E+002  +6.9265997187E-003 +6.3371046765E+001  +8.0174129829E-003 -9.8274557887E+001  +1.9696548810E-001 -1.5390721931E+002 
2261613.267 +1.3343722005E-001 +1.6757420201E+002  +8.4447978196E-003 +7.8359077115E+001  +1.1469073659E-002 -2.9786168653E+001  +2.1262506891E-001 +1.7578134354E+002 
2386758.448 +1.3632478540E-001 +1.6307300142E+002  +1.5008347847E-002 +8.6253309579E+001  +1.5674872124E-002 -1.2075316970E+001  +1.8849529318E-001 +1.7394420490E+002 
2511903.630 +1.3516785009E-001 +1.6281259331E+002  +1.8363307162E-002 +1.0446136745E+002  +2.0313491884E-002 -1.7696736268E+001  +2.2513867572E-001 +1.6215190213E+002 
2637048.811 +1.3686819779E-001 +1.6214518162E+002  +3.6715605209E-002 +1.1654256514E+002  +2.6497881765E-002 +2.1041890813E+001  +2.8750461114E-001 +1.4809974543E+002 
2762193.992 +1.0119665763E-001 -1.7926568711E+002  +8.2282471834E-002 +5.6258384942E+001  +8.7281001726E-002 -5.2994622974E+001  +2.7416507692E-001 +1.1406558956E+002 
2887339.174 +1.2468114264E-001 +1.6752891618E+002  +5.2555587388E-002 -1.0147902580E+001  +5.0221925512E-002 -1.2434477650E+002  +2.9859414884E-001 -9.5706102398E+001 
3012484.355 +1.1792612018E-001 +1.7683595367E+002  +4.2105568501E-002 -4.2926441008E+001  +3.5090939993E-002 -1.4608466121E+002  +2.7705965099E-001 -1.2110585538E+002 
3137629.537 +1.2585625002E-001 +1.6992865641E+002  +6.8260795911E-002 -1.1854920180E+001  +8.3757215104E-002 -1.1353829152E+002  +3.4245134145E-001 -4.9412279490E+001 
3262774.718 +1.3579587434E-001 +1.6755975206E+002  +7.3494527307E-002 -1.9138300839E+001  +6.7182182325E-002 -1.0957855789E+002  +4.8860929230E-001 -7.2921484434E+001 
3387919.900 +1.1098130244E-001 +1.6488048685E+002  +1.0793071811E-001 +1.1013158613E+001  +1.4869551632E-001 -7.5919423717E+001  +4.1691498337E-001 -1.6059150019E+001 
3513065.081 +1.7054350597E-001 +1.4228012580E+002  +6.6073712117E-002 +1.0765150778E+002  +6.5337158737E-002 +2.6688074098E+001  +3.0509928881E-001 +1.2855970555E+002 
3638210.263 +1.7636653819E-001 +1.5189548706E+002  +7.6036926384E-002 +1.0246132644E+002  +7.8813517545E-002 +2.8146102108E+001  +5.7165258294E-001 +1.0595094215E+002 
3763355.444 +1.6892361802E-001 +1.5422405361E+002  +4.9005049053E-002 +7.4983459667E+001  +5.6520040916E-002 +1.3582479096E+001  +3.2062378662E-001 +1.2363623001E+002 
3888500.626 +1.8350362656E-001 +1.4656991794E+002  +7.6113629870E-002 +9.1868785253E+001  +6.1626825481E-002 +2.1065656257E+001  +3.0061055332E-001 +1.1760260856E+002 
4013645.807 +1.6651391208E-001 +1.4902740794E+002  +5.8589412303E-002 +6.5477005185E+001  +4.8697314789E-002 -3.9132908670E+000  +1.7486098859E-001 +1.4397627631E+002 
4138790.989 +1.7579823945E-001 +1.5177341013E+002  +5.4678744516E-002 +7.2396001699E+001  +5.4958086550E-002 +1.2625083255E+001  +2.9523242636E-001 +1.3643627232E+002 
4263936.170 +2.0728227954E-001 +1.5351596480E+002  +6.8415128687E-002 +9.9830592900E+001  +5.6643325912E-002 +3.9846883921E+001  +5.2698777791E-001 +1.2209276036E+002 
4389081.352 +2.2867244965E-001 +1.4652903287E+002  +8.6451974356E-002 +1.0546532886E+002  +9.1526799912E-002 +5.5917931790E+001  +6.7388425885E-001 +1.2478685848E+002 
4514226.533 +1.9629379502E-001 +1.1595160022E+002  +3.1213994421E-001 +9.3933349660E+001  +3.7554946259E-001 +3.7615059620E+001  +1.7266899160E+000 +9.4408723579E+001 
4639371.715 +2.8438574009E-001 +1.3672861275E+002  +1.7041993086E-001 +1.1885763192E+002  +1.8068779097E-001 +6.7231268150E+001  +9.9575494292E-001 +1.1328604797E+002 
4764516.896 +3.0455429228E-001 +1.2446717281E+002  +2.5552703856E-001 +8.9538909717E+001  +2.5323426863E-001 +3.3650542642E+001  +1.1071929556E+000 +6.2242674456E+001 
4889662.078 +7.6521293701E-001 +1.4972773136E+002  +2.3179155741E+000 +1.6286719297E+002  +2.2623139905E+000 +1.1088882396E+002  +1.2088121102E+001 +1.0964983380E+002 
5014807.259 +3.4380082687E-001 +1.3529571974E+002  +4.5271592658E-001 +1.7774219785E+002  +4.2290839116E-001 +1.3385772760E+002  +3.4010579536E+000 +1.6076727166E+002 
5139952.441 +3.6105844620E-001 +1.3544870690E+002  +2.1245347971E-001 +1.4166329435E+002  +2.0463072463E-001 +9.8626718426E+001  +1.5440204216E+000 +1.3122368705E+002 
5265097.622 +3.5387218971E-001 +1.3976124580E+002  +1.5934835874E-001 +1.4035415549E+002  +1.7160256611E-001 +1.0115803753E+002  +1.5512763435E+000 +1.3870473611E+002 
5390242.804 +3.9339095060E-001 +1.2803135396E+002  +1.8732570599E-001 +1.0856290885E+002  +1.9146945328E-001 +6.8255966137E+001  +1.0599162821E+000 +1.1495732365E+002 
5515387.985 +3.9219304796E-001 +1.3060312363E+002  +2.7888431685E-001 +9.2354306503E+001  +2.4760138211E-001 +5.5880302382E+001  +1.7401787864E+000 +8.1560256811E+001 
5640533.166 +5.0659612371E-001 +1.3013195190E+002  +2.5155543965E-001 +1.0919814156E+002  +2.3827900030E-001 +7.6925472250E+001  +1.3526493024E+000 +1.0006613252E+002 
5765678.348 +4.6159591110E-001 +1.2891258091E+002  +3.1107885064E-001 +6.6817955882E+001  +3.1994979920E-001 +4.0482604395E+001  +2.0835845367E+000 +4.6250125952E+001 
5890823.529 +4.9508877772E-001 +1.2766871439E+002  +1.7452176938E-001 +1.0217099659E+002  +1.6629743176E-001 +7.3989237167E+001  +1.0908048504E+000 +1.1919580042E+002 
6015968.711 +6.4188329679E-001 +1.0141449150E+002  +4.3438226582E-001 +7.4910321121E+001  +4.4657569405E-001 +5.3142639324E+001  +1.8235029876E+000 +7.2878091975E+001 
6141113.892 +4.7780236973E-001 +1.0826007440E+002  +2.8569536526E-001 +5.4156086410E+001  +2.8130419985E-001 +3.0299806128E+001  +1.4515777522E+000 +5.4843875154E+001 
6266259.074 +7.9698748834E-001 +1.0834786190E+002  +3.6735611934E-001 +7.1282243519E+001  +3.3992757986E-001 +5.2476091828E+001  +1.5172918244E+000 +5.7035758048E+001 
6391404.255 +7.2320236575E-001 +1.0169664551E+002  +3.1346258592E-001 +4.1443930634E+001  +2.9974694383E-001 +2.7189332474E+001  +1.2874333746E+000 +2.9114739171E+001 
6516549.437 +8.9781825365E-001 +8.8233968267E+001  +3.7592820630E-001 +3.8791669130E+001  +3.4872984828E-001 +2.1541430048E+001  +1.3751697453E+000 +1.8104512389E+001 
6641694.618 +1.2186538546E+000 +7.6219992863E+001  +4.0302310274E-001 +3.4028926673E+001  +3.8041227314E-001 +2.1618629398E+001  +1.1616956486E+000 +5.6047806648E+000 
6766839.800 +1.3151939738E+000 +2.1569259795E+001  +4.9687675329E-001 +1.1935326580E+000  +5.1236675817E-001 -1.4442471206E+000  +1.3539776177E+000 +7.0524053611E+000 
6891984.981 +1.0599204082E+000 +4.6708823791E+001  +3.2064162760E-001 +1.2638425902E+001  +3.3358866111E-001 +5.8773827225E+000  +1.0522089266E+000 +2.7238205632E+000 
7017130.163 +1.3056245246E+000 +2.9427035520E+001  +3.3856132087E-001 +5.3496947082E+000  +3.4186603602E-001 +3.4065218684E+000  +1.0896489851E+000 -3.4954855850E+000 
7142275.344 +1.2183793955E+000 +1.3804061590E+001  +2.9946320599E-001 -4.2634059974E-002  +2.9349276883E-001 -1.7415904303E+000  +9.1827451775E-001 -1.1559914663E+001 
7267420.526 +9.8454738964E-001 +1.7215111406E+001  +2.4129226823E-001 +1.7517972038E+000  +2.5323457730E-001 +2.4149233917E+000  +1.0751504119E+000 -1.2760771384E+001 
7392565.707 +9.2666211131E-001 +2.2039423818E+000  +2.1798178512E-001 +2.4282936257E+000  +2.1841017157E-001 +4.4015246139E+000  +1.0867644754E+000 -9.1253528920E+000 
7517710.889 +9.5285594575E-001 +7.6663733969E-001  +2.1344889450E-001 +4.5318906627E+000  +2.0689320753E-001 +3.3595589103E+000  +9.6936148979E-001 -9.9678881193E+000 
7642856.070 +8.0493434243E-001 +4.8734125330E+000  +1.9963919704E-001 +2.1543635924E+000  +1.9515707330E-001 +2.2947253876E+000  +8.5544810231E-001 -1.4230305019E+001 
7768001.252 +8.2573825215E-001 +4.4562833295E-001  +1.8959006242E-001 +3.0120263510E+000  +1.9030091301E-001 +6.3450249302E+000  +7.8165818592E-001 -2.8010597229E+000 
7893146.433 +6.1904007130E-001 +3.8130495776E-001  +1.6981557103E-001 -3.4697257723E+000  +1.7768786700E-001 +5.2036936573E+000  +6.5470075977E-001 -3.0032668537E+000 
8018291.615 +6.1865538670E-001 +2.9877992365E+000  +1.7931321870E-001 -3.4011530809E+000  +1.6859951308E-001 +6.4304913089E+000  +7.0711059242E-001 +1.1826955775E+001 
8143436.796 +5.0761428726E-001 +1.0728948048E+001  +1.6541281154E-001 -3.0293247071E+000  +1.6569175160E-001 +6.5952215965E+000  +5.7205824871E-001 +6.7533517980E+000 
8268581.977 +5.5467987262E-001 +7.2383903283E+000  +1.6576195387E-001 -4.3170418000E+000  +1.6972152318E-001 +5.7720979008E+000  +5.5173572738E-001 +5.5676508249E+000 
8393727.159 +4.6517020589E-001 +1.4709718424E+001  +1.5466825681E-001 -3.2305831891E+000  +1.5626006536E-001 +6.6618149338E+000  +5.6337147061E-001 +1.0720953534E+001 
8518872.340 +5.7040834731E-001 +1.6203776954E+001  +1.5969556725E-001 -4.5382829026E+000  +1.6056930743E-001 +8.3389037231E+000  +4.9382889263E-001 +5.2971023519E+000 
8644017.522 +4.2320281025E-001 +1.3563177073E+001  +1.5664779927E-001 -5.4000698579E+000  +1.5527901115E-001 +6.3410330806E+000  +4.9635508085E-001 +4.7151648115E+000 
8769162.703 +4.8092584128E-001 +1.3061636900E+001  +1.5032103623E-001 -3.1201093746E+000  +1.5356160688E-001 +7.9477001354E+000  +4.5533111731E-001 +7.2827808443E+000 
8894307.885 +5.0169777008E-001 +9.2295693616E+000  +1.6106852917E-001 -4.3752540142E+000  +1.5944226290E-001 +1.1052249368E+001  +4.9917457681E-001 +5.9705508992E-001 
9019453.066 +4.3574482877E-001 +1.0978438622E+001  +1.5626006160E-001 -3.1535021173E+000  +1.5434428806E-001 +1.0095292429E+001  +5.0533327300E-001 +5.0476776848E+000 
9144598.248 +3.9860423983E-001 +6.9176904976E+000  +1.5292676213E-001 -5.4638639500E+000  +1.5271506631E-001 +8.2569125510E+000  +4.0904740413E-001 +8.3152275196E+000 
9269743.429 +4.3571021340E-001 +9.3609184010E+000  +1.5283408331E-001 -3.9280271745E+000  +1.5326346042E-001 +1.2351870240E+001  +4.6043615697E-001 +3.0778221551E+000 
9394888.611 +3.5660493991E-001 -1.1583351391E+000  +1.5733094944E-001 -5.8859954848E+000  +1.5401212954E-001 +9.3757540549E+000  +3.7470992058E-001 -1.0403358335E+000 
9520033.792 +3.6729508846E-001 +8.5165097730E+000  +1.5230564747E-001 -4.0523738241E+000  +1.5357136421E-001 +1.0853398919E+001  +4.4677788535E-001 -5.2074410169E-001 
9645178.974 +4.0677509514E-001 +1.0773961157E+001  +1.5379849828E-001 -4.4407121401E+000  +1.5345375330E-001 +1.0399054016E+001  +4.1326932943E-001 +1.2039048703E-001 
9770324.155 +4.0957040157E-001 +4.7166151389E+000  +1.5853921944E-001 -3.6495336503E+000  +1.5101117686E-001 +1.1262684407E+001  +4.2096305372E-001 +8.2130065726E-001 
9895469.337 +3.5928170912E-001 +5.2348639014E+000  +1.5087529074E-001 -3.8588097679E+000  +1.5333465275E-001 +1.1406181376E+001  +4.1826286778E-001 +2.6749962530E+000 
10020614.518 +3.5850166494E-001 +9.8477830713E+000  +1.5597912224E-001 -4.2254661574E+000  +1.5505854320E-001 +1.2031551639E+001  +4.2965001384E-001 +8.8870139988E-001 
10145759.700 +3.6339918716E-001 +1.2863960965E+001  +1.5511985693E-001 -3.8985363748E+000  +1.5497868745E-001 +1.1668054866E+001  +4.3951081575E-001 -2.3801270804E+000 
10270904.881 +4.4657745804E-001 +1.3011574801E+001  +1.5823002460E-001 -2.5590039137E+000  +1.5769664795E-001 +1.2294606447E+001  +3.9230099868E-001 -9.5758207948E-003 
10396050.063 +4.0614690297E-001 +5.7502291381E+000  +1.5842620214E-001 -3.0260354149E+000  +1.5619209038E-001 +1.2668457493E+001  +3.9899463855E-001 +7.0569157092E-001 
10521195.244 +4.3660787893E-001 +1.4979138040E+001  +1.5593468831E-001 -3.4805020489E+000  +1.5640493325E-001 +1.3173784069E+001  +3.9737487292E-001 +1.3929311798E+000 
10646340.426 +3.9408813513E-001 +1.0745958658E+001  +1.5923085153E-001 -2.5281199049E+000  +1.5863213345E-001 +1.1860288671E+001  +4.2501681125E-001 -3.2091144880E-001 
10771485.607 +3.7140588846E-001 +1.1548992879E+001  +1.5831674620E-001 -2.6361096338E+000  +1.5825535711E-001 +1.2032609116E+001  +4.2360287460E-001 +5.1350921477E+000 
10896630.788 +4.4221796931E-001 +1.0595803699E+001  +1.6081637045E-001 -9.2648957115E-001  +1.6075392404E-001 +1.3138902899E+001  +4.5018065597E-001 +3.0796490871E+000 
11021775.970 +4.2977264724E-001 +1.0130311566E+001  +1.6044278120E-001 -1.2304539866E+000  +1.5982942492E-001 +1.1982309039E+001  +4.4437862125E-001 +8.5867834972E+000 
11146921.151 +4.3770829498E-001 +7.7513354968E+000  +1.6537890246E-001 -1.5137681274E+000  +1.6267317387E-001 +1.2387371037E+001  +4.7122451737E-001 +5.7646256892E+000 
11272066.333 +4.2328419922E-001 +9.5649281414E+000  +1.6539878959E-001 -1.3015713763E+000  +1.6440378591E-001 +1.2318981754E+001  +4.4284215901E-001 +6.2966621498E+000 
11397211.514 +4.4027707327E-001 +1.3580574189E+001  +1.6505155161E-001 -1.4167745722E+000  +1.6269799370E-001 +1.1708051776E+001  +4.6513745128E-001 +8.3390347742E+000 
11522356.696 +4.7682325610E-001 +1.0352096215E+001  +1.6899939483E-001 -6.9749532360E-002  +1.6575471824E-001 +1.1987389846E+001  +4.9765587198E-001 +7.2149043214E+000 
11647501.877 +4.3877055573E-001 +9.4277609924E+000  +1.7211411142E-001 +1.8847985039E-001  +1.6666829370E-001 +1.1400402322E+001  +4.9818716340E-001 +4.4457772467E+000 
11772647.059 +4.7348410520E-001 +1.3010077949E+001  +1.7035007172E-001 +6.1136539809E-001  +1.7012410565E-001 +1.1450156262E+001  +4.9194584430E-001 +4.1106896828E+000 
11897792.240 +4.8946268981E-001 +8.4941448630E+000  +1.7390512419E-001 +3.9712387221E-001  +1.7283338828E-001 +1.0818078460E+001  +5.0042277364E-001 +3.2441458879E+000 
12022937.422 +5.1149053052E-001 +7.3280159591E+000  +1.7950167868E-001 +9.1042837617E-001  +1.7518949229E-001 +1.0240026146E+001  +5.0551437486E-001 +1.8606899822E+000 
12148082.603 +4.8629575222E-001 +6.9511517603E+000  +1.7697573676E-001 +6.3249499279E-001  +1.7486424992E-001 +9.0809305949E+000  +5.1394910705E-001 +5.6158974177E+000 
12273227.785 +5.2060471541E-001 +2.4745518571E+000  +1.7880403787E-001 +9.9184184933E-001  +1.7905662306E-001 +9.9152406706E+000  +5.3027668707E-001 +5.2643933234E+000 
12398372.966 +5.2039092458E-001 +5.5867867677E+000  +1.8233672553E-001 +1.7960580872E+000  +1.7992059132E-001 +1.0021108666E+001  +5.6816642810E-001 +1.4240057158E+000 
12523518.148 +5.5446724314E-001 +4.6141468903E+000  +1.8554572351E-001 +1.6256625251E+000  +1.8204335887E-001 +9.8970473603E+000  +5.7118107635E-001 +2.1777626042E+000 
12648663.329 +5.4927289794E-001 +4.0490884280E+000  +1.8432770750E-001 +2.3902957138E+000  +1.8315357944E-001 +8.8712276724E+000  +6.0702852287E-001 +3.2417549532E+000 
12773808.511 +5.4875160473E-001 +2.1775495892E+000  +1.8576993740E-001 +1.7459062788E+000  +1.8464458508E-001 +7.4649242963E+000  +5.7683384550E-001 +2.0579665591E+000 
12898953.692 +5.6347857386E-001 +5.4514907968E+000  +1.8937701385E-001 +1.9128916671E+000  +1.8629583298E-001 +7.5794416341E+000  +5.9762943977E-001 +2.5742465480E-001 
13024098.874 +6.1494112487E-001 -9.2107195803E-001  +1.9144313436E-001 +1.7769636707E+000  +1.8972851958E-001 +6.9907831630E+000  +5.8106927635E-001 -4.7905948665E-001 
13149244.055 +6.0769578946E-001 +1.1901632575E+000  +1.9164161931E-001 +1.4364095557E+000  +1.8820183226E-001 +6.4960968987E+000  +5.7688842020E-001 +1.7975810805E-001 
13274389.237 +6.2424206011E-001 +1.5752376640E+000  +1.9257948772E-001 +2.0227148264E+000  +1.9098358446E-001 +6.3982246753E+000  +6.4743634087E-001 +3.5993861834E-001 
13399534.418 +6.4176761075E-001 +5.4255551753E-002  +1.9736422792E-001 +2.2765961026E+000  +1.9324301041E-001 +5.7442663367E+000  +6.3328954565E-001 -2.9701278531E+000 
13524679.599 +6.5382431222E-001 -2.3407350190E+000  +1.9853749982E-001 +1.8461842051E+000  +1.9513296548E-001 +4.8874723039E+000  +6.6325981478E-001 -3.7757354339E+000 
13649824.781 +6.7717768330E-001 -1.5359952331E+000  +2.0008555943E-001 +2.5498417479E+000  +1.9665179391E-001 +4.8188737601E+000  +6.6535775451E-001 -2.6867402195E+000 
13774969.962 +6.9037129774E-001 -4.0983550249E+000  +2.0356674782E-001 +2.0957943627E+000  +2.0055892691E-001 +5.0513216265E+000  +7.1176545173E-001 -4.2013564634E+000 
13900115.144 +7.0381274484E-001 -3.6249527402E+000  +2.0145861899E-001 +2.1262255993E+000  +1.9898710875E-001 +3.9767213888E+000  +7.0513639476E-001 -3.2110424598E+000 
14025260.325 +7.0898617471E-001 -4.1282514778E+000  +2.0407933171E-001 +1.8014908717E+000  +2.0219958238E-001 +3.1825096357E+000  +7.3002046688E-001 -4.7204940503E+000 
14150405.507 +7.3976063812E-001 -3.7502007957E+000  +2.0434695024E-001 +1.9717635598E+000  +2.0222823244E-001 +2.5409041318E+000  +7.4162959787E-001 -4.2234118975E+000 
14275550.688 +7.7434321983E-001 -5.7672236698E+000  +2.0788899976E-001 +1.6841632271E+000  +2.0382346454E-001 +2.9667158529E+000  +7.5846334192E-001 -4.7410560781E+000 
14400695.870 +7.6478930184E-001 -6.8878167113E+000  +2.0809075744E-001 +1.0431360572E+000  +2.0551939932E-001 +2.1092202465E+000  +7.5370823996E-001 -5.5698218120E+000 
