!  2-Port S-parameters saved by WinCal
! VAR MeasName=S-Parameters (CALIBRATED_DATA) read from VNA (P5004A)
! VAR MeasDate=29/08/2024 10:35:39
! VAR NAME=S2_r9c2_RESET1_9k-100M_3
! VAR FILENAME=S2_r9c2_RESET1_9k-100M_3.S2P
! VAR DATE=29/08/2024 10:35:39
! VAR PHYS_PORTS=1,2
! VAR ObjTypeName=DATASET
! VAR IndexType=Frequency
!
# Hz S MA R 50
9000.000 +8.6169556321E-002 -1.5897008218E+002  +7.0163076053E-003 +1.1416288578E+002  +7.5279054655E-003 -1.3657649209E+002  +2.3655002857E-001 -1.4894133040E+002 
134145.181 +1.1129579860E-001 +1.6910767338E+002  +2.8304610942E-004 -8.9520010522E+001  +5.3073839372E-004 +9.7449972543E+001  +2.4495494573E-001 -1.7143788338E+002 
259290.363 +1.1305470394E-001 +1.6956112644E+002  +5.6599449811E-004 -3.0453870006E+001  +8.4840971052E-004 +1.0356571220E+002  +2.3637603129E-001 -1.6948014377E+002 
384435.544 +1.1465306454E-001 +1.7010933621E+002  +2.4825987311E-004 -7.4893003211E-002  +8.4563471941E-004 +8.9854479805E+001  +2.4197180355E-001 -1.6916016769E+002 
509580.726 +1.1384423537E-001 +1.7052885633E+002  +7.2329445327E-004 -1.0222636523E+002  +1.6297777584E-003 +1.2218367737E+002  +2.4149996794E-001 -1.6734349079E+002 
634725.907 +1.1644715165E-001 +1.7174264970E+002  +1.0810129260E-003 -1.1902460731E+002  +3.0513023410E-003 +8.5576619647E+001  +2.4644164355E-001 -1.6409818547E+002 
759871.089 +1.2118606446E-001 +1.7017484424E+002  +4.8090317280E-004 -7.1469847191E+001  +5.7394284230E-004 +8.1231974454E+001  +2.4700210021E-001 -1.6684165430E+002 
885016.270 +1.2071317208E-001 +1.6919261519E+002  +1.5047448747E-003 -5.9801019755E+001  +9.6821710894E-004 +1.3578835737E+002  +2.4370338007E-001 -1.6613409181E+002 
1010161.452 +1.1795112193E-001 +1.6943956270E+002  +1.6587448465E-003 -3.7203925843E+001  +1.7988421988E-003 -1.3868722067E+002  +2.2223242745E-001 -1.6956202672E+002 
1135306.633 +1.1989126700E-001 +1.6835708574E+002  +3.7055955262E-003 -1.6582692487E+001  +4.2927532767E-003 -1.6581871457E+002  +2.0826283020E-001 -1.6284925931E+002 
1260451.815 +1.1882161553E-001 +1.7129546090E+002  +1.3086990902E-003 +1.8827353966E+001  +4.3062160044E-003 -1.3256272522E+002  +1.9621142814E-001 -1.6946970458E+002 
1385596.996 +1.2359270923E-001 +1.7264796756E+002  +2.1335659000E-003 -4.2552647893E+001  +2.4181045768E-003 +1.1644718107E+002  +2.5172469145E-001 -1.6097931421E+002 
1510742.178 +1.2882659805E-001 +1.7115250925E+002  +3.0615562504E-003 -4.0756388500E+001  +3.8307501370E-003 +1.6837057375E+002  +2.4754220101E-001 -1.5635552164E+002 
1635887.359 +1.2900990574E-001 +1.7038513049E+002  +1.3941530721E-003 -1.8359565749E+000  +2.2089523058E-003 +1.7044235202E+002  +2.4000473919E-001 -1.6195900750E+002 
1761032.541 +1.2883022346E-001 +1.6965928606E+002  +2.5192798404E-003 -3.0524362653E+000  +3.8274802949E-003 -1.0723414858E+002  +2.2294361793E-001 -1.5924002734E+002 
1886177.722 +1.2943688030E-001 +1.6908526011E+002  +6.9344694800E-003 +2.6675300677E+001  +5.3738993069E-003 -9.8514229598E+001  +1.9315556800E-001 -1.5099625418E+002 
2011322.904 +1.2898814596E-001 +1.6939183165E+002  +7.5799893927E-003 +6.5261379871E+001  +9.7944551096E-003 -7.1109351748E+001  +2.0765367578E-001 -1.6465586291E+002 
2136468.085 +1.3142222344E-001 +1.6645099858E+002  +1.3267214448E-002 +1.0658810881E+002  +1.6346367287E-002 -3.0399294516E+001  +1.9414889740E-001 +1.7668526642E+002 
2261613.267 +1.3542354534E-001 +1.6504813261E+002  +1.4396385993E-002 +1.1552061154E+002  +1.2472820438E-002 -6.9996011944E+000  +2.3286937813E-001 +1.7582474482E+002 
2386758.448 +1.3721211791E-001 +1.6371859993E+002  +1.4940430524E-002 +9.9429094644E+001  +1.2988302371E-002 -2.2636029835E+001  +2.1555537153E-001 -1.7551900831E+002 
2511903.630 +1.3359353772E-001 +1.6579696191E+002  +1.7976251453E-002 +7.3434223999E+001  +1.9310983909E-002 -4.9569115627E+001  +2.1551657136E-001 -1.6722501116E+002 
2637048.811 +1.2845551481E-001 +1.6181848939E+002  +3.2079560586E-002 +9.3152015645E+001  +2.9977601220E-002 -8.5087695751E+000  +2.3577549315E-001 +1.7592076859E+002 
2762193.992 +1.2638740488E-001 +1.7553033395E+002  +7.5220430873E-002 +5.3565452882E+000  +8.1813688267E-002 -1.0413718870E+002  +2.0009537473E-001 -8.7722921213E+001 
2887339.174 +1.4060588599E-001 +1.7954214022E+002  +5.3438208663E-002 -1.4825762918E+001  +5.2828258586E-002 -1.1413025113E+002  +1.6151757392E-001 -1.2397314037E+002 
3012484.355 +1.4217777650E-001 +1.7185838695E+002  +4.1130087329E-002 -2.2336953378E+001  +3.8340984019E-002 -1.2694786320E+002  +2.8413028260E-001 -1.2325548271E+002 
3137629.537 +1.3996947212E-001 +1.6880140129E+002  +3.1468217364E-002 +8.6029635014E+000  +3.2772695136E-002 -9.5092830869E+001  +2.2959446657E-001 -1.3969821046E+002 
3262774.718 +1.5038724633E-001 +1.6070172402E+002  +2.8441346173E-002 +7.3392553983E+001  +3.0579704978E-002 -1.3561713210E+001  +2.4236762897E-001 -1.7730149239E+002 
3387919.900 +9.9748737231E-002 +1.4863575947E+002  +9.7272532683E-002 +6.2845294942E+001  +1.0908871537E-001 -3.1651408734E+001  +9.8363921609E-002 +1.3599935015E+002 
3513065.081 +1.3975101889E-001 +1.5475983182E+002  +5.3294705704E-002 +6.7052905481E+001  +5.3512729802E-002 -2.3638074795E+001  +1.7308412520E-001 +1.7609030782E+002 
3638210.263 +1.7444239372E-001 +1.5510892367E+002  +5.5925742109E-002 +1.1291319572E+002  +4.9436628136E-002 +3.0831031884E+001  +3.6193735063E-001 +1.5659693697E+002 
3763355.444 +1.7377093277E-001 +1.5343345249E+002  +5.8202026661E-002 +9.8056949234E+001  +5.6152142846E-002 +2.2306222458E+001  +2.8310000363E-001 +1.5524016243E+002 
3888500.626 +1.6016468366E-001 +1.4863375790E+002  +8.5855010387E-002 +8.5944758942E+001  +8.4425503649E-002 +1.8619715201E+001  +2.9329137663E-001 +1.4422094637E+002 
4013645.807 +1.5673079097E-001 +1.5612321424E+002  +7.8384462985E-002 +8.4489676841E+001  +8.0637287323E-002 +9.2070795854E+000  +3.4861620595E-001 +1.4390470021E+002 
4138790.989 +1.9836304394E-001 +1.4823979731E+002  +7.0471463021E-002 +9.1624313448E+001  +6.6117970234E-002 +2.6141643512E+001  +2.7456276888E-001 +1.5488895965E+002 
4263936.170 +2.0736969377E-001 +1.4588484598E+002  +9.3355702589E-002 +8.9589047553E+001  +8.6552052205E-002 +2.2845777266E+001  +2.2885540318E-001 +1.3653839201E+002 
4389081.352 +1.7801700425E-001 +1.4207261229E+002  +9.5236881126E-002 +1.0679812699E+002  +9.2345932344E-002 +4.2198484915E+001  +4.7820951064E-001 +1.5905153533E+002 
4514226.533 +1.8769653518E-001 +1.4333615216E+002  +1.3630715249E-001 +7.5970598768E+001  +1.2163395268E-001 +1.7939084449E+001  +3.3115415767E-001 +1.1461106490E+002 
4639371.715 +2.2647829563E-001 +1.3701685429E+002  +1.6831764876E-001 +9.0406438908E+001  +1.6979689343E-001 +3.8487295916E+001  +4.9947330253E-001 +1.0952606407E+002 
4764516.896 +4.7350145499E-001 +1.4141610776E+002  +6.8781264578E-001 +1.6253721740E+002  +6.5822432574E-001 +1.1235517143E+002  +2.3882774821E+000 +1.3641371429E+002 
4889662.078 +1.8248587991E-001 +2.0811708874E+001  +1.0544277096E+000 +1.5165677541E+001  +1.0724814937E+000 -3.4946371531E+001  +3.1428462568E+000 -8.2378342908E+000 
5014807.259 +3.7410565623E-001 +1.1795591939E+002  +8.0970434146E-001 +1.1140690593E+002  +7.0899770724E-001 +6.5431671661E+001  +3.1871661041E+000 +1.0079218608E+002 
5139952.441 +4.3221501239E-001 +1.3044134660E+002  +3.1214040776E-001 +1.2525971262E+002  +2.9604820075E-001 +8.0955109592E+001  +9.4112646835E-001 +1.1908776715E+002 
5265097.622 +3.2616640094E-001 +1.2600993512E+002  +2.7440031756E-001 +9.6538128432E+001  +2.7729674146E-001 +5.4394508049E+001  +9.0807713524E-001 +1.0795476882E+002 
5390242.804 +3.5588765601E-001 +1.4271735412E+002  +1.6115437191E-001 +1.0385414040E+002  +1.5430772617E-001 +6.7570428142E+001  +7.3281815160E-001 +1.2468403320E+002 
5515387.985 +4.1795896152E-001 +1.3203447365E+002  +2.4409632087E-001 +1.0985693035E+002  +2.5270346886E-001 +7.3898947261E+001  +9.1801963748E-001 +1.2027426785E+002 
5640533.166 +3.1855535094E-001 +1.1523872936E+002  +3.0403451252E-001 +8.2805294909E+001  +2.9201803826E-001 +4.9831555410E+001  +9.5003592617E-001 +1.1602941071E+002 
5765678.348 +4.0787679150E-001 +1.2537488142E+002  +3.2690098144E-001 +8.2243108495E+001  +3.1339365513E-001 +5.7030427150E+001  +1.1638905210E+000 +9.7361690914E+001 
5890823.529 +5.2637940983E-001 +1.2289779073E+002  +5.2639460985E-001 +9.2737758096E+001  +5.1800513242E-001 +6.8244621966E+001  +2.0894136738E+000 +8.7734783418E+001 
6015968.711 +5.1281864006E-001 +1.0751534190E+002  +4.6772019806E-001 +7.1800272629E+001  +4.7742890300E-001 +5.0128639919E+001  +1.3229344305E+000 +8.1193256817E+001 
6141113.892 +4.3841644304E-001 +1.0791070431E+002  +4.0287075150E-001 +5.3623210492E+001  +4.0622255339E-001 +3.2788183579E+001  +1.0700395311E+000 +6.2751585746E+001 
6266259.074 +5.4182656985E-001 +9.8945208190E+001  +4.7843941239E-001 +4.3650194171E+001  +4.5397141330E-001 +2.7384551687E+001  +1.1063981582E+000 +4.2507707169E+001 
6391404.255 +6.5498607721E-001 +8.5237439940E+001  +6.0458460847E-001 +4.5285720846E+001  +5.8713914364E-001 +2.9603852503E+001  +1.4544735173E+000 +4.7264198141E+001 
6516549.437 +8.1928176590E-001 +8.2202956898E+001  +5.9471834415E-001 +4.7446564015E+001  +6.1125759226E-001 +3.4079664114E+001  +1.4028899866E+000 +5.2660088688E+001 
6641694.618 +7.1520221221E-001 +6.7656528142E+001  +6.0480657355E-001 +2.5235192745E+001  +6.0103114435E-001 +1.4252382710E+001  +1.4258476789E+000 +2.6672571868E+001 
6766839.800 +8.2201535214E-001 +5.7176504345E+001  +5.4073034404E-001 +2.4302513099E+001  +5.2916503221E-001 +1.3429364256E+001  +8.8434922960E-001 +2.8595606704E+001 
6891984.981 +7.0497196015E-001 +3.3232783119E+001  +5.0449130842E-001 +4.7959010612E+000  +5.0722293065E-001 -1.5339721478E+000  +9.0128431922E-001 +4.3324728585E+000 
7017130.163 +7.6845374564E-001 +1.8698561397E+001  +4.9471410170E-001 +1.1070850782E+000  +5.0468191217E-001 -5.0652102364E+000  +9.9181631297E-001 +3.3711031840E+000 
7142275.344 +9.1397306516E-001 +1.5235916511E+001  +4.6955818996E-001 +9.3977679026E-001  +4.6219686597E-001 -3.0490898241E+000  +8.8098657524E-001 -1.1170098101E+001 
7267420.526 +1.0508507060E+000 +2.2642684692E+000  +4.3978178429E-001 +1.1712151577E+000  +4.5090811942E-001 -4.1602004787E-001  +8.5733105826E-001 -8.8208515341E+000 
7392565.707 +7.8715177048E-001 -1.3332547966E+000  +3.6614599273E-001 +2.8277612216E+000  +3.6452305980E-001 +1.3420563901E+000  +7.7837762418E-001 -2.9055970738E+000 
7517710.889 +8.6796571917E-001 -2.8594796291E-001  +3.5225430886E-001 +3.7243705334E+000  +3.4900141414E-001 +6.7064888506E+000  +8.2163798876E-001 -4.1842855368E+000 
7642856.070 +5.6336800527E-001 +4.9354541239E+000  +3.3135368716E-001 +5.3039155004E-002  +3.1939316473E-001 +2.0387922683E+000  +6.5354508309E-001 -3.7164397344E+000 
7768001.252 +6.5969864223E-001 +1.6962258456E+001  +3.1587733066E-001 +2.9530218219E+000  +3.0980097014E-001 +6.9134633680E+000  +6.3471531600E-001 -5.5447393228E+000 
7893146.433 +5.3405328581E-001 +1.2952126953E+001  +3.0234898114E-001 -2.0244460800E-001  +2.9850464142E-001 +6.9717710813E+000  +5.8958693567E-001 +5.7348226125E+000 
8018291.615 +4.7439377484E-001 +1.1045142885E+001  +2.9040954775E-001 -1.8089788316E+000  +2.9468843637E-001 +4.2928385845E+000  +4.4193308980E-001 +3.4397406117E+000 
8143436.796 +5.0966356614E-001 +1.3389484825E+001  +2.8265484502E-001 -1.0901793005E+000  +2.9045939554E-001 +6.1774324083E+000  +4.3410306997E-001 +9.1114935300E+000 
8268581.977 +3.8810105845E-001 +2.2811505855E+001  +2.7465876976E-001 -3.8581203776E+000  +2.7310667181E-001 +6.7459032763E+000  +4.4299882599E-001 +8.9390931696E+000 
8393727.159 +4.2905128383E-001 +2.4085864291E+001  +2.7283671915E-001 -4.4203015156E+000  +2.7435758943E-001 +8.0368883283E+000  +4.6323432059E-001 +7.2978893872E+000 
8518872.340 +4.4503309004E-001 +2.1825922143E+001  +2.7296800946E-001 -2.3858057478E+000  +2.7493915689E-001 +9.0642050022E+000  +4.2478971592E-001 +6.4722290065E+000 
8644017.522 +3.3240777144E-001 +1.4681436148E+001  +2.6833537580E-001 -4.9086899375E+000  +2.6457912568E-001 +7.5063485996E+000  +4.1462680453E-001 +1.6917614628E+001 
8769162.703 +3.5447265644E-001 +1.7300935881E+001  +2.6536500211E-001 -4.1802344405E+000  +2.6103754166E-001 +8.9869035381E+000  +3.6044719977E-001 +2.6360408465E+000 
8894307.885 +2.8909245792E-001 +1.0595549392E+001  +2.6709084308E-001 -5.6087787948E+000  +2.6878665687E-001 +7.8414819477E+000  +3.9429830261E-001 +3.7821195347E+000 
9019453.066 +3.4252962705E-001 +2.0916659699E+001  +2.5965435558E-001 -5.2113081953E+000  +2.5703793013E-001 +9.1635340656E+000  +3.6286412069E-001 +8.9067319021E+000 
9144598.248 +3.5843336776E-001 +2.6159308930E+001  +2.5556803445E-001 -5.1951425430E+000  +2.5427896394E-001 +1.0248885351E+001  +3.3811913620E-001 +1.4821055790E+001 
9269743.429 +2.8836343010E-001 +1.8875268369E+001  +2.6108971753E-001 -5.2273171175E+000  +2.5783878511E-001 +9.2579195344E+000  +3.0616297835E-001 +7.2708601674E+000 
9394888.611 +3.1346380248E-001 +1.0665427051E+001  +2.6136635285E-001 -5.5633131650E+000  +2.5714150665E-001 +1.0673403555E+001  +3.0004329808E-001 +7.1139862361E+000 
9520033.792 +2.3745323255E-001 +1.2201192158E+001  +2.6179870628E-001 -7.2402932756E+000  +2.6046517735E-001 +9.3734301138E+000  +2.9675607301E-001 +7.5455382371E-001 
9645178.974 +2.6977586063E-001 +8.9110541183E+000  +2.6496384377E-001 -5.2647766369E+000  +2.6339204630E-001 +9.6573205685E+000  +3.2296684442E-001 +1.0546202249E+001 
9770324.155 +2.8817768250E-001 +1.7538916292E+001  +2.6304503806E-001 -5.1155300577E+000  +2.6375210493E-001 +1.1240432107E+001  +3.2224951914E-001 -2.2578446622E+000 
9895469.337 +2.6372369890E-001 +1.0598948866E+001  +2.6367501196E-001 -5.3554937932E+000  +2.6359629171E-001 +1.1213683944E+001  +3.2315383023E-001 -2.4185849679E+000 
10020614.518 +2.8457395942E-001 +2.1660588124E+001  +2.5978961693E-001 -4.8009396231E+000  +2.5809455967E-001 +1.0779364836E+001  +2.8957976623E-001 -3.4833871368E-001 
10145759.700 +3.1220409113E-001 +9.1802965362E+000  +2.6811668420E-001 -5.0546262786E+000  +2.6507849767E-001 +1.1380959364E+001  +2.9440338359E-001 -3.7643042128E+000 
10270904.881 +2.9913610882E-001 +1.2924413267E+001  +2.6815029142E-001 -4.6909115644E+000  +2.6526545475E-001 +1.1336047143E+001  +2.8676551822E-001 +1.1272117679E+000 
10396050.063 +2.8320055433E-001 +1.2714376136E+001  +2.6490264603E-001 -4.4584058558E+000  +2.6468772202E-001 +1.0989107595E+001  +2.5560112953E-001 +1.2418740440E+001 
10521195.244 +2.8459938881E-001 +1.7884712265E+001  +2.6836887010E-001 -4.1352975569E+000  +2.6528350411E-001 +1.1009435524E+001  +2.8012706435E-001 +7.4850629486E+000 
10646340.426 +2.9848585076E-001 +2.1389918193E+001  +2.6676832449E-001 -3.5094969535E+000  +2.6402031255E-001 +1.1717764813E+001  +3.3442205274E-001 +1.3642599503E+001 
10771485.607 +3.0411098767E-001 +1.1653791334E+001  +2.7036352198E-001 -3.3190957714E+000  +2.6934103541E-001 +1.0470571663E+001  +3.0316524611E-001 +1.3359528106E+001 
10896630.788 +3.0132207564E-001 +1.4908196637E+001  +2.7287861089E-001 -2.7830971012E+000  +2.7030561727E-001 +1.1080914060E+001  +3.2948955611E-001 +1.0107935166E+001 
11021775.970 +3.1731707091E-001 +1.9664688853E+001  +2.7200628941E-001 -2.2315266612E+000  +2.6847083791E-001 +1.1161365227E+001  +3.5778355616E-001 +1.4706206078E+001 
11146921.151 +3.4044518865E-001 +2.1319259280E+001  +2.7448123364E-001 -1.5525125730E+000  +2.7065873840E-001 +1.1269805683E+001  +3.5156831277E-001 +1.0122964387E+001 
11272066.333 +3.4583254997E-001 +1.8363330932E+001  +2.7828718367E-001 -1.9177986615E+000  +2.7569513912E-001 +1.1337206287E+001  +3.4213495862E-001 +7.6742567295E+000 
11397211.514 +3.4113133808E-001 +1.9909574571E+001  +2.7907395436E-001 -1.6513472178E+000  +2.7776680662E-001 +1.0742276445E+001  +3.5204501722E-001 +9.7058530508E+000 
11522356.696 +3.4923890873E-001 +1.6860373397E+001  +2.8517451501E-001 -1.5569858070E+000  +2.8355900375E-001 +1.0800465950E+001  +3.5307280587E-001 +8.0260111324E+000 
11647501.877 +3.2293315619E-001 +1.6471452732E+001  +2.8537850940E-001 -1.2027612569E+000  +2.8324641659E-001 +1.0182997000E+001  +3.5863771875E-001 +1.0289432433E+001 
11772647.059 +3.5505357404E-001 +1.5752780052E+001  +2.8517920789E-001 -5.7647469482E-001  +2.8446706029E-001 +1.0383566458E+001  +3.9138361986E-001 +1.2075873917E+001 
11897792.240 +3.8479963264E-001 +8.3283216082E+000  +2.9713429532E-001 -1.8055933564E-001  +2.9021658024E-001 +9.6946955080E+000  +3.8920002121E-001 +8.4377845180E+000 
12022937.422 +3.8429151518E-001 +1.5640635831E+001  +2.9217677192E-001 -2.0315159009E-001  +2.9164165499E-001 +9.9397606072E+000  +4.1893581439E-001 +8.9143279692E+000 
12148082.603 +3.8818550050E-001 +1.1326039031E+001  +2.9683467872E-001 -5.4527517778E-001  +2.9385433624E-001 +8.7003357534E+000  +3.7331881361E-001 +1.0298226080E+001 
12273227.785 +3.9548628778E-001 +9.0993711856E+000  +3.0088595754E-001 +2.5424941044E-001  +2.9765304822E-001 +8.9148263330E+000  +4.1691585660E-001 +5.2013586783E+000 
12398372.966 +3.9713582714E-001 +9.4200442587E+000  +3.0397905771E-001 -7.0042366252E-002  +2.9966702170E-001 +7.7087711895E+000  +3.9481122790E-001 +7.9855402999E+000 
12523518.148 +4.2502363176E-001 +9.4291390970E+000  +3.0970235609E-001 +8.0812829184E-001  +3.0542500692E-001 +8.1670762172E+000  +4.4320920416E-001 +3.0897956580E+000 
12648663.329 +4.1947602956E-001 +8.3669985023E+000  +3.1127601719E-001 +5.3419085904E-001  +3.0861671594E-001 +7.1758883659E+000  +4.3538612842E-001 +4.1555404575E-001 
12773808.511 +4.4152840504E-001 +5.4130649580E+000  +3.1440290864E-001 +1.0979762797E+000  +3.1245646845E-001 +7.1952235393E+000  +4.5222203184E-001 +2.5225849343E+000 
12898953.692 +4.4861879693E-001 +6.7320802808E+000  +3.1614287385E-001 +1.2020754508E+000  +3.1222182594E-001 +6.7605183027E+000  +4.5884178166E-001 +2.6283997980E+000 
13024098.874 +4.5955494028E-001 +4.2922353540E+000  +3.2157920821E-001 +9.7792443736E-001  +3.1757226886E-001 +5.8096306170E+000  +4.4530351567E-001 +1.9944249152E+000 
13149244.055 +4.7682305597E-001 +1.9300615607E+000  +3.2414536701E-001 +1.3384768204E+000  +3.1843061143E-001 +5.9173555419E+000  +4.8632210938E-001 +2.6979000721E+000 
13274389.237 +5.0410200748E-001 +2.5073924683E+000  +3.2903020132E-001 +1.5428527414E+000  +3.2393552504E-001 +5.8822798240E+000  +5.0583019910E-001 -7.2772615716E-001 
13399534.418 +5.1889310610E-001 -7.8867115095E-001  +3.3263735250E-001 +1.6648250657E+000  +3.2927813835E-001 +5.0261181644E+000  +5.1059667088E-001 -8.0364143618E-001 
13524679.599 +5.2001230898E-001 -8.0908058710E-001  +3.3441463052E-001 +1.5116179359E+000  +3.3044936959E-001 +4.4903854440E+000  +5.1708201705E-001 +1.3669617415E-001 
13649824.781 +5.2659885382E-001 -1.0293428639E+000  +3.3688861129E-001 +1.0877309166E+000  +3.3121447409E-001 +3.8332803658E+000  +5.3268658106E-001 -5.1842197067E-001 
13774969.962 +5.4975303445E-001 -2.4025179001E+000  +3.4224370705E-001 +1.8127631086E+000  +3.3823041322E-001 +3.8765471738E+000  +5.6899285292E-001 -4.5617328978E+000 
13900115.144 +5.4276965645E-001 -1.2225119533E+000  +3.4037468071E-001 +1.2347688103E+000  +3.3976893813E-001 +3.0283278729E+000  +5.7124344056E-001 -4.0391256400E+000 
14025260.325 +5.8341025617E-001 -3.3250817274E+000  +3.4327259188E-001 +1.5393519505E+000  +3.4107250680E-001 +2.9358893368E+000  +5.8909354153E-001 -2.6723951556E+000 
14150405.507 +6.0296437349E-001 -4.0261657124E+000  +3.4530680668E-001 +1.1338663215E+000  +3.4396653875E-001 +2.1692279569E+000  +5.8343698333E-001 -3.8866356467E+000 
14275550.688 +6.1265378961E-001 -4.3086899108E+000  +3.4827320325E-001 +1.4475728556E+000  +3.4288815489E-001 +2.2411054562E+000  +6.2894931594E-001 -4.0278740271E+000 
14400695.870 +6.2628096960E-001 -5.7118323482E+000  +3.5008802354E-001 +9.7356287266E-001  +3.4669007002E-001 +1.3376961703E+000  +6.1200291954E-001 -4.5133700446E+000 
