!  2-Port S-parameters saved by WinCal
! VAR MeasName=S-Parameters (CALIBRATED_DATA) read from VNA (P5004A)
! VAR MeasDate=29/08/2024 14:14:39
! VAR NAME=S2_r9c6_SET2_9k-100M_2
! VAR FILENAME=S2_r9c6_SET2_9k-100M_2.S2P
! VAR DATE=29/08/2024 14:14:39
! VAR PHYS_PORTS=1,2
! VAR ObjTypeName=DATASET
! VAR IndexType=Frequency
!
# Hz S MA R 50
9000.000 +8.8443662813E-002 -1.7063684828E+002  +2.1701075184E-003 -6.0722061974E+001  +8.0471387060E-003 -8.9100241075E+001  +2.7834853460E-001 -1.4690497820E+002 
134145.181 +1.1066967041E-001 +1.6964513789E+002  +1.0304948827E-004 +6.0708820177E+001  +4.7831313212E-004 +8.6921628249E+001  +2.3905580775E-001 -1.7096976265E+002 
259290.363 +1.1198164829E-001 +1.7007277058E+002  +4.4392280611E-004 -1.5442741580E+002  +7.4964851688E-004 -3.9814110736E+001  +2.4690797655E-001 -1.7052668303E+002 
384435.544 +1.1410260503E-001 +1.7010936561E+002  +2.6987503595E-004 +1.2276624986E+002  +5.9978544583E-004 +4.9902522900E+001  +2.3979087592E-001 -1.6832666842E+002 
509580.726 +1.1250087184E-001 +1.7250072252E+002  +4.4032491995E-004 +3.4369848741E+001  +7.2440372901E-004 -9.7561622370E+001  +2.4103067240E-001 -1.6435227993E+002 
634725.907 +1.1568886912E-001 +1.7106771607E+002  +2.6621784652E-004 +3.4068002598E+001  +1.4291386570E-003 +4.6506669764E+001  +2.5685587960E-001 -1.6560741163E+002 
759871.089 +1.2115080514E-001 +1.7040229969E+002  +1.1760298843E-004 -4.7736726036E+001  +3.0221916190E-004 +5.2512364454E+001  +2.5290964440E-001 -1.6786291279E+002 
885016.270 +1.2066575456E-001 +1.6931778740E+002  +7.6833034819E-004 -5.2776009821E+001  +4.4579538892E-004 +5.2429678317E+001  +2.4692425706E-001 -1.6552039553E+002 
1010161.452 +1.1361565314E-001 +1.7051666135E+002  +1.4778653989E-003 -2.3654520678E+001  +1.3248919183E-003 -4.7948462637E+001  +2.1299287011E-001 -1.6798746111E+002 
1135306.633 +1.1706937483E-001 +1.6804794893E+002  +7.5619089850E-004 -8.6559425708E+001  +2.4486428908E-003 +6.7997930210E+000  +1.7800876368E-001 -1.5789564759E+002 
1260451.815 +1.1451075572E-001 +1.7150468822E+002  +7.6604602463E-004 +9.6888610991E+001  +2.2714760687E-003 +1.2045973321E+002  +2.2059950506E-001 -1.5257243913E+002 
1385596.996 +1.2658045733E-001 +1.7286152104E+002  +5.7120837402E-004 -1.6231923775E+002  +1.2326749668E-003 +9.0876632361E+001  +2.6016311576E-001 -1.5674183342E+002 
1510742.178 +1.3000506281E-001 +1.7333632166E+002  +1.1740928701E-003 -1.3568052297E+002  +8.3031387754E-004 +4.9997808263E+001  +2.7219094491E-001 -1.5730711380E+002 
1635887.359 +1.3021965635E-001 +1.7129070680E+002  +8.7162525621E-004 -1.6492471042E+002  +1.5732648596E-003 +1.7048381675E+002  +2.5296073224E-001 -1.5800349393E+002 
1761032.541 +1.2646303128E-001 +1.6925827104E+002  +5.0084453180E-004 +1.1732902206E+001  +1.1394874281E-003 -5.4675314125E+001  +2.2917031227E-001 -1.6057538286E+002 
1886177.722 +1.2901330200E-001 +1.7012915573E+002  +2.0929260281E-003 -9.1262412643E+001  +1.9475396120E-003 +1.0160497921E+001  +1.8730724436E-001 -1.6208177992E+002 
2011322.904 +1.3067166291E-001 +1.6717955196E+002  +2.6002476249E-003 -4.5922591014E+000  +3.2613760494E-003 -5.1212716339E+001  +1.9695095962E-001 -1.6701304625E+002 
2136468.085 +1.2793401223E-001 +1.6685835060E+002  +3.8973376775E-003 -1.4799492084E+002  +5.3451814515E-003 -1.0713841611E+002  +1.5027745858E-001 +1.7580899503E+002 
2261613.267 +1.3654495850E-001 +1.6599727120E+002  +2.9798927599E-003 +1.3632800391E+002  +4.0529765861E-003 -4.2074158059E+001  +9.3662859793E-002 -1.5212851456E+002 
2386758.448 +1.3575198631E-001 +1.6309220552E+002  +4.5315745342E-003 +5.6099965290E+001  +6.5618370258E-003 +1.2504347845E+000  +1.6874701314E-001 +1.6403762588E+002 
2511903.630 +1.3745326200E-001 +1.6423572978E+002  +1.9975889883E-003 +6.6300890537E+001  +3.3766146442E-003 -5.3087188343E+001  +2.1254481563E-001 -1.7078931757E+002 
2637048.811 +1.2866044196E-001 +1.5850791256E+002  +8.4127843380E-003 +9.1797187236E+001  +1.2514068562E-002 +2.0396727406E+001  +3.7523563841E-001 +1.5740043248E+002 
2762193.992 +9.6640518180E-002 +1.6192826252E+002  +4.4849171104E-002 -6.4336994174E+001  +3.8087797719E-002 -1.6575745511E+002  +3.9632020918E-001 -5.8195964597E+001 
2887339.174 +1.1449133121E-001 +1.7000118872E+002  +1.0565186447E-002 -4.4650919479E+001  +1.3780492037E-002 -1.6974343476E+002  +2.3907030345E-001 -9.3327309888E+001 
3012484.355 +1.2364733396E-001 +1.5992105830E+002  +4.9908916478E-003 +8.6142055634E+000  +1.5738252439E-002 -5.0856724667E+001  +2.1671675139E-001 +7.6496005138E+001 
3137629.537 +1.3407237096E-001 +1.5691964930E+002  +9.2780741112E-003 +2.2157584878E+001  +2.2127625981E-002 -9.3544726071E+001  +2.4603918909E-001 -7.3125242818E+001 
3262774.718 +1.0498510564E-001 +1.7625126012E+002  +3.8417357610E-002 +6.2806687112E+000  +3.7576123869E-002 -4.9345813164E+001  +4.8572018706E-001 +4.7992284488E+001 
3387919.900 +1.3814989752E-001 +1.5948535258E+002  +1.4644652077E-002 +7.7072053166E+000  +1.5782708942E-002 -3.0888093726E+001  +2.8889318778E-001 +1.0137744744E+002 
3513065.081 +9.2198847048E-002 +1.1092541846E+002  +2.2027649144E-002 -6.1096849245E+000  +1.7513839996E-002 +8.9072011690E+001  +3.0156990224E-001 +9.9172994189E+001 
3638210.263 +1.5494972434E-001 +1.4846451411E+002  +1.5142287501E-002 +6.7725560825E+001  +1.0778329465E-002 +1.8616515222E+001  +3.8884064373E-001 +1.3654185582E+002 
3763355.444 +1.7980346244E-001 +1.5215394199E+002  +1.3248076513E-002 +1.3945141735E+002  +2.6602719215E-002 +6.8848605524E+001  +8.6830255365E-001 +1.1826952591E+002 
3888500.626 +1.8288189858E-001 +1.4767111521E+002  +1.7778733425E-002 +6.8841798494E+001  +1.2103392767E-002 +3.2632334170E+001  +3.4195110435E-001 +1.3170181576E+002 
4013645.807 +1.6891573650E-001 +1.4589897858E+002  +1.2751678874E-002 +7.2490818943E+001  +1.8160241643E-002 +3.3146134267E+001  +3.1714893446E-001 +1.3052589982E+002 
4138790.989 +1.7694509290E-001 +1.4420684203E+002  +1.0974950553E-002 +8.2529357048E+001  +1.1697461439E-002 -1.4931215598E+001  +3.3472634364E-001 +1.4086235573E+002 
4263936.170 +2.5125976709E-001 +1.3330717770E+002  +2.6615229930E-002 +1.4157414704E+002  +1.7153920780E-002 +7.8119903484E+001  +7.7152011232E-001 +1.2576397448E+002 
4389081.352 +2.1201969191E-001 +1.3599255209E+002  +5.4050919702E-002 +1.7867726668E+002  +2.1883439833E-002 +8.8901733943E+001  +1.6195216433E+000 +1.5019349582E+002 
4514226.533 +2.5423951943E-001 +1.2886359384E+002  +3.9312173467E-002 +1.2948351365E+002  +4.1435154791E-002 +7.0343733382E+001  +7.1428643679E-001 +1.2086593484E+002 
4639371.715 +2.8021792822E-001 +1.3094965213E+002  +4.0154843860E-002 +1.1054924779E+002  +4.0875366112E-002 +3.5238053452E+001  +8.1537021574E-001 +5.1543366392E+001 
4764516.896 +3.1130480582E-001 +1.3160089279E+002  +1.1206355814E-001 +6.3848480191E+001  +2.0751668785E-001 +2.1669887188E+001  +4.4100269718E+000 +4.1148992290E+001 
4889662.078 +4.4591436042E-001 +1.3921353264E+002  +4.8895049075E-002 -3.8452367941E+001  +8.0017678963E-002 -7.9706812667E+001  +2.1094549256E+000 -1.1790679363E+002 
5014807.259 +3.4378178729E-001 +1.3101483565E+002  +7.9271959990E-002 -2.3692662855E+000  +5.9522585667E-002 -7.5698030965E+001  +3.1514645628E+000 -7.7630984584E+001 
5139952.441 +4.3711232983E-001 +1.3634882606E+002  +2.5082743649E-002 +1.6392297061E+002  +4.2327186985E-002 +1.0882324407E+002  +1.3330092418E+000 +1.3085569405E+002 
5265097.622 +3.5193043574E-001 +1.2466654031E+002  +4.2573608212E-002 +5.3376683813E+001  +4.9844698526E-002 +1.6166698887E+001  +1.4964087731E+000 +3.5119005529E+001 
5390242.804 +3.8790117029E-001 +1.1333387084E+002  +4.9409350920E-002 +8.8295350690E+001  +6.3070730630E-002 +3.8253797526E+001  +1.2654473259E+000 +9.2686584315E+001 
5515387.985 +4.2010881937E-001 +1.2713703128E+002  +4.3111285700E-002 +1.0871349833E+002  +9.9360782417E-002 +8.0736851252E+001  +2.4045364757E+000 +9.0970566210E+001 
5640533.166 +4.3225500981E-001 +1.3329592747E+002  +6.7290676319E-002 +1.0125552660E+002  +4.3456867515E-002 +6.4715151171E+001  +2.6620203124E+000 +8.6231010903E+001 
5765678.348 +4.9510841442E-001 +1.2856698233E+002  +7.1074664644E-002 +1.3180456296E+002  +6.4262984258E-002 +9.6010401802E+001  +2.7447823316E+000 +1.0417064536E+002 
5890823.529 +5.3917906808E-001 +1.2334993908E+002  +6.1822547196E-002 +8.1195750259E+001  +7.9521243288E-002 +5.4473101595E+001  +2.7172497687E+000 +8.1251122372E+001 
6015968.711 +7.3179993622E-001 +1.2229160280E+002  +5.1661412296E-002 +7.0502797037E+001  +8.2574638084E-002 +5.4559839575E+001  +1.4819383995E+000 +2.5865452201E+001 
6141113.892 +6.4701350222E-001 +1.1869288140E+002  +5.9462754294E-002 +7.6151380156E+001  +9.0335675494E-002 +3.3432387288E+001  +2.5925704936E+000 +3.0281907714E+001 
6266259.074 +9.5100972968E-001 +9.5463711723E+001  +8.3404230308E-002 +4.6626895148E+001  +9.0668948170E-002 +2.3024539594E+001  +1.6168477488E+000 +3.6416125399E+001 
6391404.255 +8.3568094561E-001 +9.4066684213E+001  +6.8056597146E-002 +5.8454568272E+001  +5.1016062809E-002 +4.4820508998E+001  +1.9704709480E+000 +5.2879460246E+001 
6516549.437 +1.2190977924E+000 +8.0193587374E+001  +8.5698619538E-002 +3.3992492743E+001  +1.0828718518E-001 +2.8045488615E+001  +1.5102174281E+000 +1.8990001470E+001 
6641694.618 +1.2824392962E+000 +6.9725235504E+001  +1.0638891458E-001 +2.4148667833E+001  +1.0002747807E-001 +2.2892437782E+001  +1.5759021072E+000 +6.7564361298E+000 
6766839.800 +1.6406849817E+000 +5.7472731407E+001  +1.0271954341E-001 +2.5034576667E+001  +1.0168068815E-001 +2.0145345275E+001  +1.4990630422E+000 -6.7522593103E-001 
6891984.981 +1.5387242144E+000 +2.9943098871E+001  +8.6678942854E-002 +3.7250533412E+000  +9.2705652635E-002 +3.6604465110E+000  +1.1821313268E+000 +9.5702637776E-001 
7017130.163 +1.2934784072E+000 +1.5775842523E+001  +6.6200687656E-002 -1.3877027389E+001  +5.4377953416E-002 -9.3336042434E+000  +1.3993373837E+000 -1.1823553357E+001 
7142275.344 +1.3254691294E+000 +1.3304481317E+001  +7.0033160119E-002 -1.6403789379E+001  +6.0670190653E-002 -9.6997193255E+000  +1.2581984559E+000 -7.0555382719E+000 
7267420.526 +1.4587391691E+000 +6.4173830655E+000  +5.6802617916E-002 +1.0356846104E+001  +4.2180132239E-002 +1.0937631339E+000  +1.2688746084E+000 -1.1746081428E+001 
7392565.707 +1.3977242161E+000 +1.4183841913E+000  +3.8439166602E-002 +9.8469494282E+000  +4.9171664928E-002 +2.0681621550E+001  +1.1639091268E+000 -6.2875667303E+000 
7517710.889 +1.0586535559E+000 -2.5454826784E+000  +3.7118857592E-002 +8.2386394313E+000  +4.0477490443E-002 +9.7034204299E+000  +1.2792384178E+000 -3.1473837706E+000 
7642856.070 +1.0926172482E+000 -1.5967018407E+000  +3.9248153740E-002 -7.0654466956E-001  +3.4209623099E-002 +1.3383125264E+001  +9.7424866398E-001 -6.7420012066E+000 
7768001.252 +9.1773112838E-001 +1.7992764586E+000  +2.8069518875E-002 -2.8574756584E+000  +4.0592360882E-002 +4.6050576129E+000  +1.1636807069E+000 +7.4660598504E-002 
7893146.433 +7.9813972702E-001 +8.6207551273E+000  +3.2127381629E-002 +1.7309620442E+000  +2.7307916100E-002 -4.4024818860E+000  +8.1823361648E-001 -3.3605323216E-001 
8018291.615 +7.8451626402E-001 +2.7522021885E+000  +3.6232613498E-002 -5.6574339569E+000  +3.4340232571E-002 +6.5979036945E+000  +9.1313951645E-001 -6.1073708463E+000 
8143436.796 +6.7024441546E-001 +3.4632037858E+000  +3.0142483256E-002 +7.7854363451E+000  +3.2170404740E-002 +1.7442449004E+001  +7.8537429354E-001 +3.4534302814E+000 
8268581.977 +6.7678528001E-001 +7.8850743962E+000  +3.3051994866E-002 -9.5982019530E+000  +3.2342690733E-002 -1.0438974505E+000  +7.0023004948E-001 -6.1547001616E-001 
8393727.159 +6.9469078217E-001 +7.6695865284E+000  +2.7796522561E-002 -1.1845001588E+001  +3.2348996648E-002 +1.8788792024E+001  +6.8241449937E-001 -1.8913725235E+000 
8518872.340 +6.5108774817E-001 +1.2580339939E+001  +2.9563730832E-002 -7.5237407427E+000  +2.7646335259E-002 +5.2719259850E+000  +6.4832718350E-001 +8.6974969987E-001 
8644017.522 +6.2770968643E-001 +1.2775903687E+000  +2.9583302648E-002 -8.5749460785E-001  +3.0699090713E-002 +3.8257125172E+000  +6.2939388946E-001 -3.4783064271E+000 
8769162.703 +5.8469994127E-001 +1.0179029849E+001  +2.9051585975E-002 -1.2787162242E+001  +3.0156807252E-002 +6.2383801640E+000  +6.2584540522E-001 +4.9621089928E+000 
8894307.885 +5.7567135258E-001 +1.1706263219E+001  +3.2020905956E-002 -1.2905870163E+000  +2.9645154363E-002 +6.8858315072E+000  +5.4121555465E-001 +1.7471515406E+000 
9019453.066 +6.1844352198E-001 +5.4436890240E+000  +3.0774711251E-002 -3.4206747239E+000  +3.2187956055E-002 +1.3746317046E+001  +5.6729711472E-001 +1.3310644953E+000 
9144598.248 +5.6632184049E-001 +8.9271216257E+000  +2.7660466667E-002 -2.7101778898E+000  +3.0536773420E-002 +1.3988922102E+001  +6.4288517748E-001 -2.2739581202E+000 
9269743.429 +5.4456099434E-001 +7.0743996592E+000  +3.0375693244E-002 -8.8133931286E+000  +3.0330228516E-002 +7.5686329254E+000  +5.9188010955E-001 -6.6089467690E+000 
9394888.611 +5.3225961770E-001 +9.9629574910E+000  +2.8402990579E-002 -2.6970829172E+000  +2.7352618657E-002 +1.2600647093E+001  +6.3245999637E-001 -3.7557886089E-001 
9520033.792 +5.2263302894E-001 +5.8664539253E+000  +2.9728018086E-002 -2.7359198542E+000  +3.0236304025E-002 +7.3991274408E+000  +5.6233649877E-001 -1.2625262443E-001 
9645178.974 +4.5440381012E-001 +3.4629661882E+000  +3.0430839177E-002 -8.4053722088E+000  +2.7911571399E-002 +1.0773703210E+001  +5.6479897754E-001 -1.4029254743E+000 
9770324.155 +5.3595289383E-001 -6.4322656304E+000  +2.9916233699E-002 -3.3365059840E+000  +2.8939250785E-002 +1.0009561927E+001  +5.5985282767E-001 -7.9519064915E+000 
9895469.337 +5.0522649188E-001 +8.0614809263E-001  +3.0071583695E-002 -9.4772961028E-001  +2.9803054105E-002 +9.0613333269E+000  +5.6958395604E-001 -9.4693263204E-001 
10020614.518 +5.2536651457E-001 +2.1227309702E+000  +2.9298708476E-002 -6.4490271102E+000  +2.8687079402E-002 +1.8959060803E+001  +5.3414674663E-001 -3.4396111953E+000 
10145759.700 +5.2323266828E-001 +4.3297126989E+000  +2.8702381090E-002 -8.5129641261E+000  +3.0022880954E-002 +1.4108463783E+001  +5.7286395017E-001 -5.5888351492E-001 
10270904.881 +5.2996823272E-001 +9.0368228257E+000  +3.1879296567E-002 -1.4021904848E+000  +2.8335468617E-002 +1.5446686613E+001  +5.6758778843E-001 +1.6312067814E+000 
10396050.063 +5.4557862994E-001 +6.6116725571E+000  +2.9404730234E-002 -2.2556635392E-001  +3.1437892560E-002 +1.5516956401E+001  +5.3829234844E-001 -8.2403557571E-001 
10521195.244 +5.4617801096E-001 +5.7011921753E+000  +3.1297828443E-002 -2.7176327889E+000  +3.0831425801E-002 +1.2568638418E+001  +5.9024590294E-001 +1.0836218937E+000 
10646340.426 +5.4344215146E-001 +9.1292932170E+000  +3.1387286161E-002 +1.5214805250E+000  +3.0867680553E-002 +1.5693008723E+001  +5.7784737226E-001 -4.0247035788E-001 
10771485.607 +5.3302914364E-001 +6.2783859820E+000  +3.1674651699E-002 +4.4193082063E+000  +3.1178925001E-002 +1.1273374123E+001  +5.9476979123E-001 +4.3323443914E-001 
10896630.788 +5.5141343430E-001 +1.0404801216E+001  +2.8626985372E-002 -3.3118153252E-001  +3.0792469169E-002 +1.1428219541E+001  +5.8937162437E-001 +2.8350415956E-001 
11021775.970 +5.6779270441E-001 +8.2657520738E+000  +3.0440615025E-002 -2.5525862200E+000  +3.2590602484E-002 +1.7428065351E+001  +6.1336475738E-001 +1.8911528118E+000 
11146921.151 +5.9302710499E-001 +9.3602023690E+000  +3.1314593583E-002 +1.6318706435E+000  +3.1554372775E-002 +1.3277196404E+001  +5.7744100747E-001 +3.4279296382E+000 
11272066.333 +6.0393558515E-001 +7.2555116354E+000  +3.1344352221E-002 +5.2120907969E-002  +3.1145879195E-002 +1.2851201516E+001  +6.1253307837E-001 +5.8226233427E+000 
11397211.514 +6.0941002788E-001 +5.7327900164E+000  +3.2673671208E-002 +1.3336325604E+000  +3.3729191985E-002 +1.0532664466E+001  +6.0847061281E-001 +2.9133406607E+000 
11522356.696 +6.2543217029E-001 +7.1121630003E+000  +3.3891920101E-002 +3.0393104668E+000  +3.1208584545E-002 +1.5959452092E+001  +6.3187934379E-001 +3.2088471472E+000 
11647501.877 +6.0698595190E-001 +5.3010195890E+000  +3.3994278001E-002 +3.5764119239E+000  +3.3732387935E-002 +1.1805933207E+001  +6.6577202081E-001 +2.8050139139E+000 
11772647.059 +6.1239308968E-001 +6.2265193114E+000  +3.3928929050E-002 +1.9305415578E+000  +3.3941128883E-002 +1.2189061049E+001  +6.2770302672E-001 +5.1004323979E-001 
11897792.240 +6.5394381850E-001 +7.0146770604E+000  +3.2863293463E-002 +4.8123789244E-001  +3.2962746702E-002 +1.0147424139E+001  +6.7004489828E-001 +2.2363543041E+000 
12022937.422 +6.4878534531E-001 +5.0476001433E+000  +3.5473266526E-002 -1.3549399321E+000  +3.4282110891E-002 +8.5496103487E+000  +6.6843979775E-001 +6.7830398459E-001 
12148082.603 +6.5959497391E-001 +6.2506559826E+000  +3.4969048504E-002 -4.1656782604E-002  +3.3245829861E-002 +1.2629339174E+001  +6.6823840420E-001 -4.0425126903E-001 
12273227.785 +6.6778684961E-001 +6.9924110641E+000  +3.7148182514E-002 +1.0148839402E+000  +3.5070300518E-002 +9.5282500103E+000  +6.8144082041E-001 +5.1722704775E-001 
12398372.966 +6.7946267627E-001 +2.1579230244E+000  +3.4723952006E-002 +2.1627651967E+000  +3.4526789006E-002 +1.2318842875E+001  +6.8351875085E-001 +1.5276281971E+000 
12523518.148 +6.9403784891E-001 +1.6159702434E+000  +3.6423188583E-002 +1.5686787190E+000  +3.6413605849E-002 +1.0790361847E+001  +7.2603000846E-001 +1.2937775609E+000 
12648663.329 +7.1255979515E-001 +2.3257442627E+000  +3.5921599020E-002 +2.4145127717E+000  +3.6589840782E-002 +1.0028386209E+001  +7.1334666741E-001 +7.7616846954E-001 
12773808.511 +7.3157024677E-001 +1.9238087280E+000  +3.5416859274E-002 +1.3715391286E+000  +3.5845654317E-002 +8.1160328364E+000  +7.5042282688E-001 +1.1826337261E+000 
12898953.692 +7.3141137337E-001 +6.8368287537E-001  +3.7057109141E-002 +2.9147478624E+000  +3.5926776416E-002 +1.0567484682E+001  +7.6401640115E-001 -2.2311901203E-001 
13024098.874 +7.6847535240E-001 +1.7476673135E-001  +3.5897654500E-002 +3.6841856695E+000  +3.6448657309E-002 +8.6630599146E+000  +7.7488011560E-001 -2.3014209891E+000 
13149244.055 +7.8166282729E-001 +1.0096534690E+000  +3.7860884620E-002 +3.6355644636E+000  +3.8676112044E-002 +9.0693614153E+000  +7.7961040506E-001 -1.7246674405E+000 
13274389.237 +7.9090963739E-001 -6.5566540348E-001  +3.7944670289E-002 -6.3769812555E-001  +3.7333317808E-002 +5.6944802860E+000  +8.1052841998E-001 -3.5637174243E+000 
13399534.418 +8.1399061628E-001 -8.5102215253E-001  +3.8606745465E-002 +4.9467742208E+000  +3.8195764524E-002 +6.7433254480E+000  +7.9636799274E-001 -2.4534857190E+000 
13524679.599 +8.3260335575E-001 -5.0106965540E-002  +3.7841070561E-002 +3.6710535072E+000  +3.8589035133E-002 +4.3262547017E+000  +8.4964043930E-001 -4.8640025778E+000 
13649824.781 +8.3643149651E-001 -2.0056504903E+000  +3.9778080177E-002 +3.7719235338E+000  +3.9301320404E-002 +4.2879152913E+000  +8.6422289947E-001 -2.2123279517E+000 
13774969.962 +8.7668558702E-001 -3.4464007529E+000  +3.9786350072E-002 +3.1855787759E+000  +3.9756715342E-002 +3.5415587788E+000  +8.6506719210E-001 -3.2608294550E+000 
13900115.144 +8.7790418062E-001 -4.3800621386E+000  +3.8815749847E-002 +6.8792464182E-002  +3.8887787866E-002 +1.7659749213E+000  +8.8348972326E-001 -4.0596826620E+000 
14025260.325 +8.9657106221E-001 -3.7533976495E+000  +3.8311894686E-002 +2.8834840111E+000  +3.9089317345E-002 +2.0671978878E+000  +9.1762308536E-001 -3.8515923496E+000 
14150405.507 +9.1734122339E-001 -2.5190089452E+000  +4.0661296717E-002 +2.0836324553E+000  +3.7829308420E-002 +3.5199106155E+000  +9.0170879295E-001 -4.5169169658E+000 
14275550.688 +9.3407650021E-001 -6.2069283342E+000  +3.9831791782E-002 -6.0708466051E-001  +3.9083517576E-002 +3.1406815169E+000  +9.5208051815E-001 -4.2089995586E+000 
14400695.870 +9.5152820554E-001 -5.3564034860E+000  +3.9550518903E-002 +2.0673895169E+000  +3.9099239837E-002 +5.0207059873E+000  +9.6654577485E-001 -4.8625771310E+000 
