!  2-Port S-parameters saved by WinCal
! VAR MeasName=S-Parameters (CALIBRATED_DATA) read from VNA (P5004A)
! VAR MeasDate=29/08/2024 11:03:35
! VAR NAME=S2_r9c3_pristine_9k-100M_3
! VAR FILENAME=S2_r9c3_pristine_9k-100M_3.S2P
! VAR DATE=29/08/2024 11:03:35
! VAR PHYS_PORTS=1,2
! VAR ObjTypeName=DATASET
! VAR IndexType=Frequency
!
# Hz S MA R 50
9000.000 +8.7195336509E-002 -1.6455146425E+002  +1.1019150125E-003 -8.1675149291E+001  +6.1247312848E-003 +1.2401135988E+002  +2.9074284843E-001 -1.4485579487E+002 
134145.181 +1.1051327485E-001 +1.6993484413E+002  +1.9879723771E-004 -1.2651964793E+002  +5.0335999466E-004 +1.1394109343E+002  +2.3804991160E-001 -1.7080564026E+002 
259290.363 +1.1286578033E-001 +1.6968066960E+002  +2.1820121518E-004 +1.0273153885E+002  +3.3382333366E-004 +1.0047617557E+002  +2.4155217709E-001 -1.6915795352E+002 
384435.544 +1.1454497998E-001 +1.7032521324E+002  +9.6296548204E-004 -7.6658476020E+001  +3.4241931717E-004 -1.3177108670E+002  +2.4331933315E-001 -1.6863297150E+002 
509580.726 +1.1333855440E-001 +1.7111395528E+002  +1.0990382045E-003 -4.9604799049E+001  +9.9429665930E-004 +9.7653915319E+001  +2.3031929493E-001 -1.6717063405E+002 
634725.907 +1.1558773260E-001 +1.7097259131E+002  +1.1597952471E-003 -7.9026920183E+001  +1.3866417311E-003 +1.0585062725E+002  +2.4694650118E-001 -1.6664553442E+002 
759871.089 +1.1850469991E-001 +1.7038774939E+002  +8.1003172252E-004 -8.4704730989E+001  +1.1726924044E-003 +1.0011789252E+002  +2.5138834329E-001 -1.6660978279E+002 
885016.270 +1.2025305653E-001 +1.6896759935E+002  +1.3269385702E-003 -6.3425538681E+001  +1.0025678145E-003 +1.3222111913E+002  +2.4266120699E-001 -1.6699021770E+002 
1010161.452 +1.1731481173E-001 +1.6930040524E+002  +1.8754106509E-003 -3.2031390557E+001  +3.1224095832E-003 -1.1600424626E+002  +2.1032997620E-001 -1.7111464713E+002 
1135306.633 +1.1815870129E-001 +1.6967186379E+002  +3.0914088156E-003 +2.4455096971E+001  +3.6348950888E-003 -1.6394294422E+002  +2.0451310889E-001 -1.6926432467E+002 
1260451.815 +1.2326975390E-001 +1.7069288163E+002  +2.3842827830E-003 -5.8622801431E+000  +2.5734125646E-003 +1.5856624292E+002  +2.1412194473E-001 -1.6028633550E+002 
1385596.996 +1.2566305843E-001 +1.7181473341E+002  +1.5984449974E-003 -7.4768000942E+001  +2.5330881797E-003 +1.5058013187E+002  +2.5744950144E-001 -1.5952869370E+002 
1510742.178 +1.2980062165E-001 +1.7099759505E+002  +1.6285153040E-003 -4.5404565311E+001  +2.3074712290E-003 +1.5989510126E+002  +2.6118998667E-001 -1.5623665988E+002 
1635887.359 +1.3038349286E-001 +1.7068101215E+002  +1.4759198533E-003 -7.5131622720E+000  +2.1694214462E-003 -1.6408783421E+002  +2.5391500009E-001 -1.5858566606E+002 
1761032.541 +1.2826946086E-001 +1.7006951574E+002  +4.1338913522E-003 +2.6875639628E+001  +2.4048474926E-003 -1.2750714745E+002  +2.4174580533E-001 -1.5820648233E+002 
1886177.722 +1.2954078616E-001 +1.6913452320E+002  +4.6218387669E-003 +7.6610840649E+001  +5.1632202973E-003 -7.1170521371E+001  +2.1990101171E-001 -1.6725286537E+002 
2011322.904 +1.3229733963E-001 +1.6762460447E+002  +7.4021983965E-003 +5.2430608691E+001  +6.9675280042E-003 -8.4350200159E+001  +2.1901802758E-001 -1.5701933939E+002 
2136468.085 +1.3375784997E-001 +1.6599145978E+002  +9.1750744005E-003 +8.3343876228E+001  +1.1536126089E-002 -2.5384333529E+001  +2.0958167200E-001 -1.7119998389E+002 
2261613.267 +1.3456303288E-001 +1.6641107627E+002  +1.3417081807E-002 +6.9972195415E+001  +1.5953357128E-002 -4.8634411628E+001  +1.8344390441E-001 -1.6629407758E+002 
2386758.448 +1.3620294871E-001 +1.6336436549E+002  +3.2643183529E-002 +1.0625502764E+002  +3.2390255018E-002 -1.3563868194E+001  +1.7011476395E-001 +1.5641146016E+002 
2511903.630 +1.3841840787E-001 +1.6548866522E+002  +3.0384225692E-002 +8.0373506789E+001  +2.8503390135E-002 -4.5125024510E+001  +1.2498330404E-001 -1.7918330732E+002 
2637048.811 +1.2019421103E-001 +1.6653570617E+002  +5.7432945464E-002 +7.4970419530E+001  +6.4338639219E-002 -3.5903000990E+001  +1.3816034438E-001 +1.3622847704E+002 
2762193.992 +1.3846380390E-001 -1.7871754731E+002  +7.8039116919E-002 +7.0842227870E+000  +7.9940946456E-002 -9.7633455907E+001  +4.4975030444E-002 -5.1772802742E+001 
2887339.174 +1.3409549221E-001 +1.7917620197E+002  +5.5132721849E-002 -4.4530356255E+000  +6.5021054985E-002 -1.0536945339E+002  +1.4175234936E-001 -1.2145272036E+002 
3012484.355 +1.4846144388E-001 +1.7477399968E+002  +5.1290379423E-002 -2.0792382643E+001  +5.2261567758E-002 -1.2006125613E+002  +1.9751632272E-001 -9.9988352194E+001 
3137629.537 +1.4038443126E-001 +1.7657791599E+002  +4.0986177928E-002 -1.7331462598E+001  +4.2246929456E-002 -1.2121408521E+002  +2.2962637123E-001 -1.2733085993E+002 
3262774.718 +1.3252129740E-001 +1.6955896627E+002  +7.0069610531E-002 +2.7068080098E+001  +7.3340251189E-002 -6.1119694999E+001  +4.3443686511E-002 -1.1245969335E+002 
3387919.900 +1.3993514037E-001 +1.6414269908E+002  +6.7201607276E-002 +3.9107001542E+001  +6.6631027617E-002 -4.3993337873E+001  +4.8143225901E-002 +1.7247322229E+002 
3513065.081 +1.3812287823E-001 +1.6045793529E+002  +5.9795974064E-002 +6.3492519293E+001  +5.5534008859E-002 -2.0753040559E+001  +1.9089524464E-001 +1.6702290430E+002 
3638210.263 +1.6785058845E-001 +1.4926173854E+002  +1.1636042237E-001 +1.2101786044E+002  +1.0860291302E-001 +3.9010988825E+001  +5.7241608673E-001 +1.3357152521E+002 
3763355.444 +1.5185791566E-001 +1.5764046095E+002  +6.4997837097E-002 +6.5795569724E+001  +6.3945793083E-002 -1.4137365835E+001  +1.7153692994E-001 +1.5343958531E+002 
3888500.626 +1.8333758226E-001 +1.4374809274E+002  +1.3354590854E-001 +1.1971587176E+002  +1.2495409058E-001 +4.5421313270E+001  +5.6610579230E-001 +1.3360198127E+002 
4013645.807 +1.7144680552E-001 +1.5647536322E+002  +5.4651127115E-002 +8.1462175940E+001  +5.0666223039E-002 +1.5969620069E+001  +2.9801884638E-001 +1.6739208935E+002 
4138790.989 +1.7247280097E-001 +1.5079439740E+002  +8.6154745552E-002 +9.7727593332E+001  +7.6263939476E-002 +2.8059252488E+001  +4.0353814648E-001 +1.4958072654E+002 
4263936.170 +1.7967792391E-001 +1.5206205028E+002  +7.1060880958E-002 +9.3454377709E+001  +7.6480215739E-002 +2.9675783230E+001  +3.9403833492E-001 +1.5616119962E+002 
4389081.352 +2.0391288807E-001 +1.5047341728E+002  +1.0365500335E-001 +9.1285972177E+001  +9.6353185183E-002 +3.4845019377E+001  +4.2939707219E-001 +1.3230136576E+002 
4514226.533 +1.7010973519E-001 +1.4281159964E+002  +1.7687495176E-001 +7.4182276166E+001  +1.5880378333E-001 +1.7642478083E+001  +4.4440676085E-001 +1.0596642615E+002 
4639371.715 +2.6523003124E-001 +1.3956297661E+002  +2.4571073937E-001 +1.4059118327E+002  +2.3958836173E-001 +8.3478602818E+001  +1.2696313974E+000 +1.4172525947E+002 
4764516.896 +3.5262968417E-001 +1.2284887085E+002  +4.6671989594E-001 +1.1128340596E+002  +4.5765779223E-001 +6.2186674262E+001  +1.4780095715E+000 +9.6272024416E+001 
4889662.078 +3.3002443127E-001 +1.1049698506E+002  +3.9925762085E-001 +5.2822401808E+001  +3.8761277224E-001 +9.6455153551E+000  +7.8699690577E-001 +3.1632155860E+000 
5014807.259 +3.0576141060E-001 +1.2640025427E+002  +2.6231385054E-001 +1.0883744661E+002  +2.6475974422E-001 +6.4243444951E+001  +8.9672585954E-001 +1.1960740580E+002 
5139952.441 +2.9881137600E-001 +1.3532306876E+002  +2.7649115876E-001 +1.0844183932E+002  +2.7403125764E-001 +6.5328836711E+001  +1.1923763108E+000 +1.1794700100E+002 
5265097.622 +3.7625735863E-001 +1.3176501499E+002  +2.5115867772E-001 +1.2262561282E+002  +2.4464952571E-001 +8.3506122155E+001  +9.7028261846E-001 +1.3214533112E+002 
5390242.804 +3.2052743437E-001 +1.3664572307E+002  +2.3396246909E-001 +9.2350792530E+001  +2.3179915793E-001 +5.7317307311E+001  +9.7151289995E-001 +1.0858515311E+002 
5515387.985 +3.7673237024E-001 +1.3183025481E+002  +2.7638573826E-001 +1.0570709820E+002  +2.5530893894E-001 +7.3275022796E+001  +1.1042612382E+000 +1.2187556919E+002 
5640533.166 +3.7920487633E-001 +1.3325202613E+002  +2.8949278881E-001 +8.7919849060E+001  +2.7607190218E-001 +5.6561136516E+001  +1.0989070600E+000 +9.7704172918E+001 
5765678.348 +3.6485451074E-001 +1.2059622205E+002  +3.0843801456E-001 +9.2676770155E+001  +3.0134025399E-001 +6.3838934618E+001  +1.1822006328E+000 +1.2306163285E+002 
5890823.529 +4.9052480167E-001 +1.2504508445E+002  +3.1341895829E-001 +9.0050737081E+001  +3.1579448264E-001 +6.6028879723E+001  +1.0665794411E+000 +1.0388428407E+002 
6015968.711 +5.3818605934E-001 +1.1592848744E+002  +4.3989303824E-001 +7.6633470770E+001  +4.1472926397E-001 +5.2790887738E+001  +1.2473935772E+000 +8.1228257468E+001 
6141113.892 +5.7218454514E-001 +1.0409409885E+002  +5.3989535299E-001 +6.9813094987E+001  +4.9896962352E-001 +5.3353884630E+001  +1.4246372761E+000 +8.1998380019E+001 
6266259.074 +6.0395099199E-001 +1.0283390632E+002  +5.2860571514E-001 +5.5290741106E+001  +5.1173882857E-001 +3.7789934032E+001  +1.4516570081E+000 +5.5040978750E+001 
6391404.255 +6.8218585731E-001 +9.9372449476E+001  +5.7879752268E-001 +5.4855555003E+001  +5.5464573653E-001 +3.9905613071E+001  +1.6677681562E+000 +5.4698266426E+001 
6516549.437 +7.4959236069E-001 +8.7304265258E+001  +5.2698885346E-001 +4.3168295891E+001  +5.0331535961E-001 +3.0620548725E+001  +1.0362453455E+000 +4.3538798937E+001 
6641694.618 +8.2933525273E-001 +7.3453854168E+001  +5.3392141913E-001 +3.1447175066E+001  +5.3133314904E-001 +1.9210410129E+001  +9.3997331961E-001 +2.5330403311E+001 
6766839.800 +6.8383262059E-001 +5.7574268134E+001  +5.2117170245E-001 +1.3581470920E+001  +5.2074526679E-001 +4.0370365353E+000  +1.0910033227E+000 +9.7586564441E+000 
6891984.981 +1.0457943175E+000 +4.5810945968E+001  +5.7171080758E-001 +1.6175960182E+001  +5.7123302849E-001 +8.0301850241E+000  +8.8239734790E-001 +9.4255314844E+000 
7017130.163 +1.0010066408E+000 +2.1437694326E+001  +5.5426089243E-001 +2.6632185127E+000  +5.5299990163E-001 -2.5709703819E+000  +8.8509921826E-001 -1.2338086175E+001 
7142275.344 +7.6491261912E-001 +2.0906461865E+001  +4.5112316840E-001 -1.7146513175E-002  +4.4955005054E-001 -9.3735431791E-001  +9.6366132259E-001 -3.3694764988E+000 
7267420.526 +8.0776758556E-001 +5.4389715198E+000  +4.3272012933E-001 +5.2440603869E-001  +4.2640093075E-001 +3.1193108628E-001  +9.9333217097E-001 -1.0464446229E+001 
7392565.707 +8.0842785546E-001 -2.5816285165E+000  +3.9539419144E-001 +2.9636571577E+000  +3.8890446088E-001 +4.5038670116E+000  +1.0299112750E+000 -1.0004742583E+001 
7517710.889 +8.8089761613E-001 -1.5163768402E+000  +3.6994097907E-001 +3.1817887204E+000  +3.6841462420E-001 +7.6116770349E+000  +8.5073916322E-001 -2.2493566184E+000 
7642856.070 +5.6933772186E-001 +6.7973225835E+000  +3.3020271208E-001 +1.5240445598E+000  +3.3959116860E-001 +4.7895115883E+000  +6.6087536409E-001 -1.2566751153E+001 
7768001.252 +5.0518531521E-001 +1.7456287195E+001  +3.0805947407E-001 -2.0699667816E-002  +3.1446439476E-001 +4.9598311857E+000  +5.8698011706E-001 -6.8199841643E+000 
7893146.433 +5.4559603463E-001 +7.2794604393E+000  +3.0996702246E-001 -9.5818321012E-001  +3.0843558862E-001 +4.6887722120E+000  +5.1746776931E-001 +1.3057928517E+000 
8018291.615 +4.9640945097E-001 +2.6533664759E+001  +2.9354690640E-001 +3.8182006684E-001  +3.0049291756E-001 +6.6369587225E+000  +5.2596126876E-001 -5.4848792730E+000 
8143436.796 +4.0712272976E-001 +2.1949687597E+001  +2.8144801616E-001 -2.7676066361E+000  +2.8066031879E-001 +5.6946018395E+000  +4.7136157258E-001 +1.9626525645E+001 
8268581.977 +3.8464940927E-001 +3.1309887841E+001  +2.7713173660E-001 -2.6049314437E+000  +2.7596973967E-001 +7.4890993235E+000  +4.5802028950E-001 +5.3286990315E-001 
8393727.159 +4.2753401834E-001 +2.2097354171E+001  +2.7999015835E-001 -3.8545203019E+000  +2.7753080237E-001 +6.4587295052E+000  +3.9280959623E-001 +9.1797054198E+000 
8518872.340 +3.5604393991E-001 +2.7990900369E+001  +2.7147001086E-001 -4.5915022916E+000  +2.6767628011E-001 +7.8734141919E+000  +4.0916399923E-001 +6.6278460349E+000 
8644017.522 +3.7820957896E-001 +2.8974999927E+001  +2.6929577962E-001 -4.8075842732E+000  +2.6697565579E-001 +7.7601063067E+000  +3.3320955825E-001 +8.3061000843E+000 
8769162.703 +3.5649001990E-001 +1.9860411558E+001  +2.7163981632E-001 -5.1348961048E+000  +2.6924114841E-001 +8.1336076820E+000  +2.9890918941E-001 +1.6373216602E+001 
8894307.885 +3.0844093222E-001 +2.4074150540E+001  +2.6611372038E-001 -5.4961179095E+000  +2.5816398611E-001 +8.3119768161E+000  +2.9813691021E-001 +1.7439208558E+001 
9019453.066 +2.9363177267E-001 +2.0122552697E+001  +2.6257392631E-001 -5.1459319719E+000  +2.6731255179E-001 +9.3734285690E+000  +3.8967754699E-001 +6.0638550675E+000 
9144598.248 +2.7472751301E-001 +2.3951949300E+001  +2.5890303664E-001 -6.4377035415E+000  +2.6167216284E-001 +9.2327103955E+000  +3.3942285388E-001 +1.2493512366E+001 
9269743.429 +2.5838003785E-001 +1.2324893346E+001  +2.6572966782E-001 -6.2148379161E+000  +2.6465483776E-001 +9.1355873137E+000  +3.3373351124E-001 +1.4360365824E+001 
9394888.611 +2.9633130846E-001 +1.9992411593E+001  +2.6188353494E-001 -5.7525933451E+000  +2.6356793062E-001 +8.8583963497E+000  +2.8223073670E-001 -2.5208069474E+000 
9520033.792 +2.5316547055E-001 +1.1087084273E+001  +2.6707338940E-001 -6.3041942472E+000  +2.6481295082E-001 +9.5343899779E+000  +3.0369112057E-001 +4.7191343537E+000 
9645178.974 +2.7229021220E-001 +9.5844044223E+000  +2.7180991738E-001 -5.4389519426E+000  +2.6628838619E-001 +9.0681968276E+000  +2.9801758776E-001 -3.9503141207E+000 
9770324.155 +3.0141342035E-001 +1.4332115740E+001  +2.6544819600E-001 -5.8866322134E+000  +2.6318595829E-001 +1.1012709050E+001  +2.9378106137E-001 +6.4025510291E+000 
9895469.337 +2.6067509010E-001 +4.5518909425E+000  +2.6566550060E-001 -5.9406622621E+000  +2.6736786013E-001 +1.0156034522E+001  +2.6564858666E-001 +6.1513602643E+000 
10020614.518 +3.0181375905E-001 +1.0061439830E+001  +2.6887558021E-001 -5.8656337643E+000  +2.7144400975E-001 +1.0061805118E+001  +2.4456613857E-001 -2.7225638576E+000 
10145759.700 +2.9312180963E-001 +9.4233989185E+000  +2.7119960558E-001 -4.0418167972E+000  +2.6955813865E-001 +1.0959739894E+001  +3.0385898803E-001 +7.6318442417E+000 
10270904.881 +2.7047248134E-001 +1.6659515162E+001  +2.7014826096E-001 -4.8053128893E+000  +2.6698740884E-001 +1.1622575799E+001  +3.0911466365E-001 +1.5635808041E+000 
10396050.063 +3.0477090720E-001 +1.7392078786E+001  +2.6832358843E-001 -4.2589035079E+000  +2.6825970368E-001 +1.1889835886E+001  +2.9693345679E-001 +1.3018937658E+001 
10521195.244 +2.9189292921E-001 +1.8503479454E+001  +2.6938526891E-001 -2.8413832625E+000  +2.6899059981E-001 +1.2347887372E+001  +3.3347908065E-001 +6.3107711772E+000 
10646340.426 +3.0451518237E-001 +1.2851939349E+001  +2.7336438291E-001 -2.9409226663E+000  +2.7061640048E-001 +1.1560303745E+001  +3.2434473308E-001 +1.3233758833E+001 
10771485.607 +2.9950550637E-001 +1.7819648990E+001  +2.7447503063E-001 -3.1991548027E+000  +2.7189389654E-001 +1.1428508239E+001  +3.4510996694E-001 +1.2344685424E+001 
10896630.788 +2.7534510156E-001 +2.1770449958E+001  +2.7527016394E-001 -3.7049504796E+000  +2.7303849716E-001 +1.1174775866E+001  +3.1659469315E-001 +1.0521004040E+001 
11021775.970 +2.9743411948E-001 +2.1092465226E+001  +2.7800004207E-001 -2.8531849342E+000  +2.7669873956E-001 +1.1301084561E+001  +3.2437425240E-001 +5.2404881619E+000 
11146921.151 +3.1629854340E-001 +1.6629384683E+001  +2.7963349122E-001 -2.4652482127E+000  +2.7643520456E-001 +1.0975722860E+001  +3.5609179917E-001 +1.4398173481E+001 
11272066.333 +3.1784872592E-001 +1.9016582310E+001  +2.8379672361E-001 -1.6008899057E+000  +2.8339093372E-001 +1.0897030488E+001  +3.5847344526E-001 +3.0571933811E+000 
11397211.514 +3.5148855519E-001 +2.3053232498E+001  +2.8042403688E-001 -1.7150797323E+000  +2.8321606085E-001 +1.0706745186E+001  +3.3979979156E-001 +1.2938556830E+001 
11522356.696 +3.5788768386E-001 +1.6332014070E+001  +2.8848763389E-001 -6.0221810242E-001  +2.8826027803E-001 +1.0957589162E+001  +3.9211247549E-001 +5.5920404380E+000 
11647501.877 +3.3025441679E-001 +2.0243227367E+001  +2.8743125550E-001 -1.4088489622E+000  +2.8595486217E-001 +9.8286207518E+000  +3.5761580870E-001 +1.4780143925E+001 
11772647.059 +3.5175498091E-001 +1.6866185109E+001  +2.9434404501E-001 -1.1189099492E+000  +2.8977204259E-001 +1.0021255154E+001  +3.6902017728E-001 +7.3065995626E+000 
11897792.240 +3.4472350844E-001 +1.5085739935E+001  +2.9695402226E-001 -8.5390007033E-001  +2.9583759042E-001 +9.8655507392E+000  +4.0241822736E-001 +6.1736206365E+000 
12022937.422 +3.7932261008E-001 +1.2772965017E+001  +3.0048859721E-001 -3.7780836113E-001  +2.9821702592E-001 +9.3636529773E+000  +3.5728169552E-001 +7.7820870707E+000 
12148082.603 +4.0271392023E-001 +1.8779714378E+001  +3.0057136862E-001 +6.0105038452E-002  +2.9741994038E-001 +9.5031926928E+000  +3.8770707475E-001 +6.4349008667E+000 
12273227.785 +3.7619974503E-001 +1.0428039865E+001  +3.0573326431E-001 -7.6010282186E-002  +3.0392604581E-001 +8.5018200651E+000  +3.9475459908E-001 +8.3532098041E+000 
12398372.966 +4.1687783701E-001 +8.1858568302E+000  +3.1188524351E-001 +8.4355440080E-001  +3.0580998929E-001 +8.8587719614E+000  +4.3335930311E-001 +4.7882840192E+000 
12523518.148 +3.9685973956E-001 +6.4453581799E+000  +3.1508755974E-001 +3.0326425053E-001  +3.1057023214E-001 +7.2836108314E+000  +3.9822256487E-001 +5.7234314629E+000 
12648663.329 +4.1980582236E-001 +7.3568946712E+000  +3.1713570500E-001 +7.9891029020E-001  +3.1428039551E-001 +7.5444060910E+000  +4.4074846421E-001 +3.9406307716E+000 
12773808.511 +4.3540207979E-001 +5.9580271657E+000  +3.2035672490E-001 +7.5082016199E-001  +3.1715937885E-001 +6.9189619545E+000  +4.1394326120E-001 +4.5612512260E+000 
12898953.692 +4.2861212997E-001 +4.3621758043E+000  +3.2467248146E-001 +9.0457921631E-001  +3.2069070092E-001 +6.2511729262E+000  +4.5783543936E-001 +3.6009451325E+000 
13024098.874 +4.4745600036E-001 +5.9824122035E+000  +3.2664933853E-001 +9.9690263962E-001  +3.2173188610E-001 +6.0867400400E+000  +4.6824270773E-001 +1.5615813785E+000 
13149244.055 +4.7726236289E-001 +4.1696918978E+000  +3.3041240221E-001 +1.5102923617E+000  +3.2713251888E-001 +6.0328729573E+000  +4.7804064530E-001 +1.6047802367E+000 
13274389.237 +4.7525672249E-001 +1.3610841337E+000  +3.3362461448E-001 +1.4124596808E+000  +3.2993306000E-001 +5.2392406515E+000  +4.8032960861E-001 +2.3601670934E+000 
13399534.418 +5.1060425157E-001 +1.7023325258E+000  +3.3615055596E-001 +1.6942514000E+000  +3.3299710292E-001 +5.1829339495E+000  +5.0262793533E-001 +2.2743896295E-001 
13524679.599 +5.1583320629E-001 -1.4344617917E+000  +3.4024028951E-001 +1.4046541162E+000  +3.3846228231E-001 +4.3078956415E+000  +5.0439708685E-001 -2.9155611931E+000 
13649824.781 +5.2743979007E-001 -2.5111120402E+000  +3.4427929926E-001 +1.4104998947E+000  +3.3887926658E-001 +3.7970351746E+000  +5.2137214433E-001 -2.0147899895E-001 
13774969.962 +5.5166446039E-001 -5.4245935767E-001  +3.4369655731E-001 +1.3547732920E+000  +3.3928617127E-001 +3.2842324124E+000  +5.2057250668E-001 -1.2027943736E+000 
13900115.144 +5.4832152698E-001 -3.0166577398E+000  +3.4878212525E-001 +1.4176394136E+000  +3.4256342924E-001 +3.1017524538E+000  +5.6547014232E-001 -6.7056082582E-001 
14025260.325 +5.6102702839E-001 -3.5637811520E+000  +3.5000637856E-001 +1.5489192434E+000  +3.4550391437E-001 +2.8566822723E+000  +5.8979830342E-001 -1.6194894827E+000 
14150405.507 +5.9164433802E-001 -3.6228977621E+000  +3.5513266546E-001 +1.3029078909E+000  +3.4912676228E-001 +2.4946523264E+000  +5.9736878089E-001 -5.6935539484E+000 
14275550.688 +6.0976910387E-001 -5.1076279439E+000  +3.5602494466E-001 +1.0462872178E+000  +3.5210153703E-001 +1.9024295361E+000  +6.0344249483E-001 -3.9969415978E+000 
14400695.870 +5.9106157535E-001 -6.9466321520E+000  +3.5813761821E-001 +5.6310196573E-001  +3.5351927426E-001 +1.2082483344E+000  +6.1846933492E-001 -4.9911903179E+000 
