!  2-Port S-parameters saved by WinCal
! VAR MeasName=S-Parameters (CALIBRATED_DATA) read from VNA (P5004A)
! VAR MeasDate=29/08/2024 13:51:07
! VAR NAME=S2_r9c6_RESET3_9k-100M_3
! VAR FILENAME=S2_r9c6_RESET3_9k-100M_3.S2P
! VAR DATE=29/08/2024 13:51:07
! VAR PHYS_PORTS=1,2
! VAR ObjTypeName=DATASET
! VAR IndexType=Frequency
!
# Hz S MA R 50
9000.000 +9.2763038372E-002 -1.7355654756E+002  +5.0490757122E-003 +2.0109811292E+001  +3.8228396249E-003 +1.1235818394E+002  +2.0116655161E-001 -1.4337394013E+002 
134145.181 +1.1116813200E-001 +1.6964317757E+002  +2.8268900718E-004 -5.0299012299E+001  +6.6684877183E-005 -9.0218644222E+001  +2.4115067344E-001 -1.7091669212E+002 
259290.363 +1.1267314775E-001 +1.6976080872E+002  +3.9238222032E-004 -5.7229655412E+001  +1.0078022157E-003 -1.6383628016E+002  +2.4218322991E-001 -1.6986123186E+002 
384435.544 +1.1321342241E-001 +1.6984233892E+002  +5.6415679834E-004 -8.3920922019E+001  +3.6782144198E-004 +5.3412595424E+001  +2.5215301103E-001 -1.6883182468E+002 
509580.726 +1.1553799421E-001 +1.7156538253E+002  +1.0876332301E-003 -4.3953779644E+001  +1.5606375231E-003 +3.2381869600E+001  +2.5468566223E-001 -1.6455586498E+002 
634725.907 +1.1732632307E-001 +1.7147585328E+002  +5.2843492828E-004 -8.1059166008E+001  +1.6340445569E-003 -3.5599224259E+001  +2.4724149320E-001 -1.6323146528E+002 
759871.089 +1.1854187814E-001 +1.7181468031E+002  +5.6519459791E-004 -5.0121323156E+001  +4.9702399682E-004 -7.2759569114E+000  +2.5026489579E-001 -1.6591040046E+002 
885016.270 +1.2029696759E-001 +1.6845311760E+002  +4.3783600824E-004 -8.6360311648E+001  +6.1552412137E-004 +1.2030647739E+002  +2.4841308314E-001 -1.6642304703E+002 
1010161.452 +1.1604473996E-001 +1.6937622991E+002  +4.2976594179E-004 -4.9518989267E+001  +5.4954407941E-004 -1.2699525049E+002  +2.1195967735E-001 -1.6744594570E+002 
1135306.633 +1.1487899292E-001 +1.6718251188E+002  +1.6483619084E-003 -1.6215093367E+002  +1.0678888065E-003 +7.4870006233E+001  +2.2088863241E-001 -1.6423163876E+002 
1260451.815 +1.2032981896E-001 +1.6818403479E+002  +2.7382144473E-003 -6.6627596553E+000  +1.2259421497E-003 -6.9887481642E+000  +2.2489983322E-001 -1.5360684254E+002 
1385596.996 +1.2387957157E-001 +1.7349212215E+002  +2.4536519493E-003 -1.7190827550E+002  +2.1931289823E-003 -7.4690303048E+001  +2.6827190530E-001 -1.5230043273E+002 
1510742.178 +1.2961069123E-001 +1.7216833413E+002  +1.8351769405E-004 -6.7183775164E+001  +1.1566944765E-003 +1.7709333778E+002  +2.6340472677E-001 -1.5725170368E+002 
1635887.359 +1.2803036618E-001 +1.7119721030E+002  +4.0042844323E-004 +1.7595218864E+001  +9.6708797482E-004 +1.1341916233E+002  +2.5064273219E-001 -1.5976980340E+002 
1761032.541 +1.2861944001E-001 +1.6910010338E+002  +1.6675854621E-003 -6.5492200312E+001  +2.1477053631E-004 +1.6055322630E+002  +2.2214476646E-001 -1.6195191507E+002 
1886177.722 +1.2410156242E-001 +1.6987318315E+002  +2.3067749985E-003 +7.7543082187E+001  +8.7111067025E-003 -7.4893192734E+001  +1.4330460395E-001 -1.5360549127E+002 
2011322.904 +1.2969368028E-001 +1.6619081296E+002  +3.5326102340E-003 +9.4361858271E+001  +9.7352067801E-004 -1.3221789625E+002  +2.3397265516E-001 -1.4728386988E+002 
2136468.085 +1.3441542550E-001 +1.6727290819E+002  +3.8137960281E-003 +2.9102552579E+001  +1.2137139671E-003 -2.9532804987E+001  +1.7892557806E-001 -1.6851342680E+002 
2261613.267 +1.3155240839E-001 +1.6577795021E+002  +4.0410031369E-003 +4.4049684384E+001  +4.0952364676E-003 -3.6290184557E+001  +1.4809352966E-001 -1.7291300834E+002 
2386758.448 +1.3540756160E-001 +1.6170703877E+002  +1.8791896225E-003 +1.1616460936E+002  +3.4665507145E-003 -4.8427128690E+001  +2.3548782901E-001 -1.7882895543E+002 
2511903.630 +1.4355087618E-001 +1.6489832054E+002  +6.9636687188E-004 +8.3037009566E+001  +3.5251164231E-003 -3.1235960470E+001  +1.6720428565E-001 -1.7838619580E+002 
2637048.811 +1.3173342589E-001 +1.7158980956E+002  +5.4020545390E-003 +3.3047057079E+001  +2.7234770718E-003 -8.3343916397E+001  +3.3216891313E-001 +1.6916845473E+002 
2762193.992 +1.1694921678E-001 +1.6745991356E+002  +9.5294415839E-003 +6.2391059764E+001  +9.8559802882E-003 -6.7013752811E+001  +1.6946536946E-001 +1.6743499733E+002 
2887339.174 +8.9589205326E-002 -1.6790172725E+002  +1.5207144386E-002 -5.5126365366E+000  +2.2005965714E-002 -1.0916494798E+002  +3.5576364099E-001 +1.0598735405E+001 
3012484.355 +1.0236331109E-001 -1.7932548460E+002  +1.7488778799E-002 -1.2156393905E+001  +3.4227140342E-003 +1.0811290579E+002  +3.3285946318E-001 -7.7608651139E+001 
3137629.537 +9.4232869951E-002 +1.6197103796E+002  +1.0963928945E-002 -1.1156477492E+002  +1.4197652618E-002 -1.0861572468E+002  +9.9240698343E-001 -6.9058153141E+001 
3262774.718 +1.2797412106E-001 +1.6895396005E+002  +5.5509401336E-002 +5.2613251411E+001  +5.6782909679E-002 -1.7636820389E+001  +1.6771549274E+000 +1.0947731525E+002 
3387919.900 +1.1371484359E-001 +1.5956275539E+002  +1.5493414309E-002 -4.0895355461E+001  +2.4597938236E-002 -5.8052624326E+001  +1.7518412407E-001 +1.2353801669E+002 
3513065.081 +1.3584287671E-001 +1.6408067354E+002  +2.9866481035E-002 +9.7814248835E+001  +2.1268000877E-002 -3.7400778237E+000  +3.8623348806E-001 +1.1164808863E+002 
3638210.263 +1.7004186640E-001 +1.3711781325E+002  +1.3477780326E-002 +1.4403991141E+001  +3.0691256719E-002 +5.3170932727E+000  +3.5352829300E-001 +8.7242347528E+001 
3763355.444 +1.6614839502E-001 +1.4699540519E+002  +1.3184380241E-002 +6.9857329090E+001  +1.3552456754E-002 +1.8917258255E+001  +2.8405850314E-001 +9.6522601900E+001 
3888500.626 +1.7059429003E-001 +1.5199196835E+002  +1.1819279959E-002 +1.1101912847E+002  +8.1648479346E-003 -1.0072909598E+001  +6.3385537542E-001 +1.4917126806E+002 
4013645.807 +1.4177312367E-001 +1.4400432474E+002  +1.7762542439E-002 +9.6684912834E+001  +4.4192368429E-003 -2.3918135136E+001  +3.4939720135E-001 +1.4418640936E+002 
4138790.989 +1.8435810079E-001 +1.4785843207E+002  +1.4087504120E-002 +4.8418203103E+001  +1.1012396468E-002 -1.4562828420E+001  +3.1329387812E-001 +1.3500186531E+002 
4263936.170 +2.0796990418E-001 +1.4070229545E+002  +4.0645343459E-002 +8.1579087285E+001  +2.6989237208E-002 +5.9531268833E+001  +7.4778281931E-001 +9.5314425681E+001 
4389081.352 +2.0125795196E-001 +1.3895591449E+002  +3.1084746189E-002 +1.1459916041E+002  +2.6446374053E-002 +2.4218411814E+001  +6.7559325978E-001 +1.1312097774E+002 
4514226.533 +1.8820116838E-001 +1.3388499291E+002  +4.0292776820E-002 +4.7653866487E+001  +4.1979044347E-002 -8.7134820459E+000  +1.0843251545E+000 +8.3832750344E+001 
4639371.715 +2.6671313088E-001 +1.3735843356E+002  +4.0551206213E-002 +1.1584932650E+002  +4.1037010457E-002 +5.5979703736E+001  +1.7058962563E+000 +7.5366567533E+001 
4764516.896 +4.3182686435E-001 +1.2174074857E+002  +6.9470472278E-002 +9.3971777356E+001  +3.7785241830E-002 -1.2459833400E+001  +8.1723062451E-001 +1.1630861221E+001 
4889662.078 +4.3374837271E-001 +1.1859819484E+002  +7.3865323732E-002 -3.5269919208E+001  +1.8103158617E-001 -7.1872203903E+001  +3.1130413831E+000 -1.0069339172E+002 
5014807.259 +4.0513755584E-001 +1.3208502757E+002  +1.7018594015E-001 -1.5807850280E+002  +9.0057871712E-002 +1.6930713832E+002  +4.8892410823E+000 -1.6774891288E+002 
5139952.441 +3.4418455931E-001 +1.1620027855E+002  +2.1476453376E-001 -1.2328583007E+002  +7.5745245305E-002 -1.2222361850E+002  +6.5527873653E+000 -1.6295423070E+002 
5265097.622 +4.1252683744E-001 +1.1314323414E+002  +9.6023969144E-002 +1.5942999612E+002  +1.0805924711E-001 +1.1356742827E+002  +2.3090288955E+000 +1.4645869456E+002 
5390242.804 +3.7449232854E-001 +1.3123683708E+002  +5.6170473359E-002 +1.0557077174E+002  +3.4038304918E-002 +7.9067712352E+001  +1.8943133394E+000 +1.0378522288E+002 
5515387.985 +4.3394444180E-001 +1.3650200312E+002  +4.6141118638E-002 +9.2199851706E+001  +6.6582860229E-002 +1.1187053044E+002  +2.2575672411E+000 +9.9613374201E+001 
5640533.166 +4.6050672849E-001 +1.3046560972E+002  +6.4310974581E-002 +6.6786311755E+001  +4.2596735395E-002 +7.3646619360E+001  +1.4306588126E+000 +8.5533766468E+001 
5765678.348 +5.2408682243E-001 +1.2141671548E+002  +5.8713946148E-002 +6.2955231788E+001  +5.7581870113E-002 +6.1500296867E+001  +2.0135192279E+000 +7.0516016395E+001 
5890823.529 +5.8479668182E-001 +1.1431665114E+002  +2.1398160651E-001 +7.6396865565E+001  +1.6888788804E-001 +6.7447725954E+001  +5.5471049662E+000 +6.6555385098E+001 
6015968.711 +6.1823261327E-001 +1.1942516390E+002  +5.3001772082E-002 +5.6522959089E+001  +5.1770317917E-002 +1.2275919286E-001  +1.5427312152E+000 +2.3404166780E+001 
6141113.892 +8.0713321442E-001 +1.0847851559E+002  +6.6324434578E-002 +5.7285522931E+001  +6.0762168582E-002 +7.8530637147E+000  +1.7027684114E+000 +3.6413724156E+001 
6266259.074 +9.6025549677E-001 +8.7964259446E+001  +1.0702758200E-001 +6.4726100220E+001  +8.6258677205E-002 +3.9533732542E+001  +2.0562863755E+000 +6.0824684237E+001 
6391404.255 +1.0364613337E+000 +9.4099521137E+001  +8.0795338413E-002 +4.1620075727E+001  +6.4521734545E-002 +4.5573616087E+001  +1.8751065650E+000 +1.4338819670E+001 
6516549.437 +1.1700606529E+000 +7.1531954339E+001  +7.7683207516E-002 +2.1217380285E+001  +9.5906782812E-002 +2.9140768875E-001  +1.3284200947E+000 +1.3207865229E+001 
6641694.618 +1.2106965284E+000 +8.1201573415E+001  +6.1788697220E-002 +1.9528076720E+001  +4.4786570768E-002 +4.7172727411E+001  +1.4054722944E+000 +7.7033163024E+000 
6766839.800 +2.1373589219E+000 +6.5611173647E+001  +1.2017934746E-001 +2.7847800392E+001  +8.6694584672E-002 +3.1608166931E+001  +1.3867417256E+000 -3.2936076586E+000 
6891984.981 +1.4619644405E+000 +3.2300327521E+001  +6.4272635207E-002 -2.8412962178E-001  +6.5269470886E-002 -3.4272866029E+000  +1.2306292501E+000 -6.1450373048E+000 
7017130.163 +1.8638192389E+000 +2.2803084136E+001  +8.2673050747E-002 +1.2401977126E+001  +6.5106300823E-002 -1.3538692672E+001  +1.2389698343E+000 -6.8130778774E+000 
7142275.344 +1.2295360212E+000 +1.0786520332E+000  +4.2679104235E-002 -5.1353736656E+000  +5.4729535885E-002 -3.2734007928E+000  +1.1998570465E+000 -1.3096562118E+001 
7267420.526 +1.2848986607E+000 +4.0830607251E+000  +4.0694684475E-002 -4.5326024122E+000  +5.3528610446E-002 -2.8159022934E+000  +1.3494803026E+000 -1.6009115096E+001 
7392565.707 +1.3035534119E+000 -4.9899265428E+000  +3.4861784960E-002 +1.0002590895E-002  +3.4052923922E-002 -7.4037475987E-001  +1.3716639386E+000 -6.4520362452E+000 
7517710.889 +1.0452560212E+000 +1.2155012016E+000  +3.2819245059E-002 -8.9919790187E+000  +1.9619069135E-002 +1.7570294981E+001  +1.1779683300E+000 -1.3173015146E+000 
7642856.070 +1.0068805549E+000 +7.4619021756E+000  +3.6219144655E-002 +6.2441155563E+000  +2.6162323351E-002 -1.2667613265E+001  +1.2222083961E+000 -5.6639166269E+000 
7768001.252 +9.7322028552E-001 +1.2978776751E+000  +3.1032262180E-002 +2.8367034737E+000  +2.7377146728E-002 +3.1937853409E+000  +9.7633476026E-001 -2.4236032659E+000 
7893146.433 +8.5805347179E-001 +9.7449950521E+000  +2.4133277716E-002 +1.5899060893E+001  +2.6728957239E-002 +1.0910449822E+000  +9.9004920079E-001 -7.1699484993E+000 
8018291.615 +7.1870909828E-001 +7.0140124945E+000  +2.2495210138E-002 -5.4155913067E+000  +2.6646349807E-002 +1.7824535672E+001  +7.5238155320E-001 -1.1561611716E+000 
8143436.796 +7.2275048087E-001 +3.8998677727E+000  +3.0276420423E-002 -3.0791836635E+000  +2.5043129095E-002 +1.4717100693E+001  +8.3953243649E-001 +4.7887517838E+000 
8268581.977 +7.5731322502E-001 +4.4587975974E+000  +2.7682135230E-002 +5.8254149829E+000  +2.6570208682E-002 +1.2473548504E+001  +7.3880930347E-001 +6.8671141172E-001 
8393727.159 +6.6147665590E-001 +4.8481562938E+000  +2.6291653915E-002 -1.3474573027E+000  +2.9918175609E-002 +9.9112859258E+000  +6.8664527154E-001 +4.6615262976E+000 
8518872.340 +6.7038883091E-001 +1.1867103604E+001  +2.4133828991E-002 -2.4934854822E+000  +2.8145223550E-002 +1.0193529508E+001  +6.9987207486E-001 +3.2057269466E+000 
8644017.522 +6.2849094910E-001 +6.5422926024E+000  +2.6351068105E-002 +3.8349816855E+000  +2.8073548129E-002 +8.0473605966E+000  +7.1607391789E-001 +1.9693394548E+000 
8769162.703 +5.4827103212E-001 +9.8256801960E+000  +2.2150666955E-002 +3.6792010735E+000  +2.4211199513E-002 +1.0074118275E+001  +6.3229544567E-001 -5.4265586821E+000 
8894307.885 +5.8676312245E-001 +2.8008293442E+000  +2.7101652168E-002 -3.3366014987E-001  +2.7072306809E-002 +9.8780565813E+000  +6.1080743704E-001 +7.2947995183E-002 
9019453.066 +5.0867816368E-001 +7.2877290440E+000  +2.4728851104E-002 -8.3454712399E+000  +3.0847354092E-002 +5.3854448772E+000  +6.0094314565E-001 +4.6213773289E-001 
9144598.248 +5.3441765042E-001 +2.6807945568E+000  +2.5668744464E-002 -1.1101471698E+001  +2.7241828780E-002 +1.5083415199E+001  +5.6357759618E-001 -3.3015264309E+000 
9269743.429 +5.9450306119E-001 +7.0265251040E+000  +2.7073003070E-002 -5.1094761682E+000  +2.2524660194E-002 +4.6718909789E+000  +5.4547791008E-001 +9.1881998187E-001 
9394888.611 +5.2142406964E-001 +2.0626705263E+000  +2.7147313903E-002 -2.9549069786E+000  +2.7337625038E-002 +1.5957318117E+001  +5.9506168235E-001 -1.1833979227E+000 
9520033.792 +5.2902148482E-001 +3.3727106438E+000  +2.7546266121E-002 -1.8073411629E+000  +2.6916649669E-002 +1.6441291942E+001  +5.8412031837E-001 -2.8698628442E+000 
9645178.974 +5.4109162670E-001 +4.1129997443E+000  +2.6978627815E-002 -1.9443932975E+000  +2.8537641382E-002 +1.7248307457E+001  +5.7512488794E-001 -2.1225890015E+000 
9770324.155 +4.9816744652E-001 -1.4228073930E+000  +2.3805663070E-002 +1.7705877773E+000  +2.7478546864E-002 +1.7469350342E+001  +5.7846213837E-001 -3.4269501826E+000 
9895469.337 +5.2526137510E-001 +2.2064357066E+000  +2.9192138916E-002 -5.2989692513E+000  +2.8923363363E-002 +1.1217975189E+001  +5.3587546191E-001 -5.3261721936E+000 
10020614.518 +5.2951530249E-001 +1.7971210254E+000  +2.4517167727E-002 -3.2534031836E-001  +2.6656570343E-002 +1.1595993799E+001  +5.8898833791E-001 -2.4930098807E+000 
10145759.700 +5.5740776293E-001 +5.2135268616E+000  +2.3865063070E-002 -8.9329428255E-001  +2.6352988460E-002 +8.8118851967E+000  +5.7817299832E-001 +7.0187859771E-002 
10270904.881 +5.2291397039E-001 +3.7517847312E+000  +2.7477814337E-002 -7.6510317824E+000  +2.3466035682E-002 +1.1364318922E+001  +5.1827177430E-001 -1.0533930216E+000 
10396050.063 +5.0965613974E-001 +7.8186176666E+000  +2.5024148152E-002 +2.7365930905E-001  +2.9333969774E-002 +1.1947028400E+001  +5.8106598128E-001 -2.5075213556E+000 
10521195.244 +5.6310597752E-001 +7.4208387099E+000  +2.7566351313E-002 -2.2879642426E+000  +2.6269857809E-002 +1.3065828560E+001  +5.5031322189E-001 +3.5392116083E+000 
10646340.426 +5.2936933517E-001 +8.3496198689E+000  +2.5353262128E-002 +8.9886107824E-001  +2.9188801685E-002 +1.8901453827E+001  +5.7950014173E-001 +6.5125383793E-001 
10771485.607 +5.8186423396E-001 +5.6001514958E+000  +3.0340122944E-002 +5.6838276427E-001  +2.8275235018E-002 +1.3696342885E+001  +5.8811670065E-001 +1.8960064866E+000 
10896630.788 +5.4583422665E-001 +5.3198299877E+000  +2.5796806118E-002 +2.9762307656E+000  +2.9300934429E-002 +1.0805952725E+001  +5.8506044748E-001 +1.2826549456E+000 
11021775.970 +5.6988538850E-001 +6.0146932101E+000  +2.7951985161E-002 -7.0467997460E+000  +2.6904976206E-002 +1.2440902134E+001  +6.0176742758E-001 +1.5093955311E+000 
11146921.151 +5.9795035241E-001 +5.7540850673E+000  +2.8581046468E-002 -2.0318431788E-001  +2.6706907143E-002 +2.0116193003E+001  +6.0025344836E-001 +5.8334313330E+000 
11272066.333 +6.0258192662E-001 +8.2192271984E+000  +2.6389523947E-002 +1.9822366692E-001  +2.5388316914E-002 +1.7627463818E+001  +5.8956866943E-001 +2.2863074319E+000 
11397211.514 +6.0963599658E-001 +3.5428222229E+000  +2.9363139924E-002 -1.8774812562E+000  +2.8421957039E-002 +1.2908911646E+001  +6.1430013689E-001 +2.4582067872E+000 
11522356.696 +5.9511813590E-001 +6.1896964561E+000  +2.8697034999E-002 +2.8504748032E+000  +3.0321136973E-002 +1.2187706682E+001  +6.2310402931E-001 -1.5231833599E+000 
11647501.877 +6.0480219265E-001 +6.0865267475E+000  +3.0044173495E-002 +4.6745520896E-001  +2.6867813139E-002 +1.4015764013E+001  +6.2462269330E-001 -1.3916115501E+000 
11772647.059 +6.4093642795E-001 +4.0929367069E+000  +2.7112414002E-002 -2.8849892948E+000  +3.0069481057E-002 +1.2016871897E+001  +6.5034056521E-001 +9.2230198846E-002 
11897792.240 +6.3821754669E-001 +5.6124861649E+000  +2.9362570016E-002 +4.3021053483E+000  +2.8277734724E-002 +1.3421177254E+001  +6.4780866717E-001 +3.5229064866E+000 
12022937.422 +6.5438622109E-001 +5.5220005440E+000  +2.8874802973E-002 +2.4945115036E+000  +2.9852811188E-002 +1.0505346223E+001  +6.4901209192E-001 +1.7602228150E+000 
12148082.603 +6.3082475429E-001 +4.3236946470E+000  +2.9370974497E-002 +2.7117717907E+000  +2.8637375326E-002 +7.9036012851E+000  +6.8042466428E-001 +6.4017981006E-001 
12273227.785 +6.6171387735E-001 +4.2955098074E+000  +3.0291298702E-002 +1.7361207204E+000  +3.0273215361E-002 +1.4487638903E+001  +6.9388665226E-001 -1.2262857793E+000 
12398372.966 +6.9911773548E-001 +2.7303505019E+000  +2.9772124512E-002 +2.6100513733E+000  +2.9969055894E-002 +1.2156956098E+001  +7.0761671739E-001 +1.0711320821E+000 
12523518.148 +6.8146154763E-001 +2.8674221624E+000  +3.1918786520E-002 +4.3189426810E+000  +2.8469758121E-002 +1.0861482784E+001  +7.4128033641E-001 -1.7395679909E-001 
12648663.329 +7.3844804907E-001 +2.0842694454E+000  +3.0829375517E-002 +5.9762969816E+000  +3.1098959007E-002 +6.3760616160E+000  +7.2701740173E-001 -2.8413774894E-001 
12773808.511 +7.2593307848E-001 +6.3968983453E-001  +3.2299784167E-002 +1.4799634198E+000  +3.1218362040E-002 +1.0669428480E+001  +7.6145827566E-001 -1.4260901474E+000 
12898953.692 +7.5503389057E-001 +1.0329841088E+000  +3.0455731820E-002 +2.7915163364E+000  +3.0272355547E-002 +1.0463531153E+001  +7.4740161282E-001 +4.1649557795E-001 
13024098.874 +7.5943933917E-001 +4.4438003579E-002  +3.4617108586E-002 +2.6402465800E+000  +3.0949691689E-002 +9.1759972088E+000  +7.7577617575E-001 -1.3633492301E+000 
13149244.055 +7.6709683626E-001 -8.4189286898E-001  +3.2190068245E-002 +5.6046745506E+000  +2.9887575110E-002 +5.5608071910E+000  +7.9086234283E-001 -8.9350338146E-001 
13274389.237 +8.0741734552E-001 +2.5217902529E-001  +3.4112051683E-002 +4.1918011412E+000  +3.3090050866E-002 +8.2263613833E+000  +8.0767330800E-001 -1.0212727747E+000 
13399534.418 +8.2450019446E-001 -8.0428617642E-001  +3.3564405632E-002 +1.3729270236E+000  +3.2424536819E-002 +5.3570299613E+000  +8.2434311021E-001 -1.3803568740E+000 
13524679.599 +8.1950904279E-001 -1.0036165283E+000  +3.3003784435E-002 +2.4405436334E+000  +3.1352172016E-002 +6.8724402602E+000  +8.4166706094E-001 -2.3846136366E+000 
13649824.781 +8.6883665944E-001 -1.7215313420E+000  +3.2526798873E-002 +1.5337319138E+000  +3.4335320047E-002 +9.1140860093E+000  +8.3893103757E-001 -3.1244408899E+000 
13774969.962 +8.6974865928E-001 -3.4196572042E+000  +3.3121610613E-002 +2.2887326148E+000  +3.2842384559E-002 +4.4043487074E+000  +8.6278429133E-001 -3.8437310227E+000 
13900115.144 +8.8564486551E-001 -2.9988162904E+000  +3.3294340470E-002 +3.2958376321E+000  +3.2819218979E-002 +6.6141379571E+000  +8.8847337429E-001 -3.5547782456E+000 
14025260.325 +9.0016942361E-001 -4.6058807431E+000  +3.2683875248E-002 +1.5370861416E+000  +3.3429944423E-002 +4.3250796851E+000  +9.1439590141E-001 -4.3857506184E+000 
14150405.507 +9.0211455996E-001 -3.6397783687E+000  +3.3640623251E-002 +1.8016388187E+000  +3.3344914742E-002 +3.6444509780E+000  +9.1008464766E-001 -3.7495571377E+000 
14275550.688 +9.3289046764E-001 -5.6185189344E+000  +3.4234291231E-002 +2.1533805614E+000  +3.3831697334E-002 +3.2941875726E-001  +9.4243524177E-001 -3.6260117967E+000 
14400695.870 +9.5356459981E-001 -5.0079013007E+000  +3.3884250802E-002 +2.6455495363E+000  +3.4034201762E-002 +2.1731221817E+000  +9.4613958575E-001 -4.8829377711E+000 
