!  2-Port S-parameters saved by WinCal
! VAR MeasName=S-Parameters (CALIBRATED_DATA) read from VNA (P5004A)
! VAR MeasDate=29/08/2024 10:14:41
! VAR NAME=S2_r9c1_RESET3_9k-100M_1
! VAR FILENAME=S2_r9c1_RESET3_9k-100M_1.S2P
! VAR DATE=29/08/2024 10:14:41
! VAR PHYS_PORTS=1,2
! VAR ObjTypeName=DATASET
! VAR IndexType=Frequency
!
# Hz S MA R 50
9000.000 +9.7796239392E-002 -1.6280792379E+002  +9.2054673182E-003 -9.2055216168E+001  +5.5936948606E-003 -1.1301551371E+002  +2.5848192886E-001 -1.4240355824E+002 
134145.181 +1.1162118183E-001 +1.6949479407E+002  +3.8160058067E-004 +9.3874932423E+001  +8.1309532336E-004 +6.7469576859E+001  +2.4150948104E-001 -1.7046622160E+002 
259290.363 +1.1225822756E-001 +1.6949745026E+002  +4.0493777346E-005 +1.1698168633E+002  +1.0065396760E-004 +1.4700086123E+002  +2.4533571039E-001 -1.7038190893E+002 
384435.544 +1.1190601389E-001 +1.6986024296E+002  +6.7500530074E-004 -1.3254706675E+002  +8.9098956738E-004 +1.2747449635E+002  +2.4604464022E-001 -1.6520530534E+002 
509580.726 +1.1221797137E-001 +1.7035572338E+002  +9.3569053757E-004 -1.0463131028E+002  +1.4172475415E-003 +1.1443208351E+002  +2.4771601564E-001 -1.6804603186E+002 
634725.907 +1.1895434250E-001 +1.7184374168E+002  +1.0730952761E-003 -3.7845712180E+001  +1.3134900005E-003 +9.1645759460E+001  +2.5115422953E-001 -1.6294021268E+002 
759871.089 +1.2037910836E-001 +1.7028016811E+002  +3.8451863503E-004 -1.4146269351E+002  +3.1325557346E-004 -1.5517807233E+002  +2.4488875328E-001 -1.6618438652E+002 
885016.270 +1.1880555762E-001 +1.6931716130E+002  +3.6810635540E-004 -1.2659595764E+002  +3.1830058504E-004 +3.9380562406E+001  +2.5039528403E-001 -1.6635864910E+002 
1010161.452 +1.1629056703E-001 +1.7000029133E+002  +1.0066064462E-003 +3.1503033007E+001  +6.4895046141E-004 -2.5942397970E+001  +2.0322192185E-001 -1.6592504300E+002 
1135306.633 +1.1541371249E-001 +1.6878223101E+002  +2.5197171937E-003 +1.3245137609E+001  +8.9216133670E-004 +1.1261499037E+002  +1.8879638656E-001 -1.6905807261E+002 
1260451.815 +1.1636419846E-001 +1.7225528873E+002  +2.7288021455E-003 -1.2299414108E+002  +2.6991812238E-003 +1.2358178144E+002  +2.4271726790E-001 -1.5174401600E+002 
1385596.996 +1.2166937518E-001 +1.7305960636E+002  +2.3426948594E-003 -3.2253098195E+001  +3.0217964558E-003 +1.0093898467E+002  +2.5827480626E-001 -1.5357795812E+002 
1510742.178 +1.2336005052E-001 +1.7152503592E+002  +1.6228020508E-003 +1.0421418872E+001  +6.2278377224E-004 +9.3792631026E+001  +2.6110410676E-001 -1.6060490603E+002 
1635887.359 +1.2888860035E-001 +1.7106139438E+002  +1.4611401509E-003 -4.2769163189E+001  +8.8576914434E-004 +1.5166186808E+002  +2.6174511627E-001 -1.5461359665E+002 
1761032.541 +1.3007041710E-001 +1.7022868454E+002  +2.6316713261E-004 +1.4815777171E+002  +2.3502603829E-004 -9.7675715319E+001  +2.2713569391E-001 -1.6284020621E+002 
1886177.722 +1.3035614584E-001 +1.6782165462E+002  +2.5616358330E-003 +9.5210028256E+001  +5.2753662351E-004 -3.9165321029E+001  +2.3757739738E-001 -1.6090721109E+002 
2011322.904 +1.3067604189E-001 +1.6877642582E+002  +4.1531170660E-003 +2.7755916578E+001  +4.2541548027E-003 -9.0298371924E+001  +1.7881131489E-001 -1.6383641749E+002 
2136468.085 +1.3106174911E-001 +1.6571203394E+002  +5.1501232265E-003 +8.6050501076E+001  +3.9319121094E-003 -7.1304180707E+001  +1.9470789085E-001 -1.6980536731E+002 
2261613.267 +1.3394758430E-001 +1.6822925070E+002  +5.9209055672E-003 +5.5181429746E+001  +3.5249546340E-003 -1.0668456847E+002  +1.5485527305E-001 -1.5550881014E+002 
2386758.448 +1.3963357658E-001 +1.6448119512E+002  +4.9598046255E-003 +7.7616959660E+001  +5.4524756095E-003 -5.4466873708E+001  +1.5092766703E-001 -1.5759211256E+002 
2511903.630 +1.4105864721E-001 +1.6414730627E+002  +8.4691261196E-003 +5.7768341959E+001  +1.1769865724E-002 -5.0596649430E+001  +1.4433106375E-001 -1.7529258338E+002 
2637048.811 +1.2751274275E-001 +1.6220389341E+002  +2.5275542933E-002 +9.3293445407E+001  +1.6391625307E-002 -5.1790404750E+001  +1.4170474939E-001 +1.3734049067E+002 
2762193.992 +1.0385801580E-001 +1.7372905343E+002  +8.7562657285E-002 +1.4437996556E+001  +1.1935342692E-001 -8.9078505328E+001  +4.6464841837E-001 +1.3000181100E+001 
2887339.174 +1.2164758343E-001 +1.7252021045E+002  +2.0516597323E-002 +5.3332192927E+001  +2.5254343602E-002 -7.4060823530E+001  +1.1421236369E-001 +1.3343981882E+002 
3012484.355 +1.1183368832E-001 +1.7649476629E+002  +5.1457250791E-002 +6.5506601523E+000  +7.5949572445E-002 -8.7264475406E+001  +4.5317314379E-001 -4.1382965958E+000 
3137629.537 +1.3632731427E-001 +1.6967725490E+002  +1.6998256881E-002 -2.7564729808E+001  +2.3050676550E-002 -1.3625003504E+002  +2.6130596426E-001 -9.9088746688E+001 
3262774.718 +1.3405213110E-001 +1.6420821131E+002  +5.4875801562E-002 +1.0659983499E+002  +5.1651310883E-002 +1.4243240032E+001  +8.0587716016E-001 +1.2766088516E+002 
3387919.900 +9.3671857389E-002 +1.7724427800E+002  +5.3133549007E-002 -9.3657294026E+000  +5.1606762796E-002 -8.0235485018E+001  +2.1779573696E-001 -1.8167449777E+001 
3513065.081 +1.1772133135E-001 +1.5211294513E+002  +4.5737760809E-002 +8.1415004918E+001  +5.8136306814E-002 +1.4437710914E+001  +6.6405411825E-001 +1.2793887532E+002 
3638210.263 +1.6200349883E-001 +1.4401614901E+002  +2.3138929470E-002 +1.2241718050E+002  +2.9034680763E-002 +6.3419092665E+001  +5.5437382646E-001 +1.5625426402E+002 
3763355.444 +1.5723411673E-001 +1.5733149479E+002  +6.9292523190E-002 +8.6941211093E+001  +7.0226435275E-002 +1.0042375102E+001  +1.1790864500E+000 +9.2176577904E+001 
3888500.626 +1.9175111880E-001 +1.5325093563E+002  +2.1426897001E-002 +1.0370939036E+002  +2.7930525514E-002 +3.1428291175E+001  +5.3792663654E-001 +1.2588417354E+002 
4013645.807 +2.0950589989E-001 +1.3882181871E+002  +5.7421109753E-002 +1.3151783577E+002  +5.2512320817E-002 +7.7869022988E+001  +6.2379563582E-001 +1.3927831557E+002 
4138790.989 +1.9444782685E-001 +1.5072694894E+002  +3.9557446388E-002 +1.0554650670E+002  +2.9151132770E-002 +4.6811247371E+001  +5.4485768041E-001 +1.3253729112E+002 
4263936.170 +2.1101354529E-001 +1.4943403650E+002  +3.0509067131E-002 +9.5517856025E+001  +3.1073963677E-002 +2.8293014980E+001  +3.9425471425E-001 +1.2059682838E+002 
4389081.352 +2.1740054875E-001 +1.4488818297E+002  +3.1891534770E-002 +1.1788096840E+002  +2.9503503889E-002 +5.0940155955E+001  +5.4598161827E-001 +1.5231062888E+002 
4514226.533 +2.4079682399E-001 +1.3567189637E+002  +8.0308496456E-002 +1.1017267384E+002  +7.6874685991E-002 +4.0125274396E+001  +7.9032729608E-001 +1.1457029237E+002 
4639371.715 +2.3597187962E-001 +1.3029368277E+002  +1.4223182203E-001 +6.8491950256E+001  +1.5362878108E-001 +3.7426727074E+001  +1.0871728867E+000 +7.1713065088E+001 
4764516.896 +3.2668671438E-001 +1.3129160085E+002  +1.0873011070E-001 +9.6857405344E+001  +1.2161640546E-001 +6.2555539452E+001  +7.3869057256E-001 +7.8774435161E+001 
4889662.078 +4.8005384555E-001 +1.3100545505E+002  +2.1739925934E-001 -1.0397407256E+002  +2.0670160770E-001 -1.5014524780E+002  +2.2930680479E+000 -1.6394223854E+002 
5014807.259 +3.6186059070E-001 +1.1204773013E+002  +4.6424256414E-001 +2.8344500828E+001  +4.8129888745E-001 -4.6092632566E+000  +3.5981301152E+000 -5.1229968105E+000 
5139952.441 +3.1355592102E-001 +1.3699522232E+002  +2.5602852999E-001 +9.2767254192E+001  +2.4807886015E-001 +6.3699304736E+001  +3.6144758518E+000 +8.1047982283E+001 
5265097.622 +3.6944473772E-001 +1.2716473456E+002  +2.8154794116E-001 +1.0698309316E+002  +2.3996327970E-001 +7.2135854204E+001  +3.2415316265E+000 +9.9732682416E+001 
5390242.804 +3.8681254493E-001 +1.3315158401E+002  +1.0837825542E-001 +1.1278602480E+002  +9.3774524280E-002 +7.4130904119E+001  +1.4713753912E+000 +1.0887183680E+002 
5515387.985 +4.3379060519E-001 +1.3409158408E+002  +1.2722763075E-001 +1.2523290677E+002  +1.4368384245E-001 +8.6035345160E+001  +1.6635891098E+000 +1.1402314318E+002 
5640533.166 +4.2945723502E-001 +1.2377409679E+002  +1.6834726953E-001 +9.2938422133E+001  +1.7500084776E-001 +5.0718258199E+001  +1.7910140113E+000 +8.5214204741E+001 
5765678.348 +5.0289914798E-001 +1.3016782403E+002  +1.8104815253E-001 +1.1311950218E+002  +2.1649181053E-001 +8.3196845967E+001  +3.0501702710E+000 +9.6571529101E+001 
5890823.529 +6.1458490991E-001 +1.2509512136E+002  +2.5975879570E-001 +1.0182285803E+002  +2.4769264328E-001 +7.2942146567E+001  +3.3533384065E+000 +7.6047962590E+001 
6015968.711 +6.3961435604E-001 +1.1580807231E+002  +1.8796200497E-001 +8.9936986250E+001  +1.6582511037E-001 +6.0840919872E+001  +1.6507378528E+000 +7.7082902624E+001 
6141113.892 +6.8659056917E-001 +1.1464884738E+002  +2.5581066484E-001 +6.8592125265E+001  +2.2988701736E-001 +4.9058804580E+001  +2.6858806084E+000 +4.8425864972E+001 
6266259.074 +7.8143961000E-001 +1.0271666103E+002  +1.8939911774E-001 +6.5359153925E+001  +1.8858008555E-001 +4.4710988123E+001  +1.4918245423E+000 +4.9539366067E+001 
6391404.255 +7.7432203225E-001 +8.5349816370E+001  +2.0701575897E-001 +3.6107335966E+001  +2.2602032116E-001 +1.3435152509E+001  +1.5031027601E+000 +2.8329660213E+001 
6516549.437 +1.0491368390E+000 +7.6656591156E+001  +2.7437124964E-001 +2.8430185197E+001  +2.8268426373E-001 +1.6117199450E+001  +1.7984267171E+000 +1.4891021602E+001 
6641694.618 +1.2303484296E+000 +6.1495021791E+001  +2.2470701638E-001 +1.7270986272E+001  +2.1519842482E-001 +3.7904842669E+000  +1.1510971817E+000 -8.4957064441E+000 
6766839.800 +1.1214489731E+000 +5.6957150399E+001  +2.0371235619E-001 +1.3959725515E+001  +1.7379925360E-001 +7.0993345495E+000  +1.1294883504E+000 +4.5595563356E-001 
6891984.981 +1.2038694258E+000 +3.2182268195E+001  +1.9452071523E-001 +5.0698935015E+000  +1.9772582926E-001 -4.2738837847E+000  +1.1664511740E+000 -3.9517889345E+000 
7017130.163 +1.9840619708E+000 +2.2933594698E+001  +2.3579736157E-001 +3.5753410475E+000  +2.1068448167E-001 -4.8327942949E+000  +1.2812431904E+000 -6.5231358171E+000 
7142275.344 +1.1984932859E+000 -2.1318348301E+000  +1.6356577196E-001 -9.1528550097E+000  +1.6137184020E-001 -8.5110311047E+000  +1.1065124225E+000 -1.0333787245E+001 
7267420.526 +1.1501705586E+000 -6.4448482959E+000  +1.4666832832E-001 -6.7071481454E+000  +1.3487544712E-001 -9.5492485960E+000  +1.2619242090E+000 -1.5454774738E+001 
7392565.707 +1.1840316645E+000 -1.7700855415E+000  +1.1324242546E-001 +4.3744451313E+000  +1.1635368160E-001 +6.2095383282E+000  +1.2030805926E+000 -5.9840931433E+000 
7517710.889 +1.0099161721E+000 -1.6493438150E+000  +1.0461879117E-001 +9.5156132045E-001  +1.0699059761E-001 +3.3258640077E-001  +1.0161714099E+000 -7.8005829952E+000 
7642856.070 +8.5275192516E-001 +9.4871764175E-001  +1.0131715194E-001 -3.4738488351E-001  +1.0462233338E-001 +4.2611352637E+000  +9.6176383804E-001 -6.4158616034E+000 
7768001.252 +7.7413810299E-001 +8.5945383581E-001  +9.6664966796E-002 +9.6002929594E-001  +1.0040007978E-001 +5.2830750591E+000  +8.2755421043E-001 -1.8741223122E+000 
7893146.433 +7.3491979364E-001 +1.4593161994E+001  +8.8111798289E-002 +1.7387865517E+000  +8.7469074747E-002 +4.0145035103E+000  +7.9462160894E-001 +2.9577367352E+000 
8018291.615 +7.5895566672E-001 +1.0869224455E+001  +9.0935535355E-002 -2.5821958323E-001  +9.0294692713E-002 +1.5445929363E+000  +6.7881519952E-001 +2.3074458114E+000 
8143436.796 +7.0292426402E-001 +7.0125918421E+000  +8.8061911246E-002 -1.8707517681E+000  +8.6434629590E-002 +8.3491786162E+000  +6.5315530038E-001 -2.6539475483E-001 
8268581.977 +6.4859622921E-001 +1.0643724063E+001  +8.4213983167E-002 -3.7620617750E+000  +8.4158380067E-002 +7.2409146094E+000  +6.3509529139E-001 +6.7313260875E+000 
8393727.159 +5.3519445238E-001 +1.1489990150E+001  +8.1662630431E-002 -4.1074679261E+000  +8.2937675972E-002 +1.0264428502E+001  +6.8678811737E-001 +7.5659625203E-001 
8518872.340 +5.5482270243E-001 +5.7465815136E+000  +8.1114935703E-002 -3.0376772194E+000  +8.2552593311E-002 +7.5893777083E+000  +6.3350666028E-001 +1.4293398639E+000 
8644017.522 +5.6259153598E-001 +1.6906894599E+001  +7.9187555323E-002 -4.6081582987E+000  +8.2045142055E-002 +6.2062832768E+000  +5.2156747891E-001 +4.0601478901E+000 
8769162.703 +5.0307990943E-001 +9.8684361575E+000  +8.2004015408E-002 -3.6866748152E+000  +8.1014720184E-002 +1.0915919961E+001  +5.8865162778E-001 -1.3747058375E+000 
8894307.885 +5.6118926057E-001 +5.6722180087E+000  +8.3301759754E-002 -3.5653619515E+000  +8.3612724270E-002 +1.2392245769E+001  +6.2021735797E-001 +5.7367862303E-001 
9019453.066 +4.9657127983E-001 +2.4087302253E-001  +7.9879015221E-002 -3.8415502032E+000  +7.9829605900E-002 +9.5914410125E+000  +5.9559989243E-001 -2.3131117522E+000 
9144598.248 +5.2017909326E-001 +6.0027457860E+000  +7.8073831335E-002 -1.4585726518E+000  +7.6368493962E-002 +1.1447813067E+001  +5.3985711960E-001 +2.3443239365E+000 
9269743.429 +4.8583451210E-001 +6.6909174220E+000  +7.9926083700E-002 -4.4164526971E+000  +7.4199893261E-002 +1.3784678122E+001  +4.9322345164E-001 -1.1832054301E+000 
9394888.611 +4.6641276842E-001 +9.1453707423E+000  +7.9673682451E-002 -1.9971385753E+000  +8.0718173957E-002 +1.0652161785E+001  +5.2795000460E-001 -6.9213220553E-001 
9520033.792 +4.4487093395E-001 -7.9840752413E+000  +7.8063121483E-002 -4.6668595950E+000  +8.0559487315E-002 +1.1670612272E+001  +4.6460518313E-001 +1.3770313396E-001 
9645178.974 +4.7401918523E-001 +8.1882961683E+000  +7.8644030378E-002 -3.2464056711E+000  +7.7821723718E-002 +1.2842408114E+001  +5.0804774168E-001 -5.0442087640E+000 
9770324.155 +4.6192656023E-001 +4.6341658405E+000  +7.7189103923E-002 -5.2028014734E+000  +8.1986225362E-002 +1.3126032888E+001  +4.7542068199E-001 -4.8134675723E-001 
9895469.337 +4.3531717275E-001 +1.9062452257E+000  +8.0013363314E-002 -2.4383888395E+000  +7.6382180412E-002 +9.6203638589E+000  +5.0135813756E-001 -5.3894730463E+000 
10020614.518 +4.5666015268E-001 +5.6269353859E+000  +7.8202787770E-002 -4.0031508952E+000  +8.3323228384E-002 +1.4880757039E+001  +5.0033243114E-001 -2.4654709598E+000 
10145759.700 +4.7872700339E-001 +2.0343807056E+000  +8.0704432723E-002 -1.9547866631E+000  +8.1162060205E-002 +1.1024756714E+001  +4.7879638039E-001 -1.2393902099E+000 
10270904.881 +4.6030129962E-001 +8.7453766460E+000  +8.0259109101E-002 -2.6425716557E+000  +7.9297837553E-002 +1.2298600195E+001  +4.7724233306E-001 -3.1264962821E-001 
10396050.063 +4.8822822561E-001 +8.5406078069E+000  +7.8113180071E-002 -2.5056248522E+000  +7.9763594136E-002 +1.4148350198E+001  +4.7630384103E-001 +4.6742769862E-001 
10521195.244 +4.5717417440E-001 +1.1557695487E+001  +8.0957495439E-002 -3.1080496372E+000  +7.8765591463E-002 +1.3189001725E+001  +5.0131780490E-001 -2.1093501914E+000 
10646340.426 +4.9108057396E-001 +5.4757346889E+000  +8.3664885730E-002 -2.7091843463E+000  +8.1904431018E-002 +1.3136278358E+001  +5.2452082744E-001 +2.8668088960E+000 
10771485.607 +4.8388791042E-001 +1.0070025172E+001  +8.2167703261E-002 +3.3405783182E-001  +8.3700939100E-002 +1.5809478118E+001  +5.2253135589E-001 +5.4108126271E+000 
10896630.788 +5.2259340173E-001 +9.7556624811E+000  +8.2332407636E-002 +1.4327267325E+000  +8.4266277478E-002 +1.3539034683E+001  +5.1835380489E-001 +3.2246669732E+000 
11021775.970 +5.4009177330E-001 +6.9544668167E+000  +8.1748802726E-002 -1.4690987353E+000  +8.3600984326E-002 +1.3012648494E+001  +5.4989100397E-001 +3.9617076420E+000 
11146921.151 +5.1909704240E-001 +6.7737120464E+000  +8.2793031759E-002 -1.8924880649E-001  +8.2137661732E-002 +1.3263360360E+001  +5.6244903998E-001 +5.1204654836E+000 
11272066.333 +5.2200070791E-001 +9.8973472833E+000  +8.4939242438E-002 -7.9815398598E-001  +8.3676655704E-002 +1.3429279399E+001  +5.8546473156E-001 +3.9628860681E+000 
11397211.514 +5.5335744019E-001 +7.5368435405E+000  +8.5958839567E-002 +8.6643973403E-001  +8.5987166101E-002 +1.4411818582E+001  +5.9471412907E-001 +4.3889684826E+000 
11522356.696 +5.3412049555E-001 +9.4137046434E+000  +8.9799901996E-002 +9.1616863680E-001  +8.6174945250E-002 +1.2870436330E+001  +5.4517817677E-001 +4.0730109123E+000 
11647501.877 +5.3000642527E-001 +9.6503522387E+000  +8.6764799231E-002 -4.0381121707E-001  +8.5781380763E-002 +1.3802148021E+001  +5.8888366273E-001 +5.8162000526E+000 
11772647.059 +5.6940123216E-001 +7.1290900682E+000  +8.8717475289E-002 +1.4479175868E+000  +8.8473229658E-002 +1.1747100744E+001  +5.6201934594E-001 +3.7275881418E+000 
11897792.240 +5.6939521094E-001 +5.9239421865E+000  +9.0283576178E-002 +1.7104879485E+000  +8.9145653399E-002 +1.1739923472E+001  +5.8484447640E-001 +4.1153843932E-001 
12022937.422 +5.7142726924E-001 +7.9524123471E+000  +8.8996342104E-002 +1.9114999027E+000  +9.1095630089E-002 +1.1034416602E+001  +6.0228868275E-001 +1.6162937947E+000 
12148082.603 +6.0868516317E-001 +4.5838973676E+000  +9.3468087049E-002 +3.2970035502E+000  +9.2486274165E-002 +1.1387589007E+001  +5.9652737330E-001 +4.7408065334E-001 
12273227.785 +6.0563195094E-001 +5.3807910282E+000  +9.1646185495E-002 +1.2894352334E+000  +9.2468836152E-002 +1.0470178715E+001  +6.0968104519E-001 +1.7682114016E+000 
12398372.966 +6.1274372686E-001 +3.2362090200E+000  +9.3428047403E-002 +2.6066903215E+000  +9.4076360474E-002 +9.7796660425E+000  +6.4414149761E-001 +5.4730546246E-001 
12523518.148 +6.1781916311E-001 +5.2685992502E+000  +9.3928305759E-002 +2.1286972707E+000  +9.2119957611E-002 +9.5549516530E+000  +6.4643187127E-001 +1.4548625983E+000 
12648663.329 +6.3278128468E-001 +2.7798064627E+000  +9.6589090789E-002 +2.2008963375E+000  +9.6792929635E-002 +8.8436869561E+000  +6.5913705617E-001 +4.1549122855E-001 
12773808.511 +6.9670726636E-001 +2.5303973943E+000  +9.6143702961E-002 +3.5873841822E+000  +9.6822626052E-002 +8.6392885468E+000  +6.6703276732E-001 -1.4088159093E+000 
12898953.692 +6.9554223150E-001 +2.0924972178E+000  +9.7076559032E-002 +2.7665733173E+000  +9.6301445961E-002 +8.4787510132E+000  +6.9964264187E-001 -8.5199089587E-001 
13024098.874 +6.7288257363E-001 +1.4796571279E+000  +9.8753034019E-002 +2.5503912824E+000  +9.6509779845E-002 +8.0051638611E+000  +6.8976355201E-001 -1.2917894323E+000 
13149244.055 +6.9024696666E-001 +5.0704092603E-001  +1.0097683244E-001 +2.5200489743E+000  +9.9666981774E-002 +7.5303614759E+000  +7.1644572173E-001 -1.8890767132E+000 
13274389.237 +7.2270824140E-001 -9.0934695698E-002  +1.0282882876E-001 +2.7858340915E+000  +9.9819182063E-002 +8.1501913307E+000  +7.5032477958E-001 -3.1103328730E+000 
13399534.418 +7.2200783595E-001 -1.2833334951E+000  +1.0137670632E-001 +2.9387814039E+000  +1.0034951322E-001 +6.6322896794E+000  +7.3701509142E-001 -1.3968266842E+000 
13524679.599 +7.5113790089E-001 -1.3761604853E+000  +1.0435723506E-001 +3.0360845794E+000  +1.0014159842E-001 +6.2883492783E+000  +7.9082085155E-001 -2.6459548918E+000 
13649824.781 +7.4601356778E-001 -3.1486886917E+000  +1.0416303513E-001 +2.1649277667E+000  +1.0410446627E-001 +5.4952730230E+000  +7.8226066365E-001 -4.3517069259E+000 
13774969.962 +7.9603417877E-001 -1.8817796772E+000  +1.0393431796E-001 +3.5128788447E+000  +1.0227149860E-001 +5.2497216649E+000  +8.1639469699E-001 -2.2301380467E+000 
13900115.144 +7.9743205967E-001 -2.8213617516E+000  +1.0548576142E-001 +2.2042718407E+000  +1.0224285499E-001 +3.6878903924E+000  +8.1706887832E-001 -1.3909101588E+000 
14025260.325 +8.1563906589E-001 -3.2837361641E+000  +1.0674392133E-001 +2.7294612915E+000  +1.0435426218E-001 +3.7117546999E+000  +8.5520905163E-001 -3.9903086330E+000 
14150405.507 +8.3071627323E-001 -5.8652617820E+000  +1.0644396910E-001 +2.4196347203E+000  +1.0533534597E-001 +3.7073463257E+000  +8.6557831435E-001 -3.5876320689E+000 
14275550.688 +8.5946245685E-001 -3.6610512730E+000  +1.0577869226E-001 +2.4603641393E+000  +1.0467903184E-001 +3.8657605824E+000  +8.5950817062E-001 -3.8049169100E+000 
14400695.870 +8.5860096435E-001 -4.9846294357E+000  +1.0665045321E-001 +1.5467259007E+000  +1.0546552290E-001 +2.5364913173E+000  +8.7920312840E-001 -4.5999699442E+000 
