!  2-Port S-parameters saved by WinCal
! VAR MeasName=S-Parameters (CALIBRATED_DATA) read from VNA (P5004A)
! VAR MeasDate=29/08/2024 10:26:24
! VAR NAME=S2_r9c2_pristine_9k-100M_3
! VAR FILENAME=S2_r9c2_pristine_9k-100M_3.S2P
! VAR DATE=29/08/2024 10:26:24
! VAR PHYS_PORTS=1,2
! VAR ObjTypeName=DATASET
! VAR IndexType=Frequency
!
# Hz S MA R 50
9000.000 +9.2311736591E-002 -1.7086045928E+002  +1.3310568347E-003 -9.1442642958E+001  +8.5812736814E-003 +1.1316622276E+002  +2.0853094552E-001 -1.4274697784E+002 
134145.181 +1.1150261762E-001 +1.6952862737E+002  +2.1206434343E-004 +7.2751742468E+001  +1.8033330163E-004 -7.1437277139E+001  +2.4092261553E-001 -1.7033805641E+002 
259290.363 +1.1257336539E-001 +1.7043082153E+002  +9.0372450178E-004 -6.1725458231E+001  +9.0358125128E-004 -1.6895951066E+002  +2.3543187645E-001 -1.6925012283E+002 
384435.544 +1.1442865148E-001 +1.7048554403E+002  +3.0343621656E-004 -4.9588380543E+001  +5.5968858122E-004 +6.6853127936E+001  +2.4800642310E-001 -1.6962686130E+002 
509580.726 +1.1517143304E-001 +1.7024783476E+002  +1.0730272776E-003 -3.6413961921E+001  +1.1352742719E-003 +1.7615393071E+002  +2.5637859943E-001 -1.6434148009E+002 
634725.907 +1.1833751617E-001 +1.7184462158E+002  +1.8448085474E-003 -5.5247588563E+001  +8.6734690492E-004 -1.7345547947E+002  +2.4408178990E-001 -1.6729582874E+002 
759871.089 +1.1953715447E-001 +1.7084986694E+002  +1.2010326232E-003 -7.8181250666E+001  +1.9365535134E-003 +1.2333935934E+002  +2.5194985833E-001 -1.6676302500E+002 
885016.270 +1.2099018542E-001 +1.6896504890E+002  +9.0852266275E-004 -5.0523197511E+001  +1.0618588950E-003 +1.4259147016E+002  +2.4357999961E-001 -1.6765718929E+002 
1010161.452 +1.1695835689E-001 +1.6982733755E+002  +2.9335124373E-003 +2.2938244569E+001  +2.3924442789E-003 -1.6445959897E+002  +2.1621176185E-001 -1.6787219688E+002 
1135306.633 +1.1904441389E-001 +1.6757118576E+002  +2.5153029290E-003 +6.3658244964E+001  +2.5605039212E-003 -1.2843856580E+002  +2.2097359742E-001 -1.6848681418E+002 
1260451.815 +1.2177163386E-001 +1.7031097546E+002  +2.3380529418E-003 +9.6739968888E+000  +2.4061031136E-003 -1.4449515958E+002  +2.3060039063E-001 -1.6257132119E+002 
1385596.996 +1.2837107743E-001 +1.7130387520E+002  +2.0649412677E-003 -3.1614130885E+001  +2.0671012969E-003 -1.6472304253E+002  +2.5138716570E-001 -1.6132963760E+002 
1510742.178 +1.2975378929E-001 +1.7183080042E+002  +3.3614655317E-003 -2.4054718210E+001  +3.1477892352E-003 -1.7465876572E+002  +2.5869695972E-001 -1.5980414731E+002 
1635887.359 +1.3143343945E-001 +1.6991510731E+002  +2.8825017508E-003 +2.0087570751E+001  +3.3695605039E-003 -1.1278534316E+002  +2.4028196064E-001 -1.6038505989E+002 
1761032.541 +1.3245645736E-001 +1.6957951919E+002  +3.9917468050E-003 +5.8400810186E+001  +4.2794410273E-003 -9.2786053360E+001  +2.3330919072E-001 -1.6118780720E+002 
1886177.722 +1.3095058985E-001 +1.7028282669E+002  +1.0494768899E-002 +5.0159687321E+001  +1.4096646976E-002 -8.8348488462E+001  +2.0879536884E-001 -1.5229949682E+002 
2011322.904 +1.3384259470E-001 +1.6854726756E+002  +9.8449036569E-003 +7.8862261321E+001  +1.0633325831E-002 -6.1398555416E+001  +2.2611696917E-001 -1.6234109356E+002 
2136468.085 +1.3541045109E-001 +1.6749727255E+002  +1.9509145726E-002 +9.3327560122E+001  +2.0430642963E-002 -3.9277641431E+001  +1.8918853784E-001 -1.7040467303E+002 
2261613.267 +1.3649691127E-001 +1.6702996565E+002  +2.2658133941E-002 +8.2504652509E+001  +2.4705758761E-002 -4.7861242000E+001  +1.8930897614E-001 -1.6240532480E+002 
2386758.448 +1.3587987045E-001 +1.6682777770E+002  +2.9138975064E-002 +7.3425826463E+001  +3.1380761586E-002 -4.7870271395E+001  +1.7777180307E-001 -1.5814857281E+002 
2511903.630 +1.3371873491E-001 +1.6509920540E+002  +3.1153630976E-002 +8.2107018993E+001  +3.2342742059E-002 -3.3950027595E+001  +2.1101030355E-001 -1.6438612876E+002 
2637048.811 +1.2421249619E-001 +1.7093457059E+002  +6.0488219054E-002 +5.6653850177E+001  +6.0318687434E-002 -5.5271388530E+001  +1.3231783001E-001 -1.5485186128E+002 
2762193.992 +1.1121693697E-001 +1.7308753879E+002  +8.6985267170E-002 +4.5421013013E+001  +8.4843480271E-002 -6.0841822959E+001  +1.1524061133E-001 -1.3904911084E+002 
2887339.174 +1.3784229458E-001 -1.7327402069E+002  +8.0392540416E-002 -3.3675844473E+000  +8.1243117088E-002 -1.0525845142E+002  +2.3919710694E-001 -1.2512490678E+002 
3012484.355 +1.5295887752E-001 -1.7799386597E+002  +5.5687887231E-002 -1.9707318733E+001  +5.4382830124E-002 -1.2044023670E+002  +2.9682123383E-001 -1.3432482835E+002 
3137629.537 +1.4324745463E-001 +1.7872852512E+002  +7.5891924983E-002 +5.4406548076E+000  +8.1411607329E-002 -8.8565405515E+001  +2.3860653586E-001 -1.1700757445E+002 
3262774.718 +1.2646326585E-001 +1.7457285324E+002  +6.8797147730E-002 +2.5399444379E+001  +6.8427607090E-002 -6.6094467862E+001  +2.2930019547E-001 -1.3924959914E+002 
3387919.900 +1.3575797648E-001 +1.7158810542E+002  +8.2657155548E-002 +3.2047594195E+001  +7.7591214029E-002 -5.8483756781E+001  +1.9230593240E-001 -1.2965110795E+002 
3513065.081 +1.6311477141E-001 +1.4993759202E+002  +1.0659538837E-001 +1.0263536757E+002  +1.0060730685E-001 +1.9528147331E+001  +2.3548133522E-001 +1.5825855841E+002 
3638210.263 +1.1659282237E-001 +1.5090345959E+002  +1.8155390889E-001 +7.9003982166E+001  +1.7710457699E-001 -3.1518821722E+000  +2.4957994748E-001 +1.0958329417E+002 
3763355.444 +1.5829892320E-001 +1.5131803610E+002  +1.5525590325E-001 +9.3872876199E+001  +1.4820153042E-001 +1.5261819894E+001  +3.0113329013E-001 +1.2762998481E+002 
3888500.626 +1.7785313611E-001 +1.5576391399E+002  +9.9516326258E-002 +9.5723755806E+001  +9.5635813280E-002 +2.2111238732E+001  +2.7434390571E-001 +1.6295791297E+002 
4013645.807 +1.3668424303E-001 +1.5371054226E+002  +1.4691237101E-001 +7.0311859782E+001  +1.4227273691E-001 +2.4237772921E+000  +1.9282630720E-001 +1.5157650036E+002 
4138790.989 +1.6274964130E-001 +1.5219690164E+002  +1.2852787907E-001 +8.7815046270E+001  +1.2072670699E-001 +1.8985110632E+001  +3.0100995205E-001 +1.6366715487E+002 
4263936.170 +1.7182117036E-001 +1.5143816081E+002  +1.4271852713E-001 +8.5337367987E+001  +1.4392065621E-001 +1.8884998249E+001  +2.8437652819E-001 +1.5363053893E+002 
4389081.352 +1.9028775822E-001 +1.4128617660E+002  +1.8188747913E-001 +9.6395184502E+001  +1.7821977719E-001 +3.4371007255E+001  +3.6607023874E-001 +1.5002950610E+002 
4514226.533 +2.0116837481E-001 +1.4020273366E+002  +1.9405278242E-001 +9.3859942975E+001  +1.8802484200E-001 +3.6187035446E+001  +3.6480057427E-001 +1.4832839878E+002 
4639371.715 +1.8849980742E-001 +9.5155913619E+001  +5.4406235296E-001 +7.3516622281E+001  +5.3021445202E-001 +1.8589033918E+001  +8.4513199708E-001 +7.4012449477E+001 
4764516.896 +1.6326031023E-001 +6.4929313295E+001  +5.9184279849E-001 +5.3914022453E+001  +5.7123253854E-001 +2.8662917548E+000  +6.8057373960E-001 +4.7074979648E+001 
4889662.078 +4.9285705709E-001 +1.3807450858E+002  +5.7552047048E-001 +1.5932883288E+002  +5.5747456791E-001 +1.1094110896E+002  +1.3792954816E+000 +1.6632199370E+002 
5014807.259 +3.4442167995E-001 +1.1991968983E+002  +4.4704158457E-001 +1.1174327438E+002  +4.3746537350E-001 +6.7272430143E+001  +8.7126956920E-001 +1.3753156536E+002 
5139952.441 +3.0977465262E-001 +1.0842071408E+002  +4.9954331446E-001 +9.2333041749E+001  +4.8638929606E-001 +5.0573325820E+001  +7.9269073965E-001 +1.2024964568E+002 
5265097.622 +3.2632531888E-001 +1.3103226675E+002  +3.5934772142E-001 +1.1040794857E+002  +3.5844719196E-001 +7.0221051321E+001  +8.5840623903E-001 +1.4539181915E+002 
5390242.804 +3.1323942071E-001 +1.3272557905E+002  +3.5192830746E-001 +1.0106779901E+002  +3.4213160480E-001 +6.4836993460E+001  +8.2187285470E-001 +1.4300722876E+002 
5515387.985 +3.2711924958E-001 +1.4198120754E+002  +2.8620898225E-001 +9.9434148197E+001  +2.7180798634E-001 +6.5483421100E+001  +7.5993619911E-001 +1.4820857541E+002 
5640533.166 +3.6175022419E-001 +1.3640989027E+002  +3.4850857559E-001 +1.0236638594E+002  +3.4202280839E-001 +7.0312967066E+001  +9.0017632123E-001 +1.4562778696E+002 
5765678.348 +4.2899802745E-001 +1.2350391740E+002  +4.9593269781E-001 +1.0452664230E+002  +4.9112671569E-001 +7.5874938994E+001  +1.1119532224E+000 +1.4285210210E+002 
5890823.529 +3.7409959602E-001 +1.3068640822E+002  +4.2771603311E-001 +8.9973385946E+001  +4.1657195265E-001 +6.3688820594E+001  +9.8349751283E-001 +1.3843510931E+002 
6015968.711 +4.5211575800E-001 +1.2711993719E+002  +4.9913407555E-001 +9.1224937947E+001  +4.9283740604E-001 +6.8177489457E+001  +1.0762551843E+000 +1.3169610466E+002 
6141113.892 +3.3849813032E-001 +1.0214072275E+002  +7.3640784248E-001 +6.1046323853E+001  +7.2909023640E-001 +4.0460367511E+001  +1.1525003880E+000 +9.5592833842E+001 
6266259.074 +3.1974718370E-001 +1.2124189764E+002  +5.4147039788E-001 +5.8944701387E+001  +5.3645174649E-001 +3.9054929674E+001  +8.4918124223E-001 +1.1766327659E+002 
6391404.255 +3.7041320357E-001 +9.8337490365E+001  +7.1791750532E-001 +5.0678788336E+001  +7.0072759559E-001 +3.4873331241E+001  +7.9931000657E-001 +9.5690607969E+001 
6516549.437 +2.1682809721E-001 +8.5507175254E+001  +8.1087544779E-001 +3.0079024814E+001  +8.0128513416E-001 +1.5786542947E+001  +7.7484717420E-001 +6.1318675609E+001 
6641694.618 +2.4652762790E-001 +8.0192402073E+001  +8.1273723543E-001 +3.0842910897E+001  +8.0249688908E-001 +1.9452966409E+001  +7.3706324061E-001 +8.0929549292E+001 
6766839.800 +1.7821205158E-001 +5.8464017260E+001  +9.4396444981E-001 +1.5531288719E+001  +9.3861406406E-001 +6.2956901517E+000  +8.7454835922E-001 +3.4436663151E+001 
6891984.981 +9.3102762335E-002 +8.6734067506E+001  +8.2721222776E-001 +9.0273813163E+000  +8.2018043883E-001 +1.8883050110E+000  +4.1282807012E-001 +3.2747478373E+001 
7017130.163 +1.2305364807E-001 +9.4588179478E+001  +8.5059968017E-001 +9.1711802787E+000  +8.4000146047E-001 +3.0236876486E+000  +4.6430548983E-001 +4.5889835043E+001 
7142275.344 +1.6418346719E-001 +6.8548048362E+001  +8.7201232700E-001 +6.5562799105E+000  +8.7323047844E-001 +3.4111375285E+000  +2.9060085418E-001 +4.7449722811E+001 
7267420.526 +1.8692389025E-001 +4.4717667683E+001  +9.1945340501E-001 +3.7929384409E+000  +9.0276696854E-001 +2.0634818877E+000  +1.4951371823E-001 +8.7883071571E+000 
7392565.707 +4.8736564863E-002 +7.5685706278E+001  +9.2112738810E-001 +1.5295190558E+000  +9.2415711912E-001 +2.0015358257E+000  +2.7003500625E-001 +1.7564306836E+001 
7517710.889 +5.9989434099E-002 +1.0348673186E+002  +8.9890737065E-001 -1.2263016029E+000  +9.0720676369E-001 +7.8398836451E-001  +8.3938693519E-002 -2.3436535184E+000 
7642856.070 +1.4452091847E-001 +9.5945014007E+001  +8.4378035894E-001 -1.4203183634E+000  +8.5325052890E-001 +2.2574247891E+000  +1.0343453597E-001 +8.2334345721E+001 
7768001.252 +1.4703460109E-001 +1.5194123376E+002  +8.2031130774E-001 -3.9736019521E+000  +8.1445088122E-001 +1.1809410745E+000  +1.5801026660E-001 +8.8915498383E+001 
7893146.433 +1.4330259811E-001 +1.1495243951E+002  +8.0420061116E-001 -3.5627794948E+000  +7.9568261362E-001 +2.7343717472E+000  +1.1482633503E-001 +1.2327075783E+002 
8018291.615 +2.1444585207E-001 +1.2766782010E+002  +7.5897831841E-001 -4.2569342537E+000  +7.4812964407E-001 +2.7709584824E+000  +2.4196342172E-001 +1.1135807094E+002 
8143436.796 +2.8777840918E-001 +1.2341842968E+002  +7.3920243098E-001 -5.0864747202E+000  +7.3344523522E-001 +3.7859105461E+000  +1.5779042262E-001 +1.1515736556E+002 
8268581.977 +2.2366272517E-001 +1.2965532712E+002  +7.2840376135E-001 -5.7871110009E+000  +7.2571256041E-001 +3.5605834515E+000  +2.7243665764E-001 +1.1654547226E+002 
8393727.159 +2.2935369467E-001 +1.2330464193E+002  +7.2924077440E-001 -5.8989482142E+000  +7.2147414768E-001 +5.0607313565E+000  +1.8808436674E-001 +1.1440851349E+002 
8518872.340 +3.1352524235E-001 +1.2974570014E+002  +7.0428169494E-001 -6.9893801854E+000  +6.9898835101E-001 +5.2346854128E+000  +1.8708854818E-001 +1.1627203319E+002 
8644017.522 +2.5048083638E-001 +1.2636340536E+002  +7.0244167523E-001 -7.3036183642E+000  +6.9841620086E-001 +5.7446374289E+000  +2.4455182887E-001 +1.2044419684E+002 
8769162.703 +2.5000761943E-001 +1.3317597842E+002  +7.0200878667E-001 -7.7741272562E+000  +7.0069259073E-001 +5.4989405218E+000  +1.7804782478E-001 +1.2880966184E+002 
8894307.885 +2.4447453234E-001 +1.1867752058E+002  +6.8338909560E-001 -7.3732299074E+000  +6.8158195978E-001 +6.3044274480E+000  +2.8485176325E-001 +1.2448599937E+002 
9019453.066 +2.5729640556E-001 +1.2203153180E+002  +6.7951218327E-001 -8.0657626712E+000  +6.7299746851E-001 +6.3771211897E+000  +2.8119046879E-001 +1.3119544519E+002 
9144598.248 +2.6579319674E-001 +1.3562269353E+002  +6.7801305166E-001 -8.6561483402E+000  +6.7359010656E-001 +6.1297476583E+000  +2.7533511979E-001 +1.2636097157E+002 
9269743.429 +2.7872413598E-001 +1.3443242548E+002  +6.7636749871E-001 -8.8337791722E+000  +6.7326131161E-001 +6.3114405486E+000  +2.3692128172E-001 +1.3200844695E+002 
9394888.611 +2.3852060632E-001 +1.4118779686E+002  +6.8165183645E-001 -8.8859823767E+000  +6.7951441148E-001 +6.4108608675E+000  +2.4360747413E-001 +1.3110268034E+002 
9520033.792 +2.7307192044E-001 +1.4029225129E+002  +6.7066825104E-001 -9.3258759932E+000  +6.6713320793E-001 +6.3971294012E+000  +2.5322660369E-001 +1.2852312147E+002 
9645178.974 +2.5201101518E-001 +1.4384181288E+002  +6.7925640667E-001 -9.3150080312E+000  +6.7314278267E-001 +6.4379870521E+000  +2.4683982998E-001 +1.3443687354E+002 
9770324.155 +2.4190237991E-001 +1.4274309987E+002  +6.8125943873E-001 -9.4648297927E+000  +6.7521574235E-001 +6.5038766148E+000  +2.4092506047E-001 +1.3737467626E+002 
9895469.337 +2.5137458236E-001 +1.5008606034E+002  +6.7661792010E-001 -9.9269006584E+000  +6.7416878213E-001 +6.3069947001E+000  +2.6103942871E-001 +1.3188207209E+002 
10020614.518 +2.2479244131E-001 +1.3907654157E+002  +6.8074267024E-001 -8.7138816623E+000  +6.7714658761E-001 +7.2294985913E+000  +2.4324589015E-001 +1.3064617283E+002 
10145759.700 +2.4462300595E-001 +1.4410164915E+002  +6.7574440392E-001 -9.2215092982E+000  +6.7371568916E-001 +6.4408418417E+000  +2.9400678450E-001 +1.3279636146E+002 
10270904.881 +2.4659370572E-001 +1.4228196376E+002  +6.7880933291E-001 -8.6177627992E+000  +6.7414587611E-001 +7.0979080333E+000  +2.5058529077E-001 +1.2440249273E+002 
10396050.063 +2.2846938620E-001 +1.3886221270E+002  +6.8277371501E-001 -8.5984601229E+000  +6.7696071974E-001 +6.8231752370E+000  +2.7894961495E-001 +1.3468810365E+002 
10521195.244 +2.3865773117E-001 +1.3359485988E+002  +6.8122158671E-001 -8.2889467619E+000  +6.7463461768E-001 +7.1328855832E+000  +2.8878082526E-001 +1.2660808421E+002 
10646340.426 +2.4057352856E-001 +1.2826531131E+002  +6.8050659937E-001 -7.2604775503E+000  +6.7615217652E-001 +7.5215242403E+000  +2.5937898443E-001 +1.2228478242E+002 
10771485.607 +2.3141703538E-001 +1.3113720482E+002  +6.8536481403E-001 -7.1565066627E+000  +6.8220873578E-001 +7.5685661051E+000  +2.5646429677E-001 +1.1890805247E+002 
10896630.788 +2.0250335884E-001 +1.3099186923E+002  +6.9676755004E-001 -6.7563854951E+000  +6.9122356436E-001 +7.5207804653E+000  +2.4802990710E-001 +1.2297169408E+002 
11021775.970 +2.4271990824E-001 +1.3462284060E+002  +6.9644140228E-001 -6.7056855213E+000  +6.9071126421E-001 +6.8302863399E+000  +2.4211691019E-001 +1.2250068339E+002 
11146921.151 +2.3011348700E-001 +1.2685854138E+002  +7.0224294363E-001 -6.1711174534E+000  +6.9672463680E-001 +7.2350615049E+000  +2.2275204474E-001 +1.2392000676E+002 
11272066.333 +2.4389127846E-001 +1.2193435777E+002  +7.0041997273E-001 -5.9718270816E+000  +6.9676002312E-001 +7.1003217051E+000  +2.5061828095E-001 +1.2168379980E+002 
11397211.514 +2.2209841251E-001 +1.2548550881E+002  +7.0923292102E-001 -5.7005994485E+000  +7.0435006385E-001 +6.8646536995E+000  +2.3394646919E-001 +1.1842998369E+002 
11522356.696 +2.4010017694E-001 +1.2855155703E+002  +7.1744391244E-001 -5.7063615820E+000  +7.1215680469E-001 +6.3257300897E+000  +2.0349296348E-001 +1.2671733564E+002 
11647501.877 +1.9864307000E-001 +1.2549383051E+002  +7.2186940382E-001 -5.1422634517E+000  +7.1728605513E-001 +6.0121139689E+000  +2.5479368343E-001 +1.2206033055E+002 
11772647.059 +2.1848369367E-001 +1.2894402343E+002  +7.2894988688E-001 -5.3254423985E+000  +7.2563130553E-001 +5.5209829199E+000  +2.1957695271E-001 +1.2615911602E+002 
11897792.240 +2.0464318358E-001 +1.2300548838E+002  +7.3614912849E-001 -4.3190663075E+000  +7.3139318230E-001 +5.9246161136E+000  +1.9573511122E-001 +1.2060053439E+002 
12022937.422 +1.9892682181E-001 +1.2306121834E+002  +7.4168238082E-001 -4.0591749136E+000  +7.3655442933E-001 +5.5469204877E+000  +2.0027207769E-001 +1.1377518209E+002 
12148082.603 +1.9166518348E-001 +1.2948544044E+002  +7.5089961002E-001 -4.1676289535E+000  +7.4759492396E-001 +4.9503963853E+000  +1.9692479590E-001 +1.1932648421E+002 
12273227.785 +1.7493650464E-001 +1.2807792676E+002  +7.6284672460E-001 -3.7808004364E+000  +7.5872223028E-001 +4.8209051730E+000  +1.7746310815E-001 +1.2127859441E+002 
12398372.966 +1.6605090791E-001 +1.2207084304E+002  +7.7025940179E-001 -3.3515092289E+000  +7.6557929788E-001 +4.5385303017E+000  +1.7679794261E-001 +1.2415542287E+002 
12523518.148 +1.7143143710E-001 +1.2868904214E+002  +7.7587466031E-001 -3.3615287743E+000  +7.7038989956E-001 +4.0705600199E+000  +1.7719057481E-001 +1.1839938571E+002 
12648663.329 +1.5377585430E-001 +1.2241771645E+002  +7.8634088348E-001 -3.0237091420E+000  +7.8004851126E-001 +3.6950422514E+000  +1.7153838942E-001 +1.2391296373E+002 
12773808.511 +1.4219921174E-001 +1.1818332403E+002  +7.9653989106E-001 -2.2868137456E+000  +7.9165193788E-001 +3.7580637351E+000  +1.3211845143E-001 +1.1926697803E+002 
12898953.692 +1.1182693787E-001 +1.3351456211E+002  +8.0786888177E-001 -2.6927507354E+000  +8.0061589079E-001 +2.9043811684E+000  +1.7080541241E-001 +1.2241032656E+002 
13024098.874 +1.4772382856E-001 +1.1979251893E+002  +8.1303968101E-001 -2.2269844753E+000  +8.0465627639E-001 +2.8178527858E+000  +1.2147832473E-001 +1.2036894222E+002 
13149244.055 +1.2312209890E-001 +1.1860726033E+002  +8.1961916203E-001 -1.9774302392E+000  +8.1500108923E-001 +2.3826637808E+000  +1.3485863326E-001 +1.2321154266E+002 
13274389.237 +1.2290786431E-001 +1.3160256912E+002  +8.3453980552E-001 -2.1156042767E+000  +8.2953510152E-001 +1.8562955476E+000  +9.4936540042E-002 +1.2039839128E+002 
13399534.418 +7.8063949877E-002 +1.1386592478E+002  +8.5610218055E-001 -1.4856610202E+000  +8.4063628353E-001 +2.0676536781E+000  +9.8703766709E-002 +1.1739012580E+002 
13524679.599 +8.1106799226E-002 +1.1123364241E+002  +8.5301560402E-001 -1.1966213591E+000  +8.4571271469E-001 +1.8626270197E+000  +8.7185441338E-002 +1.0846223344E+002 
13649824.781 +4.5596376067E-002 +1.1816847999E+002  +8.6713275642E-001 -1.4596313016E+000  +8.5822885058E-001 +1.3469838225E+000  +8.8337880494E-002 +1.1384175926E+002 
13774969.962 +4.6029601877E-002 +1.0614504120E+002  +8.8269991237E-001 -1.8168722772E+000  +8.6500618260E-001 +1.1320490005E+000  +7.0267053289E-002 +1.0821649590E+002 
13900115.144 +4.9407089436E-002 +1.0810372355E+002  +8.7599672774E-001 -1.1062526034E+000  +8.8170854803E-001 +5.9168337681E-001  +4.7901352164E-002 +9.3486966385E+001 
14025260.325 +4.0932863117E-002 +7.8344736353E+001  +8.8758500641E-001 -8.8075613314E-001  +8.9185449544E-001 +2.1000848679E-001  +4.2551095709E-002 +1.0877918965E+002 
14150405.507 +3.4791389681E-002 +5.9083556412E+001  +8.9746139341E-001 -6.3291705390E-001  +8.9285077368E-001 +8.6226716294E-001  +4.8916832837E-002 +1.0112644248E+002 
14275550.688 +5.0958685234E-002 +5.5377284431E+001  +9.0232031554E-001 -5.0277252577E-001  +9.1091268627E-001 +6.0390445543E-001  +3.4184360855E-002 +7.5682776923E+001 
14400695.870 +1.9794397772E-002 +8.7064628039E+001  +9.2792473763E-001 -8.9910218463E-001  +9.0884433157E-001 -2.8877175059E-001  +3.7685869827E-002 +5.3832728194E+001 
