!  2-Port S-parameters saved by WinCal
! VAR MeasName=S-Parameters (CALIBRATED_DATA) read from VNA (P5004A)
! VAR MeasDate=29/08/2024 12:22:29
! VAR NAME=S2_r9c5_SET1_9k-100M_2
! VAR FILENAME=S2_r9c5_SET1_9k-100M_2.S2P
! VAR DATE=29/08/2024 12:22:29
! VAR PHYS_PORTS=1,2
! VAR ObjTypeName=DATASET
! VAR IndexType=Frequency
!
# Hz S MA R 50
9000.000 +9.1979685021E-002 -1.6764233511E+002  +5.5161067487E-003 -9.8461223932E+001  +1.4996088923E-002 +7.9723132264E+001  +3.6161608803E-001 -1.3814601399E+002 
134145.181 +1.1068650214E-001 +1.6956831881E+002  +3.5244114933E-004 +2.1809634424E+001  +6.8716654787E-004 -1.1821488295E+002  +2.4068340287E-001 -1.7102529724E+002 
259290.363 +1.1311105059E-001 +1.6952827613E+002  +8.2123815774E-004 -6.9379416451E+001  +4.8310197211E-004 +9.6232155834E+001  +2.4796590324E-001 -1.6957166299E+002 
384435.544 +1.1418886063E-001 +1.6983725116E+002  +8.3058030856E-004 -8.1806127708E+001  +8.7944368816E-004 +1.4542851927E+002  +2.4622019474E-001 -1.6951959636E+002 
509580.726 +1.1371686645E-001 +1.7044337248E+002  +7.7385045719E-004 -6.7049878257E+001  +1.3607311709E-003 +8.2804431891E+001  +2.4133501344E-001 -1.6812852756E+002 
634725.907 +1.1569546349E-001 +1.7158458314E+002  +1.6261347800E-003 -1.6274424153E+002  +4.5011993492E-004 +9.8209458238E+001  +2.3998020857E-001 -1.6237114579E+002 
759871.089 +1.2050944282E-001 +1.7094359533E+002  +6.4194272874E-004 -1.5606387009E+002  +7.6576464467E-004 +3.2428312097E+001  +2.4361729931E-001 -1.6674089163E+002 
885016.270 +1.2019048245E-001 +1.6832340111E+002  +6.3657869126E-005 -7.6121952761E+001  +3.0015592085E-004 +1.4136283209E+002  +2.4601433093E-001 -1.6697032539E+002 
1010161.452 +1.1457465455E-001 +1.6885722756E+002  +1.8621697248E-003 -1.6502623871E+001  +2.6072274217E-003 -1.5738247335E+002  +2.1342686360E-001 -1.7058168095E+002 
1135306.633 +1.1422948177E-001 +1.6768602729E+002  +2.6470921534E-003 +3.0808724698E+000  +2.9999997375E-003 -1.6016990336E+002  +1.9295573702E-001 -1.7145056139E+002 
1260451.815 +1.2272519958E-001 +1.7180906306E+002  +1.7464265667E-003 -4.6437990390E+001  +2.1104921207E-003 +6.2942730234E+001  +2.1843736143E-001 -1.5846523362E+002 
1385596.996 +1.2570998975E-001 +1.7285287960E+002  +2.1700145929E-003 -1.0209114958E+002  +2.2666686122E-003 +1.0131105005E+002  +2.5944573443E-001 -1.5702728690E+002 
1510742.178 +1.2437305957E-001 +1.7171609449E+002  +9.3926419094E-004 -6.5346682609E+001  +1.1336267959E-003 +1.4255004342E+002  +2.6769829772E-001 -1.5638165979E+002 
1635887.359 +1.2815878222E-001 +1.7025933266E+002  +1.5893767945E-003 -1.3137366413E+001  +4.0526160849E-004 +1.3956465458E+002  +2.5435553667E-001 -1.5865210464E+002 
1761032.541 +1.3099184630E-001 +1.6905839953E+002  +1.6278995773E-003 -2.3737449309E+001  +1.4979599256E-003 -4.9461175790E+001  +2.4799049105E-001 -1.5585067257E+002 
1886177.722 +1.2787285798E-001 +1.6814021101E+002  +3.5502237116E-003 +7.5953894873E+001  +1.6807025811E-003 -9.0166884603E+001  +2.0683969858E-001 -1.6235142178E+002 
2011322.904 +1.2996683532E-001 +1.6698557415E+002  +8.6997051052E-003 +6.2904268644E+001  +8.3579104013E-003 -6.3445994254E+001  +1.7287103812E-001 -1.5473697763E+002 
2136468.085 +1.3148553030E-001 +1.6851022200E+002  +7.5699241701E-003 +7.4809272607E+001  +6.0993982643E-003 -4.9054888459E+001  +2.1109261362E-001 -1.7292444272E+002 
2261613.267 +1.3631287363E-001 +1.6703427688E+002  +1.0294997057E-002 +8.1055777120E+001  +8.9374329027E-003 -5.8399017859E+001  +1.6838637840E-001 +1.7604349868E+002 
2386758.448 +1.3746685952E-001 +1.6633966853E+002  +8.8655225413E-003 +8.3783652208E+001  +8.7759734591E-003 -2.4052273862E+001  +2.3017053035E-001 -1.7765813594E+002 
2511903.630 +1.3140967773E-001 +1.6530764327E+002  +2.4739993880E-002 +9.2726444773E+001  +2.6687372443E-002 -2.9720358571E+001  +1.8524430667E-001 +1.5124746721E+002 
2637048.811 +1.3883742734E-001 +1.6305125372E+002  +3.1409982670E-002 +5.8870355315E+001  +2.8409868913E-002 -5.2269122708E+001  +8.5871551126E-002 +1.6197361748E+002 
2762193.992 +1.2853405358E-001 +1.7348379023E+002  +6.8800051983E-002 -1.7279027499E+001  +8.3890610307E-002 -1.2642903319E+002  +2.9577125537E-001 -6.6553693357E+001 
2887339.174 +1.3731302990E-001 +1.7998211007E+002  +1.0359594375E-001 +3.2509683253E+000  +1.2685646308E-001 -1.1918650840E+002  +5.0717532880E-001 -2.8030963923E+000 
3012484.355 +1.1869523922E-001 +1.6809728188E+002  +1.1650765388E-001 -2.1312539414E+001  +1.2258023740E-001 -1.2623907500E+002  +6.4474984322E-001 -8.0105535627E+001 
3137629.537 +1.3343585908E-001 +1.7713971575E+002  +6.7670778926E-002 -7.8010395857E+000  +7.4743745895E-002 -9.7495192069E+001  +2.0389716786E-001 -1.6766645376E+001 
3262774.718 +1.3325772164E-001 +1.7173826508E+002  +3.6113124585E-002 +4.8966739451E+001  +3.4342697855E-002 -3.8911461504E+001  +1.9867966475E-001 +1.4412464471E+002 
3387919.900 +1.5244172715E-001 +1.5592427360E+002  +2.9235347884E-002 +7.3514908418E+001  +2.6446226564E-002 -5.6785767792E+000  +2.0474546519E-001 +1.6943823638E+002 
3513065.081 +1.5690634246E-001 +1.5844463282E+002  +3.8519640748E-002 +5.6045257598E+001  +3.0500167645E-002 -2.1837084118E+001  +1.2803735362E-001 +1.6467179720E+002 
3638210.263 +1.7683209285E-001 +1.4568156497E+002  +4.9268804575E-002 +1.2739688872E+002  +4.1676478855E-002 +3.8219138623E+001  +3.5428331195E-001 +1.5636439983E+002 
3763355.444 +1.4985391571E-001 +1.4852442251E+002  +4.7109161210E-002 +1.0329340821E+002  +3.9413436751E-002 +2.3009881338E+001  +3.8466867780E-001 +1.5878911026E+002 
3888500.626 +1.6123635401E-001 +1.4754888328E+002  +4.9246771315E-002 +1.1172930847E+002  +5.2486431757E-002 +3.5777044752E+001  +4.3510429902E-001 +1.5367080453E+002 
4013645.807 +1.9355281040E-001 +1.4886993019E+002  +5.7253224413E-002 +1.0968169058E+002  +5.4757024985E-002 +4.3337125113E+001  +4.5084449705E-001 +1.4129947709E+002 
4138790.989 +2.0169907125E-001 +1.5336210751E+002  +6.9347920747E-002 +6.6492811293E+001  +7.0689716060E-002 +3.1301473479E+000  +2.6248846393E-001 +6.6215137839E+001 
4263936.170 +1.9960792732E-001 +1.4946256051E+002  +6.4094066205E-002 +9.1910895622E+001  +6.3476114256E-002 +2.7899614737E+001  +3.7622812983E-001 +1.3231858628E+002 
4389081.352 +2.1423486659E-001 +1.3208423383E+002  +9.9959527302E-002 +1.1714128743E+002  +1.0456038381E-001 +5.6280760761E+001  +6.0201336066E-001 +1.4191658965E+002 
4514226.533 +1.9190757873E-001 +1.3671733125E+002  +1.2790677350E-001 +9.9894039281E+001  +1.3864285590E-001 +4.2751296997E+001  +7.9237611526E-001 +1.2194073394E+002 
4639371.715 +2.5106162209E-001 +1.3282543698E+002  +2.7918602189E-001 +9.2259956689E+001  +2.7123213436E-001 +4.2658750350E+001  +1.6868452726E+000 +7.9076312423E+001 
4764516.896 +3.2816699792E-001 +1.2261531900E+002  +3.8201733968E-001 +9.4594328557E+001  +3.3675802129E-001 +4.2861633596E+001  +1.5879771995E+000 +6.6636466814E+001 
4889662.078 +3.7131696292E-001 +1.3325683269E+002  +3.6031296138E-001 +1.7846832881E+002  +3.3669161864E-001 +1.3349984212E+002  +2.1416565924E+000 +1.5576718128E+002 
5014807.259 +4.0316808240E-001 +1.1108922460E+002  +9.4971928975E-001 +7.8094570039E+001  +8.4435753720E-001 +3.2268784456E+001  +4.9420181689E+000 +4.6392938660E+001 
5139952.441 +3.2122108977E-001 +1.3286911742E+002  +2.3006417808E-001 +1.0270499564E+002  +2.0238060271E-001 +6.4868563112E+001  +1.3573170436E+000 +1.0081720685E+002 
5265097.622 +3.4829438224E-001 +1.2293074152E+002  +2.6326733513E-001 +8.1977470790E+001  +2.5063880665E-001 +3.6768406232E+001  +1.1599495931E+000 +6.9915213275E+001 
5390242.804 +3.6851720253E-001 +1.2763345341E+002  +2.4966015302E-001 +9.3914088691E+001  +2.6925406512E-001 +5.9825486489E+001  +1.5086586160E+000 +8.9912567117E+001 
5515387.985 +3.4515235502E-001 +1.2285642117E+002  +2.2150157895E-001 +8.7640992445E+001  +2.1684486298E-001 +5.8117041405E+001  +1.2194090899E+000 +1.0334423247E+002 
5640533.166 +4.3160633847E-001 +1.2835565516E+002  +2.1105711838E-001 +9.8044820021E+001  +2.0588172327E-001 +6.7240831167E+001  +1.2486020035E+000 +1.0235126053E+002 
5765678.348 +4.5073354616E-001 +1.2203350654E+002  +2.8787829422E-001 +6.7616348195E+001  +2.6108872377E-001 +4.0489946293E+001  +1.3101194599E+000 +5.8782478667E+001 
5890823.529 +4.8394478906E-001 +1.1942674780E+002  +2.8194904357E-001 +9.1665351584E+001  +2.7156115705E-001 +6.9268657509E+001  +1.5496403739E+000 +9.9943586901E+001 
6015968.711 +5.3210311391E-001 +1.1506269879E+002  +2.9739762304E-001 +6.7111662048E+001  +2.9152120899E-001 +4.2617049264E+001  +1.3236690543E+000 +6.1638714254E+001 
6141113.892 +6.0515216376E-001 +1.1875187538E+002  +2.9417129175E-001 +7.5077323559E+001  +2.7703274855E-001 +5.0269639473E+001  +1.5071028652E+000 +6.5181688571E+001 
6266259.074 +5.8224178497E-001 +1.0704531526E+002  +2.9304392259E-001 +4.5569607013E+001  +3.0959797417E-001 +2.5496882616E+001  +1.4012137105E+000 +3.4631442466E+001 
6391404.255 +9.6219822827E-001 +9.6371118604E+001  +4.0250334961E-001 +5.1231226575E+001  +3.8368120403E-001 +3.1539977216E+001  +1.4150472376E+000 +2.4431095806E+001 
6516549.437 +9.0078074187E-001 +8.6560700297E+001  +3.6895533569E-001 +4.5883942778E+001  +3.3621780799E-001 +3.0644101114E+001  +1.2710859112E+000 +4.1488672282E+001 
6641694.618 +9.9346169807E-001 +6.4172823746E+001  +4.0466984434E-001 +2.7905772923E+001  +3.7006614152E-001 +1.8329472778E+001  +1.2062501841E+000 +2.6134414026E+001 
6766839.800 +1.2649109955E+000 +5.3830458377E+001  +4.1212614906E-001 +1.6383125657E+001  +4.0145746363E-001 +1.5148760453E+001  +1.1698225868E+000 +5.8830426431E+000 
6891984.981 +1.1831900180E+000 +3.2301932138E+001  +3.6656560269E-001 +2.0546230004E+000  +3.7158558235E-001 -5.0502245659E+000  +1.0871247260E+000 -9.6807954804E+000 
7017130.163 +1.1917413241E+000 +1.9408725984E+001  +3.5825584607E-001 -4.3253985445E-002  +3.3824304212E-001 -2.9865609635E+000  +1.0709048875E+000 -1.9241570747E+000 
7142275.344 +1.1136723315E+000 +5.6096851359E+000  +3.0422182173E-001 -3.7523454807E+000  +3.1952454440E-001 -5.4136884381E+000  +1.1961381327E+000 -8.1753127304E+000 
7267420.526 +1.1445593307E+000 +1.6401408013E+000  +2.6329370790E-001 -2.5660589467E+000  +2.7506337410E-001 -1.5910375367E+000  +1.1773343305E+000 -9.1548382630E+000 
7392565.707 +1.0331773377E+000 -3.1516609142E+000  +2.2616008451E-001 +3.9019893650E+000  +2.3478980181E-001 +3.7803483556E+000  +9.6741750662E-001 -6.0171888410E+000 
7517710.889 +8.5994695034E-001 +4.9080106045E+000  +1.9735405325E-001 +1.9708188380E+000  +2.0162307533E-001 +7.1697309041E+000  +1.0117968083E+000 -5.9335032839E+000 
7642856.070 +8.1269164569E-001 -1.7730012157E-001  +2.0350071448E-001 +1.0230857641E-001  +1.9061403406E-001 +6.3889881696E+000  +9.5660624559E-001 -7.2817142827E+000 
7768001.252 +7.1840482557E-001 -2.2620630070E-001  +1.9555836824E-001 -1.3858799690E+000  +1.8918480488E-001 +4.2267812211E+000  +7.9566421435E-001 -7.1423504225E+000 
7893146.433 +6.3022601903E-001 +1.3510629871E+001  +1.7181013752E-001 -1.5439881484E+000  +1.7494226612E-001 +7.0157701774E+000  +7.0129586266E-001 -1.1990078698E+000 
8018291.615 +6.0959643371E-001 +1.3078296399E+001  +1.6950293272E-001 -9.6377843055E-001  +1.6412081825E-001 +7.3432847056E+000  +6.5539653265E-001 +8.2116604723E+000 
8143436.796 +5.9554002987E-001 +1.7966785099E+001  +1.6524806946E-001 -2.0097119524E-001  +1.6413539945E-001 +7.0451199216E+000  +6.1477652654E-001 +5.4994707640E+000 
8268581.977 +6.0287207851E-001 +1.5987909756E+001  +1.6167983662E-001 -7.1302612812E-001  +1.5735110666E-001 +8.0645448232E+000  +6.5805118146E-001 +4.6961769489E+000 
8393727.159 +5.4971330957E-001 +1.1588576099E+001  +1.6026314302E-001 -1.5954576226E+000  +1.6025326417E-001 +7.6391668761E+000  +5.3054361305E-001 +3.3927662167E+000 
8518872.340 +4.6554157501E-001 +1.6480021306E+001  +1.5773625111E-001 -3.7939568139E+000  +1.5269605902E-001 +7.9284689530E+000  +5.6020726155E-001 +3.0430932329E+000 
8644017.522 +4.8766783899E-001 +1.3167328758E+001  +1.5236289505E-001 -3.8673025660E+000  +1.5633779845E-001 +8.8403641854E+000  +5.2724045987E-001 +1.2397669689E+001 
8769162.703 +4.6098513150E-001 +9.7112310784E+000  +1.5465370734E-001 -4.4717487840E+000  +1.5551805792E-001 +1.0099732768E+001  +5.1994014364E-001 +6.0023106264E+000 
8894307.885 +4.2322962843E-001 +1.4614610879E+001  +1.5096877164E-001 -4.1533186076E+000  +1.5353039153E-001 +9.1710123765E+000  +4.5613992815E-001 -3.5936307982E+000 
9019453.066 +3.9136136144E-001 +1.1977955712E+001  +1.5394856395E-001 -3.4725724401E+000  +1.5289568996E-001 +1.0789673336E+001  +5.4887312877E-001 -3.5927526279E-001 
9144598.248 +3.1780922211E-001 +9.2745480973E+000  +1.5072700345E-001 -5.6053704512E+000  +1.5146645366E-001 +8.7161569987E+000  +4.6911162474E-001 -4.3233391659E-001 
9269743.429 +3.8338915188E-001 +1.7811118052E+001  +1.4961010473E-001 -5.4552976872E+000  +1.4801386558E-001 +1.0739215293E+001  +4.5162494033E-001 -1.9016997615E+000 
9394888.611 +3.9432306927E-001 +4.7978586024E+000  +1.5095007821E-001 -4.1173807503E+000  +1.5165578227E-001 +1.1283639845E+001  +3.9440716994E-001 -2.4706094481E+000 
9520033.792 +3.9682312765E-001 +9.5401454243E+000  +1.5623560575E-001 -4.4047507403E+000  +1.5437370503E-001 +1.2170553193E+001  +4.2423666423E-001 +5.1422321296E-001 
9645178.974 +3.6880989528E-001 +1.0046826923E+001  +1.5645907558E-001 -4.6468279246E+000  +1.4805213103E-001 +1.0860379000E+001  +4.3333668002E-001 -2.4325068369E+000 
9770324.155 +3.5060281460E-001 +8.5370171015E+000  +1.5309874430E-001 -3.8731323319E+000  +1.5344214184E-001 +1.1844062924E+001  +4.4320614951E-001 -4.4438497012E+000 
9895469.337 +3.9564032455E-001 +2.3365508515E+000  +1.5508635007E-001 -3.7751805751E+000  +1.5543925002E-001 +1.2844714342E+001  +4.4641337177E-001 -5.6854153333E+000 
10020614.518 +3.9660270178E-001 +9.9265492672E+000  +1.5451059762E-001 -4.6724486069E+000  +1.5367906872E-001 +1.1983554352E+001  +4.0892847195E-001 -1.0303501511E+000 
10145759.700 +3.6572617407E-001 +6.3535740474E+000  +1.5891641264E-001 -4.4106600481E+000  +1.5487889492E-001 +1.1979976058E+001  +3.8552783277E-001 -1.5095374624E+000 
10270904.881 +4.1098293960E-001 +2.6636055519E+000  +1.5903467318E-001 -3.6921222746E+000  +1.5587784547E-001 +1.2738043422E+001  +4.2304410384E-001 +2.8891202358E+000 
10396050.063 +4.0012307747E-001 +5.4146257789E+000  +1.5811297079E-001 -4.0893039141E+000  +1.5670544759E-001 +1.1553228960E+001  +3.8715408030E-001 -2.7184679117E+000 
10521195.244 +4.3143085309E-001 +9.0819202548E+000  +1.5750433272E-001 -3.0506464641E+000  +1.5570795940E-001 +1.3661540768E+001  +4.6331123457E-001 +8.9704480950E-001 
10646340.426 +4.3268069124E-001 +1.3124401231E+001  +1.6065062588E-001 -1.5911482398E+000  +1.5737858041E-001 +1.2982341081E+001  +4.4720807637E-001 +4.5724201424E+000 
10771485.607 +4.2198551131E-001 +1.2864347701E+001  +1.5811645601E-001 -2.1300399858E+000  +1.6009904251E-001 +1.3010028375E+001  +4.2259298629E-001 +4.0027318161E+000 
10896630.788 +4.1724227787E-001 +1.3415002268E+001  +1.6056515979E-001 -1.5722074873E+000  +1.5759004297E-001 +1.2392429797E+001  +4.3578452756E-001 +5.9943632191E+000 
11021775.970 +4.1943397552E-001 +1.1866411732E+001  +1.6028754406E-001 -1.5159772290E+000  +1.5933584711E-001 +1.1705293336E+001  +4.0622153475E-001 +8.1448646529E+000 
11146921.151 +4.5472084470E-001 +8.8858017502E+000  +1.6399257718E-001 -7.1610424378E-001  +1.6240175629E-001 +1.2161562319E+001  +4.5518718384E-001 +4.7507450062E+000 
11272066.333 +4.5712277299E-001 +9.7023438530E+000  +1.6544125406E-001 -9.9841471236E-001  +1.6420291819E-001 +1.2092613953E+001  +4.3838545097E-001 +3.3666744089E+000 
11397211.514 +4.6144826697E-001 +1.3411589706E+001  +1.6468134495E-001 -5.4282496677E-001  +1.6341554973E-001 +1.2064602569E+001  +4.7713623628E-001 +6.0013264037E+000 
11522356.696 +4.4679199561E-001 +8.6067693456E+000  +1.6803155892E-001 -1.0247429821E-001  +1.6373935812E-001 +1.1287304015E+001  +5.0108085782E-001 +6.6777768051E+000 
11647501.877 +4.4059588192E-001 +8.1659898156E+000  +1.6951432995E-001 -1.7343009666E-001  +1.7028241840E-001 +1.0800158676E+001  +4.6797059104E-001 +3.6589142458E+000 
11772647.059 +4.4992683837E-001 +9.9195255337E+000  +1.7100202310E-001 -3.3273748921E-001  +1.7117055005E-001 +1.0495380605E+001  +4.9763895353E-001 -1.2607798110E-001 
11897792.240 +4.7074262528E-001 +5.9778192637E+000  +1.7038992256E-001 +3.5054894750E-002  +1.6818741222E-001 +1.0927149549E+001  +5.2044461982E-001 +8.0937689984E+000 
12022937.422 +5.2475756376E-001 +1.1041915558E+001  +1.7237352973E-001 +8.2589665078E-001  +1.7367891895E-001 +1.0588869406E+001  +4.8214454071E-001 +4.3990478751E+000 
12148082.603 +5.0115322257E-001 +8.4737838231E+000  +1.7700328648E-001 +8.8296762423E-001  +1.7435311819E-001 +1.0075425576E+001  +5.1907755095E-001 +3.4071394447E+000 
12273227.785 +5.1962207245E-001 +7.3608349737E+000  +1.7923711106E-001 +1.0073224001E+000  +1.7650491251E-001 +9.5661679262E+000  +5.2773574365E-001 +1.3036007905E+000 
12398372.966 +5.5327398576E-001 +8.0336153851E+000  +1.7982442259E-001 +2.2346950647E+000  +1.7749727049E-001 +9.8054899873E+000  +5.4718525602E-001 +2.6942984637E+000 
12523518.148 +5.5417068691E-001 +5.1821380012E+000  +1.8144030718E-001 +1.7576540320E+000  +1.8112184402E-001 +9.1621852933E+000  +5.4376033968E-001 +1.0892999244E+000 
12648663.329 +5.4457031823E-001 +4.7762068529E+000  +1.8535329488E-001 +1.4390348630E+000  +1.8488821604E-001 +8.4831114738E+000  +5.6863360062E-001 +1.7547747700E-001 
12773808.511 +5.7496208449E-001 +3.8323481080E+000  +1.8468570455E-001 +1.8050138759E+000  +1.8490640972E-001 +8.1615091613E+000  +5.8409112127E-001 +1.2291640511E+000 
12898953.692 +5.8497632079E-001 +2.9661174829E+000  +1.8829981264E-001 +1.6432129307E+000  +1.8534864445E-001 +7.5779266778E+000  +5.7248639177E-001 +1.2290937316E+000 
13024098.874 +5.9055548299E-001 +2.9914240986E+000  +1.8835419161E-001 +2.3437239224E+000  +1.8835214115E-001 +6.6807238571E+000  +6.1077521062E-001 +9.4868894803E-001 
13149244.055 +6.1954919724E-001 -4.2033022071E-001  +1.9315853254E-001 +2.5303294929E+000  +1.9247246766E-001 +6.8026547941E+000  +6.3550003760E-001 -3.3902527294E+000 
13274389.237 +6.1563034050E-001 +7.9777663124E-001  +1.9275241735E-001 +1.6725110675E+000  +1.9138343579E-001 +5.6554969821E+000  +6.0425977531E-001 +1.5484022748E+000 
13399534.418 +6.3056063681E-001 +2.7444660149E+000  +1.9448661874E-001 +2.1695764590E+000  +1.9193276804E-001 +5.3756211463E+000  +6.4631707844E-001 -2.1098879603E+000 
13524679.599 +6.8044370347E-001 -1.2687471410E-001  +1.9712627820E-001 +1.8006784220E+000  +1.9388751005E-001 +5.7882459773E+000  +6.8626473131E-001 -3.0292977625E+000 
13649824.781 +6.6955193615E-001 -1.4164429714E+000  +1.9901341357E-001 +2.2202394610E+000  +1.9658294758E-001 +4.9213476971E+000  +6.9515653450E-001 -2.2040762164E+000 
13774969.962 +6.7990475773E-001 -1.9373025728E+000  +2.0098840872E-001 +1.7676890067E+000  +1.9839387287E-001 +4.1556625885E+000  +6.9406164360E-001 -4.2112551685E+000 
13900115.144 +7.0937579579E-001 -2.3712527808E+000  +2.0175766676E-001 +2.1501504031E+000  +1.9842568355E-001 +3.3291452426E+000  +7.0480302079E-001 -3.7088097999E+000 
14025260.325 +7.2404969909E-001 -3.2829416424E+000  +2.0435044533E-001 +1.7828057527E+000  +2.0051909784E-001 +3.3749176136E+000  +7.2949416445E-001 -4.7182215425E+000 
14150405.507 +7.5003225780E-001 -4.3264237782E+000  +2.0510990289E-001 +2.0470947016E+000  +2.0308141410E-001 +3.0107070470E+000  +7.5455133929E-001 -4.1070193813E+000 
14275550.688 +7.4358722153E-001 -5.1567972535E+000  +2.0547897625E-001 +1.6423520400E+000  +2.0299892364E-001 +2.2003120767E+000  +7.7656158099E-001 -4.2052170408E+000 
14400695.870 +7.8105636235E-001 -5.6387758074E+000  +2.0672807555E-001 +1.5411314073E+000  +2.0236715079E-001 +2.6087546212E+000  +7.8835153821E-001 -4.7443046767E+000 
