!  2-Port S-parameters saved by WinCal
! VAR MeasName=S-Parameters (CALIBRATED_DATA) read from VNA (P5004A)
! VAR MeasDate=29/08/2024 13:40:28
! VAR NAME=S2_r9c6_RESET1_9k-100M_3
! VAR FILENAME=S2_r9c6_RESET1_9k-100M_3.S2P
! VAR DATE=29/08/2024 13:40:28
! VAR PHYS_PORTS=1,2
! VAR ObjTypeName=DATASET
! VAR IndexType=Frequency
!
# Hz S MA R 50
9000.000 +8.3896468676E-002 -1.7035691434E+002  +2.6735719690E-003 -1.6314025024E+002  +6.8697772275E-003 +1.0933928648E+002  +2.2795289239E-001 -1.4834101663E+002 
134145.181 +1.1133076222E-001 +1.6985231945E+002  +1.7411630968E-004 +1.7304671496E+002  +1.2713633764E-004 -6.2124201940E+001  +2.4237374846E-001 -1.7151041481E+002 
259290.363 +1.1229333739E-001 +1.7008495364E+002  +3.6254322057E-004 +1.7815695372E+002  +5.1951170319E-004 +9.8482135731E+001  +2.4248594888E-001 -1.7058617149E+002 
384435.544 +1.1415030467E-001 +1.7068252053E+002  +3.8715389600E-004 -8.6008261586E+001  +5.2921088861E-004 +1.4553106631E+002  +2.4307348880E-001 -1.7028864161E+002 
509580.726 +1.1420193795E-001 +1.7096505020E+002  +1.4305236982E-003 -1.0632065722E+002  +5.9007655680E-004 -1.6135570282E+001  +2.4226212569E-001 -1.6232506118E+002 
634725.907 +1.1543137488E-001 +1.7200178909E+002  +1.3775254231E-003 -7.0552644657E+001  +1.3377088026E-003 +2.4111687988E+001  +2.6313003034E-001 -1.6420253553E+002 
759871.089 +1.2061335070E-001 +1.7122813862E+002  +5.9193858168E-004 -7.1373574355E+001  +7.8041233496E-004 +7.3540971764E+001  +2.4827594494E-001 -1.6635473292E+002 
885016.270 +1.1958124593E-001 +1.6872836676E+002  +4.4352448860E-004 -1.1783029065E+002  +7.2310068613E-004 -1.6842509452E+002  +2.4604628351E-001 -1.6650649960E+002 
1010161.452 +1.1643593640E-001 +1.6957503623E+002  +5.2006942219E-004 +6.5837069743E+001  +2.1094121552E-003 -1.6939804272E+002  +2.1255229769E-001 -1.6922235856E+002 
1135306.633 +1.2106511273E-001 +1.6813985654E+002  +1.0802067547E-003 +1.0805615278E+001  +6.9783246586E-004 +1.4912337231E+002  +2.0363652597E-001 -1.6890141745E+002 
1260451.815 +1.1617905856E-001 +1.7265568820E+002  +5.8802630545E-003 -2.7989009546E+001  +2.3081584587E-003 -1.7864036508E+002  +1.5128608353E-001 -1.6011202020E+002 
1385596.996 +1.2430254016E-001 +1.7403985350E+002  +2.2917138179E-003 -1.3360425236E+002  +1.8686374802E-003 +1.0521055984E+002  +2.6687638079E-001 -1.5855481973E+002 
1510742.178 +1.2508967346E-001 +1.7241991351E+002  +8.3824397508E-004 -4.8084867775E+001  +3.7244500221E-004 +1.7663058301E+002  +2.5676691993E-001 -1.6007901806E+002 
1635887.359 +1.3036185358E-001 +1.7081240615E+002  +3.9755310836E-004 -1.4472164225E+002  +1.0997671391E-003 -1.5268412490E+002  +2.4423819049E-001 -1.5547583163E+002 
1761032.541 +1.3116591781E-001 +1.6939006392E+002  +2.5891537440E-003 +5.9967616709E+000  +2.1889416204E-003 -1.7583753748E+002  +2.2817596264E-001 -1.5025499293E+002 
1886177.722 +1.3150150777E-001 +1.6854375269E+002  +2.7397212084E-003 +3.9043343930E+001  +2.5563970027E-003 -7.2107855294E+001  +2.3402399294E-001 -1.6215820148E+002 
2011322.904 +1.3512369636E-001 +1.6693676832E+002  +5.1221681223E-003 +6.9165724197E+001  +4.8235624356E-003 -7.2899351946E+001  +2.0076415213E-001 -1.6030747401E+002 
2136468.085 +1.3008179602E-001 +1.6890711987E+002  +1.4149660240E-002 +7.0774712216E+001  +1.2512156650E-002 -3.8689267093E+001  +1.8412611212E-001 +1.7372324962E+002 
2261613.267 +1.3038059687E-001 +1.6554674858E+002  +8.6064508930E-003 +6.7637253092E+001  +9.8381736259E-003 -3.4664874184E+001  +2.0741371175E-001 -1.7202271986E+002 
2386758.448 +1.3741561621E-001 +1.6672934386E+002  +1.0391661618E-002 +5.4331982582E+001  +1.0910718359E-002 -4.2393754023E+001  +2.0440265467E-001 -1.6690747845E+002 
2511903.630 +1.3179553604E-001 +1.6757600351E+002  +1.5606282994E-002 +6.2312837205E+001  +1.3879827761E-002 -3.8373707060E+001  +2.2183721088E-001 -1.7733052323E+002 
2637048.811 +1.2181327657E-001 +1.6684719020E+002  +2.6299638716E-002 +3.9774335494E+001  +2.7761228705E-002 -7.1532511458E+001  +1.3727713324E-001 -1.5661428717E+002 
2762193.992 +1.2913210676E-001 +1.7234229512E+002  +5.3427414893E-002 +9.2007547285E+000  +4.8275100081E-002 -1.0097050476E+002  +4.6802329763E-002 -8.2805076604E+001 
2887339.174 +1.2369757183E-001 +1.7814387874E+002  +4.7764639542E-002 -7.7271300968E+000  +4.9437830140E-002 -1.1786459224E+002  +1.0310120016E-001 -1.1628186644E+002 
3012484.355 +1.3737640363E-001 +1.7409898828E+002  +4.5864403392E-002 -3.0768194696E+001  +3.5546131689E-002 -1.3325764364E+002  +2.4036328786E-001 -9.9580089888E+001 
3137629.537 +1.4345073916E-001 +1.6308910213E+002  +3.9133003172E-002 +1.5274318614E+000  +4.5655864068E-002 -7.5649451840E+001  +1.9248776422E-001 -8.3075816062E+001 
3262774.718 +1.2460729820E-001 +1.6771304940E+002  +5.7950834369E-002 +2.6406250742E+001  +5.0466139364E-002 -6.3977046197E+001  +3.7071398709E-002 +2.6115751339E+001 
3387919.900 +1.3519853665E-001 +1.5490844937E+002  +6.6320179721E-002 +5.6474661685E+001  +7.1753204046E-002 -2.9142882970E+001  +1.5487644350E-001 +7.2296294294E+001 
3513065.081 +1.3722353394E-001 +1.5494920145E+002  +3.2245829181E-002 +6.9102879924E+001  +3.3436871992E-002 -1.3743758683E+001  +2.1942050289E-001 +1.7159161017E+002 
3638210.263 +1.8325318299E-001 +1.4546865586E+002  +8.9108244432E-002 +8.3085157718E+001  +8.3816299380E-002 +2.6725902867E+000  +2.9391852999E-001 +4.8924016269E+001 
3763355.444 +1.7788329966E-001 +1.4784290808E+002  +6.9544760144E-002 +1.3123339618E+002  +7.6609412003E-002 +4.4738968347E+001  +5.5456843416E-001 +1.3765866423E+002 
3888500.626 +2.0126873122E-001 +1.5323954541E+002  +5.3053242710E-002 +1.2740263395E+002  +5.3997204927E-002 +3.8322664666E+001  +4.9366967771E-001 +1.3745194819E+002 
4013645.807 +1.8258450975E-001 +1.4493059331E+002  +5.4853307262E-002 +8.1558170953E+001  +5.3738213530E-002 +2.1184093664E+001  +2.4791347268E-001 +1.4510573766E+002 
4138790.989 +1.7510327697E-001 +1.4759968829E+002  +5.1437556868E-002 +1.0772774894E+002  +5.3194359440E-002 +3.6586774713E+001  +4.5327343966E-001 +1.5670805207E+002 
4263936.170 +2.0008182731E-001 +1.4720082860E+002  +9.9153785184E-002 +1.0049737262E+002  +9.7742154319E-002 +3.0633548908E+001  +6.0543258841E-001 +1.1104753515E+002 
4389081.352 +2.1665443552E-001 +1.4186733160E+002  +1.9867420115E-001 +1.0772141459E+002  +2.0967633268E-001 +5.8445478847E+001  +1.5874089361E+000 +1.0894565220E+002 
4514226.533 +2.5685961841E-001 +1.4418309884E+002  +1.4870901827E-001 +1.3813905353E+002  +1.2615643671E-001 +7.5967631828E+001  +1.0830757753E+000 +1.2804097638E+002 
4639371.715 +2.8639800185E-001 +1.1027963897E+002  +3.8728076771E-001 +7.8417163169E+001  +3.9224254053E-001 +2.6276874911E+001  +1.5230058972E+000 +5.4958900795E+001 
4764516.896 +3.6501489071E-001 +1.3680674508E+002  +5.6121066911E-001 +1.4883537984E+002  +5.2333415971E-001 +9.2179432924E+001  +3.5453709594E+000 +1.1739647986E+002 
4889662.078 +4.7344923998E-001 +1.0812599042E+002  +1.4371535621E+000 +6.0268854592E+001  +1.2500541900E+000 +1.3493530016E+001  +7.4013612853E+000 +8.9960055972E+000 
5014807.259 +2.8389528566E-001 -1.3915546061E+002  +2.4675823877E+000 -7.7298128434E+001  +2.4946475124E+000 -1.2096327055E+002  +1.5505102052E+001 -1.0635965060E+002 
5139952.441 +2.9750536890E-001 +1.3509831256E+002  +1.9240078679E-001 +6.9289475069E+001  +1.7954020514E-001 +2.4430876973E+001  +8.5912348934E-001 +5.1811695371E+001 
5265097.622 +3.1803953743E-001 +1.3179378544E+002  +2.2605671154E-001 +8.4222303440E+001  +2.2095949028E-001 +4.9874836409E+001  +1.1636283016E+000 +8.8536603403E+001 
5390242.804 +4.2724752400E-001 +1.3540897939E+002  +3.3489500362E-001 +1.5355971411E+002  +2.9236759160E-001 +1.2035174656E+002  +2.4962848631E+000 +1.3717496990E+002 
5515387.985 +4.1762296188E-001 +1.3170951650E+002  +1.7418800909E-001 +1.2163349631E+002  +1.8060440400E-001 +8.8287327628E+001  +1.2375444696E+000 +1.2640019260E+002 
5640533.166 +4.5055492167E-001 +1.3001893770E+002  +2.6484247376E-001 +9.3234854493E+001  +2.6286206157E-001 +6.5386596336E+001  +1.5634654994E+000 +8.6264500274E+001 
5765678.348 +4.6528285537E-001 +1.2097725998E+002  +2.5817455089E-001 +7.0426745276E+001  +2.5463980923E-001 +4.3056115620E+001  +1.2084718407E+000 +6.1508048898E+001 
5890823.529 +5.9232912835E-001 +1.2151529779E+002  +3.6091477540E-001 +1.1940373107E+002  +3.5254882709E-001 +8.9607446217E+001  +2.2839917884E+000 +1.1036463582E+002 
6015968.711 +6.3342942261E-001 +1.0941228476E+002  +4.4792143345E-001 +8.1289716240E+001  +4.6860319957E-001 +5.8007991980E+001  +2.2201017564E+000 +7.2380182455E+001 
6141113.892 +5.2976116637E-001 +1.0666549259E+002  +2.8302887667E-001 +4.7100558179E+001  +3.1387050488E-001 +3.3781236242E+001  +1.3047167689E+000 +4.8864120584E+001 
6266259.074 +5.9335939344E-001 +1.0875194198E+002  +2.7844844260E-001 +5.8888658868E+001  +2.6561352064E-001 +4.0782667606E+001  +1.2423423520E+000 +6.6105393134E+001 
6391404.255 +6.1618700568E-001 +8.6698522175E+001  +3.9569308684E-001 +3.5410033549E+001  +3.6189888896E-001 +2.1011241995E+001  +1.5584537195E+000 +3.5757797050E+001 
6516549.437 +9.1831658892E-001 +9.2614351845E+001  +3.6071910369E-001 +4.9012780562E+001  +3.5742304128E-001 +3.5310695594E+001  +1.2705249929E+000 +3.6790942080E+001 
6641694.618 +9.6931963646E-001 +7.3584371246E+001  +3.9062184450E-001 +2.5597023487E+001  +3.7184454921E-001 +1.4802354382E+001  +1.1853133606E+000 +5.8142017966E+000 
6766839.800 +9.8908785574E-001 +4.0774118790E+001  +3.8425057995E-001 +1.0294002522E+001  +3.8733547191E-001 +1.5689887845E+000  +1.1049466995E+000 +7.5820723136E+000 
6891984.981 +1.0607401316E+000 +3.1896248253E+001  +3.9928251915E-001 +5.5717181233E+000  +3.5932316701E-001 +3.3959132705E-001  +1.1467089992E+000 +7.0521292180E+000 
7017130.163 +1.3012041928E+000 +3.0363222536E+001  +3.6084072677E-001 +4.8730115327E+000  +3.4443097548E-001 +2.7424811474E+000  +1.0609679328E+000 -1.0431387720E+001 
7142275.344 +1.1044538436E+000 +1.1189140679E+001  +3.0319808546E-001 -1.5489613052E+000  +2.9943301767E-001 -3.9390494680E+000  +9.7404539651E-001 -1.2585643662E+001 
7267420.526 +1.0376163034E+000 +5.9122770383E+000  +2.6704066945E-001 +1.9030255876E+000  +2.6885552335E-001 -2.0186298585E+000  +1.1875800398E+000 -6.4116263916E+000 
7392565.707 +1.0157491505E+000 -1.4543598499E-001  +2.4402463928E-001 +4.2979681729E+000  +2.2681613822E-001 +4.7408819722E+000  +1.0664444628E+000 -5.2368595102E+000 
7517710.889 +9.5605246175E-001 +7.7532463015E+000  +2.1028387843E-001 +5.1123653365E+000  +2.0256332762E-001 +6.2620632591E+000  +9.8847960833E-001 -3.8025843646E+000 
7642856.070 +8.6922383932E-001 +3.6696458201E-001  +2.0584378115E-001 +1.6802060459E+000  +2.0686196791E-001 +6.9088278088E+000  +9.0474964907E-001 -2.3644536590E+000 
7768001.252 +7.0317297254E-001 +1.1080535239E+001  +1.9620873169E-001 -6.4413375620E-001  +1.8366652352E-001 +5.2894146298E+000  +7.6557733877E-001 -1.0245938234E+001 
7893146.433 +6.6737388902E-001 +1.4368045228E+001  +1.8402756771E-001 +2.0753234800E-001  +1.7884503386E-001 +6.9748192075E+000  +7.0827060488E-001 +3.1092996442E+000 
8018291.615 +7.5960040233E-001 +6.4406287728E+000  +1.8825089256E-001 -1.6836944629E-001  +1.8747322208E-001 +6.4505209313E+000  +6.5673038062E-001 -1.8988813252E+000 
8143436.796 +5.8665897724E-001 +1.5961887291E+001  +1.6769339312E-001 -3.0961583785E+000  +1.6810025465E-001 +7.4133313433E+000  +6.0108547206E-001 +3.2582609120E+000 
8268581.977 +5.4867966094E-001 +1.5513758280E+001  +1.6895903279E-001 -3.0487044990E+000  +1.6923192284E-001 +7.4990610798E+000  +5.5431758950E-001 +6.0070729949E+000 
8393727.159 +5.5908074719E-001 +1.4859613455E+001  +1.7047444414E-001 -1.2211523813E+000  +1.6434452546E-001 +8.2932893775E+000  +5.4937150888E-001 +5.5294691049E+000 
8518872.340 +5.1839618948E-001 +9.2404073926E+000  +1.6638993182E-001 -3.6360443377E+000  +1.6634174813E-001 +7.5828187978E+000  +5.0546834321E-001 +3.7817338187E+000 
8644017.522 +4.9783424643E-001 +1.4509095834E+001  +1.6736807689E-001 -3.7602961351E+000  +1.6068739928E-001 +8.6394821916E+000  +4.4412018739E-001 +4.5152696511E-002 
8769162.703 +4.3145407025E-001 +7.3188046529E+000  +1.6307190059E-001 -3.2559172726E+000  +1.6162838383E-001 +8.2492252519E+000  +4.9377661188E-001 -7.7425467305E-001 
8894307.885 +4.3208972720E-001 +1.0026051092E+001  +1.6056197383E-001 -4.7704723756E+000  +1.6147136142E-001 +8.1662046772E+000  +4.5581618472E-001 -3.8293585895E+000 
9019453.066 +4.9223319059E-001 +1.3481710245E+001  +1.6039968075E-001 -4.7961598914E+000  +1.5729290187E-001 +1.0743327605E+001  +4.7825903035E-001 +1.2012922707E+000 
9144598.248 +4.5008012981E-001 +1.4697020301E+001  +1.5788215148E-001 -4.6581679727E+000  +1.5549861462E-001 +1.1333459449E+001  +4.5140388772E-001 +3.5442466963E+000 
9269743.429 +4.0293307478E-001 +6.1880746944E+000  +1.5723181165E-001 -4.5759774508E+000  +1.5570716954E-001 +1.0127660695E+001  +4.5179368017E-001 +3.2362081690E+000 
9394888.611 +4.3394519252E-001 +1.2692162008E+001  +1.5797902666E-001 -4.9949743357E+000  +1.5388647228E-001 +9.6762949359E+000  +3.7727496098E-001 -1.8534495675E+000 
9520033.792 +3.6697175538E-001 +3.4858402094E+000  +1.5908611053E-001 -5.3127467798E+000  +1.5903651803E-001 +1.0330278611E+001  +3.9823209789E-001 -1.2181347503E+000 
9645178.974 +3.7668520080E-001 +1.0123742022E+001  +1.5841524055E-001 -4.8160227036E+000  +1.6170674990E-001 +1.0308395208E+001  +4.0683549726E-001 -4.1883271413E+000 
9770324.155 +3.9504770245E-001 +2.5055305491E+000  +1.6390716985E-001 -5.7750864279E+000  +1.6081246603E-001 +1.0652520431E+001  +3.9728915761E-001 -5.9378144982E+000 
9895469.337 +3.9611754893E-001 +8.3754302690E+000  +1.6115897525E-001 -4.7717015919E+000  +1.6078250222E-001 +1.1472000459E+001  +4.0364466440E-001 +1.9430382432E+000 
10020614.518 +3.4408633434E-001 +8.4352536010E+000  +1.5934942562E-001 -3.4969195651E+000  +1.5794113677E-001 +1.1790676603E+001  +4.3874643585E-001 +9.3027543802E-001 
10145759.700 +3.8427172889E-001 +6.0669567973E+000  +1.6382903320E-001 -4.3343785207E+000  +1.6148250154E-001 +1.2406396958E+001  +4.1672905292E-001 -1.4621118529E+000 
10270904.881 +3.9560057530E-001 +8.7952966673E+000  +1.6539463158E-001 -3.5759650419E+000  +1.6260230746E-001 +1.3411912152E+001  +4.2675782529E-001 -3.6510589665E+000 
10396050.063 +4.1791123595E-001 +1.1842927085E+001  +1.6313475165E-001 -2.3326664964E+000  +1.5972769737E-001 +1.2495598397E+001  +3.9940637561E-001 +8.5497598098E-001 
10521195.244 +3.6502094689E-001 +5.1437656147E+000  +1.6420090181E-001 -4.0162492826E+000  +1.6462589589E-001 +1.1070542146E+001  +3.5760849200E-001 +5.5543543197E-001 
10646340.426 +4.3940839382E-001 +1.1991738359E+001  +1.6411390759E-001 -1.5683686575E+000  +1.6296658462E-001 +1.2524776161E+001  +4.5204979836E-001 +2.3132880000E+000 
10771485.607 +4.3911302989E-001 +1.4108025177E+001  +1.6697185862E-001 -1.3494576448E+000  +1.6325289235E-001 +1.3142854258E+001  +4.1548875166E-001 +1.1328658735E+000 
10896630.788 +4.2846345264E-001 +8.0314744487E+000  +1.6732580039E-001 -2.6052660352E+000  +1.6663334688E-001 +1.2501987019E+001  +3.9668046776E-001 +8.6351590523E+000 
11021775.970 +4.3277440116E-001 +1.4101728146E+001  +1.6983939962E-001 -1.2730206946E+000  +1.6482815124E-001 +1.2211893907E+001  +4.5341581041E-001 +1.2869887155E+000 
11146921.151 +4.1994062877E-001 +1.0507123467E+001  +1.7065189975E-001 -1.2379717779E+000  +1.6878698108E-001 +1.1715958387E+001  +4.6089190252E-001 +5.0083730785E+000 
11272066.333 +4.2830718946E-001 +1.3376293668E+001  +1.7021917011E-001 -1.8191352362E+000  +1.6924692847E-001 +1.0993791303E+001  +4.3288059579E-001 +4.6013043891E+000 
11397211.514 +4.1645449847E-001 +1.1629018467E+001  +1.7009638806E-001 -3.1027276059E-001  +1.7197192159E-001 +1.1153482406E+001  +4.7095886871E-001 +8.5221383720E+000 
11522356.696 +4.9825666117E-001 +8.3805155659E+000  +1.7645340046E-001 +1.1757731894E+000  +1.7377193658E-001 +1.2001098922E+001  +4.7979539353E-001 +6.3657466007E+000 
11647501.877 +4.8272658528E-001 +1.1582344214E+001  +1.7586139442E-001 +1.6577985384E-001  +1.7618219361E-001 +1.1989331989E+001  +4.9035258594E-001 +1.6977281296E+000 
11772647.059 +4.8162293259E-001 +9.2634806537E+000  +1.7984817834E-001 +1.0549875084E+000  +1.7550665114E-001 +1.1049502577E+001  +5.0003851878E-001 +6.1978614041E+000 
11897792.240 +4.9950802369E-001 +8.8162154879E+000  +1.7929475217E-001 +6.9340808389E-001  +1.7879105000E-001 +1.0671220674E+001  +4.5824638056E-001 +3.2926421681E+000 
12022937.422 +4.8163628537E-001 +7.8439605822E+000  +1.8044762913E-001 +3.8076388282E-001  +1.7806272956E-001 +1.0403435239E+001  +5.0918712538E-001 +4.4694613342E+000 
12148082.603 +5.0374119147E-001 +8.9397922534E+000  +1.8179972271E-001 +9.9641216391E-001  +1.8168691656E-001 +1.0276267860E+001  +5.2437672330E-001 +1.1853244383E+000 
12273227.785 +5.2600375971E-001 +6.3736386795E+000  +1.8591986976E-001 +1.7035080830E+000  +1.8416557716E-001 +1.0046121377E+001  +5.2812646824E-001 +2.4692136258E+000 
12398372.966 +5.1410257933E-001 +7.8671709233E+000  +1.8820539926E-001 +9.0126420843E-001  +1.8509745701E-001 +8.7311344624E+000  +5.2267155581E-001 +8.2616451505E-001 
12523518.148 +5.4403837654E-001 +4.8640220470E+000  +1.9009687755E-001 +1.5454532513E+000  +1.8938616796E-001 +9.1715361531E+000  +5.6848911676E-001 +2.0433580827E+000 
12648663.329 +5.4980348311E-001 +3.6766424273E+000  +1.9120176049E-001 +1.6985483395E+000  +1.8891866951E-001 +8.3428744234E+000  +5.5631752889E-001 +3.3684754754E+000 
12773808.511 +5.6658998975E-001 +2.8890310892E+000  +1.9555134414E-001 +2.0077715211E+000  +1.9027990780E-001 +8.1903162572E+000  +5.7743723556E-001 +4.1344941818E-001 
12898953.692 +5.7114284277E-001 +3.7941398981E+000  +1.9640800471E-001 +1.9661760866E+000  +1.9353963840E-001 +7.4131220254E+000  +5.8368567032E-001 +2.1587021766E+000 
13024098.874 +6.0932847749E-001 +3.8591821063E+000  +1.9658210987E-001 +2.2175986249E+000  +1.9543521706E-001 +7.5716526026E+000  +6.1155023755E-001 -1.0931767784E+000 
13149244.055 +6.1844474838E-001 +1.4258273027E-001  +2.0187237103E-001 +2.1628792597E+000  +2.0131604609E-001 +6.3140951334E+000  +6.4590507531E-001 -3.2675159831E+000 
13274389.237 +5.9811067842E-001 +1.5479676473E+000  +2.0040207826E-001 +2.2075291761E+000  +1.9763379230E-001 +5.9324754544E+000  +6.5181411371E-001 -5.7264373596E-001 
13399534.418 +6.4756482131E-001 -3.0692577212E-001  +2.0283305094E-001 +2.3980577187E+000  +2.0191643884E-001 +5.3149868571E+000  +6.4681775182E-001 -2.5544370622E+000 
13524679.599 +6.4985560736E-001 +8.5111219415E-001  +2.0533287290E-001 +1.9017558593E+000  +2.0426312620E-001 +5.1514072122E+000  +7.0394979197E-001 -3.0087084874E+000 
13649824.781 +6.7726558326E-001 -2.1036800043E+000  +2.0682723928E-001 +2.4719673945E+000  +2.0441124818E-001 +4.8798680684E+000  +6.9611726965E-001 -2.6138247925E+000 
13774969.962 +6.9136255748E-001 -2.7544478351E+000  +2.0798613563E-001 +1.8389161412E+000  +2.0457916346E-001 +3.8744864951E+000  +6.8107010326E-001 -2.0715017087E+000 
13900115.144 +6.9144500250E-001 -3.1055452904E+000  +2.0731682069E-001 +1.9707608243E+000  +2.0845539448E-001 +3.7285693176E+000  +7.1765884119E-001 -2.6572473195E+000 
14025260.325 +7.1374422180E-001 -3.4227198700E+000  +2.1165191165E-001 +2.2128899989E+000  +2.0749338528E-001 +3.3618771378E+000  +7.1923088976E-001 -3.5909240166E+000 
14150405.507 +7.5833758198E-001 -4.4262889671E+000  +2.1139895726E-001 +2.0253782063E+000  +2.0989763493E-001 +3.1733988398E+000  +7.4569038720E-001 -4.2483828587E+000 
14275550.688 +7.5222341965E-001 -4.6482360610E+000  +2.1408258408E-001 +1.3616666945E+000  +2.0906132112E-001 +2.5047180737E+000  +7.4987854205E-001 -4.8884113966E+000 
14400695.870 +7.6387399455E-001 -4.8735751305E+000  +2.1483228762E-001 +1.2777259302E+000  +2.0945061059E-001 +1.5736987116E+000  +7.6510579793E-001 -5.4291894657E+000 
