!  2-Port S-parameters saved by WinCal
! VAR MeasName=S-Parameters (CALIBRATED_DATA) read from VNA (P5004A)
! VAR MeasDate=28/08/2024 16:48:29
! VAR NAME=S2_r9c9_RESET1_9k-100M_2
! VAR FILENAME=S2_r9c9_RESET1_9k-100M_2.S2P
! VAR DATE=28/08/2024 16:48:29
! VAR PHYS_PORTS=1,2
! VAR ObjTypeName=DATASET
! VAR IndexType=Frequency
!
# Hz S MA R 50
9000.000 +9.2819385013E-002 -1.6503911316E+002  +6.1758034019E-003 +1.1535299560E+001  +4.8311454623E-003 -1.0301009312E+002  +2.4608190653E-001 -1.5379605987E+002 
134145.181 +1.1110674362E-001 +1.6969831529E+002  +1.7345231159E-004 +5.2735355892E+001  +3.8385532238E-004 +9.4810795501E+001  +2.4086941204E-001 -1.7101024435E+002 
259290.363 +1.1232004010E-001 +1.6955703430E+002  +6.4860782720E-004 -1.4850951426E+002  +1.2781213231E-003 +7.8236649329E+001  +2.3852626426E-001 -1.6798132962E+002 
384435.544 +1.1378474149E-001 +1.7000590946E+002  +6.7023809195E-004 -6.8030308496E+001  +6.1745931492E-004 +1.3489754443E+002  +2.3932024053E-001 -1.6792044084E+002 
509580.726 +1.1337922661E-001 +1.7077102557E+002  +2.0891592248E-003 -1.2247648835E+002  +2.1320307008E-003 +8.9131025742E+001  +2.4673382723E-001 -1.6441449981E+002 
634725.907 +1.1706373276E-001 +1.7079624022E+002  +1.5122326078E-003 -7.8333675876E+001  +7.7765893893E-004 +1.1057149796E+002  +2.4169801314E-001 -1.6425135270E+002 
759871.089 +1.1950773426E-001 +1.7049658447E+002  +1.3767789663E-003 -9.3615973733E+001  +1.4518245235E-003 +6.8155816694E+001  +2.4287363687E-001 -1.6469712065E+002 
885016.270 +1.2058582716E-001 +1.6922880695E+002  +7.2826859837E-004 -6.4523174815E+001  +1.0280842828E-003 +1.7874165200E+002  +2.4781466437E-001 -1.6671369153E+002 
1010161.452 +1.1717053990E-001 +1.6828093500E+002  +2.9239851004E-003 +2.3651961304E+001  +3.3249581732E-003 -1.7743080682E+002  +2.0706302067E-001 -1.6959816995E+002 
1135306.633 +1.1761782724E-001 +1.6833368536E+002  +2.6584787795E-003 +3.1611039886E+000  +3.7449101390E-003 -1.5878569607E+002  +2.1256702568E-001 -1.6299852726E+002 
1260451.815 +1.2143388643E-001 +1.7115236325E+002  +1.7734990627E-003 -3.8049690506E+001  +1.2999928271E-003 -1.5673993242E+002  +2.2483025829E-001 -1.6129125562E+002 
1385596.996 +1.2549435865E-001 +1.7299204127E+002  +1.4487321699E-003 -8.0081235496E+001  +8.8537545841E-004 +1.3546179207E+002  +2.5210371053E-001 -1.5945653957E+002 
1510742.178 +1.2748154908E-001 +1.7077260906E+002  +6.5645627908E-004 -2.5243020925E+001  +1.1479426522E-003 -1.5684640320E+002  +2.5409099112E-001 -1.6086977186E+002 
1635887.359 +1.2924819907E-001 +1.7118074913E+002  +1.4567040734E-003 +7.8910897994E+000  +1.8856687261E-003 -1.4629508903E+002  +2.5108641163E-001 -1.5954776160E+002 
1761032.541 +1.3024206702E-001 +1.6932912846E+002  +2.0437211355E-003 +3.2231232480E+001  +4.7213869803E-003 -1.3998551195E+002  +2.3074043934E-001 -1.5779826795E+002 
1886177.722 +1.3269851078E-001 +1.6747287648E+002  +3.7530526129E-003 +4.6263007233E+001  +4.4148370232E-003 -6.9515111309E+001  +2.1540519992E-001 -1.6052245750E+002 
2011322.904 +1.3311115795E-001 +1.6849044204E+002  +7.5334417788E-003 +6.9960298756E+001  +6.2878979851E-003 -7.0452196907E+001  +1.9352407980E-001 -1.6507668035E+002 
2136468.085 +1.3001195806E-001 +1.6811135295E+002  +1.1011270812E-002 +5.4071096612E+001  +1.1747037851E-002 -6.9667197790E+001  +1.8150020214E-001 -1.6300531973E+002 
2261613.267 +1.3600450350E-001 +1.6788578507E+002  +1.0859227450E-002 +7.2791326340E+001  +9.9134488145E-003 -4.7218931487E+001  +1.9612047432E-001 -1.7585203859E+002 
2386758.448 +1.2944470911E-001 +1.6446238843E+002  +1.5802338838E-002 +8.2610035834E+001  +1.4680586901E-002 -4.0912363244E+001  +2.1482501029E-001 -1.7082907246E+002 
2511903.630 +1.3527081782E-001 +1.6436484625E+002  +2.2203679458E-002 +9.3889531672E+001  +2.0872320418E-002 -1.9687311681E+001  +2.1867464972E-001 +1.7401851370E+002 
2637048.811 +1.1190894381E-001 +1.6595143691E+002  +6.7746751768E-002 +8.0506392691E+001  +7.2910356040E-002 -3.8210715041E+001  +1.8076368132E-001 +1.2662357338E+002 
2762193.992 +1.2400753488E-001 +1.7427415193E+002  +5.3910204819E-002 +6.3158886014E+000  +5.4114256254E-002 -1.0477249729E+002  +1.5850139123E-001 -1.2640145437E+002 
2887339.174 +1.2905864190E-001 +1.7853142702E+002  +6.4462650668E-002 -1.8650327931E+001  +8.5169697111E-002 -1.2958723725E+002  +2.4441734444E-001 -9.7469538969E+001 
3012484.355 +1.3427803711E-001 +1.7080261539E+002  +4.1670509160E-002 +5.4637397379E+000  +3.5059003970E-002 -8.6508871201E+001  +1.5678595836E-001 -1.3155353764E+002 
3137629.537 +1.4770755531E-001 +1.7410922977E+002  +3.9493786498E-002 +9.4943316591E+000  +3.9475619293E-002 -8.5668551172E+001  +9.7513204777E-002 -1.4286566355E+002 
3262774.718 +1.2830110715E-001 +1.6753374707E+002  +6.1834123580E-002 +3.7303250340E+001  +6.4777658999E-002 -5.8945823856E+001  +3.9087260829E-002 +1.4324136835E+002 
3387919.900 +1.3016454810E-001 +1.7003103210E+002  +6.9929734366E-002 +1.3508950383E+001  +7.2182084529E-002 -7.6460511115E+001  +8.4300037571E-002 -8.6581611425E+001 
3513065.081 +1.3007165253E-001 +1.6180761258E+002  +5.9888418976E-002 +8.9487923967E+001  +5.3702287056E-002 +4.4643702084E+000  +3.6706314064E-001 +1.5610275737E+002 
3638210.263 +1.7318393330E-001 +1.4859111176E+002  +5.8910717380E-002 +1.0079140635E+002  +5.4842561087E-002 +2.6064367402E+001  +2.9103758372E-001 +1.5304692335E+002 
3763355.444 +1.7246892458E-001 +1.4704159225E+002  +9.1368080798E-002 +9.9893385153E+001  +9.5360329816E-002 +2.1218053358E+001  +3.3095048180E-001 +1.2124639686E+002 
3888500.626 +1.7427619001E-001 +1.5088545702E+002  +5.9954693900E-002 +1.0316338080E+002  +5.8862434252E-002 +2.1315393253E+001  +3.2958724372E-001 +1.5281375211E+002 
4013645.807 +1.6602487227E-001 +1.5650140008E+002  +6.0728812845E-002 +5.9566986525E+001  +5.3844951619E-002 -7.1559940531E+000  +1.8543087194E-001 +1.5958712802E+002 
4138790.989 +1.7645660679E-001 +1.4662677823E+002  +8.9156490252E-002 +8.8457440559E+001  +9.3475163607E-002 +2.1739559205E+001  +3.4520734836E-001 +1.3309241505E+002 
4263936.170 +1.9911313163E-001 +1.4690477414E+002  +8.2466858883E-002 +1.0056016644E+002  +8.4217782966E-002 +3.4103129289E+001  +3.5414531415E-001 +1.4168173501E+002 
4389081.352 +1.9869872526E-001 +1.4783076028E+002  +1.4741636573E-001 +9.7453235486E+001  +1.3881510471E-001 +3.5485836461E+001  +7.1970711050E-001 +1.1363686048E+002 
4514226.533 +2.3953173139E-001 +1.4155217282E+002  +1.2555722495E-001 +1.2997124446E+002  +1.1860059460E-001 +7.4247143353E+001  +7.1657192016E-001 +1.4780644421E+002 
4639371.715 +3.0712446959E-001 +1.2210594587E+002  +2.2361532822E-001 +1.0090871503E+002  +2.1330526619E-001 +5.2516266131E+001  +5.2713090574E-001 +1.0864564558E+002 
4764516.896 +6.9594521032E-001 +1.2067920377E+002  +2.1232115148E+000 +1.3146613291E+002  +2.0489123454E+000 +8.0647856510E+001  +9.3410170785E+000 +1.0406845606E+002 
4889662.078 +4.4526315019E-001 +1.5405719003E+002  +6.8117179174E-001 -1.6336002208E+002  +6.3913187261E-001 +1.4782478271E+002  +3.1366443085E+000 +1.5436699439E+002 
5014807.259 +3.6957556766E-001 +1.3415405086E+002  +2.8260284646E-001 +1.1939061246E+002  +2.9383777603E-001 +7.3394760744E+001  +1.1394061856E+000 +1.0623382020E+002 
5139952.441 +4.2960000625E-001 +1.2562643375E+002  +3.1083337965E-001 +1.2204342865E+002  +3.0609595292E-001 +8.1828413736E+001  +1.0188457893E+000 +1.1808498587E+002 
5265097.622 +3.4935902208E-001 +1.2752058985E+002  +2.6516616271E-001 +1.1909812414E+002  +2.5604603253E-001 +7.9703214582E+001  +1.1797007156E+000 +1.3044327788E+002 
5390242.804 +3.6502076013E-001 +1.3497530060E+002  +2.5295993692E-001 +1.1908472635E+002  +2.3076569067E-001 +8.9844068608E+001  +1.3924579035E+000 +1.3144464719E+002 
5515387.985 +3.7547655931E-001 +1.3728860479E+002  +1.7549450506E-001 +1.0610499344E+002  +1.6839548630E-001 +7.4367487825E+001  +8.7435950761E-001 +1.2823607429E+002 
5640533.166 +4.0147160117E-001 +1.2672573543E+002  +3.0186442609E-001 +1.0324878600E+002  +2.7711097303E-001 +7.1784275636E+001  +1.3346573602E+000 +1.1476842650E+002 
5765678.348 +4.6424994923E-001 +1.2796038841E+002  +3.4546045918E-001 +1.0337130083E+002  +3.3528948530E-001 +7.5433111770E+001  +1.6154959963E+000 +1.0495970518E+002 
5890823.529 +4.9880230841E-001 +1.2337659898E+002  +3.1933811387E-001 +9.2435361361E+001  +3.1807443550E-001 +6.6203978417E+001  +1.2315494082E+000 +9.8980574108E+001 
6015968.711 +4.9984156953E-001 +1.1209986836E+002  +3.6492083355E-001 +6.9870284051E+001  +3.7142806653E-001 +4.4524732246E+001  +1.0809310933E+000 +7.3336201752E+001 
6141113.892 +5.3254592508E-001 +9.9435198915E+001  +4.4167357047E-001 +5.2596049189E+001  +4.6902521523E-001 +3.4303594692E+001  +1.1979795683E+000 +5.3578388783E+001 
6266259.074 +5.0360098798E-001 +9.6704196228E+001  +4.7857839868E-001 +5.3273559363E+001  +4.6259480226E-001 +3.5245155936E+001  +1.5703606483E+000 +6.7089370070E+001 
6391404.255 +5.4758199051E-001 +1.0676307905E+002  +3.7270394450E-001 +4.0128364261E+001  +3.6412386476E-001 +2.1146270860E+001  +1.1267881796E+000 +3.4794542401E+001 
6516549.437 +8.7249155706E-001 +7.4023265272E+001  +5.7791480292E-001 +3.7306327838E+001  +5.8459434791E-001 +2.2416846022E+001  +1.2830425286E+000 +3.0647147353E+001 
6641694.618 +7.8004722957E-001 +7.5570910298E+001  +4.3866203201E-001 +2.9726916016E+001  +4.4300795288E-001 +1.7598407948E+001  +8.6977047004E-001 +2.7687507546E+001 
6766839.800 +8.7232261952E-001 +4.9067302798E+001  +5.5703816442E-001 +1.4197915650E+001  +5.3539186692E-001 +5.3519238444E+000  +1.2308262872E+000 +1.1303798670E+001 
6891984.981 +9.5729308080E-001 +3.2089283129E+001  +5.0176126671E-001 +7.4040514879E+000  +4.9187501287E-001 -4.5989460292E-001  +8.9337352594E-001 +6.5545621271E+000 
7017130.163 +9.7432094247E-001 +2.3080155081E+001  +4.6487411724E-001 +1.7817816726E+000  +4.6444793651E-001 -2.9031810115E+000  +9.3627491425E-001 -6.0948287381E+000 
7142275.344 +8.7130043841E-001 +9.9516135053E+000  +4.0292614313E-001 -8.0755224036E-001  +4.0422841193E-001 -3.8645073024E+000  +9.4679229816E-001 -4.3498411835E+000 
7267420.526 +1.0971748651E+000 +9.6702813447E+000  +3.9740353850E-001 +1.8395319521E+000  +3.9321016931E-001 +7.1136030200E-001  +1.0426383910E+000 -6.8440680752E+000 
7392565.707 +1.0186095786E+000 +7.4713429378E+000  +3.3023735481E-001 +6.3198372154E+000  +3.3223661055E-001 +6.4346464059E+000  +1.0813574353E+000 -8.6436008628E+000 
7517710.889 +8.4717332384E-001 +9.3282294556E+000  +2.9898244448E-001 +1.7294949346E+000  +3.0356369338E-001 +5.9229765716E+000  +8.3892350770E-001 -3.8429995493E+000 
7642856.070 +6.6300666149E-001 +3.2742472422E+000  +2.9027141787E-001 -1.2773996065E+000  +2.9921500426E-001 +3.6394905301E+000  +7.5545173113E-001 -1.2823636031E+001 
7768001.252 +6.5667899200E-001 +8.4693476898E+000  +2.7399014954E-001 +1.0108730381E+000  +2.7855460010E-001 +6.1391947317E+000  +6.8460796260E-001 -7.2624008379E+000 
7893146.433 +5.1649097770E-001 +9.7731218313E+000  +2.6804854505E-001 -7.9448657476E-001  +2.6811030716E-001 +5.4644643978E+000  +6.7149679082E-001 -1.2803440307E+000 
8018291.615 +5.3127650087E-001 +1.5172190291E+001  +2.5657737489E-001 -4.5551404976E-001  +2.5812689146E-001 +6.6343145762E+000  +5.6262838994E-001 -3.0902378392E+000 
8143436.796 +5.1902874260E-001 +1.2603918249E+001  +2.5104095971E-001 -2.7422133319E+000  +2.5739042010E-001 +6.1622693691E+000  +5.1983011795E-001 +1.1067119148E+001 
8268581.977 +4.6901731371E-001 +1.4364245225E+001  +2.4673606713E-001 -2.0501730867E+000  +2.4407414167E-001 +6.6502491988E+000  +4.9270672142E-001 +1.1136559815E+001 
8393727.159 +4.5138373425E-001 +1.9296340007E+001  +2.3585067469E-001 -3.6745542950E+000  +2.3923339501E-001 +6.1886209700E+000  +4.3953872481E-001 +1.4353874130E+001 
8518872.340 +4.5118805544E-001 +1.9609259347E+001  +2.3410049579E-001 -3.1168884494E+000  +2.3380721388E-001 +9.4801391533E+000  +4.9261117071E-001 +1.0039367763E+001 
8644017.522 +4.2370860163E-001 +1.3315501710E+001  +2.3472596468E-001 -4.0037677163E+000  +2.3539027956E-001 +9.1648778764E+000  +5.1839941641E-001 +1.2374013427E+001 
8769162.703 +3.7493215957E-001 +1.0103604176E+001  +2.3244111458E-001 -6.1387475553E+000  +2.3029165326E-001 +9.0949474743E+000  +4.5040782863E-001 +9.0537275584E+000 
8894307.885 +3.7845867996E-001 +2.3065083818E+001  +2.2967931862E-001 -4.0269587823E+000  +2.3288380183E-001 +9.3871408431E+000  +4.1913201010E-001 +9.7943750693E+000 
9019453.066 +3.6289932981E-001 +1.2199641960E+001  +2.2746380087E-001 -5.2198529755E+000  +2.2762107015E-001 +1.0364226195E+001  +4.1088643689E-001 +1.5590710764E+001 
9144598.248 +3.4547407339E-001 +1.0242833926E+001  +2.3007010409E-001 -5.1148977556E+000  +2.2891684401E-001 +9.7634136979E+000  +4.1407327017E-001 +5.5396214939E+000 
9269743.429 +3.6522389360E-001 +1.3213116041E+001  +2.2924798667E-001 -6.1756773506E+000  +2.2892884433E-001 +9.8551049343E+000  +3.9680214255E-001 +1.0446153202E+001 
9394888.611 +3.2346514191E-001 +1.2076916988E+001  +2.2696846635E-001 -6.8185093554E+000  +2.2595448528E-001 +9.2324850283E+000  +3.1480005485E-001 +1.0111595537E+001 
9520033.792 +3.1653808515E-001 +1.2196479181E+001  +2.3106695154E-001 -6.2950595430E+000  +2.2601589172E-001 +1.0283303244E+001  +3.3099363357E-001 +1.2283807390E+000 
9645178.974 +3.1427980581E-001 +4.4259307627E+000  +2.3560775185E-001 -5.1096683812E+000  +2.2957023832E-001 +9.0717041163E+000  +3.5011140452E-001 +2.8497840424E+000 
9770324.155 +2.6617307784E-001 +2.6431015886E+000  +2.3232260847E-001 -6.2959852684E+000  +2.3136246052E-001 +8.9785144136E+000  +3.0052229989E-001 +2.7986432452E+000 
9895469.337 +3.1172567637E-001 +1.6748096603E+001  +2.2926185547E-001 -5.8489462501E+000  +2.2506457194E-001 +1.0579796114E+001  +3.1648655729E-001 +4.2089547767E+000 
10020614.518 +2.7947159452E-001 +1.3992989110E+001  +2.3150605124E-001 -5.2733653385E+000  +2.2920207762E-001 +1.0398447752E+001  +3.0368786545E-001 +1.0462369156E+000 
10145759.700 +3.0940339940E-001 +7.4899774601E+000  +2.3280357901E-001 -5.6006206512E+000  +2.3146307053E-001 +1.0867852618E+001  +2.9519431282E-001 +5.1872929343E+000 
10270904.881 +3.0901702234E-001 +1.8772729512E+001  +2.3087551428E-001 -4.4094586118E+000  +2.2893720172E-001 +1.1063549994E+001  +3.0599872725E-001 -3.6861108232E-001 
10396050.063 +2.9470744566E-001 +1.3722527090E+001  +2.3327712045E-001 -4.5801521160E+000  +2.2936858724E-001 +1.0932232387E+001  +3.3348540616E-001 +4.2607780732E+000 
10521195.244 +2.9661084685E-001 +8.8595632790E+000  +2.3565366334E-001 -4.1792998021E+000  +2.3219125610E-001 +1.1005404519E+001  +3.6380900018E-001 +8.5528204015E+000 
10646340.426 +3.4593285847E-001 +1.3728683776E+001  +2.3445125525E-001 -3.3747485031E+000  +2.3202710271E-001 +1.1349257234E+001  +3.3026397039E-001 +1.3329029169E+001 
10771485.607 +3.5595020105E-001 +1.4034811224E+001  +2.3627177855E-001 -3.4041095066E+000  +2.3382140271E-001 +1.1046973957E+001  +3.0970790308E-001 +1.2275148091E+001 
10896630.788 +3.6297377246E-001 +1.7128760973E+001  +2.3724034996E-001 -2.4096933055E+000  +2.3492303702E-001 +1.1975502318E+001  +3.4746641793E-001 +1.1703252834E+001 
11021775.970 +3.4113357801E-001 +1.5506701273E+001  +2.4087703969E-001 -2.5693289065E+000  +2.3685590529E-001 +1.1285627415E+001  +3.7111981757E-001 +1.0895173404E+001 
11146921.151 +3.7267598776E-001 +1.2692604416E+001  +2.4309039930E-001 -2.0765094562E+000  +2.4046360394E-001 +1.1805438206E+001  +3.6290247834E-001 +6.6521454429E+000 
11272066.333 +3.7362189478E-001 +1.1873456133E+001  +2.4334911370E-001 -1.3459159223E+000  +2.4084864120E-001 +1.1317533133E+001  +3.7882396686E-001 +1.1187572338E+001 
11397211.514 +3.6348456947E-001 +9.9843986639E+000  +2.4757145217E-001 -1.2517653707E+000  +2.4481793410E-001 +1.1279637026E+001  +4.1616889642E-001 +1.0574382226E+001 
11522356.696 +3.4916498748E-001 +1.5570590195E+001  +2.4690008832E-001 -1.8123488110E+000  +2.4387443309E-001 +9.8032459911E+000  +3.7901066030E-001 +6.1141571156E+000 
11647501.877 +4.1665229757E-001 +1.3830876321E+001  +2.4775661713E-001 -2.2405201590E-001  +2.4758719191E-001 +1.0620806371E+001  +3.9944583811E-001 +1.1608153184E+001 
11772647.059 +4.0003336659E-001 +1.4348168664E+001  +2.5096796403E-001 -8.2051059657E-001  +2.4938293299E-001 +1.0603324541E+001  +3.9107807076E-001 +7.9158643275E+000 
11897792.240 +3.9866377773E-001 +1.3684872934E+001  +2.5402085589E-001 -5.1441707587E-001  +2.5217006675E-001 +9.2770102938E+000  +4.0085357927E-001 +1.2280941904E+001 
12022937.422 +4.0801578127E-001 +7.0348069957E+000  +2.6093748713E-001 -1.2598969538E-001  +2.5800079712E-001 +9.6241352359E+000  +3.9858412619E-001 +4.4588368492E+000 
12148082.603 +4.1909006272E-001 +1.1947551357E+001  +2.6159363993E-001 +2.2219271755E-001  +2.5914839154E-001 +9.2143918457E+000  +4.3620779637E-001 +4.2968909731E+000 
12273227.785 +4.3917133073E-001 +9.6728200993E+000  +2.6436308206E-001 +8.8662744797E-001  +2.6173815136E-001 +9.4132260526E+000  +4.5190219828E-001 +4.5100120453E+000 
12398372.966 +4.2615484321E-001 +5.5576900794E+000  +2.6790003796E-001 +6.9777234598E-001  +2.6435012674E-001 +8.3970225605E+000  +4.4986224995E-001 +7.1113490230E+000 
12523518.148 +4.5986125262E-001 +1.0222773890E+001  +2.6801570764E-001 +9.7453904040E-001  +2.6629894503E-001 +8.4626969046E+000  +4.5724781189E-001 +3.6434113137E+000 
12648663.329 +4.4984973186E-001 +5.9493929582E+000  +2.7250733640E-001 +7.8942163564E-001  +2.7076190401E-001 +7.2794625992E+000  +4.5953549998E-001 +1.3854489867E+000 
12773808.511 +4.6232910165E-001 +6.4037081001E+000  +2.7470786491E-001 +1.7682579133E+000  +2.7131938672E-001 +7.5825863171E+000  +4.9681618001E-001 +3.6681889188E+000 
12898953.692 +4.9244905817E-001 +6.7116782809E+000  +2.7675362431E-001 +1.5279022491E+000  +2.7464982640E-001 +6.8235368857E+000  +4.9384797241E-001 +4.3733282547E+000 
13024098.874 +4.9881516397E-001 +5.8802226881E+000  +2.7725737863E-001 +1.0629277513E+000  +2.7605054549E-001 +6.4424356874E+000  +4.8550022813E-001 +5.0948395968E+000 
13149244.055 +5.2267777867E-001 +2.8472075440E+000  +2.8541824435E-001 +1.9341157847E+000  +2.7831040640E-001 +6.2207636620E+000  +5.2929726529E-001 +4.0206643620E+000 
13274389.237 +5.3237345279E-001 +3.0310659604E+000  +2.8730807388E-001 +1.8124906697E+000  +2.8277238451E-001 +5.8910441445E+000  +5.4491608456E-001 +4.7096609931E-001 
13399534.418 +5.3314248381E-001 +9.8196165824E-001  +2.9076925632E-001 +1.6607424023E+000  +2.8733703972E-001 +5.2857069128E+000  +5.5354900357E-001 -1.7117333854E+000 
13524679.599 +5.4632056828E-001 +1.4796376906E+000  +2.9248850678E-001 +1.6482547356E+000  +2.8806128545E-001 +4.1168873522E+000  +5.3043911818E-001 -6.2629553062E-001 
13649824.781 +5.5689237467E-001 +1.7191958337E+000  +2.9381443689E-001 +1.5863616270E+000  +2.8995373189E-001 +3.9659049727E+000  +5.7474142684E-001 -9.7603459471E-001 
13774969.962 +5.8407487673E-001 -2.7958708000E+000  +2.9841919663E-001 +1.9273294934E+000  +2.9603537513E-001 +3.7653062487E+000  +5.9755170525E-001 -2.9205162469E+000 
13900115.144 +6.1043723714E-001 -2.5090645587E+000  +3.0089786921E-001 +1.9757224918E+000  +2.9775477854E-001 +3.9284888803E+000  +6.3238985105E-001 -2.3676165777E+000 
14025260.325 +6.1093077940E-001 -2.5220969567E+000  +3.0175100727E-001 +1.6386553411E+000  +2.9968492219E-001 +2.9604679066E+000  +6.1888662263E-001 -3.8236368241E+000 
14150405.507 +6.2572810714E-001 -3.3983769256E+000  +3.0443022434E-001 +1.6608350115E+000  +3.0114016588E-001 +2.2236970957E+000  +6.3937984906E-001 -4.4925755370E+000 
14275550.688 +6.4550527443E-001 -1.7821546077E+000  +3.0299089997E-001 +1.5297762066E+000  +2.9819377729E-001 +2.3791383217E+000  +6.4164318243E-001 -1.3835229153E+000 
14400695.870 +6.6960057032E-001 -4.5582979515E+000  +3.0702705137E-001 +1.1733855267E+000  +3.0271835014E-001 +1.5168337181E+000  +6.3917180780E-001 -4.8336963927E+000 
