!  2-Port S-parameters saved by WinCal
! VAR MeasName=S-Parameters (CALIBRATED_DATA) read from VNA (P5004A)
! VAR MeasDate=28/08/2024 16:57:02
! VAR NAME=S2_r9c9_RESET3_9k-100M_2
! VAR FILENAME=S2_r9c9_RESET3_9k-100M_2.S2P
! VAR DATE=28/08/2024 16:57:02
! VAR PHYS_PORTS=1,2
! VAR ObjTypeName=DATASET
! VAR IndexType=Frequency
!
# Hz S MA R 50
9000.000 +9.0352756208E-002 -1.5981664312E+002  +7.7558469590E-003 -1.3907720967E+002  +6.5554423419E-003 -9.3172965403E+001  +2.6305526584E-001 -1.4272288707E+002 
134145.181 +1.1113011691E-001 +1.6945645237E+002  +3.3786867451E-004 +5.9796127811E+001  +4.9332461474E-004 +1.3829901419E+002  +2.3965114268E-001 -1.7163428679E+002 
259290.363 +1.1316899805E-001 +1.6991967535E+002  +3.0782826073E-004 +1.4245490986E+002  +5.1378494602E-004 +9.9625289058E+001  +2.4580535877E-001 -1.7069269536E+002 
384435.544 +1.1447710808E-001 +1.6981599262E+002  +4.2262387698E-004 -9.4912317528E+001  +5.6592385132E-004 +1.1110318581E+002  +2.4407593838E-001 -1.7025588591E+002 
509580.726 +1.1401912442E-001 +1.7109479887E+002  +1.6461997289E-003 -4.9483512607E+001  +2.0870811957E-003 +1.6649143394E+002  +2.1857490248E-001 -1.6362081971E+002 
634725.907 +1.1787501302E-001 +1.7173633480E+002  +1.4243380962E-003 -6.7894872222E+001  +2.6314463725E-003 +1.0016792280E+002  +2.4527927241E-001 -1.6109156559E+002 
759871.089 +1.1971407911E-001 +1.7050924807E+002  +1.1455051522E-003 -7.5903309440E+001  +1.1300283230E-003 +1.1398627412E+002  +2.4485130756E-001 -1.6661718317E+002 
885016.270 +1.2047423321E-001 +1.6946109695E+002  +5.4616487521E-004 -1.2721974022E+002  +5.3945662148E-004 +1.1421523549E+002  +2.4627360977E-001 -1.6681782069E+002 
1010161.452 +1.1738776774E-001 +1.6893752553E+002  +2.3155485809E-003 +1.5368942769E+001  +2.5098988040E-003 -1.7449198687E+002  +1.9595559458E-001 -1.6971995577E+002 
1135306.633 +1.1636800435E-001 +1.6748132233E+002  +3.3846163401E-003 -2.3336149770E+001  +2.0513083185E-003 +1.7173927787E+002  +1.8458888292E-001 -1.6045703842E+002 
1260451.815 +1.1947209418E-001 +1.7151394970E+002  +8.0289410228E-004 -8.9456909817E+001  +1.5285440840E-003 +1.0874193897E+002  +2.3378636376E-001 -1.5908759362E+002 
1385596.996 +1.2400727230E-001 +1.7103144767E+002  +2.3154719252E-003 -1.0966522441E+002  +2.1530980583E-003 +1.2312779067E+002  +2.6472400293E-001 -1.5734795280E+002 
1510742.178 +1.2674299390E-001 +1.7197488769E+002  +1.1572807383E-003 -7.9958554832E+001  +9.1029013107E-004 -1.0303400201E+002  +2.6984714476E-001 -1.5669748192E+002 
1635887.359 +1.2896019386E-001 +1.7080672873E+002  +2.2556007649E-003 +6.5306521220E+001  +1.6918045063E-003 -1.5152359927E+002  +2.3202193610E-001 -1.5897130532E+002 
1761032.541 +1.2989395706E-001 +1.6976038152E+002  +5.5287330918E-004 +1.0923508940E+002  +1.6772860293E-003 -1.1052252047E+002  +2.3040668489E-001 -1.5943290245E+002 
1886177.722 +1.2888774600E-001 +1.6891284391E+002  +2.6662089537E-003 +3.1164746077E+001  +3.7897575014E-003 -8.8151908359E+001  +2.2868913030E-001 -1.5881152913E+002 
2011322.904 +1.3375387961E-001 +1.6859904477E+002  +2.9345909142E-003 +7.1791063650E+001  +2.3129970496E-003 -8.5249614262E+001  +2.3062020077E-001 -1.6552474910E+002 
2136468.085 +1.3250360845E-001 +1.6590810686E+002  +6.7988851841E-003 +8.4105871884E+001  +5.2383442247E-003 -2.4025020686E+001  +2.1518821995E-001 -1.7301624178E+002 
2261613.267 +1.3829792836E-001 +1.6674783692E+002  +5.8111452757E-003 +1.0800518619E+002  +6.8392672999E-003 -4.0537933890E+001  +2.0856302398E-001 -1.7651717778E+002 
2386758.448 +1.3841686229E-001 +1.6486372789E+002  +1.0985118844E-002 +7.9399078711E+001  +1.2822290611E-002 -4.0050501411E+001  +2.0976516752E-001 -1.7843304490E+002 
2511903.630 +1.2935716728E-001 +1.6058357939E+002  +1.6694806624E-002 +8.2684003873E+001  +2.4971467581E-002 -4.7352337758E+001  +1.7008917059E-001 -1.6982764773E+002 
2637048.811 +1.2251136137E-001 +1.6718559307E+002  +2.7221296358E-002 +5.3335166507E+001  +3.2585903849E-002 -5.2740756885E+001  +1.1540243867E-001 +1.7824904483E+002 
2762193.992 +1.3069878566E-001 +1.7344406536E+002  +6.4601939055E-002 -6.5552958364E+001  +7.0143231923E-002 -1.7253668287E+002  +4.5925221076E-001 -1.0613985169E+002 
2887339.174 +1.2954550086E-001 +1.7861239446E+002  +4.4526830566E-002 -6.2434958802E+001  +4.1393034715E-002 -1.6458724136E+002  +3.4063373130E-001 -1.1174158194E+002 
3012484.355 +1.2952258706E-001 +1.6969080244E+002  +2.8115427393E-002 -2.0966106046E+001  +2.5153196814E-002 -1.3189247596E+002  +2.8786476289E-001 -1.1771790777E+002 
3137629.537 +1.3509146492E-001 +1.6799560819E+002  +3.1559332848E-002 -2.8802490543E+000  +3.3944698451E-002 -1.1908565270E+002  +2.5402072389E-001 -1.1149208948E+002 
3262774.718 +1.2618850070E-001 +1.7084785373E+002  +5.8344281888E-002 +4.1562212830E+000  +4.8521565579E-002 -1.0047942069E+002  +1.3357008074E-001 -7.8653404663E+001 
3387919.900 +1.3176944567E-001 +1.5923639617E+002  +3.1876530102E-002 +4.0211989783E+001  +2.6343866320E-002 -5.6329715237E+001  +1.7765988163E-001 -1.6501665126E+002 
3513065.081 +1.2049607251E-001 +1.5534891814E+002  +8.5464258428E-002 +7.7257656021E+001  +9.0905435543E-002 -9.4459591034E+000  +3.9851099424E-001 +1.0877488243E+002 
3638210.263 +1.6756625271E-001 +1.5492286788E+002  +3.0960451299E-002 +9.4583292964E+001  +3.8313737901E-002 +1.5358352245E+001  +3.2361340373E-001 +1.4736037232E+002 
3763355.444 +1.9034090519E-001 +1.5407546812E+002  +4.0783090890E-002 +1.3971184076E+002  +2.8362449084E-002 +7.3557316023E+001  +5.5117318254E-001 +1.6053080413E+002 
3888500.626 +1.6195112293E-001 +1.5636341621E+002  +3.8771397235E-002 +7.7886033005E+001  +3.5911580330E-002 +1.3850530794E+001  +3.2230815270E-001 +1.5255332852E+002 
4013645.807 +1.8608884481E-001 +1.5294053210E+002  +5.2640834983E-002 +1.0201347971E+002  +5.4871007455E-002 +2.8099788058E+001  +4.2077815430E-001 +1.3832702171E+002 
4138790.989 +1.8493284442E-001 +1.5166051440E+002  +5.2951492688E-002 +8.6717794324E+001  +5.5204788520E-002 +1.6648841126E+001  +3.1169459807E-001 +1.2676214329E+002 
4263936.170 +1.5854318306E-001 +1.4863210547E+002  +6.4700385321E-002 +6.4455342058E+001  +5.6753453535E-002 -1.0979645783E+000  +2.3722151963E-001 +1.3445338420E+002 
4389081.352 +2.1343110406E-001 +1.4019314949E+002  +1.2337309861E-001 +1.0117864085E+002  +1.2889193522E-001 +4.2616146661E+001  +7.9096635496E-001 +1.0358531898E+002 
4514226.533 +1.5197344764E-001 +1.3331045666E+002  +1.1727254641E-001 +6.0216215253E+001  +1.0969528192E-001 -2.7003117603E-001  +3.3120775377E-001 +9.2134075869E+001 
4639371.715 +2.4637072833E-001 +1.1602553710E+002  +2.1067082233E-001 +1.0935533627E+002  +2.0576634637E-001 +5.3737823667E+001  +9.4603498318E-001 +1.1801859447E+002 
4764516.896 +2.5447498673E-001 +1.1425592300E+002  +3.3286648785E-001 +5.8973031965E+001  +3.6306763311E-001 +8.1090451437E+000  +1.5082626432E+000 +3.8879332456E+001 
4889662.078 +4.2153954925E-001 +1.4018142546E+002  +3.5392956620E-001 +1.6796816913E+002  +3.5067843750E-001 +1.1861340319E+002  +2.1470713158E+000 +1.2930992992E+002 
5014807.259 +3.1296573136E-001 +1.3982162786E+002  +3.8308714122E-001 -1.5096013126E+002  +3.8843757068E-001 +1.5182268114E+002  +3.2635304870E+000 -1.7482659398E+002 
5139952.441 +4.1086575444E-001 +1.4100765158E+002  +5.1285810705E-001 +1.6938750647E+002  +4.9935578362E-001 +1.3376883890E+002  +4.2408268495E+000 +1.4066220776E+002 
5265097.622 +3.3267224466E-001 +1.2900858300E+002  +2.0955899614E-001 +9.3820699626E+001  +1.9632029395E-001 +5.5567217027E+001  +1.1383581873E+000 +9.6351749108E+001 
5390242.804 +3.7232809765E-001 +1.2551694526E+002  +2.2552039755E-001 +1.1607264281E+002  +2.0288501541E-001 +7.9634038743E+001  +1.3327175870E+000 +1.2020273880E+002 
5515387.985 +4.1507305909E-001 +1.3100787783E+002  +1.7004037831E-001 +9.9275714044E+001  +1.7709674303E-001 +6.9581963430E+001  +1.0194323826E+000 +1.0183499288E+002 
5640533.166 +3.8050404353E-001 +1.2541783893E+002  +1.8289081476E-001 +7.7163891268E+001  +1.8447355815E-001 +4.3340563695E+001  +8.4907381848E-001 +8.6314949063E+001 
5765678.348 +5.0118679841E-001 +1.3095645179E+002  +1.6681396629E-001 +9.5824908696E+001  +1.6036488507E-001 +6.5652050152E+001  +8.2314619437E-001 +9.8171275196E+001 
5890823.529 +4.5895236198E-001 +1.0816093731E+002  +3.2356478471E-001 +8.3889111777E+001  +2.9733879169E-001 +5.8950355816E+001  +1.7274079607E+000 +9.7247354382E+001 
6015968.711 +4.8887295119E-001 +1.1514513782E+002  +2.3704855075E-001 +5.8803851468E+001  +2.4206178886E-001 +3.3823846678E+001  +1.1557281866E+000 +5.5082113545E+001 
6141113.892 +7.1446574808E-001 +1.0477305979E+002  +3.6673684507E-001 +7.9179527053E+001  +3.7647875290E-001 +5.4032861375E+001  +1.7345515068E+000 +7.2237939712E+001 
6266259.074 +5.2627563500E-001 +1.1445429792E+002  +2.6647939778E-001 +4.7940348814E+001  +2.3910187973E-001 +2.9852703390E+001  +1.5451869590E+000 +4.6958437720E+001 
6391404.255 +7.2599278920E-001 +8.6314989520E+001  +3.1846000012E-001 +3.0189825560E+001  +3.1056929046E-001 +1.2649538500E+001  +1.1460104785E+000 +1.5249455642E+001 
6516549.437 +7.9951438600E-001 +7.4937095742E+001  +4.0408214526E-001 +3.4768165493E+001  +4.0130342830E-001 +1.8764420689E+001  +1.6236594638E+000 +3.1583832432E+001 
6641694.618 +1.2722260021E+000 +5.9581683886E+001  +4.7599363919E-001 +1.9756425778E+001  +4.7743101466E-001 +1.0092728737E+001  +1.4949871369E+000 +7.4965077687E+000 
6766839.800 +1.0925231255E+000 +4.3706206060E+001  +3.6261452993E-001 +8.7702000185E+000  +3.7703872584E-001 -7.4493784099E-001  +1.1590995147E+000 -4.0884949605E+000 
6891984.981 +1.3004472396E+000 +4.2717103706E+001  +3.6444568648E-001 +1.1470607368E+001  +3.5160744858E-001 +7.0197696900E+000  +1.1101711269E+000 -2.8530500755E+000 
7017130.163 +1.0183573453E+000 +3.0627366219E+001  +2.8874399430E-001 +2.8896995519E+000  +2.9218433387E-001 -3.2583568364E+000  +1.0781769368E+000 +5.0955942108E-001 
7142275.344 +1.1105366736E+000 +1.4172697914E+001  +2.8345279955E-001 +1.8143708287E-001  +2.7235188102E-001 -4.1095452369E+000  +1.0588763645E+000 -1.8572410022E+001 
7267420.526 +1.0705029091E+000 +3.5017451943E+000  +2.4334934517E-001 +1.3948453335E+000  +2.4663741044E-001 +2.4509285088E-001  +1.0450554531E+000 -5.1971050183E+000 
7392565.707 +9.0793121962E-001 -8.0063983219E-001  +2.0467987664E-001 +3.6378317710E+000  +2.0971075460E-001 +4.3596743051E+000  +1.1036856996E+000 -9.1321796200E+000 
7517710.889 +9.2391735044E-001 -3.4129980403E+000  +1.9298344006E-001 +2.1901285908E+000  +1.9192688856E-001 +4.4650943299E+000  +9.2922545680E-001 +1.2958671430E+000 
7642856.070 +8.2417541288E-001 +1.1535308486E+001  +1.7779774561E-001 +2.6007165082E+000  +1.8233078039E-001 +5.3289128628E+000  +9.4106767985E-001 -6.9879799661E+000 
7768001.252 +7.4419642377E-001 +6.6260014752E+000  +1.7204465554E-001 +2.8800635426E+000  +1.7529147118E-001 +4.3073669040E+000  +8.3912759546E-001 +3.1139597051E-001 
7893146.433 +7.2040928662E-001 +2.2007996998E+000  +1.7251062599E-001 -1.7434279223E+000  +1.6984101270E-001 +4.9025125045E+000  +7.2838842698E-001 +3.6983386599E+000 
8018291.615 +6.5956256960E-001 +4.6287680380E+000  +1.5772593511E-001 -3.1239251596E-001  +1.6757140079E-001 +8.6939364689E+000  +7.4055907348E-001 +3.1104173327E+000 
8143436.796 +5.5884130674E-001 +1.7415498183E+001  +1.5940270225E-001 -2.7390458834E+000  +1.5603653697E-001 +6.0306554287E+000  +6.7036038054E-001 -2.8270206650E-001 
8268581.977 +5.1450798844E-001 +1.4084871491E+001  +1.5259349566E-001 -3.5239106951E+000  +1.5457497682E-001 +5.6547636762E+000  +5.7800905809E-001 -8.9754240272E-001 
8393727.159 +5.9074488708E-001 +1.8040104158E+001  +1.5012136650E-001 -2.0772620696E+000  +1.4575244735E-001 +7.3067934406E+000  +5.0431988086E-001 -1.2528108991E+000 
8518872.340 +5.1323037293E-001 +1.1239285267E+001  +1.4971837406E-001 -4.0563352618E+000  +1.5112474328E-001 +8.9199556317E+000  +6.0759914274E-001 +3.7060260033E+000 
8644017.522 +5.1833652648E-001 +1.0315436324E+001  +1.4577501403E-001 -3.0523208757E+000  +1.4697792487E-001 +9.5804110286E+000  +5.2451819194E-001 -1.4813482617E+000 
8769162.703 +4.9224813516E-001 +1.0775391755E+001  +1.4510478158E-001 -3.6682001536E+000  +1.4706273618E-001 +9.8526116411E+000  +5.8705223247E-001 +4.8124919973E+000 
8894307.885 +4.8637624356E-001 +8.3133810302E+000  +1.4306460638E-001 -4.8469474504E+000  +1.4336840260E-001 +9.9702784727E+000  +5.0701223134E-001 +7.3553351150E+000 
9019453.066 +4.3392047792E-001 +6.7237414085E+000  +1.4120909501E-001 -4.9134012297E+000  +1.4200963374E-001 +8.4489730111E+000  +4.3916583835E-001 +5.3623771457E+000 
9144598.248 +4.3132304921E-001 +4.8689942859E+000  +1.4556087102E-001 -5.1637463864E+000  +1.4314942070E-001 +1.1434834343E+001  +4.6064785775E-001 +6.6605659386E+000 
9269743.429 +4.5328107358E-001 +1.7095398631E+001  +1.4041743505E-001 -4.2174964507E+000  +1.3998134742E-001 +1.0810925732E+001  +4.3827102911E-001 +2.6969394421E+000 
9394888.611 +4.4807552723E-001 +1.3356095144E+001  +1.4236896472E-001 -5.2367345098E+000  +1.4356751977E-001 +9.8850699898E+000  +4.1028739504E-001 -4.8135504572E+000 
9520033.792 +4.1400512314E-001 +1.0086808399E+001  +1.4310193574E-001 -5.5734709980E+000  +1.3960337368E-001 +1.0766093329E+001  +4.1469634665E-001 +4.2029552436E+000 
9645178.974 +4.1126031470E-001 +3.5837558425E+000  +1.4534898236E-001 -4.6326682221E+000  +1.4400494269E-001 +1.0518313812E+001  +3.7932163134E-001 +1.8292031800E+000 
9770324.155 +3.8051535219E-001 -4.2876730993E-001  +1.4611567117E-001 -5.2105965916E+000  +1.4353291040E-001 +1.0242084189E+001  +4.2842205663E-001 -2.0609281733E+000 
9895469.337 +3.7884628804E-001 +2.8900509422E+000  +1.4493295847E-001 -5.6782659207E+000  +1.4695303846E-001 +1.0937388955E+001  +4.1740342813E-001 -3.3933330445E+000 
10020614.518 +3.6819662930E-001 +6.2691838287E+000  +1.4772214172E-001 -4.2394526019E+000  +1.4503497871E-001 +1.1892654206E+001  +4.6408914620E-001 +6.0205607575E-001 
10145759.700 +3.9452872775E-001 +1.0521820238E+001  +1.4328293522E-001 -2.8936238457E+000  +1.4512023248E-001 +1.2209173633E+001  +4.2904721990E-001 +4.0912603391E+000 
10270904.881 +4.4008917281E-001 +1.6501858089E+000  +1.4960564660E-001 -3.4122085893E+000  +1.5046235896E-001 +1.2949285621E+001  +3.8688489066E-001 -2.7261491359E+000 
10396050.063 +4.0730551974E-001 +1.0284436339E+001  +1.4464024213E-001 -2.6697257416E+000  +1.4839667241E-001 +1.2749710181E+001  +4.4222763552E-001 +4.8476032832E+000 
10521195.244 +4.4089071330E-001 +1.3115611561E+001  +1.4547388142E-001 -2.5941743151E+000  +1.4699148423E-001 +1.2155342790E+001  +4.3706900221E-001 +7.6212898218E+000 
10646340.426 +4.0523665048E-001 +8.6451004989E+000  +1.4896156862E-001 -3.3672586601E+000  +1.4694654051E-001 +1.2640489096E+001  +4.1657692789E-001 +1.1462624059E+000 
10771485.607 +4.2236798719E-001 +8.7371420866E+000  +1.5059175334E-001 -3.1793967596E+000  +1.4749496528E-001 +1.2942074427E+001  +4.3444726432E-001 +5.5219227345E+000 
10896630.788 +4.3624454578E-001 +1.3074048979E+001  +1.5151339122E-001 -1.8925788557E+000  +1.4932243893E-001 +1.1893476886E+001  +4.2973440740E-001 +3.7772831340E+000 
11021775.970 +4.5724263225E-001 +1.2692152184E+001  +1.4998985568E-001 -1.8783983778E+000  +1.5169496918E-001 +1.2683933942E+001  +4.5562458843E-001 +1.9789595629E+000 
11146921.151 +4.4769235239E-001 +1.1747459471E+001  +1.5100883211E-001 -6.5893657803E-001  +1.5019605237E-001 +1.2465374085E+001  +4.3793164576E-001 +8.9860403479E+000 
11272066.333 +4.5612079217E-001 +1.1436268395E+001  +1.5012363381E-001 -4.9929143544E-001  +1.5262033062E-001 +1.1984353973E+001  +4.7376809712E-001 +7.5381524927E+000 
11397211.514 +4.5756133889E-001 +1.5209344207E+001  +1.5289649630E-001 -5.2098297372E-001  +1.5425043692E-001 +1.1661261235E+001  +4.5724961012E-001 +8.9712658766E+000 
11522356.696 +4.5607309268E-001 +9.8945003393E+000  +1.5938359781E-001 -5.5852212212E-001  +1.5535038018E-001 +1.1202338298E+001  +4.8356383674E-001 +2.5618610749E+000 
11647501.877 +4.6803610053E-001 +8.6446307419E+000  +1.5881872789E-001 -7.8189033143E-001  +1.5681545339E-001 +1.0940571578E+001  +4.7448871216E-001 +3.5378165127E+000 
11772647.059 +4.9049499562E-001 +1.2590569397E+001  +1.6048721239E-001 +4.0982355903E-001  +1.5691860226E-001 +1.1340144711E+001  +4.8773606335E-001 +5.3120479301E+000 
11897792.240 +4.9446265582E-001 +6.9295337480E+000  +1.6151147307E-001 +1.3520051075E+000  +1.5926336468E-001 +1.0505123421E+001  +5.1467831791E-001 +6.6223621943E+000 
12022937.422 +5.1511443963E-001 +5.8156814322E+000  +1.6779536509E-001 +8.7274884605E-001  +1.6461150140E-001 +1.0570396864E+001  +4.9694344932E-001 +5.5955541433E-001 
12148082.603 +5.2579224208E-001 +8.3949175912E+000  +1.6648442046E-001 +1.6797987563E+000  +1.6457177751E-001 +1.0791481725E+001  +5.2272340707E-001 +1.8670007337E+000 
12273227.785 +5.4076898565E-001 +7.3929300884E+000  +1.6770829692E-001 +1.2469561016E+000  +1.6475543045E-001 +9.8907515352E+000  +5.4255066727E-001 +1.2593683803E+000 
12398372.966 +5.3780971070E-001 +5.7529703165E+000  +1.6917864471E-001 +8.3119086634E-001  +1.6728534417E-001 +9.1880498954E+000  +5.5134977994E-001 +9.8480520345E-001 
12523518.148 +5.4225351645E-001 +5.8881772871E+000  +1.7120784291E-001 +1.1995223109E+000  +1.7114195559E-001 +8.8364310488E+000  +5.5476843239E-001 +7.8781125858E-001 
12648663.329 +5.6854070428E-001 +6.3470426909E+000  +1.7292208668E-001 +1.8289450759E+000  +1.7035553633E-001 +8.3044253683E+000  +5.7890433453E-001 +7.2197525519E-001 
12773808.511 +5.7003836006E-001 +4.3004217381E+000  +1.7425956727E-001 +1.6994128595E+000  +1.7315146442E-001 +8.2574263059E+000  +5.8478719296E-001 +2.2254784547E+000 
12898953.692 +5.8938138112E-001 +1.9233406662E+000  +1.7782421122E-001 +1.7816103452E+000  +1.7596675229E-001 +8.0883503776E+000  +5.8640208267E-001 -7.1517376021E-001 
13024098.874 +6.2108938412E-001 +2.7039753787E+000  +1.7850281188E-001 +2.7279405957E+000  +1.7566873877E-001 +7.2869704460E+000  +6.0734183798E-001 +1.5035428700E+000 
13149244.055 +6.1759015695E-001 -8.6525005145E-001  +1.8087157617E-001 +1.7988866556E+000  +1.7821083492E-001 +5.9539522191E+000  +6.2658810313E-001 -2.3437046575E-001 
13274389.237 +6.2296846950E-001 +2.6762608624E+000  +1.8068109233E-001 +2.0985066716E+000  +1.7794503905E-001 +6.9683101345E+000  +6.4407291694E-001 -3.8561281791E-002 
13399534.418 +6.4120024082E-001 -1.7598293489E+000  +1.8540454886E-001 +2.3047095867E+000  +1.8199773981E-001 +5.2325591191E+000  +6.6101138894E-001 -7.5226589914E-001 
13524679.599 +6.5745939745E-001 +2.2403422227E-001  +1.8504534003E-001 +2.0264949797E+000  +1.8330910215E-001 +5.2035885521E+000  +6.6364781387E-001 -1.7463979618E+000 
13649824.781 +6.8544325544E-001 -1.3395010891E+000  +1.8654022741E-001 +2.4042477135E+000  +1.8476184553E-001 +4.7218303922E+000  +6.9070033984E-001 -1.3787203212E+000 
13774969.962 +6.9482721884E-001 -2.3493395867E+000  +1.9026665771E-001 +2.5288842705E+000  +1.8626609122E-001 +4.3075526864E+000  +6.9945886752E-001 -2.6917179397E+000 
13900115.144 +6.8414569389E-001 -3.0381760323E+000  +1.9032480998E-001 +2.3420047648E+000  +1.8722626422E-001 +3.5481841234E+000  +7.4289767949E-001 -2.2981634107E+000 
14025260.325 +7.2189949046E-001 -2.1370538515E+000  +1.9159629354E-001 +1.8606961496E+000  +1.8833538572E-001 +3.3846792837E+000  +7.4837296124E-001 -2.9787178437E+000 
14150405.507 +7.6186899280E-001 -5.0540778572E+000  +1.9370566452E-001 +1.8336010681E+000  +1.9033242309E-001 +2.6439091203E+000  +7.4163554720E-001 -3.4124536941E+000 
14275550.688 +7.7549152879E-001 -4.2570164983E+000  +1.9315683366E-001 +1.7798277437E+000  +1.9190735109E-001 +2.2178514561E+000  +7.8304445448E-001 -5.6214495568E+000 
14400695.870 +7.6861195446E-001 -5.3658781269E+000  +1.9389544694E-001 +1.5909786358E+000  +1.9109090574E-001 +2.0685508225E+000  +7.6972043682E-001 -3.9948283939E+000 
