!  2-Port S-parameters saved by WinCal
! VAR MeasName=S-Parameters (CALIBRATED_DATA) read from VNA (P5004A)
! VAR MeasDate=29/08/2024 10:14:49
! VAR NAME=S2_r9c1_RESET3_9k-100M_2
! VAR FILENAME=S2_r9c1_RESET3_9k-100M_2.S2P
! VAR DATE=29/08/2024 10:14:49
! VAR PHYS_PORTS=1,2
! VAR ObjTypeName=DATASET
! VAR IndexType=Frequency
!
# Hz S MA R 50
9000.000 +8.4610064351E-002 -1.7530997372E+002  +1.5086534693E-002 +1.2133634067E+002  +4.8596844032E-003 +5.9257452248E+001  +3.7552394527E-001 -1.4276609859E+002 
134145.181 +1.1142839582E-001 +1.6941713504E+002  +4.8955597836E-004 -9.5750941715E+001  +2.6252921333E-004 -4.4705395377E+001  +2.4081013582E-001 -1.7128250435E+002 
259290.363 +1.1194180263E-001 +1.6966673960E+002  +4.9271487949E-004 -3.9696320652E+001  +2.0349817095E-004 -7.2558330527E+000  +2.4339387165E-001 -1.6895163191E+002 
384435.544 +1.1533083737E-001 +1.6932933067E+002  +3.3482983298E-004 -1.0690949164E+002  +3.5529008992E-004 -1.8293006621E+001  +2.5231086349E-001 -1.6862508823E+002 
509580.726 +1.1453771829E-001 +1.7201459718E+002  +1.2447032424E-003 -6.7805904941E+001  +1.6428979301E-003 +3.5553472447E+001  +2.5172648539E-001 -1.6539213130E+002 
634725.907 +1.1657412290E-001 +1.7105136767E+002  +1.4311743052E-003 -6.1033194903E+001  +2.0894257028E-003 +1.1685585270E+002  +2.7043959141E-001 -1.5969970305E+002 
759871.089 +1.2071465393E-001 +1.7094315468E+002  +5.5158148830E-004 -5.8145742627E+001  +2.8725946592E-004 -7.4965173266E+001  +2.5331665071E-001 -1.6804541929E+002 
885016.270 +1.2022692674E-001 +1.6939689735E+002  +4.0164518950E-004 -9.3724896502E+001  +4.6629809069E-004 +1.1049444213E+002  +2.4943226037E-001 -1.6686263970E+002 
1010161.452 +1.1547641380E-001 +1.7105932619E+002  +1.2672241093E-003 -7.1754239789E+000  +1.8585248308E-003 +1.4223206482E+002  +2.0806423959E-001 -1.7068161604E+002 
1135306.633 +1.1950800340E-001 +1.6790996000E+002  +9.9912028343E-004 -2.4057158947E+001  +1.1609536599E-003 -3.0971873127E+001  +1.9909348223E-001 -1.6448993893E+002 
1260451.815 +1.1797698714E-001 +1.7080056508E+002  +2.7920463089E-003 +1.0289749998E+002  +1.5275786356E-003 -1.5729016014E+002  +2.5236850546E-001 -1.5531655154E+002 
1385596.996 +1.2497695223E-001 +1.7349818683E+002  +1.0432160187E-003 -5.6805258543E+001  +2.0316526625E-003 -6.7223498948E+001  +2.6189263235E-001 -1.5666205629E+002 
1510742.178 +1.2951121450E-001 +1.7226753089E+002  +8.6548115423E-004 +1.4352053129E+002  +6.5873820253E-004 +1.1144732502E+002  +2.4816482783E-001 -1.5425067128E+002 
1635887.359 +1.2986358387E-001 +1.7044143912E+002  +7.9566069852E-004 -1.0703235994E+002  +8.6424309904E-004 -1.7941633259E+002  +2.4921253415E-001 -1.5941819569E+002 
1761032.541 +1.2857221386E-001 +1.6999344713E+002  +1.1796254956E-003 +4.8768085498E+001  +1.5439589286E-003 -6.8864434617E+001  +2.2527393032E-001 -1.6134519676E+002 
1886177.722 +1.2697386975E-001 +1.6921666143E+002  +2.6676126307E-003 -1.6887590761E+001  +1.4602142927E-003 -1.5859839327E+002  +2.0108677248E-001 -1.5788975043E+002 
2011322.904 +1.2771748459E-001 +1.6902541673E+002  +3.9048182766E-003 +6.9849674760E+001  +2.0421817315E-003 -7.5130646988E+001  +2.1443686548E-001 -1.6148177563E+002 
2136468.085 +1.2543384553E-001 +1.6951662149E+002  +4.5900004473E-003 +3.8487851977E+001  +5.1896450404E-003 -8.7771351823E+001  +2.1564479741E-001 -1.5915122555E+002 
2261613.267 +1.3591070731E-001 +1.6575158109E+002  +8.8293520167E-003 +5.7002743084E+001  +5.8856808378E-003 -7.7052411825E+001  +1.6243994508E-001 -1.6641821650E+002 
2386758.448 +1.4044321585E-001 +1.6353729928E+002  +1.4926661321E-002 +6.9380882465E+001  +7.5009329783E-003 -3.3229798804E+001  +6.3382109906E-002 -1.7166918682E+002 
2511903.630 +1.3079207432E-001 +1.6313042899E+002  +9.3740542389E-003 +7.5266730378E+001  +9.7391320342E-003 -4.4494562816E+001  +1.9692458563E-001 -1.7636607147E+002 
2637048.811 +1.0968490921E-001 +1.6802805995E+002  +3.5224499580E-002 +2.0722279941E+001  +4.2722453112E-002 -8.2259554273E+001  +3.0642304685E-002 -4.7307420968E+001 
2762193.992 +1.0054363329E-001 +1.6446284224E+002  +6.8696390217E-002 +7.2212560167E+001  +6.7199225008E-002 -5.1936027021E+001  +4.7879515569E-001 +7.7318102987E+001 
2887339.174 +1.2841651843E-001 +1.6519344540E+002  +3.1652999194E-002 +6.9696467460E+001  +4.2920642130E-002 -5.1219982750E+001  +3.0069616997E-001 +7.8193706179E+001 
3012484.355 +1.3714345680E-001 +1.7353795129E+002  +4.5187357914E-002 -1.6791062699E+001  +2.5217564116E-002 -1.2977419107E+002  +2.4689975396E-001 -3.1117676210E+001 
3137629.537 +1.2340303031E-001 +1.6627342743E+002  +1.5879741916E-002 +1.0097139796E+001  +3.4590765902E-002 -7.5365666921E+001  +9.0591028354E-002 +9.7712490319E+001 
3262774.718 +1.4037739219E-001 +1.7013807493E+002  +1.3369989128E-002 -8.0800833412E-001  +1.9732972747E-002 -5.9114986241E+001  +1.2527083079E-001 -1.5555620893E+002 
3387919.900 +1.2147494549E-001 +1.6120124465E+002  +3.3060538390E-002 +2.7136838863E+001  +4.1416877108E-002 -5.4173089498E+001  +7.4310753480E-002 +8.9052587611E+001 
3513065.081 +1.4313279870E-001 +1.5712592691E+002  +2.9331622018E-002 +4.7527659756E+001  +3.5877226542E-002 -2.1898275038E+001  +1.0242421288E-001 +8.0130131850E+001 
3638210.263 +1.6197915827E-001 +1.4906466816E+002  +5.5997935930E-002 +1.2391323371E+002  +3.9206224799E-002 +6.4089262645E+001  +8.9840001897E-001 +1.5161902665E+002 
3763355.444 +1.7564234701E-001 +1.4343260119E+002  +3.0289610456E-002 +1.0759920351E+002  +3.1389942021E-002 +3.5179688909E+001  +4.1910241150E-001 +1.5944431529E+002 
3888500.626 +1.6492865802E-001 +1.5738467376E+002  +1.9790697634E-002 +6.9581816258E+001  +1.9518476528E-002 +9.6170710506E+000  +3.3447345037E-001 +1.4503114655E+002 
4013645.807 +2.0446255803E-001 +1.4389547021E+002  +3.2050101091E-002 +9.4029590762E+001  +3.0283153252E-002 +3.0835053679E+001  +3.1057695264E-001 +1.4416543359E+002 
4138790.989 +1.9485539755E-001 +1.5115852965E+002  +2.4410387191E-002 +8.8057901950E+001  +2.4076674363E-002 +3.4346767009E+001  +3.3494683656E-001 +1.4541576639E+002 
4263936.170 +1.7464591462E-001 +1.4990212879E+002  +5.9921036125E-002 +7.9561770783E+001  +4.8825054808E-002 +1.0237837849E+001  +5.9317760480E-001 +8.8650375414E+001 
4389081.352 +1.9587431098E-001 +1.4205786891E+002  +1.4390093965E-001 +1.3983959169E+002  +1.2756914966E-001 +7.8598143544E+001  +1.9095516780E+000 +1.4187824806E+002 
4514226.533 +2.5314224015E-001 +1.3388577980E+002  +6.8560288418E-002 +1.3486265794E+002  +6.9611418341E-002 +8.2176327285E+001  +8.9381850749E-001 +1.3577941274E+002 
4639371.715 +2.6363694172E-001 +1.3332755079E+002  +2.7244138684E-001 +1.2095536870E+002  +2.5080332210E-001 +5.9868813841E+001  +3.0571187664E+000 +9.6936117846E+001 
4764516.896 +2.9064220637E-001 +1.2123352091E+002  +6.1141504450E-001 +4.2934525242E+001  +4.8372305310E-001 -1.8736646375E+001  +5.3727568753E+000 +5.6293211757E-001 
4889662.078 +5.1180182048E-001 +1.0576681702E+002  +1.3737013740E+000 +1.3506165677E+002  +1.2579167348E+000 +8.4589481697E+001  +9.0942983325E+000 +1.1878650489E+002 
5014807.259 +4.0576160086E-001 +1.3731002431E+002  +2.4503935506E-001 +1.4607047175E+002  +1.8935183449E-001 +1.1229367109E+002  +2.4798221710E+000 +1.0683831691E+002 
5139952.441 +3.8261564227E-001 +1.3685792545E+002  +9.9358892264E-002 +1.3816505082E+002  +9.3183745999E-002 +8.6760891365E+001  +1.1615937182E+000 +1.1677660745E+002 
5265097.622 +3.4473132713E-001 +1.2086279890E+002  +3.1720359108E-001 +1.0746063969E+002  +3.3016699035E-001 +6.5390285362E+001  +3.4348742699E+000 +9.4168430665E+001 
5390242.804 +3.8180814162E-001 +1.2690366683E+002  +1.2639233638E-001 +1.0323993915E+002  +1.3339036994E-001 +7.2566268850E+001  +1.3965142352E+000 +1.0665195349E+002 
5515387.985 +4.2922605109E-001 +1.1974419641E+002  +1.6796730309E-001 +1.2178718877E+002  +1.6048342051E-001 +9.6243088140E+001  +1.8662762171E+000 +1.1976180198E+002 
5640533.166 +4.2319632895E-001 +1.2628494336E+002  +1.3893484341E-001 +1.2098755056E+002  +1.4075810444E-001 +7.8324470269E+001  +1.9819296640E+000 +1.0910737055E+002 
5765678.348 +5.0950805296E-001 +1.3219460156E+002  +1.2652332185E-001 +9.9285977721E+001  +1.1036749890E-001 +7.0912462126E+001  +1.2712246936E+000 +8.8689181856E+001 
5890823.529 +5.6384651884E-001 +1.2599389013E+002  +1.2228256737E-001 +1.0334611287E+002  +1.2689516530E-001 +6.5918271354E+001  +1.2030283971E+000 +9.4418226205E+001 
6015968.711 +5.8808826374E-001 +1.1582374762E+002  +2.7662408403E-001 +7.7347580382E+001  +2.3651134697E-001 +5.6830062920E+001  +2.6437224016E+000 +6.3602853915E+001 
6141113.892 +6.3788820006E-001 +1.1655428893E+002  +1.6456215043E-001 +5.8698356575E+001  +1.6139457491E-001 +3.8688567147E+001  +1.4399193376E+000 +3.8443101053E+001 
6266259.074 +8.1141989082E-001 +1.0147160146E+002  +2.2847304460E-001 +6.4133680754E+001  +1.8235199483E-001 +4.9678792795E+001  +1.5138948360E+000 +4.6265297110E+001 
6391404.255 +1.1271280658E+000 +8.6896676455E+001  +2.5004819844E-001 +3.8803858775E+001  +2.6235133437E-001 +2.8858843498E+001  +1.3951226485E+000 +1.4199775543E+001 
6516549.437 +1.0380859693E+000 +8.7425963355E+001  +2.0903357481E-001 +2.9109688163E+001  +2.2739563174E-001 +1.6172681958E+001  +1.4135738422E+000 +2.9911218091E+000 
6641694.618 +1.2176142711E+000 +8.1513450136E+001  +2.0270459569E-001 +2.9905964701E+001  +2.4060527507E-001 +2.2406066781E+001  +1.4836301950E+000 +4.4015526543E+000 
6766839.800 +1.3468029580E+000 +5.3741188343E+001  +2.4145163044E-001 +2.0534812243E+001  +2.3902963010E-001 +1.3062807732E+001  +1.0776399213E+000 +5.0185330362E+000 
6891984.981 +1.5395873660E+000 +1.1531745348E+001  +2.4486140760E-001 -5.2500348886E+000  +2.3292751624E-001 -1.2481324252E+001  +1.1273463432E+000 +8.5722889857E+000 
7017130.163 +1.2857177547E+000 +2.2859141878E+001  +1.7109057157E-001 -1.1443268003E+000  +1.6266692025E-001 -2.6791585081E+000  +1.1839480373E+000 -2.9811977058E+000 
7142275.344 +1.5437701274E+000 +5.0670906158E+000  +1.7917892870E-001 -3.8524207217E+000  +1.5097006693E-001 -5.6166905675E+000  +1.1477513960E+000 -3.4598341041E+000 
7267420.526 +1.4128471513E+000 +1.5399746535E+001  +1.3691037389E-001 +4.7086915845E+000  +1.4794028345E-001 +4.0304945832E+000  +1.3137063566E+000 -7.1602473415E+000 
7392565.707 +1.0849326676E+000 +8.4462035323E-001  +1.1746532957E-001 +5.6660206152E+000  +1.1319121434E-001 -4.4674330655E-002  +1.3375680642E+000 -1.0785279676E+001 
7517710.889 +1.0483598775E+000 -2.1752406685E+000  +1.1825749927E-001 +6.4727664268E+000  +1.1659849947E-001 +1.9290184055E+000  +1.0880614383E+000 -1.8410235991E+001 
7642856.070 +9.5102299275E-001 +2.8244803415E+000  +1.0406962444E-001 +2.4395660312E+000  +1.0050989500E-001 +6.0416650195E+000  +1.0906619892E+000 -4.4185003304E+000 
7768001.252 +8.7298716845E-001 -2.4050879103E-002  +9.6121236926E-002 -1.6276062590E+000  +9.5436121390E-002 +3.2403550769E+000  +8.3478629146E-001 -8.7181377789E+000 
7893146.433 +6.8975820058E-001 -9.3227363394E-002  +9.2786818465E-002 -3.1680940943E+000  +9.0188939524E-002 +3.9849415659E+000  +6.9095836524E-001 -2.9889129251E+000 
8018291.615 +8.1903554930E-001 +8.2095867093E+000  +9.2088653393E-002 +5.0957873476E-001  +9.2796200866E-002 +1.0887461755E+001  +8.4539473727E-001 +1.7452126702E+000 
8143436.796 +7.1822752827E-001 +6.9807214454E+000  +8.4800733246E-002 -3.1763278065E-002  +8.4751823584E-002 +8.7168632360E+000  +6.9063625137E-001 -9.1965415690E-001 
8268581.977 +6.1392382535E-001 +1.7898176413E+001  +7.8660168611E-002 -1.4946609389E+000  +8.0664731351E-002 +1.1130674626E+001  +7.1858285958E-001 +2.2639083311E+000 
8393727.159 +7.0351636338E-001 +1.4442580729E+001  +8.3591778638E-002 -2.0741313614E+000  +8.4668039735E-002 +1.5053878833E+001  +6.6274420294E-001 +3.9248568245E+000 
8518872.340 +6.1316184425E-001 +9.1699067560E+000  +8.2726573073E-002 -1.5290580916E+000  +8.9924154492E-002 +8.5108036537E+000  +5.8609189691E-001 +6.5116268100E-002 
8644017.522 +6.0652555274E-001 +1.0442167293E+001  +7.7643886471E-002 -2.5533007259E+000  +8.1677845208E-002 +7.7056580601E+000  +5.8518988801E-001 +5.0648153677E+000 
8769162.703 +4.8290486716E-001 +8.8559182266E+000  +8.1567607055E-002 -4.5549247710E+000  +7.6501289592E-002 +1.0967148928E+001  +5.1376490322E-001 +1.2695125475E+000 
8894307.885 +5.2088404464E-001 +1.0158590790E+001  +7.9237260175E-002 -3.6731492553E+000  +7.7391091826E-002 +7.5029192673E+000  +5.3107062107E-001 -6.8862930582E-001 
9019453.066 +4.4285953001E-001 +7.4376339554E+000  +7.6517952588E-002 -4.1339910097E+000  +7.8960232181E-002 +1.1785674171E+001  +5.8421788005E-001 +4.2537937629E+000 
9144598.248 +4.6986497492E-001 +1.0862469198E+001  +8.1247936619E-002 -7.2015910698E+000  +7.6883263066E-002 +1.1208838030E+001  +5.8692187953E-001 +2.9618785996E+000 
9269743.429 +5.2974732377E-001 +9.2799937603E+000  +7.8302403781E-002 -1.9362790129E+000  +8.1765342155E-002 +1.3662613866E+001  +5.6049708086E-001 -4.7508106944E+000 
9394888.611 +4.6022121486E-001 +5.8722472373E+000  +8.1956596542E-002 -4.9691121687E+000  +8.1087423577E-002 +1.2960828591E+001  +5.0987573359E-001 -1.5748949906E-001 
9520033.792 +4.8943338309E-001 +7.6744486317E+000  +7.8357968042E-002 -3.2767576907E+000  +7.8253403641E-002 +1.1827507740E+001  +4.6750797553E-001 -2.7177041066E+000 
9645178.974 +4.9762076708E-001 +5.7339699532E+000  +7.8593376785E-002 -4.7118192900E+000  +7.8683394636E-002 +1.1171989895E+001  +5.0954583109E-001 -1.1831068470E+000 
9770324.155 +4.4527101030E-001 +3.7607967750E+000  +7.5515040764E-002 -5.5046908679E+000  +7.8933807750E-002 +1.0413960687E+001  +5.0923581695E-001 -3.6755242448E+000 
9895469.337 +4.8912781842E-001 +4.3900550928E+000  +8.0271723796E-002 -3.8823731946E+000  +8.2451186624E-002 +1.4686802393E+001  +5.1003019240E-001 -8.6642566480E+000 
10020614.518 +4.3477165497E-001 +5.0631950115E+000  +7.8371388439E-002 -3.1123824174E+000  +7.9144041776E-002 +1.2008341082E+001  +5.1015749023E-001 -4.8074111630E+000 
10145759.700 +5.1989963724E-001 -1.7888561848E-001  +8.2665796318E-002 -2.5964247785E+000  +7.9572143696E-002 +1.2750741647E+001  +5.1579278726E-001 -1.9084245305E-001 
10270904.881 +4.6109555479E-001 +2.0762664282E+000  +7.9442589318E-002 -3.9401826686E+000  +8.2354618087E-002 +1.4011459257E+001  +5.0475859079E-001 -1.1116649596E+000 
10396050.063 +4.9445106503E-001 +1.4035360837E+000  +8.2399880211E-002 -2.2435533827E+000  +8.2203567152E-002 +1.3941569448E+001  +5.0540534701E-001 +4.6417559088E+000 
10521195.244 +4.7838575567E-001 +6.8578435728E+000  +8.2689637724E-002 -2.7963326513E+000  +8.2268127193E-002 +1.3897238383E+001  +4.9656575628E-001 -3.5186481702E+000 
10646340.426 +4.5542424537E-001 +7.8399562402E+000  +8.2594453487E-002 -1.5955082392E+000  +7.9429162721E-002 +1.4503585655E+001  +4.9863431625E-001 +1.3766458332E+000 
10771485.607 +5.0976312341E-001 +6.8922933922E+000  +8.3849685802E-002 -1.9785310147E+000  +8.1943086142E-002 +1.4585781813E+001  +5.1540895855E-001 -9.4713066627E-001 
10896630.788 +5.0514414425E-001 +7.4390167650E+000  +8.2584504147E-002 -1.2223863430E+000  +8.2626242663E-002 +1.3075963336E+001  +5.4083297020E-001 +4.3890562684E+000 
11021775.970 +5.2902725462E-001 +7.2940941010E+000  +8.5316732479E-002 -1.0706859881E-001  +8.2123364575E-002 +1.2953186752E+001  +5.3696048462E-001 +7.8431384320E-001 
11146921.151 +5.1372652358E-001 +1.2451640741E+001  +8.3364952290E-002 -5.8262780466E-001  +8.3237039779E-002 +1.3741975886E+001  +5.3133292228E-001 +2.6115317410E+000 
11272066.333 +4.8565224667E-001 +7.8806252187E+000  +8.4756633458E-002 -7.6530419050E-001  +8.4660969246E-002 +1.2796721831E+001  +5.5649318886E-001 +5.4925978012E+000 
11397211.514 +5.3220043531E-001 +8.5572897297E+000  +8.5495919989E-002 -2.5329659751E-001  +8.5396734631E-002 +1.2524926619E+001  +5.7760216408E-001 +4.0999199322E+000 
11522356.696 +5.8377695256E-001 +5.6204926873E+000  +8.8156694936E-002 +1.0803446223E+000  +8.6102581489E-002 +1.3864831956E+001  +5.4747221133E-001 +2.0963880215E+000 
11647501.877 +5.2896821246E-001 +7.2073612039E+000  +8.6990718480E-002 -5.2737688362E-001  +8.7909741037E-002 +1.3273229384E+001  +5.8899459798E-001 +4.4958331809E+000 
11772647.059 +5.6888702654E-001 +5.8149662676E+000  +9.1062806054E-002 +1.7175189765E+000  +8.9352084960E-002 +1.2098320787E+001  +5.7689463723E-001 +2.6445627963E+000 
11897792.240 +5.8265065355E-001 +7.3026735642E+000  +9.0457769542E-002 +1.6142522104E+000  +8.9030276063E-002 +1.2594770594E+001  +5.9254072891E-001 -1.5376109321E-001 
12022937.422 +5.8078784537E-001 +4.5978375680E+000  +9.1685839924E-002 +1.9358307773E+000  +9.0692236962E-002 +1.0690213687E+001  +6.1675629121E-001 -8.5181677206E-001 
12148082.603 +5.9009508342E-001 +4.5383271774E+000  +9.2133675997E-002 +1.3054574172E+000  +9.2023207449E-002 +1.0402689354E+001  +6.1418193088E-001 -1.5097192666E+000 
12273227.785 +6.0323895906E-001 +4.6235457194E+000  +9.3654502360E-002 +1.3976140850E+000  +9.1928294976E-002 +1.1950676086E+001  +6.1542371709E-001 +3.4541888277E-001 
12398372.966 +6.3142974750E-001 +3.7078771444E+000  +9.3788745853E-002 +1.8547962600E+000  +9.5366770505E-002 +1.0033194945E+001  +6.2897363574E-001 -1.0593297269E+000 
12523518.148 +6.1473238517E-001 +4.4730794147E+000  +9.3900720558E-002 +1.7462968040E+000  +9.3041218495E-002 +9.9076689235E+000  +6.4410154984E-001 +5.4274492530E-001 
12648663.329 +6.3613021793E-001 +2.0262365945E+000  +9.6997578407E-002 +8.4702626091E-001  +9.6459169882E-002 +9.3499753467E+000  +6.4704465170E-001 -1.2032891830E+000 
12773808.511 +6.4984894725E-001 +1.6537495129E+000  +9.5370459881E-002 +2.1350835422E+000  +9.7913831773E-002 +8.9631652999E+000  +6.8799417924E-001 -2.5902285841E-001 
12898953.692 +6.9319687150E-001 +1.1841364809E+000  +9.8912269990E-002 +2.3557951057E+000  +9.6955602683E-002 +7.9409248533E+000  +6.8040164224E-001 +8.7243167299E-001 
13024098.874 +7.1717517176E-001 +2.4891442531E+000  +9.7738378002E-002 +3.0231083960E+000  +9.8586625149E-002 +9.1802886443E+000  +7.1507395335E-001 +1.4069703856E-001 
13149244.055 +7.0355447237E-001 +7.9458536509E-002  +9.8458358629E-002 +3.7013697396E+000  +9.9563553454E-002 +7.0036127723E+000  +7.3271022067E-001 -1.1118849998E+000 
13274389.237 +7.3888715745E-001 -1.9722217874E-001  +9.8314007516E-002 +3.0675837894E+000  +9.8766154815E-002 +7.4768026614E+000  +7.2239840192E-001 -3.8233165250E-003 
13399534.418 +7.3958826470E-001 -4.8746111025E-001  +1.0095882455E-001 +3.5611581339E+000  +1.0079502276E-001 +6.1844273364E+000  +7.5686249641E-001 -1.7504579383E+000 
13524679.599 +7.5515301180E-001 -8.9572982534E-001  +1.0286444363E-001 +2.9471165961E+000  +1.0173947375E-001 +6.0661573967E+000  +7.5903003687E-001 -2.4128200786E+000 
13649824.781 +7.6392608254E-001 -3.9094094757E+000  +1.0325707565E-001 +2.0755274109E+000  +1.0323558998E-001 +5.0885512908E+000  +7.7794991151E-001 -3.0159464336E+000 
13774969.962 +8.1380416350E-001 -3.5578108980E+000  +1.0523038826E-001 +2.3163619625E+000  +1.0385731503E-001 +4.7978429477E+000  +7.9756054816E-001 -3.3396838521E+000 
13900115.144 +8.0341269398E-001 -1.4917570784E+000  +1.0347339492E-001 +3.2853601921E+000  +1.0305827745E-001 +4.1949653039E+000  +8.2410181837E-001 -3.4294878247E+000 
14025260.325 +8.1777105029E-001 -4.0101352078E+000  +1.0680482926E-001 +2.8404043669E+000  +1.0247493110E-001 +4.1477372434E+000  +8.2858232235E-001 -4.1362235670E+000 
14150405.507 +8.4315097441E-001 -4.4578565625E+000  +1.0604163611E-001 +3.2532402072E+000  +1.0401341047E-001 +3.8352685879E+000  +8.5557545415E-001 -3.7607753053E+000 
14275550.688 +8.2880737809E-001 -4.6897300290E+000  +1.0661738685E-001 +1.9970375101E+000  +1.0447809759E-001 +2.7482982822E+000  +8.7673075179E-001 -6.5106915966E+000 
14400695.870 +8.6805885613E-001 -6.1615902689E+000  +1.0685287939E-001 +1.8459658211E+000  +1.0448534456E-001 +2.3585987365E+000  +8.8554425361E-001 -4.6374097537E+000 
