!  2-Port S-parameters saved by WinCal
! VAR MeasName=S-Parameters (CALIBRATED_DATA) read from VNA (P5004A)
! VAR MeasDate=29/08/2024 12:30:45
! VAR NAME=S2_r9c5_SET2_9k-100M_2
! VAR FILENAME=S2_r9c5_SET2_9k-100M_2.S2P
! VAR DATE=29/08/2024 12:30:46
! VAR PHYS_PORTS=1,2
! VAR ObjTypeName=DATASET
! VAR IndexType=Frequency
!
# Hz S MA R 50
9000.000 +8.9421929826E-002 -1.7679032577E+002  +6.8554413048E-003 -6.2926199436E+001  +1.0360524252E-002 -1.5869171637E+002  +2.3733752685E-001 -1.3844824475E+002 
134145.181 +1.1099652315E-001 +1.6950312874E+002  +4.1984120528E-004 +5.4017808881E+001  +4.1641362596E-004 +4.9603207083E+001  +2.4052142407E-001 -1.7120175349E+002 
259290.363 +1.1217616557E-001 +1.6983955948E+002  +6.3735210812E-004 -1.4140835653E+002  +4.6273851695E-004 +5.4503535886E+001  +2.4399155702E-001 -1.6896450167E+002 
384435.544 +1.1360167841E-001 +1.7018589917E+002  +9.4871524235E-004 -4.0770573188E+001  +5.1353519869E-004 +1.5058713623E+002  +2.4029183537E-001 -1.6836526845E+002 
509580.726 +1.1252775552E-001 +1.7084583962E+002  +1.7496031480E-003 -4.7294557118E+001  +1.4117324641E-003 +8.2381548814E+001  +2.4660764225E-001 -1.6642297775E+002 
634725.907 +1.1761942277E-001 +1.7076300592E+002  +6.5737816378E-004 -8.5026319639E+001  +3.7493609883E-004 +1.2602415519E+002  +2.4748709416E-001 -1.6356836284E+002 
759871.089 +1.1871201147E-001 +1.7047585844E+002  +8.5517949718E-004 -1.1816550419E+002  +1.8597302872E-003 +6.8233098402E+001  +2.5172369410E-001 -1.6572503678E+002 
885016.270 +1.2030585143E-001 +1.6987493812E+002  +8.6435454294E-004 -9.0866976474E+001  +1.3271047035E-003 +9.7150514898E+001  +2.4853588670E-001 -1.6545575383E+002 
1010161.452 +1.1626253403E-001 +1.6740049746E+002  +1.7514895417E-003 +3.2640567566E+001  +2.8298977538E-003 -1.3717877145E+002  +2.0444435329E-001 -1.7169745955E+002 
1135306.633 +1.1939561258E-001 +1.6892895949E+002  +1.5401644713E-003 +9.9595156202E+000  +6.4133548481E-004 -1.3731412717E+002  +1.9595615266E-001 -1.6473115764E+002 
1260451.815 +1.1945420940E-001 +1.6930570326E+002  +2.3441261338E-003 -6.3294540666E+001  +1.1586344873E-003 +1.5301063337E+002  +1.9669850020E-001 -1.6153740647E+002 
1385596.996 +1.2628520343E-001 +1.7119047018E+002  +1.4336187455E-003 -1.0254302494E+002  +1.2925465331E-003 +1.0976920137E+002  +2.4420589753E-001 -1.5921620386E+002 
1510742.178 +1.2373718707E-001 +1.7186094768E+002  +1.3611687524E-003 -2.1607740732E+001  +1.7277798719E-003 +1.6226576487E+002  +2.5202480524E-001 -1.6030553860E+002 
1635887.359 +1.2897697464E-001 +1.7206554617E+002  +2.5081491942E-003 -1.6594769255E+001  +5.9808430140E-004 +8.6754581048E+001  +2.4185205534E-001 -1.6007442884E+002 
1761032.541 +1.3220065107E-001 +1.6952615725E+002  +2.0015827002E-003 +2.2443102546E+001  +8.8643335340E-004 -8.0571959429E+001  +2.3111957935E-001 -1.6044259007E+002 
1886177.722 +1.2964380582E-001 +1.6769421043E+002  +7.9018073732E-003 +5.1790166072E+001  +4.5442845756E-003 -1.0744367838E+002  +1.9112318045E-001 -1.3763415450E+002 
2011322.904 +1.3130043686E-001 +1.6602485082E+002  +5.3978680440E-003 +7.4652104110E+001  +3.5035191191E-003 -8.8135337212E+001  +2.1702379116E-001 -1.6843056979E+002 
2136468.085 +1.3675366854E-001 +1.6796508262E+002  +7.0942059908E-003 +6.8165401538E+001  +4.4119311648E-003 -7.2217266734E+001  +1.8270810067E-001 -1.6986758536E+002 
2261613.267 +1.2814406084E-001 +1.6810148092E+002  +8.8803084677E-003 +8.4018826391E+001  +1.4236079988E-002 -5.2428599711E+001  +2.0357996204E-001 +1.7661484843E+002 
2386758.448 +1.3141086089E-001 +1.6427619270E+002  +1.2420986684E-002 +1.0099175375E+002  +1.5199177940E-002 -2.2206925956E+001  +2.1329905241E-001 +1.7425738879E+002 
2511903.630 +1.3665800706E-001 +1.6688443095E+002  +1.5734083495E-002 +7.8923464873E+001  +1.5237289748E-002 -4.4364932187E+001  +2.0101507672E-001 +1.7592204617E+002 
2637048.811 +1.3599179241E-001 +1.5893285261E+002  +2.8065698886E-002 +9.3726223520E+001  +3.2992064352E-002 -1.8039247055E+001  +1.7268385550E-001 +1.6367960845E+002 
2762193.992 +1.2179579831E-001 +1.6926445496E+002  +7.2130109187E-002 +3.8928607844E+001  +6.3046716897E-002 -7.5618656155E+001  +1.2189004374E-001 +5.5962760525E+001 
2887339.174 +1.1348270772E-001 +1.7115359822E+002  +6.3439417022E-002 +9.2459574591E+000  +6.3683320972E-002 -9.7465987320E+001  +1.1710543363E-001 -5.9691463073E+001 
3012484.355 +1.2111846996E-001 +1.7175874256E+002  +9.2876286910E-002 +3.9768223413E+001  +9.4554649096E-002 -6.2225046275E+001  +4.5939152081E-001 +5.8988876647E+001 
3137629.537 +1.4680323876E-001 +1.7371686893E+002  +2.8122862421E-002 -1.0590976530E+001  +3.1709788097E-002 -1.0609620952E+002  +1.5409769883E-001 -1.0529944111E+002 
3262774.718 +1.3293635622E-001 +1.6680785623E+002  +8.0523979166E-002 -1.3670145162E+001  +7.6603501239E-002 -1.0646326937E+002  +4.1922384668E-001 -5.6730874455E+001 
3387919.900 +1.0251879435E-001 +1.6610779984E+002  +1.3402805859E-001 +2.1140348030E+001  +1.4225515118E-001 -8.2520200463E+001  +4.6826385359E-001 -3.3215762650E+000 
3513065.081 +1.2693410864E-001 +1.4759104172E+002  +6.6344402208E-002 +6.9291825096E+001  +6.2242994305E-002 -9.5929686176E+000  +2.7494272946E-001 +1.2387760573E+002 
3638210.263 +1.6954223204E-001 +1.4119619043E+002  +6.1238943893E-002 +1.1711758950E+002  +6.2269582736E-002 +4.5706918370E+001  +4.3163374612E-001 +1.4111913777E+002 
3763355.444 +1.4627724987E-001 +1.4460949182E+002  +6.3317825239E-002 +7.1822497178E+001  +6.6119819661E-002 +5.3189783125E+000  +2.1324287014E-001 +1.2882234316E+002 
3888500.626 +1.8842301932E-001 +1.4462450125E+002  +6.3613286646E-002 +1.3186355064E+002  +5.9903473416E-002 +5.2909487519E+001  +5.2819025960E-001 +1.4855341498E+002 
4013645.807 +1.8698029348E-001 +1.5136812654E+002  +7.0255600234E-002 +9.1691524587E+001  +5.5993930178E-002 +1.4957813645E+001  +3.6418921324E-001 +1.1447344300E+002 
4138790.989 +1.9510804958E-001 +1.5153236292E+002  +4.4579539501E-002 +6.9575144718E+001  +3.5323188583E-002 +2.5276193433E+000  +1.9583975901E-001 +1.5306241858E+002 
4263936.170 +1.9739037443E-001 +1.3978000174E+002  +1.3164549148E-001 +8.6800558727E+001  +1.5167029126E-001 +2.1822704189E+001  +7.6235497509E-001 +8.4100083297E+001 
4389081.352 +1.7787710498E-001 +1.4479938178E+002  +7.1819813315E-002 +8.7691197493E+001  +7.8007158164E-002 +2.1786279535E+001  +4.4452087916E-001 +1.2880316254E+002 
4514226.533 +2.0808375706E-001 +1.4039611380E+002  +1.2595662905E-001 +9.3402501537E+001  +1.1033674383E-001 +3.2441223286E+001  +6.8743555079E-001 +1.0774588256E+002 
4639371.715 +2.7599155413E-001 +1.3822004639E+002  +1.8678414979E-001 +1.4312837546E+002  +2.0645504079E-001 +9.1796133928E+001  +1.5741589925E+000 +1.3003780619E+002 
4764516.896 +3.0767145065E-001 +1.1958525793E+002  +3.2428188751E-001 +4.6971839555E+001  +3.2436489217E-001 -4.7794735310E+000  +1.3850262244E+000 -6.3914556968E+000 
4889662.078 +4.1798346019E-001 +1.2511296705E+002  +3.8215123357E-001 +9.6122739178E+001  +3.8663802190E-001 +5.5927093221E+001  +1.7662734588E+000 +5.8489466189E+001 
5014807.259 +4.8703910498E-001 +1.4169227350E+002  +5.8567987931E-001 +1.6172325247E+002  +5.4864801780E-001 +1.1760256024E+002  +3.4590648387E+000 +1.1531418728E+002 
5139952.441 +3.9406964479E-001 +1.3402811363E+002  +3.5110503111E-001 +1.3547463678E+002  +3.7753286616E-001 +9.3258901360E+001  +2.6653172623E+000 +1.1119446368E+002 
5265097.622 +2.6303917457E-001 +1.2699752342E+002  +2.3807114874E-001 +7.2311105597E+001  +2.3105393936E-001 +4.3642604918E+001  +1.4837162741E+000 +8.7029704283E+001 
5390242.804 +3.9221526250E-001 +1.3296570612E+002  +1.9643805049E-001 +1.2178509006E+002  +1.7854423584E-001 +8.3789812675E+001  +1.2905782845E+000 +1.2050597568E+002 
5515387.985 +3.8038924739E-001 +1.3276329294E+002  +1.6751308452E-001 +1.0556654469E+002  +1.6172061760E-001 +6.7910604276E+001  +1.2399163795E+000 +1.1214615017E+002 
5640533.166 +4.1890340249E-001 +1.3028115372E+002  +2.7349337941E-001 +9.5761114301E+001  +2.9001796126E-001 +5.7377046060E+001  +2.0739373267E+000 +8.0849132307E+001 
5765678.348 +4.2099920646E-001 +1.2270963752E+002  +2.7157696526E-001 +7.5071683213E+001  +2.8196214551E-001 +4.1511890965E+001  +1.7111890313E+000 +6.5448348581E+001 
5890823.529 +5.4363334740E-001 +1.2048691497E+002  +2.8756216104E-001 +7.4482394530E+001  +2.7927489906E-001 +5.0105552060E+001  +1.4681951077E+000 +6.3511982852E+001 
6015968.711 +5.9933730178E-001 +1.1495836424E+002  +3.3134486724E-001 +7.3769817465E+001  +3.0827923209E-001 +4.9362372585E+001  +1.7602458687E+000 +6.3299782763E+001 
6141113.892 +5.5239057183E-001 +1.0569588398E+002  +3.0397370895E-001 +5.2336799324E+001  +2.9930088150E-001 +3.1325576177E+001  +1.4225572096E+000 +4.5055960852E+001 
6266259.074 +7.2166504187E-001 +1.0262634657E+002  +3.4492273743E-001 +6.7593167890E+001  +3.0937015168E-001 +5.5828672318E+001  +1.5935102161E+000 +6.9211328656E+001 
6391404.255 +6.5915641462E-001 +8.7476590427E+001  +3.3292292882E-001 +3.1812048405E+001  +3.2175247633E-001 +1.3889264589E+001  +1.4061838085E+000 +2.1743177452E+001 
6516549.437 +8.9501485125E-001 +7.6049890921E+001  +3.8223746049E-001 +2.8626312182E+001  +3.8151532435E-001 +1.5778114987E+001  +1.3422064648E+000 +1.4933053131E+001 
6641694.618 +1.4325552313E+000 +7.1493206683E+001  +4.2905932206E-001 +3.1426448606E+001  +3.9488541322E-001 +2.0018609500E+001  +1.0207118635E+000 -3.3294826735E+000 
6766839.800 +1.0995210709E+000 +5.4708479660E+001  +3.7010319667E-001 +1.7989065958E+001  +3.4333075554E-001 +8.1240498023E+000  +1.2387112022E+000 +6.6902804799E+000 
6891984.981 +1.0647859234E+000 +3.9030328921E+001  +3.2094434209E-001 +8.9372910174E+000  +3.3026928024E-001 +3.7532157333E+000  +1.0993574605E+000 +5.9071126653E+000 
7017130.163 +8.9244803737E-001 +2.6596553416E+001  +2.7552209131E-001 +1.6598737977E+000  +2.8179310316E-001 -4.9915690012E+000  +1.0640073742E+000 -6.4232856460E+000 
7142275.344 +1.2859410300E+000 +1.1689554359E+001  +2.9653048457E-001 +1.2111666994E+000  +2.8639572441E-001 -4.9790921112E-001  +1.1688840464E+000 -8.0421887983E+000 
7267420.526 +1.1322478838E+000 +8.5060478284E-001  +2.4799753761E-001 -4.0803126185E-001  +2.5213585381E-001 -4.7059166966E-001  +1.2987232617E+000 -1.2593416119E+001 
7392565.707 +9.7426844587E-001 -2.5040029974E+000  +2.0820375472E-001 +3.7521095563E+000  +2.0644036531E-001 +5.1120078894E+000  +1.0657146217E+000 -5.8414840136E+000 
7517710.889 +9.9995211750E-001 -4.6130465936E+000  +2.0096079385E-001 +5.9681112844E+000  +1.9391628530E-001 +6.2742090156E+000  +9.8232802811E-001 -1.0998598624E+001 
7642856.070 +7.9503187951E-001 +5.4987504620E+000  +1.7459861593E-001 +2.2249878428E+000  +1.7731309152E-001 +4.4887942482E+000  +8.3102748946E-001 -3.0525589076E+000 
7768001.252 +6.9176201404E-001 +1.6194698145E+000  +1.7259866153E-001 +4.6842887432E-001  +1.7347386875E-001 +5.0278934723E+000  +9.1023912190E-001 -4.2738377076E+000 
7893146.433 +6.8954740986E-001 +1.0969160231E+001  +1.5998895500E-001 +1.2109811921E+000  +1.6185176181E-001 +6.9443541799E+000  +7.4354003250E-001 -9.2360340612E-001 
8018291.615 +5.8460019734E-001 +6.3625119043E+000  +1.5840330574E-001 +3.9756074468E-001  +1.6156199583E-001 +8.1740767158E+000  +6.4925620941E-001 -9.7169250917E-002 
8143436.796 +6.0899421461E-001 +1.2846056159E+001  +1.5712481892E-001 -1.9365115039E+000  +1.6036584485E-001 +7.4073118385E+000  +6.5342880950E-001 -1.5874242669E+000 
8268581.977 +5.5746451840E-001 +1.9058303522E+001  +1.4560359448E-001 -2.6140460002E+000  +1.4754542745E-001 +7.6395270813E+000  +6.3346654653E-001 +2.4205989733E+000 
8393727.159 +5.8459373014E-001 +1.7032790855E+001  +1.4697530322E-001 -3.5027114794E+000  +1.4863664706E-001 +9.4461716220E+000  +5.5789282341E-001 +1.3589036729E+000 
8518872.340 +5.3425133092E-001 +9.2761366522E+000  +1.4161302014E-001 -9.9392983604E-001  +1.4777715697E-001 +9.7295879331E+000  +5.8539886164E-001 +2.1430311989E+000 
8644017.522 +4.8660869682E-001 +7.5131124579E+000  +1.4925024746E-001 -2.8517282487E+000  +1.4788289435E-001 +8.5027217198E+000  +4.9809881056E-001 +4.3880562790E+000 
8769162.703 +5.0080083048E-001 +8.8313274597E+000  +1.4256105134E-001 -4.2472857831E+000  +1.4286168619E-001 +8.9659768958E+000  +5.0045805448E-001 +3.7751414380E+000 
8894307.885 +4.7628399503E-001 +1.5690144449E+001  +1.4288848575E-001 -3.9158958885E+000  +1.4215042328E-001 +9.3306424921E+000  +4.7705404054E-001 +9.4953835779E+000 
9019453.066 +4.5296452488E-001 +1.1364654692E+001  +1.4015189925E-001 -2.9396733362E+000  +1.3879334150E-001 +9.1948145517E+000  +4.5982432237E-001 +3.2673647051E+000 
9144598.248 +4.0318500133E-001 +5.5169206279E+000  +1.4305657444E-001 -4.7341013556E+000  +1.4213603365E-001 +1.0103903136E+001  +5.1361397833E-001 +5.0215682258E+000 
9269743.429 +4.0396114273E-001 +2.7334693230E+000  +1.4064101528E-001 -5.7521409402E+000  +1.4135041249E-001 +1.0763153580E+001  +4.6821595514E-001 +1.5724722907E+000 
9394888.611 +4.6609348853E-001 +5.3331988099E+000  +1.4371997830E-001 -3.8541045962E+000  +1.3899591493E-001 +1.1851311940E+001  +4.5440738121E-001 +3.2476633821E+000 
9520033.792 +3.9488185651E-001 +6.0098094605E+000  +1.3950875519E-001 -4.2534304606E+000  +1.3597971794E-001 +1.0504994194E+001  +4.4230745784E-001 +2.2702008823E+000 
9645178.974 +4.1765890930E-001 +2.1317118588E+000  +1.4562091610E-001 -4.5680143515E+000  +1.4364114409E-001 +1.0199163561E+001  +4.4801398412E-001 -3.9109603263E+000 
9770324.155 +3.6223930159E-001 +2.7309181783E+000  +1.4548122318E-001 -4.9447608766E+000  +1.4445647235E-001 +1.0384715749E+001  +4.6164981157E-001 -2.7425318139E+000 
9895469.337 +3.9356514578E-001 +2.3214379416E+000  +1.4412271176E-001 -4.9553435521E+000  +1.4462213324E-001 +9.8707270806E+000  +4.0516112373E-001 -6.0013226930E+000 
10020614.518 +3.9940650854E-001 +6.0114308371E+000  +1.4314283468E-001 -3.0847483497E+000  +1.4238993686E-001 +1.1997073427E+001  +4.1429157554E-001 -3.7950221306E+000 
10145759.700 +4.2760110423E-001 +1.1366104214E+001  +1.4713641343E-001 -4.1882007437E+000  +1.3944128808E-001 +1.3021621065E+001  +4.1451657430E-001 -3.8426563943E+000 
10270904.881 +3.9872379003E-001 +1.4882177715E+001  +1.4355149030E-001 -3.7425549982E+000  +1.4208021233E-001 +1.1695241116E+001  +4.4120469326E-001 +8.7158558578E-001 
10396050.063 +4.2810689110E-001 +7.6728712721E+000  +1.4630268862E-001 -2.5444864553E+000  +1.4048900119E-001 +1.3692216533E+001  +4.6010041042E-001 +3.6849824298E+000 
10521195.244 +4.1962104309E-001 +1.2941032926E+001  +1.4668538886E-001 -3.0134381866E+000  +1.4484623960E-001 +1.3667502860E+001  +4.3169996146E-001 +4.3119796317E+000 
10646340.426 +4.0975622751E-001 +1.3056380667E+001  +1.4517282221E-001 -2.4785503463E+000  +1.4691406495E-001 +1.2684746563E+001  +4.3874694134E-001 +2.6467862439E+000 
10771485.607 +4.1681708303E-001 +1.0413994162E+001  +1.4616471493E-001 -1.9257539561E+000  +1.4286608615E-001 +1.3323437704E+001  +4.5085203194E-001 +4.1722436721E+000 
10896630.788 +4.4599962918E-001 +1.0656570870E+001  +1.4783606872E-001 -2.1580698960E+000  +1.4951582510E-001 +1.3082460127E+001  +4.6684935130E-001 +5.8857912515E+000 
11021775.970 +4.3834172233E-001 +1.3910107235E+001  +1.4686169684E-001 -1.1991995397E+000  +1.4534989740E-001 +1.2428571463E+001  +4.5555571763E-001 +5.5667063723E+000 
11146921.151 +4.5466384800E-001 +1.0089755584E+001  +1.5124417222E-001 -1.0834364045E+000  +1.5194076267E-001 +1.2300831517E+001  +4.7232973270E-001 +4.1018446855E+000 
11272066.333 +4.5852041540E-001 +1.3303165028E+001  +1.5267023474E-001 -1.2945452048E+000  +1.5028897330E-001 +1.1653470212E+001  +4.8018246585E-001 +4.3060695446E+000 
11397211.514 +4.6630281877E-001 +8.1097951668E+000  +1.5466447862E-001 -9.2529461761E-001  +1.5511375349E-001 +1.2426723847E+001  +4.6858115613E-001 +1.6323514768E+000 
11522356.696 +4.4556067414E-001 +1.2976367973E+001  +1.5467009778E-001 -2.6918764132E-001  +1.5152878448E-001 +1.1060864357E+001  +4.8401059215E-001 +4.9065854312E+000 
11647501.877 +4.9460552794E-001 +9.9649855084E+000  +1.5765850975E-001 -4.8463764669E-001  +1.5604667787E-001 +1.1817221562E+001  +4.6803331992E-001 -3.5461295992E+000 
11772647.059 +4.7016306386E-001 +5.7025210030E+000  +1.5965074328E-001 +3.3316536522E-003  +1.5711477773E-001 +1.0992110016E+001  +5.1067541772E-001 +3.9853315998E+000 
11897792.240 +4.7588447270E-001 +7.6297754204E+000  +1.6125545598E-001 +1.5857639736E+000  +1.5933095734E-001 +1.0457228323E+001  +5.2826989520E-001 +2.9900825728E+000 
12022937.422 +5.2176407822E-001 +6.6511399945E+000  +1.6296703060E-001 +2.1618878835E+000  +1.6198799459E-001 +1.0819054138E+001  +5.2983125227E-001 -1.3114257374E+000 
12148082.603 +5.6303856367E-001 +7.9016725723E+000  +1.6494686473E-001 +1.2812833263E+000  +1.6321344621E-001 +1.0867461366E+001  +5.4477075378E-001 +2.8035930374E+000 
12273227.785 +5.4039367254E-001 +7.2969129006E+000  +1.6440009856E-001 +2.1496158670E+000  +1.6333623988E-001 +1.0461303795E+001  +5.6731575689E-001 +1.3795933408E+000 
12398372.966 +5.7777426626E-001 +5.9573804038E+000  +1.6881062196E-001 +3.1697748546E+000  +1.6506630788E-001 +9.5244552531E+000  +5.7553204972E-001 +1.7009196907E+000 
12523518.148 +5.6123671587E-001 +4.0962576648E+000  +1.6829380774E-001 +1.6964586983E+000  +1.6646160280E-001 +8.8562032385E+000  +5.6827061480E-001 +2.8384351219E+000 
12648663.329 +5.6399033667E-001 +7.1622426200E+000  +1.6932997243E-001 +2.0402965675E+000  +1.6681960190E-001 +8.3211889395E+000  +5.9387575801E-001 +5.8586315097E-001 
12773808.511 +5.9471640803E-001 +4.1019731228E+000  +1.7179127419E-001 +1.8708389988E+000  +1.7055555557E-001 +8.1251312519E+000  +5.8812835001E-001 +6.4455912509E-001 
12898953.692 +6.1997563097E-001 +3.8139483293E+000  +1.7505148197E-001 +2.5669827708E+000  +1.7226728462E-001 +8.0568202750E+000  +6.0469612339E-001 -9.5067238243E-001 
13024098.874 +6.3339698671E-001 +1.0499060961E+000  +1.7469095838E-001 +2.9887144812E+000  +1.7525567152E-001 +7.5635263852E+000  +6.4391918584E-001 -1.4171331509E+000 
13149244.055 +6.4046096015E-001 +3.1105490275E+000  +1.7677539107E-001 +2.4223447526E+000  +1.7474465396E-001 +7.7243556643E+000  +6.4150861515E-001 +7.4450290299E-001 
13274389.237 +6.3417555346E-001 -1.3936339952E+000  +1.7926092574E-001 +2.1070931270E+000  +1.7717363034E-001 +6.3504882465E+000  +6.5519807634E-001 +8.1448583740E-001 
13399534.418 +6.8242889963E-001 +2.4582486027E-002  +1.8171585853E-001 +2.5720086644E+000  +1.7792684756E-001 +5.8962068512E+000  +6.6557208593E-001 -1.8181521626E+000 
13524679.599 +6.8054662622E-001 -3.4229099428E+000  +1.8412469953E-001 +2.6579631850E+000  +1.8159874060E-001 +5.8206183049E+000  +7.0728162242E-001 -2.2539480345E+000 
13649824.781 +6.8127945049E-001 -1.1407854549E+000  +1.8212001692E-001 +2.4422578901E+000  +1.8044649371E-001 +4.8346089791E+000  +6.9814699292E-001 -2.2068026764E+000 
13774969.962 +7.2785925595E-001 -2.5434407924E+000  +1.8600269880E-001 +2.3602771517E+000  +1.8430552844E-001 +4.3186715802E+000  +6.9359398276E-001 -3.8523651011E+000 
13900115.144 +7.1867948442E-001 -2.3782868956E+000  +1.8474577354E-001 +1.8718765052E+000  +1.8297699847E-001 +3.5945680008E+000  +7.1280523427E-001 -1.6156736264E+000 
14025260.325 +7.3966456004E-001 -4.0197512240E+000  +1.8834061613E-001 +1.9331933087E+000  +1.8633323362E-001 +3.3527262927E+000  +7.4401184387E-001 -3.6101580063E+000 
14150405.507 +7.4522271517E-001 -5.2961972792E+000  +1.8916081136E-001 +2.1000674426E+000  +1.8625764793E-001 +3.4627857379E+000  +7.9036935621E-001 -3.5958989726E+000 
14275550.688 +7.7373715368E-001 -4.2951781910E+000  +1.8981022511E-001 +1.5105487439E+000  +1.8740595581E-001 +2.5581939789E+000  +7.7603529758E-001 -3.8755171262E+000 
14400695.870 +7.8589078474E-001 -6.0158727737E+000  +1.9249306916E-001 +1.2544785844E+000  +1.8725490630E-001 +2.0389307528E+000  +7.9816328703E-001 -5.7435694878E+000 
