!  2-Port S-parameters saved by WinCal
! VAR MeasName=S-Parameters (CALIBRATED_DATA) read from VNA (P5004A)
! VAR MeasDate=28/08/2024 16:54:12
! VAR NAME=S2_r9c9_SET1_9k-100M_3
! VAR FILENAME=S2_r9c9_SET1_9k-100M_3.S2P
! VAR DATE=28/08/2024 16:54:13
! VAR PHYS_PORTS=1,2
! VAR ObjTypeName=DATASET
! VAR IndexType=Frequency
!
# Hz S MA R 50
9000.000 +8.7135922876E-002 -1.7578638209E+002  +4.4479698922E-003 +1.5894567457E+002  +9.1578569247E-003 -1.4104497852E+002  +2.9432129054E-001 -1.4803519825E+002 
134145.181 +1.1154165626E-001 +1.6923696011E+002  +1.5929044818E-004 -3.8936958354E+001  +7.3799374427E-004 +1.3621026341E+002  +2.4109974630E-001 -1.7158214898E+002 
259290.363 +1.1173994567E-001 +1.6999876388E+002  +6.7106204611E-004 -8.4473512619E+001  +8.0789353918E-004 +9.3856805567E+001  +2.3823496074E-001 -1.6952913617E+002 
384435.544 +1.1373839234E-001 +1.7080031509E+002  +8.6651384858E-004 -7.3360899889E+001  +1.3609131555E-003 +1.7797270748E+002  +2.4625935670E-001 -1.6990104089E+002 
509580.726 +1.1534802707E-001 +1.7050320181E+002  +1.1861499934E-003 -7.1101680040E+001  +6.9731436802E-004 +4.7667824061E+001  +2.3354582462E-001 -1.6626586021E+002 
634725.907 +1.1737360382E-001 +1.7089842847E+002  +1.2908542082E-003 -7.2102809982E+001  +1.3339142643E-003 +7.3087376836E+001  +2.4796791566E-001 -1.6665930829E+002 
759871.089 +1.1952211927E-001 +1.7094092634E+002  +9.7058337032E-004 -5.3889180029E+001  +7.4287827591E-004 +1.4937090423E+002  +2.4331865599E-001 -1.6661423528E+002 
885016.270 +1.2051466677E-001 +1.6917429440E+002  +3.1893009401E-004 -7.7741255646E+001  +8.7648060360E-004 +1.0283275424E+002  +2.4616589162E-001 -1.6712538681E+002 
1010161.452 +1.1758731550E-001 +1.6905957872E+002  +9.3185756467E-004 +1.8563661974E+001  +1.5400324340E-003 +1.7672127598E+002  +2.1397562260E-001 -1.6846449964E+002 
1135306.633 +1.1415150035E-001 +1.6883907434E+002  +3.5465682796E-003 -1.2616493877E+000  +3.7141404710E-003 -1.4487235146E+002  +1.8150107990E-001 -1.6974210692E+002 
1260451.815 +1.2125122146E-001 +1.7127670312E+002  +2.6698591722E-003 -6.8926931086E+001  +2.6603548172E-003 +1.3991231208E+002  +2.2905907351E-001 -1.6156972758E+002 
1385596.996 +1.2659940076E-001 +1.7337292591E+002  +2.4935195249E-003 -8.5298523301E+001  +4.5906070398E-003 +8.8105504940E+001  +2.6880372178E-001 -1.5611653255E+002 
1510742.178 +1.2781468270E-001 +1.7179022709E+002  +2.0597375824E-003 -4.2233253652E+001  +1.0935308403E-003 +1.4801255778E+002  +2.5304675043E-001 -1.6124550380E+002 
1635887.359 +1.3016991698E-001 +1.7094057046E+002  +1.7723989328E-003 -5.0744911427E+000  +1.5044439156E-003 +1.7031515023E+002  +2.4121181355E-001 -1.6067866314E+002 
1761032.541 +1.2954604587E-001 +1.6947794918E+002  +1.1059374791E-003 -4.4675587285E+000  +2.3619079780E-003 -1.2471526813E+002  +2.4542212603E-001 -1.6029300484E+002 
1886177.722 +1.2883858485E-001 +1.7113921237E+002  +9.5952900124E-003 +9.6145039164E+000  +9.4308904484E-003 -1.1927586485E+002  +2.2031657912E-001 -1.4207065411E+002 
2011322.904 +1.3068846338E-001 +1.6747244526E+002  +8.6218442253E-003 +5.3000880868E+001  +8.9682762406E-003 -9.2616770768E+001  +2.0421793358E-001 -1.5535992383E+002 
2136468.085 +1.3304792452E-001 +1.6753219877E+002  +8.8190005047E-003 +7.7391693572E+001  +7.3209278157E-003 -6.0466414011E+001  +2.2199585934E-001 -1.6817340644E+002 
2261613.267 +1.3547967362E-001 +1.6769121877E+002  +1.4133046701E-002 +7.5317529585E+001  +1.2826646575E-002 -5.7479468245E+001  +1.8712807383E-001 -1.6639313228E+002 
2386758.448 +1.3705075206E-001 +1.6666479418E+002  +1.8963678309E-002 +5.6131521102E+001  +2.0073425860E-002 -5.7778076492E+001  +1.5949879139E-001 -1.5584263740E+002 
2511903.630 +1.2577390300E-001 +1.6620885667E+002  +2.0715869650E-002 +6.9628307561E+001  +2.3671675692E-002 -4.7243039279E+001  +2.0874644907E-001 -1.7300597433E+002 
2637048.811 +1.2532569272E-001 +1.6563401665E+002  +3.4964915572E-002 +6.1624256127E+001  +3.6620305738E-002 -4.0507430025E+001  +1.6406417738E-001 -1.7588697942E+002 
2762193.992 +1.2709653281E-001 -1.7052568948E+002  +1.9043079882E-001 +1.5142379265E+001  +2.2243855866E-001 -8.9257041795E+001  +6.3379982010E-001 +3.9992323605E+000 
2887339.174 +1.3456505487E-001 +1.7440559671E+002  +4.1419082951E-002 -2.6507977523E+001  +3.2994682968E-002 -1.3203515165E+002  +2.5972672226E-001 -1.3063499510E+002 
3012484.355 +1.2720822417E-001 +1.7614859855E+002  +3.8366797001E-002 -1.5723514937E+001  +4.6995695062E-002 -1.1013828967E+002  +2.1150965885E-001 -1.3418839649E+002 
3137629.537 +1.3323683430E-001 +1.7210558880E+002  +4.4510368975E-002 +5.1154023946E-001  +4.6988283688E-002 -9.7546028569E+001  +2.0184734851E-001 -1.2087568115E+002 
3262774.718 +1.3249824844E-001 +1.7215594342E+002  +9.1423244210E-002 -1.0864095669E+001  +9.8729109621E-002 -9.6118232799E+001  +3.0357443998E-001 -7.7987250526E+001 
3387919.900 +1.2905356715E-001 +1.7370414276E+002  +5.4818281634E-002 +4.2200967362E+001  +5.5786535889E-002 -4.2365404241E+001  +1.7750259547E-001 +1.6356674981E+002 
3513065.081 +1.5417259387E-001 +1.5248456370E+002  +8.4766402427E-002 +1.1657760260E+002  +7.6992391705E-002 +2.9030338627E+001  +4.5489856638E-001 +1.4461471845E+002 
3638210.263 +1.6385165789E-001 +1.5494777972E+002  +8.1769847100E-002 +1.0848617653E+002  +7.1875379694E-002 +2.5135456409E+001  +4.2053567636E-001 +1.4018532629E+002 
3763355.444 +1.7503294487E-001 +1.5818726461E+002  +4.4329324122E-002 +7.0668975763E+001  +4.6768608341E-002 -1.2558849709E+001  +1.6586059895E-001 +1.6996632817E+002 
3888500.626 +1.8296477312E-001 +1.5832613605E+002  +6.8635514971E-002 +8.2337403156E+001  +6.3628525145E-002 +6.4362891653E+000  +2.5179616454E-001 +1.2774656798E+002 
4013645.807 +1.6394788524E-001 +1.4984255232E+002  +1.0321960423E-001 +8.8089785037E+001  +9.0310517323E-002 +2.1634849165E+001  +3.6798430565E-001 +1.3453863000E+002 
4138790.989 +1.8771602140E-001 +1.5458853892E+002  +6.6397179489E-002 +8.6847789586E+001  +6.6583485071E-002 +1.6697234313E+001  +2.7568975321E-001 +1.4801626403E+002 
4263936.170 +1.9518748608E-001 +1.4864953386E+002  +7.1697340865E-002 +9.8637198197E+001  +7.2683743570E-002 +3.4535227179E+001  +3.7492381723E-001 +1.5634589584E+002 
4389081.352 +2.0014365720E-001 +1.5067756253E+002  +9.1327748056E-002 +9.5097160199E+001  +7.8490300804E-002 +3.5710207071E+001  +4.1788688666E-001 +1.4400270011E+002 
4514226.533 +2.4194919633E-001 +1.4894848618E+002  +1.1430443711E-001 +1.3356604660E+002  +1.0808420515E-001 +7.7235440602E+001  +7.5564261863E-001 +1.4712179330E+002 
4639371.715 +2.6604645183E-001 +1.3716449770E+002  +2.2827777173E-001 +1.1021603673E+002  +2.3041949389E-001 +5.5533270909E+001  +8.8866583010E-001 +1.0780348806E+002 
4764516.896 +3.3256573113E-001 +1.1666207957E+002  +3.7443181617E-001 +1.2705107594E+002  +3.6708933729E-001 +7.4916074751E+001  +1.1662308506E+000 +1.3050974013E+002 
4889662.078 +3.7440855252E-001 +1.2473770002E+002  +5.5799639718E-001 +1.1937181689E+002  +5.2587723748E-001 +6.9379579383E+001  +1.9965637570E+000 +1.0339678862E+002 
5014807.259 +3.6134752677E-001 +1.1825824273E+002  +5.0509092407E-001 +1.0188335611E+002  +4.7212730101E-001 +5.8892523983E+001  +1.5836417250E+000 +9.5014129096E+001 
5139952.441 +3.0067305096E-001 +1.3343036258E+002  +1.9308286353E-001 +1.1560563363E+002  +1.9577796736E-001 +7.7809286945E+001  +8.9654635266E-001 +1.4118639475E+002 
5265097.622 +3.6169975817E-001 +1.3243409290E+002  +2.3358959715E-001 +1.0095836412E+002  +2.1955636109E-001 +5.7619280923E+001  +6.9904503547E-001 +1.0506085968E+002 
5390242.804 +2.7261393746E-001 +1.3134123659E+002  +2.1497629152E-001 +7.3546156609E+001  +2.1195307456E-001 +4.1787334340E+001  +6.6427120305E-001 +1.0419114149E+002 
5515387.985 +3.5051495455E-001 +1.3743087085E+002  +1.8202392428E-001 +9.5453875197E+001  +1.7981988946E-001 +6.0834718008E+001  +7.9199253978E-001 +1.2118728413E+002 
5640533.166 +4.0560840482E-001 +1.2423253096E+002  +3.1959357950E-001 +1.0129099490E+002  +3.2534613270E-001 +6.8826955509E+001  +1.2930949627E+000 +1.1515932111E+002 
5765678.348 +3.7242655972E-001 +1.3764141378E+002  +2.1135764881E-001 +8.4551552360E+001  +2.0887512347E-001 +5.5373404965E+001  +9.5014642139E-001 +1.0948158506E+002 
5890823.529 +4.2238644981E-001 +1.3036380163E+002  +2.4679950266E-001 +8.4327111665E+001  +2.3727888392E-001 +5.9237243216E+001  +1.0044372098E+000 +1.1001554759E+002 
6015968.711 +4.8186784227E-001 +1.0534612415E+002  +5.0828502073E-001 +5.9556529652E+001  +4.9255346191E-001 +3.5498850489E+001  +1.4269877133E+000 +5.7610236341E+001 
6141113.892 +4.6845617468E-001 +1.1518433888E+002  +3.5838705408E-001 +6.0691673135E+001  +3.5935331991E-001 +4.0964302036E+001  +1.0583958383E+000 +7.5289129755E+001 
6266259.074 +6.0560485890E-001 +1.0060733867E+002  +5.4062327819E-001 +6.3158210679E+001  +5.4402454099E-001 +4.4593163807E+001  +1.7043587201E+000 +6.8235725392E+001 
6391404.255 +5.4926932801E-001 +9.4238241123E+001  +5.0162788779E-001 +4.2770391754E+001  +4.8695927983E-001 +2.5334458222E+001  +1.3559388593E+000 +4.8244799313E+001 
6516549.437 +9.1783161970E-001 +5.9995087616E+001  +7.2525218315E-001 +3.5200500094E+001  +7.2695980976E-001 +2.0254572522E+001  +1.3476968151E+000 +4.2217006477E+001 
6641694.618 +8.2045568948E-001 +8.0665247216E+001  +5.3966667569E-001 +3.1023941259E+001  +5.2156320599E-001 +2.0596599604E+001  +1.2325469122E+000 +2.1269779838E+001 
6766839.800 +6.8087854445E-001 +5.2653015815E+001  +5.1423642946E-001 +1.0847978118E+001  +5.0917164458E-001 +2.9335839029E+000  +1.0992297651E+000 +8.6276759165E+000 
6891984.981 +8.1033346863E-001 +3.7208736511E+001  +5.2578050540E-001 +9.2755967474E+000  +5.3149386867E-001 +5.0140129914E-001  +9.5302517127E-001 +8.8657735871E+000 
7017130.163 +8.3629885827E-001 +2.8987741760E+001  +4.6903771237E-001 +4.3977868735E+000  +4.8160803076E-001 +1.7446607589E-001  +9.2796568858E-001 -1.1809275043E+000 
7142275.344 +9.7712159754E-001 +8.3412121174E+000  +4.6609476717E-001 +1.0867511525E+000  +4.6626096436E-001 -1.7992886218E+000  +8.5101454522E-001 +3.2938507495E+000 
7267420.526 +9.1371815462E-001 +2.5572194630E+000  +4.1670748807E-001 +1.4221534021E-001  +4.2317616836E-001 -1.1766115120E+000  +1.0665163266E+000 -6.8770031499E+000 
7392565.707 +9.7362171500E-001 +1.4915793770E+000  +3.7144372567E-001 +5.0437740724E+000  +3.6871488225E-001 +2.7717920395E+000  +8.5180647246E-001 -1.1961233225E+001 
7517710.889 +6.7539041406E-001 +8.4067412004E+000  +3.2588117969E-001 +4.4602673113E+000  +3.3151772144E-001 +5.5611743995E+000  +8.7354341314E-001 -3.7833087361E+000 
7642856.070 +6.0802880866E-001 +2.0899487406E+000  +3.1985913536E-001 +2.3543166406E-001  +3.1498239549E-001 +2.3138566219E+000  +6.9434833766E-001 +3.3687056926E+000 
7768001.252 +5.9131139364E-001 +1.8632392017E+001  +2.9856921742E-001 +6.4688044273E-001  +3.0629736241E-001 +4.2943344931E+000  +5.7156586917E-001 +1.0522325698E+000 
7893146.433 +5.0333342431E-001 +1.4280219042E+001  +2.8974397220E-001 -1.5893851549E+000  +2.9192608585E-001 +5.3579197581E+000  +6.0852931193E-001 +2.7455976350E+000 
8018291.615 +4.7701112605E-001 +2.6503063426E+001  +2.7789215989E-001 -3.1344351980E+000  +2.7777805132E-001 +5.9034293707E+000  +5.2293622294E-001 +3.4646033075E+000 
8143436.796 +4.6628301808E-001 +1.7973398170E+001  +2.8303579733E-001 -1.5827592427E+000  +2.7679494992E-001 +6.9851140684E+000  +5.0152681471E-001 +1.3211255920E+000 
8268581.977 +4.1465394827E-001 +3.0992516425E+001  +2.6780357594E-001 -2.8948315164E+000  +2.6447633847E-001 +8.3059224529E+000  +5.6072069566E-001 +7.4903907342E+000 
8393727.159 +4.3666836119E-001 +2.3611037363E+001  +2.6375319348E-001 -3.2820154894E+000  +2.6292073774E-001 +7.9904466507E+000  +4.5218783127E-001 +7.2163399412E+000 
8518872.340 +4.7113000440E-001 +1.3771268027E+001  +2.6207701016E-001 -2.7288842562E+000  +2.6252904507E-001 +9.3837375664E+000  +4.6952094002E-001 +7.5207971795E+000 
8644017.522 +4.0996592187E-001 +1.8329541055E+001  +2.6254285470E-001 -4.7137518081E+000  +2.6163284968E-001 +7.7920368815E+000  +4.0533093444E-001 +4.2416360270E+000 
8769162.703 +3.9896630054E-001 +1.1729122520E+001  +2.6284565418E-001 -5.3207784460E+000  +2.6364924593E-001 +8.1428182934E+000  +3.6020280949E-001 +5.7775278308E+000 
8894307.885 +3.3075528191E-001 +2.2107133098E+001  +2.5386468564E-001 -6.6868412604E+000  +2.5476984320E-001 +8.2198478125E+000  +3.4768561510E-001 +1.5957338649E+000 
9019453.066 +2.8172802937E-001 +1.5659199749E+001  +2.5650366492E-001 -5.2075952072E+000  +2.5575768024E-001 +8.9271298950E+000  +4.1827624366E-001 +7.8067204761E+000 
9144598.248 +2.9569315335E-001 +2.9873760715E+001  +2.4779433966E-001 -5.9525505070E+000  +2.4609073325E-001 +8.8154029374E+000  +3.0520356001E-001 +9.6404907809E+000 
9269743.429 +3.1778766605E-001 +1.5449642611E+001  +2.5111498378E-001 -5.0381697400E+000  +2.5081780901E-001 +8.5627363652E+000  +3.7945155839E-001 +1.4203633712E+001 
9394888.611 +3.2961021046E-001 +2.0325626831E+001  +2.4872871794E-001 -6.3093637001E+000  +2.4696645588E-001 +9.7982549225E+000  +3.2050442659E-001 +1.6530441130E+001 
9520033.792 +2.4569867548E-001 +1.3551196163E+001  +2.5341623919E-001 -7.2616916667E+000  +2.5365628491E-001 +9.8085951018E+000  +3.3435999050E-001 +7.2599893443E+000 
9645178.974 +3.0958588277E-001 +2.0747748873E+001  +2.5407276424E-001 -5.1704543703E+000  +2.5051774289E-001 +1.0663044740E+001  +3.2371756866E-001 +3.2806722561E+000 
9770324.155 +2.6333484699E-001 +1.5755893732E+001  +2.5411802278E-001 -5.4120348068E+000  +2.4951424569E-001 +1.0137049416E+001  +2.9220120233E-001 +3.0349078082E+000 
9895469.337 +2.7036100264E-001 +6.3261231132E+000  +2.5581329205E-001 -6.0069866044E+000  +2.5542204614E-001 +1.0038191222E+001  +3.0257198626E-001 +2.5343195592E+000 
10020614.518 +2.9365781510E-001 +1.2450589418E+001  +2.5502133811E-001 -4.5850899667E+000  +2.5442934064E-001 +1.0630825754E+001  +2.8942087574E-001 +5.7847335032E+000 
10145759.700 +3.0953019170E-001 +8.8366847859E+000  +2.5960479883E-001 -4.1134560113E+000  +2.5404951500E-001 +1.1434787575E+001  +3.3551041198E-001 +3.8985208589E+000 
10270904.881 +3.0534025012E-001 +1.7272797574E+001  +2.5478987592E-001 -4.9098210662E+000  +2.5560984916E-001 +1.1347673369E+001  +2.9767376103E-001 +3.4220676078E+000 
10396050.063 +2.8204347194E-001 +1.7525201093E+001  +2.5596958375E-001 -4.6318356355E+000  +2.5300361205E-001 +1.0720290160E+001  +3.0683362930E-001 +1.0389979859E+001 
10521195.244 +3.0392702462E-001 +1.8641784935E+001  +2.5615001816E-001 -3.7465206217E+000  +2.5530502295E-001 +1.1448346934E+001  +3.1864978786E-001 +1.2096203247E+001 
10646340.426 +2.8347936076E-001 +1.3988995805E+001  +2.6028473612E-001 -3.8106903413E+000  +2.6013413200E-001 +1.0776946491E+001  +3.2466152597E-001 +1.0046545296E+001 
10771485.607 +3.2666746484E-001 +2.1486152288E+001  +2.5992212770E-001 -2.7480161304E+000  +2.5575819887E-001 +1.1574556780E+001  +3.4015228364E-001 +1.4482808726E+001 
10896630.788 +3.2889293744E-001 +1.5448727244E+001  +2.6341897612E-001 -2.6897792319E+000  +2.5958391607E-001 +1.1944006893E+001  +3.2563459509E-001 +1.2806760337E+001 
11021775.970 +3.3250986138E-001 +1.9348893445E+001  +2.6562475748E-001 -2.2439906872E+000  +2.6228150329E-001 +1.1329239407E+001  +3.4525517406E-001 +5.5446580855E+000 
11146921.151 +3.3425510404E-001 +1.5141872767E+001  +2.6711213620E-001 -2.9375209456E+000  +2.6621369819E-001 +1.0659873400E+001  +3.3589832486E-001 +1.3998324526E+001 
11272066.333 +3.2932127680E-001 +2.0842562782E+001  +2.6570723011E-001 -1.9530470959E+000  +2.6496420441E-001 +1.0779731978E+001  +3.4563175887E-001 +1.2698242071E+001 
11397211.514 +3.6068693526E-001 +1.8533120035E+001  +2.7024542943E-001 -1.5481148512E+000  +2.6465967697E-001 +1.0457581145E+001  +3.5715443701E-001 +1.5311036115E+001 
11522356.696 +3.6545578337E-001 +1.2717238067E+001  +2.7594484895E-001 -9.1654716815E-001  +2.7150761091E-001 +1.0351920295E+001  +3.8413299205E-001 +1.4907075810E+001 
11647501.877 +3.5475701352E-001 +1.3080503076E+001  +2.7828178963E-001 -9.8556053423E-001  +2.7278855685E-001 +1.0665705512E+001  +3.9821164623E-001 +1.4262732651E+001 
11772647.059 +3.7657115114E-001 +1.4338744968E+001  +2.8090798044E-001 -5.8286953445E-001  +2.7609930277E-001 +1.0118576683E+001  +3.8691211231E-001 +1.0522813824E+001 
11897792.240 +3.6377252604E-001 +1.8077210545E+001  +2.8112590597E-001 -8.9859407063E-001  +2.8045033217E-001 +9.5234807626E+000  +3.9441988448E-001 +5.1640084519E+000 
12022937.422 +3.8483845582E-001 +1.1701229751E+001  +2.8589618868E-001 +1.2327473322E-002  +2.8289705627E-001 +9.3430252090E+000  +3.9607987090E-001 +7.5670572152E+000 
12148082.603 +3.7392739362E-001 +9.6737797075E+000  +2.9012822079E-001 -1.0598599852E-001  +2.8716335484E-001 +8.4319222050E+000  +3.8839304641E-001 +5.4861254200E+000 
12273227.785 +3.9905019510E-001 +1.0193530924E+001  +2.9221407276E-001 -3.3061136359E-001  +2.8894914896E-001 +8.4910237883E+000  +3.8646719846E-001 +4.6933636216E+000 
12398372.966 +4.2853917110E-001 +9.1509691521E+000  +2.9421676798E-001 +7.7646952262E-001  +2.9079558894E-001 +8.1726420762E+000  +4.1568011616E-001 +6.8239910670E+000 
12523518.148 +4.3768956603E-001 +6.1178686927E+000  +3.0032363401E-001 +1.2080798863E+000  +2.9540957631E-001 +8.2892223756E+000  +4.4868168822E-001 +6.0506822544E+000 
12648663.329 +4.3341260076E-001 +5.3958821155E+000  +3.0189534493E-001 +1.0025846618E+000  +2.9666823337E-001 +7.5958583982E+000  +4.5121291558E-001 +7.3913824853E+000 
12773808.511 +4.3744541340E-001 +7.4989850835E+000  +3.0252127401E-001 +9.4871107746E-001  +3.0054212937E-001 +6.9143011109E+000  +4.4866912171E-001 +6.3008912777E+000 
12898953.692 +4.2867012196E-001 +3.5315561664E+000  +3.0775777506E-001 +8.5632787457E-001  +3.0268494724E-001 +6.5643933101E+000  +4.6505741616E-001 +3.6973941809E+000 
13024098.874 +4.7485315864E-001 +3.1635278559E+000  +3.1196548164E-001 +1.1796432987E+000  +3.1027748807E-001 +6.1862509130E+000  +4.7160864591E-001 +3.5494841552E+000 
13149244.055 +5.1973577469E-001 +2.8966874241E+000  +3.1596809347E-001 +1.7669025813E+000  +3.1078621486E-001 +5.9372201096E+000  +4.7870299702E-001 +2.2588388120E+000 
13274389.237 +4.7938100150E-001 +2.7879800557E+000  +3.1766653204E-001 +1.0130395155E+000  +3.1503699373E-001 +5.1325130224E+000  +4.8822765476E-001 -9.5647905279E-001 
13399534.418 +5.0423532718E-001 +3.6594584122E+000  +3.1725149388E-001 +1.7620599610E+000  +3.1521349040E-001 +5.0384303830E+000  +5.4495215966E-001 +3.8656917674E-001 
13524679.599 +5.1853843281E-001 +7.2854741018E-001  +3.2449726178E-001 +1.6088542515E+000  +3.2127659185E-001 +4.4510031308E+000  +5.2050078589E-001 -2.9976737009E+000 
13649824.781 +5.3453764171E-001 -1.2111239527E+000  +3.2648400697E-001 +1.8732367714E+000  +3.1972448259E-001 +4.5431560069E+000  +5.6549050509E-001 +9.0991051152E-001 
13774969.962 +5.5440772908E-001 +1.1648527515E-001  +3.2675785950E-001 +1.8269525661E+000  +3.2252522283E-001 +3.8382973140E+000  +5.5187463112E-001 +1.0813341384E+000 
13900115.144 +5.6387085968E-001 +5.0138207717E-001  +3.2927949982E-001 +1.7415452382E+000  +3.2582730858E-001 +3.3557410989E+000  +5.7498079942E-001 -1.3481001739E+000 
14025260.325 +5.8191350216E-001 -3.2382375100E+000  +3.3607023353E-001 +1.7555262020E+000  +3.3096658934E-001 +2.8970279766E+000  +5.9109418589E-001 -3.3566013562E+000 
14150405.507 +5.9887091722E-001 -5.2118591450E+000  +3.3905472827E-001 +1.2747924786E+000  +3.3290010530E-001 +2.6343651623E+000  +5.9908089018E-001 -2.9649483056E+000 
14275550.688 +6.2402837754E-001 -3.9096863059E+000  +3.3900840565E-001 +1.5567455239E+000  +3.3514973643E-001 +2.1257477273E+000  +6.1630517811E-001 -2.9609568145E+000 
14400695.870 +6.4906409073E-001 -3.5614600078E+000  +3.4010454779E-001 +1.7628182626E+000  +3.3510483683E-001 +2.0168317353E+000  +6.4907644459E-001 -3.7203620667E+000 
