!  2-Port S-parameters saved by WinCal
! VAR MeasName=S-Parameters (CALIBRATED_DATA) read from VNA (P5004A)
! VAR MeasDate=29/08/2024 10:55:03
! VAR NAME=S2_r9c2_SET1_9k-100M_2
! VAR FILENAME=S2_r9c2_SET1_9k-100M_2.S2P
! VAR DATE=29/08/2024 10:55:03
! VAR PHYS_PORTS=1,2
! VAR ObjTypeName=DATASET
! VAR IndexType=Frequency
!
# Hz S MA R 50
9000.000 +7.5759661489E-002 -1.6425887452E+002  +9.7877123071E-003 -1.3009400001E+002  +6.2894005882E-003 -1.4627331614E+001  +2.1749895648E-001 -1.3120072817E+002 
134145.181 +1.1083517699E-001 +1.6992561362E+002  +2.8762805547E-004 +3.6101716094E+001  +3.0478750289E-004 -4.4223727567E+001  +2.4402970819E-001 -1.7159266849E+002 
259290.363 +1.1110578491E-001 +1.6983888583E+002  +3.3714022127E-004 +1.5331391030E+002  +7.2439313166E-004 +7.9989637649E+001  +2.4074265736E-001 -1.6982709107E+002 
384435.544 +1.1439220610E-001 +1.6984198218E+002  +1.3097092498E-003 -8.3537079778E+001  +3.3604563546E-004 +1.3312989821E+002  +2.3551891068E-001 -1.6761092001E+002 
509580.726 +1.1297132531E-001 +1.7142387799E+002  +1.3014668254E-003 -1.6167637556E+002  +1.0620446378E-003 +4.4036972120E+001  +2.5449338041E-001 -1.6605356649E+002 
634725.907 +1.1602132611E-001 +1.7172289089E+002  +2.6565070102E-003 -1.1401742779E+002  +1.1645656770E-003 -2.9762949992E+001  +2.4658035268E-001 -1.6132349856E+002 
759871.089 +1.1915182397E-001 +1.7147694040E+002  +7.6184134447E-004 -7.1558996137E+001  +7.7703290411E-004 -1.8489221627E+001  +2.5560233014E-001 -1.6735527710E+002 
885016.270 +1.2035390324E-001 +1.6902114049E+002  +5.2890483946E-004 -7.3668865789E+001  +1.8396476127E-004 -1.4275291896E+002  +2.5000694627E-001 -1.6649955438E+002 
1010161.452 +1.1792949231E-001 +1.7056730719E+002  +1.3324858985E-003 +1.1800429550E+001  +3.5762959813E-004 +1.1773086374E+002  +2.0313708064E-001 -1.7019874491E+002 
1135306.633 +1.1347980937E-001 +1.6805685041E+002  +2.3646194318E-003 -4.9274053274E+000  +2.3064357394E-003 -9.8854562846E+001  +1.7798311229E-001 -1.7363304978E+002 
1260451.815 +1.1893675348E-001 +1.7018413491E+002  +8.2844135286E-004 -7.8702996569E+000  +6.0674484339E-004 +1.3056021453E+002  +2.3026949063E-001 -1.6233459447E+002 
1385596.996 +1.2375225933E-001 +1.7153469522E+002  +2.6644847601E-003 +3.9737309367E+000  +7.8246042923E-004 -1.7976422472E+002  +2.6100442345E-001 -1.5595460420E+002 
1510742.178 +1.2739383247E-001 +1.7114877095E+002  +5.1270152739E-004 -6.8305057190E+001  +7.6685856717E-004 -1.1537573457E+002  +2.8006780098E-001 -1.5808140519E+002 
1635887.359 +1.2933178133E-001 +1.7131066344E+002  +1.0446329301E-003 -3.1194027985E+001  +4.3254068031E-004 +7.0108001526E+001  +2.5294328779E-001 -1.5859471546E+002 
1761032.541 +1.2648418040E-001 +1.6775437448E+002  +7.9248442321E-004 -5.8107792048E+001  +1.6326558243E-004 -1.0951164116E+002  +2.3632008365E-001 -1.6214385273E+002 
1886177.722 +1.3280186773E-001 +1.6620922284E+002  +9.2469977184E-004 +1.6556170130E+002  +1.1762174174E-003 -4.5071221304E+001  +1.7411826339E-001 -1.6847357915E+002 
2011322.904 +1.3402597526E-001 +1.6737189963E+002  +2.7633786802E-003 +7.1302607330E+001  +1.7069763790E-003 -4.8099608933E+001  +1.9361851360E-001 -1.6458971707E+002 
2136468.085 +1.2848121307E-001 +1.6997419331E+002  +2.0287491754E-003 +4.6480750319E+000  +3.5186438480E-003 -4.6746224613E+001  +1.5622350567E-001 -1.7070397230E+002 
2261613.267 +1.2459365556E-001 +1.6556885928E+002  +3.8265233489E-003 +5.7554429962E+001  +1.0033933481E-002 -4.3153469384E+001  +1.4486419318E-001 -1.7872513703E+002 
2386758.448 +1.3602286245E-001 +1.6511183861E+002  +2.8724920997E-003 +8.2728737969E+001  +3.7402652635E-003 -4.2604214936E+001  +1.6618088696E-001 +1.7923173379E+002 
2511903.630 +1.3919425811E-001 +1.6472362503E+002  +2.4228477066E-003 +7.3944404844E+001  +3.2805995211E-003 -6.8865592866E+001  +1.9254688900E-001 -1.7576462603E+002 
2637048.811 +1.1906115098E-001 +1.5845154100E+002  +9.5196055031E-003 +8.2902960907E+001  +1.1610214661E-002 -7.8469495965E+001  +1.9376478443E-001 -1.7484923670E+002 
2762193.992 +1.1709213880E-001 +1.6713699479E+002  +4.4733137274E-002 +3.9374486161E+001  +5.8462685022E-002 -6.9083577931E+001  +2.1931840036E-001 +4.2714936427E+001 
2887339.174 +1.2492202350E-001 +1.7590514510E+002  +1.5980850484E-002 -3.4640459371E+001  +2.2106135792E-002 -1.0724457190E+002  +1.0247226449E-001 -1.0005861867E+002 
3012484.355 +1.1677770449E-001 +1.7686554937E+002  +4.0242125684E-002 -1.2877204469E+001  +5.3167435714E-002 -1.0833782027E+002  +2.1543780755E-001 -4.1580068082E+000 
3137629.537 +9.1411882794E-002 +1.6128666114E+002  +4.6065136537E-002 +2.4738364226E+001  +3.5666686866E-002 -4.6643761307E+001  +6.7373309062E-002 +8.3427597382E+001 
3262774.718 +1.0206654428E-001 +1.4908198956E+002  +2.4961667091E-002 +4.0940359585E+001  +2.8927626204E-002 -6.3900524823E+001  +3.0306967051E-002 -1.6327339419E+002 
3387919.900 +1.2503131174E-001 +1.6175418075E+002  +1.4114501761E-002 +7.2871491317E+000  +1.9534867213E-002 -5.3078360406E+001  +1.0442652824E-001 +1.5147566856E+002 
3513065.081 +1.3161043297E-001 +1.4610608207E+002  +2.5400956001E-002 +8.0896226850E+001  +2.6045752267E-002 -1.4808841431E+001  +2.5603391311E-001 +1.4820686958E+002 
3638210.263 +1.5386202383E-001 +1.5202041520E+002  +1.9531255669E-002 +1.1777754979E+002  +1.6170826206E-002 +1.7871472554E+001  +3.7108326536E-001 +1.5602562067E+002 
3763355.444 +1.7318740559E-001 +1.4897029427E+002  +2.4279479910E-002 +8.2553201561E+001  +3.5113272545E-002 +7.8627568572E+000  +4.3055373814E-001 +8.7230003799E+001 
3888500.626 +2.0009799107E-001 +1.4670576046E+002  +2.7449993776E-002 +1.1848344287E+002  +1.5200054192E-002 +2.8723183817E+001  +3.8280380545E-001 +1.3775817170E+002 
4013645.807 +1.5784699752E-001 +1.5000547629E+002  +2.4454693428E-002 +6.3009116717E+001  +2.4809593721E-002 -1.0104182634E+001  +1.2708908549E-001 +1.0789023397E+002 
4138790.989 +2.1118101404E-001 +1.4921607140E+002  +2.8075471329E-002 +9.2839402416E+001  +1.9096493040E-002 +2.9713495749E+001  +3.5118712577E-001 +1.0677972413E+002 
4263936.170 +1.8107934448E-001 +1.4255718919E+002  +3.6444383574E-002 +6.6594910968E+001  +4.4087182542E-002 +9.9486627713E+000  +5.3142652141E-001 +8.8748585285E+001 
4389081.352 +1.9756833718E-001 +1.4528415294E+002  +4.3066011980E-002 +7.6415157367E+001  +3.5784373369E-002 +1.2524912988E+001  +5.1352543319E-001 +8.5057216001E+001 
4514226.533 +2.2227614846E-001 +1.3274914239E+002  +1.1812416051E-001 +1.0338479539E+002  +6.8008486045E-002 +3.9293795495E+001  +1.1964235419E+000 +1.0250893957E+002 
4639371.715 +2.6478620963E-001 +1.3177364337E+002  +6.3711196864E-002 +6.3832416155E+001  +7.5950517514E-002 +2.7027838516E+001  +9.8260823774E-001 +5.9079246114E+001 
4764516.896 +3.5462602730E-001 +1.3355277334E+002  +7.8908508917E-002 +1.2388409292E+002  +1.0694749730E-001 +7.6443638742E+001  +1.3554370521E+000 +8.9632334322E+001 
4889662.078 +4.2908065753E-001 +1.1597548930E+002  +3.4737187434E-001 +6.8746693998E+001  +3.1810947633E-001 +2.2104731528E+001  +3.3624623385E+000 +3.2851201047E+001 
5014807.259 +3.7887781980E-001 +1.1647152667E+002  +1.8448407335E-001 -1.4632416446E+002  +1.5992344379E-001 +1.7684328317E+002  +2.6729515988E+000 -1.6561079252E+002 
5139952.441 +3.3487401952E-001 +1.3544733562E+002  +9.2606804415E-002 +1.3425926769E+002  +8.8698150367E-002 +9.1526556616E+001  +1.8169026941E+000 +1.1563528362E+002 
5265097.622 +3.4261106697E-001 +1.2877547623E+002  +6.8527636193E-002 +1.0094273238E+002  +5.7857526964E-002 +6.9951754621E+001  +1.2740096219E+000 +1.0898553999E+002 
5390242.804 +3.9829148032E-001 +1.2132963363E+002  +1.0726479609E-001 +9.6333642032E+001  +8.5292196858E-002 +7.2223110584E+001  +1.3365632790E+000 +1.1012777283E+002 
5515387.985 +4.4964827217E-001 +1.2726447349E+002  +9.6191688403E-002 +1.0418948693E+002  +1.1909085382E-001 +7.0996399119E+001  +1.6273287176E+000 +8.9348057077E+001 
5640533.166 +4.7145290457E-001 +1.2391827516E+002  +8.6458190648E-002 +8.9313100324E+001  +9.1223184351E-002 +5.2132045731E+001  +1.2489468866E+000 +8.5565721551E+001 
5765678.348 +5.2007033512E-001 +1.2575590269E+002  +1.1912824651E-001 +9.4452268897E+001  +9.7641067235E-002 +6.5742491514E+001  +1.7418255017E+000 +7.1162723320E+001 
5890823.529 +5.6770671355E-001 +1.2922708348E+002  +8.6988333941E-002 +9.1065700358E+001  +7.8997993113E-002 +7.9939226661E+001  +1.5671854362E+000 +7.4480964968E+001 
6015968.711 +5.7898697541E-001 +1.1362102573E+002  +1.0873214492E-001 +5.4281539181E+001  +1.2289556258E-001 +3.2512069060E+001  +1.3928746761E+000 +4.5159776908E+001 
6141113.892 +7.9682506423E-001 +1.0720887834E+002  +1.2939703394E-001 +7.8141936085E+001  +1.2355687974E-001 +5.4604747226E+001  +1.1511137019E+000 +6.3441582732E+001 
6266259.074 +8.1244126742E-001 +1.0724400103E+002  +1.3727396951E-001 +7.5334036567E+001  +1.2586725600E-001 +4.2009802546E+001  +1.8126726791E+000 +5.5381063460E+001 
6391404.255 +8.4578812230E-001 +1.0476659347E+002  +1.0616763488E-001 +4.6975201504E+001  +1.2443688322E-001 +2.8449375415E+001  +1.4980900074E+000 +1.9654431916E+001 
6516549.437 +1.1462449894E+000 +7.4924553427E+001  +1.3916458156E-001 +3.6979146589E+001  +1.5033536246E-001 +1.3744509487E+001  +1.3086731889E+000 +1.0006871731E+001 
6641694.618 +1.5328167664E+000 +7.3763810666E+001  +1.7315654176E-001 +3.3985355709E+001  +1.5810010893E-001 +2.6079623353E+001  +1.2858015875E+000 +4.3723710271E+000 
6766839.800 +1.7405446016E+000 +6.4259580295E+001  +1.5818329585E-001 +2.8186118617E+001  +1.5790732398E-001 +2.2220398441E+001  +1.2568405565E+000 +1.2997700848E+000 
6891984.981 +1.5162927088E+000 +3.8809765702E+001  +1.3198550037E-001 +6.6381578350E+000  +1.4244312050E-001 +2.9386117756E+000  +1.1403145440E+000 -1.1160129434E+001 
7017130.163 +1.5625868754E+000 +1.5609657174E+001  +1.3150982488E-001 -6.0021161088E+000  +1.2927284294E-001 -7.6018680888E-002  +1.3371505276E+000 -1.7879369562E-001 
7142275.344 +1.4716909911E+000 +2.6543698022E+001  +1.0569074706E-001 +1.0899742881E+001  +1.1006007224E-001 +9.4551639536E+000  +1.2426494147E+000 -2.2449850121E+000 
7267420.526 +1.6900719009E+000 -4.4969382920E-001  +1.0143324144E-001 -2.7469266614E+000  +9.9198087577E-002 -5.6882065186E+000  +1.3241766455E+000 -1.0732172049E+001 
7392565.707 +1.2852621396E+000 -5.6825831675E-001  +6.8000956756E-002 +8.5412857242E+000  +7.5326511172E-002 +2.5865341093E+000  +1.1755930737E+000 -6.2654848228E+000 
7517710.889 +9.8385006857E-001 -3.5290256922E+000  +6.7103665612E-002 -6.6070997474E+000  +6.4931268726E-002 +4.8041535082E+000  +1.1413718690E+000 -1.0693198559E+001 
7642856.070 +9.7463974112E-001 -2.7485077320E+000  +5.9732151658E-002 +3.0825734196E+000  +6.0200669290E-002 +5.0701890526E+000  +8.8568855689E-001 -5.9238589254E+000 
7768001.252 +9.0195469455E-001 +1.4122804139E+000  +6.7644756516E-002 -3.7890485881E-001  +6.2224656941E-002 +8.9257297510E+000  +9.1010932004E-001 +1.5879973653E-001 
7893146.433 +7.9962273820E-001 +2.7208249574E+000  +6.4738608802E-002 +5.2945867642E-001  +6.5905309063E-002 +5.0538469480E+000  +8.6774322961E-001 -5.4375306952E-001 
8018291.615 +8.5157359756E-001 +5.2713466750E+000  +5.1968244578E-002 -5.3777533067E+000  +5.9761489458E-002 +1.2022864296E+001  +8.0665229160E-001 +3.8471821037E+000 
8143436.796 +6.9739294532E-001 +8.4147711035E+000  +6.0337259072E-002 -2.5442156813E+000  +5.5883477691E-002 +6.0656035323E+000  +7.5438298166E-001 +3.7578000654E+000 
8268581.977 +7.0206170453E-001 +4.8502263125E+000  +5.9569279351E-002 -3.2480188572E+000  +5.4857305030E-002 +6.1854590674E+000  +6.9070280571E-001 +4.5551200646E+000 
8393727.159 +6.5859263618E-001 +9.9631563996E+000  +5.3536606181E-002 +3.0644535811E+000  +5.6440736583E-002 +6.9676808262E+000  +6.7666613089E-001 +1.8636323829E+000 
8518872.340 +6.3408286485E-001 +1.3839626248E+001  +5.0756809065E-002 -5.8748876917E+000  +5.1325908234E-002 +1.1602267069E+001  +6.4523500325E-001 +6.4855259752E+000 
8644017.522 +5.9781800329E-001 +1.2000914513E+001  +4.9545486004E-002 -4.2339590823E-001  +5.2841548671E-002 +1.3801305573E+001  +6.0413614487E-001 -1.3014332579E+000 
8769162.703 +6.1053810681E-001 +8.5071780428E+000  +4.9095415214E-002 -3.3015897312E+000  +4.6177824017E-002 +7.8974027444E+000  +6.3631021987E-001 -1.0190643873E-003 
8894307.885 +5.5028835724E-001 +5.4915711079E+000  +4.9706669179E-002 +2.2774357757E-001  +4.7291228590E-002 +1.2460982690E+001  +6.4001825590E-001 +3.9279140479E-002 
9019453.066 +4.8418843049E-001 +5.8168083303E+000  +5.0544938691E-002 -5.0671465115E+000  +5.1538775512E-002 +1.0906425657E+001  +5.8534172821E-001 +8.0147363907E-002 
9144598.248 +4.9389684539E-001 +8.0692929575E+000  +5.1943111150E-002 -1.2351405052E+000  +5.2828933205E-002 +1.4416068415E+001  +5.4128598019E-001 -1.4301357321E+000 
9269743.429 +5.4584420107E-001 +4.6986334840E+000  +5.1462635469E-002 -1.5997019874E+000  +5.4047002934E-002 +1.1646297271E+001  +6.0479060340E-001 -1.0670553345E+000 
9394888.611 +5.4365574670E-001 +1.3116367285E+001  +5.2120310550E-002 -3.8745211890E+000  +5.1163281920E-002 +1.2652765508E+001  +5.7034061441E-001 -1.0201486909E+000 
9520033.792 +5.1419034442E-001 +8.1884557871E+000  +4.9278657940E-002 -2.8639469954E+000  +5.1135273442E-002 +1.3607889043E+001  +5.0094570149E-001 -3.4946580555E+000 
9645178.974 +4.6742962056E-001 +3.8195676167E+000  +4.8705242773E-002 -3.6851251742E+000  +4.8257033264E-002 +9.2479905057E+000  +5.4360317691E-001 -3.9979006191E+000 
9770324.155 +4.7664670041E-001 +3.2978808678E+000  +5.3042689209E-002 -6.9580252415E+000  +4.9390704321E-002 +9.8585021592E+000  +5.2220185845E-001 -3.7755313288E+000 
9895469.337 +4.4381864208E-001 +1.5939597544E+000  +5.2530404469E-002 -5.6720533730E+000  +5.4284682952E-002 +1.3202154734E+001  +5.1922757092E-001 -7.0294704256E+000 
10020614.518 +5.0243377772E-001 +6.8515961737E+000  +5.1633066254E-002 -1.5773089173E+000  +5.3196620719E-002 +1.5082326205E+001  +5.2974091220E-001 -4.0110762221E+000 
10145759.700 +4.3973170877E-001 +3.1768403845E+000  +5.2884629403E-002 -8.6655841609E-001  +5.0832955729E-002 +1.3709941281E+001  +5.5010320221E-001 -5.1359406338E+000 
10270904.881 +5.1245306583E-001 +6.3251454765E+000  +5.3347137491E-002 -4.8976584794E-001  +5.1754792225E-002 +1.3368721817E+001  +5.4269684817E-001 +1.0027069395E+000 
10396050.063 +5.0885251035E-001 +4.6793482776E+000  +5.2311308849E-002 -9.4478475708E-001  +5.3382509306E-002 +1.3453846841E+001  +5.3020836386E-001 +2.4756312988E+000 
10521195.244 +5.2574406654E-001 +5.6177413823E+000  +5.4620664879E-002 +2.0446611912E+000  +5.2322252581E-002 +1.4592347378E+001  +5.3972291411E-001 -4.0106231619E+000 
10646340.426 +4.8994181259E-001 +8.5679004572E+000  +5.1622040579E-002 -4.0631968950E+000  +5.4566117450E-002 +1.3147842659E+001  +5.1178697428E-001 +5.4603624415E+000 
10771485.607 +5.1776813509E-001 +9.6221035632E+000  +5.3907776127E-002 -1.0565909464E+000  +5.2135526579E-002 +1.2026239710E+001  +5.4084096620E-001 +2.8965541814E+000 
10896630.788 +5.4674615725E-001 +1.1265456679E+001  +5.3659345197E-002 -9.8784337138E-001  +5.4999438569E-002 +1.2434427726E+001  +5.5335842391E-001 +8.3412746635E-001 
11021775.970 +5.1180187847E-001 +6.8073347114E+000  +5.6354330890E-002 -2.3063825444E+000  +5.5991069703E-002 +9.2184968965E+000  +5.4713792446E-001 +2.0144820861E+000 
11146921.151 +5.6831099062E-001 +8.7327212307E+000  +5.4330360870E-002 -9.4775042245E-001  +5.2101171709E-002 +1.2924783483E+001  +5.6463993778E-001 +1.5713196722E+000 
11272066.333 +5.4933149808E-001 +5.4738239859E+000  +5.4976611999E-002 +2.2345477802E+000  +5.4573326851E-002 +1.3112815176E+001  +5.8554710384E-001 +3.1495073696E+000 
11397211.514 +5.5217017164E-001 +4.5630010320E+000  +5.5402253929E-002 -8.2087531583E-001  +5.5927066617E-002 +1.1268974355E+001  +5.7239767886E-001 +2.8580898247E+000 
11522356.696 +5.5024736489E-001 +7.1650946192E+000  +5.7554280960E-002 -2.7631092246E-001  +5.5002785306E-002 +1.2614810262E+001  +6.0473611861E-001 +2.6638401166E+000 
11647501.877 +5.8208862832E-001 +8.0794636341E+000  +5.8894435470E-002 -2.8063868055E-001  +5.6456911774E-002 +1.2499685069E+001  +5.9502508589E-001 +9.9404728886E-001 
11772647.059 +5.7814153154E-001 +7.5682032148E+000  +5.7413929015E-002 +2.3886389833E+000  +5.7306596755E-002 +1.1675829869E+001  +6.0725559711E-001 +2.9731166507E+000 
11897792.240 +6.0817883212E-001 +5.4668884586E+000  +5.6885864725E-002 +2.0797807851E+000  +5.8262695003E-002 +1.3422508026E+001  +6.2707589419E-001 +1.6301257011E+000 
12022937.422 +6.3174983312E-001 +4.2419766810E+000  +5.8054373006E-002 +8.5524482845E-001  +5.9065203522E-002 +1.2902778280E+001  +6.6517710931E-001 -4.9236145760E-003 
12148082.603 +6.3439281794E-001 +4.5742753155E+000  +5.8124090001E-002 +2.9327168304E+000  +5.9249067927E-002 +1.2077688499E+001  +6.4841869626E-001 +2.7019952501E+000 
12273227.785 +6.4495228622E-001 +6.9989319837E+000  +5.9438187249E-002 +4.1893235240E+000  +5.6768917336E-002 +9.5657778838E+000  +6.5416493661E-001 +9.5498027496E-001 
12398372.966 +6.4178587642E-001 +4.1595706945E+000  +6.1150240812E-002 +2.6496025306E+000  +5.9412129837E-002 +8.5042187687E+000  +6.7673674361E-001 -6.6447890687E-001 
12523518.148 +6.7446025681E-001 +4.4390074150E+000  +6.1323820809E-002 +3.2334001270E+000  +5.9770558116E-002 +9.8185818024E+000  +6.8919804459E-001 +1.6039507802E+000 
12648663.329 +6.8367709318E-001 +1.4610855589E+000  +6.2125366662E-002 +2.5292596822E+000  +6.1180705193E-002 +1.1032961672E+001  +7.0026926723E-001 -2.1763396533E-001 
12773808.511 +6.7670556956E-001 +1.7908787766E+000  +6.0912237560E-002 +2.7487016888E+000  +6.1363920267E-002 +9.8828492781E+000  +7.1711348256E-001 -1.3553067345E+000 
12898953.692 +7.0452039478E-001 +2.4374206056E+000  +6.2802208942E-002 +2.8912594989E+000  +6.2121937378E-002 +6.9969889096E+000  +7.3115175576E-001 -1.7324201590E+000 
13024098.874 +6.9999174134E-001 +1.6860758858E+000  +6.2758776929E-002 +2.2079143310E+000  +5.9802204930E-002 +6.2796118754E+000  +7.2667652174E-001 +1.1531136695E+000 
13149244.055 +7.2754116979E-001 -2.0789988407E-001  +6.4119389417E-002 +1.8017471908E+000  +6.2927858121E-002 +6.3071774338E+000  +7.4880411551E-001 -1.1675813481E+000 
13274389.237 +7.6418207047E-001 -3.2845093107E-001  +6.3130788095E-002 +2.2086909144E+000  +6.2275773108E-002 +6.4829654143E+000  +7.5882513937E-001 -1.4707772856E+000 
13399534.418 +7.7665785164E-001 -5.0570500114E-001  +6.3107676498E-002 +2.2369996581E+000  +6.2699086956E-002 +6.8096785637E+000  +8.0584076914E-001 -1.0450079061E+000 
13524679.599 +7.8695728006E-001 -5.6250282683E-001  +6.6592482202E-002 +2.1749236296E+000  +6.5589560441E-002 +3.9492419963E+000  +8.0986506721E-001 -1.6139373580E+000 
13649824.781 +8.2082880524E-001 -2.1886581635E+000  +6.6563116761E-002 +3.7271840001E+000  +6.6844845726E-002 +5.0527038487E+000  +8.1665262393E-001 -2.8445181931E+000 
13774969.962 +8.3704803207E-001 -2.2045149182E+000  +6.8064961575E-002 +2.6146298926E+000  +6.5290894051E-002 +4.4675879496E+000  +8.4018748647E-001 -2.4332906207E+000 
13900115.144 +8.6453638158E-001 -3.8151676846E+000  +6.7725179050E-002 +3.1552352512E+000  +6.7029487323E-002 +3.9866816279E+000  +8.5530899108E-001 -3.6755057312E+000 
14025260.325 +8.5602974009E-001 -3.3315466249E+000  +6.6410099308E-002 +1.3688448901E+000  +6.5664717322E-002 +4.8092706736E+000  +9.0369022814E-001 -4.9737605212E+000 
14150405.507 +8.9710352488E-001 -4.8489291699E+000  +6.6660351537E-002 +3.5279979221E+000  +6.7758820593E-002 +3.7372698534E+000  +8.8929353752E-001 -3.4339057112E+000 
14275550.688 +8.8591951379E-001 -5.6902760540E+000  +6.7620740194E-002 +1.7648274672E+000  +6.6974739871E-002 +2.1738814582E+000  +8.9356592336E-001 -3.6919009302E+000 
14400695.870 +9.0543267827E-001 -6.1145484408E+000  +6.8190089752E-002 +1.3224866727E+000  +6.6362869573E-002 +3.0440163157E+000  +9.2985415726E-001 -3.7866848611E+000 
