!  2-Port S-parameters saved by WinCal
! VAR MeasName=S-Parameters (CALIBRATED_DATA) read from VNA (P5004A)
! VAR MeasDate=29/08/2024 10:18:00
! VAR NAME=S2_r9c1_RESET4_9k-100M_1
! VAR FILENAME=S2_r9c1_RESET4_9k-100M_1.S2P
! VAR DATE=29/08/2024 10:18:00
! VAR PHYS_PORTS=1,2
! VAR ObjTypeName=DATASET
! VAR IndexType=Frequency
!
# Hz S MA R 50
9000.000 +8.1197072497E-002 -1.5538995077E+002  +5.7087702686E-003 -1.5437617586E+002  +2.7840728374E-003 +5.1514300300E+001  +2.8819413856E-001 -1.4171656927E+002 
134145.181 +1.1058703091E-001 +1.6965665622E+002  +5.5658593142E-004 -6.0215321449E+001  +4.3456196475E-004 -3.7341228068E+001  +2.4027543981E-001 -1.7100981601E+002 
259290.363 +1.1247697175E-001 +1.6909847379E+002  +1.2582870858E-003 -1.0747501438E+002  +2.8547272275E-004 -1.5977529267E+002  +2.4805411083E-001 -1.6911243958E+002 
384435.544 +1.1395596745E-001 +1.7012167005E+002  +5.1697979258E-004 -1.6326406103E+002  +4.2705229694E-004 +1.0747404018E+002  +2.4343859930E-001 -1.6945436868E+002 
509580.726 +1.1583240059E-001 +1.7093742717E+002  +3.6793696600E-004 +1.6368283369E+002  +2.1882764229E-003 +1.2897729104E+001  +2.4158579386E-001 -1.6308004572E+002 
634725.907 +1.1489861636E-001 +1.7157163228E+002  +8.6116102396E-004 +8.8433424515E+001  +4.2361491660E-004 -2.5820078118E+001  +2.4703184408E-001 -1.6694917114E+002 
759871.089 +1.1904368286E-001 +1.7091889926E+002  +7.9373190213E-004 -1.2990289717E+002  +1.0127992019E-003 +7.6539084483E+001  +2.5055746076E-001 -1.6661902311E+002 
885016.270 +1.2081890426E-001 +1.6918622113E+002  +5.9960759421E-004 -5.2401875628E+001  +7.2815089387E-004 +4.5393880157E+001  +2.4803509689E-001 -1.6615341666E+002 
1010161.452 +1.1740085369E-001 +1.7000868491E+002  +3.3575221991E-004 +1.0217647796E+002  +9.0854199365E-004 +1.3449191435E+002  +2.2006268509E-001 -1.6629635161E+002 
1135306.633 +1.1953450722E-001 +1.7086215460E+002  +2.7260258574E-003 -7.6918353480E+001  +2.9847338191E-003 +9.8497000534E+001  +1.8434427387E-001 -1.6187690390E+002 
1260451.815 +1.1949784329E-001 +1.7216933796E+002  +2.3949927247E-003 -1.2416455158E+001  +9.1638543004E-004 -1.4149152949E+002  +2.4098797244E-001 -1.5211283622E+002 
1385596.996 +1.2575731909E-001 +1.7407958629E+002  +8.7111108474E-004 +1.5280815922E+002  +6.0723879401E-004 +1.7220502381E+002  +2.5390746174E-001 -1.6012519276E+002 
1510742.178 +1.2717153842E-001 +1.7099032241E+002  +3.1505999882E-004 -1.1373590544E+002  +9.6335150943E-004 +1.1037259037E+002  +2.4346875425E-001 -1.5771753079E+002 
1635887.359 +1.3011249035E-001 +1.7138756874E+002  +8.2084719970E-004 -6.9032999084E+001  +4.0932176931E-004 +7.8942435245E+001  +2.4819549009E-001 -1.5832174155E+002 
1761032.541 +1.2688679418E-001 +1.7137844503E+002  +1.1563766458E-003 -4.0911094577E+001  +1.4406679365E-003 +8.7813943711E+001  +2.0998682729E-001 -1.5426535943E+002 
1886177.722 +1.2738669818E-001 +1.6833538197E+002  +1.8283949107E-003 +1.6616707020E+002  +6.8584810730E-004 +1.6428825571E+002  +2.1214914548E-001 -1.6503941880E+002 
2011322.904 +1.3216824090E-001 +1.6732016622E+002  +1.7574521555E-003 +1.0143372330E+002  +3.2147841865E-003 -6.1269971509E+001  +1.7212042390E-001 -1.7094147921E+002 
2136468.085 +1.2818993872E-001 +1.6808386717E+002  +2.4677106567E-003 -5.4745666176E+001  +5.2723433077E-003 -8.7386031591E+001  +1.1502418046E-001 -1.3092081336E+002 
2261613.267 +1.2908175343E-001 +1.6234539345E+002  +4.9860814762E-003 +1.3992118305E+002  +3.6539438795E-003 -3.1619474587E+001  +1.6868370148E-001 -1.6807771837E+002 
2386758.448 +1.3898784475E-001 +1.6458455904E+002  +5.3223727303E-004 +2.6498076521E+001  +2.1547113836E-003 +2.7788998231E+001  +2.1400472785E-001 -1.6827823762E+002 
2511903.630 +1.3681286681E-001 +1.6556033360E+002  +2.4510982945E-003 +6.4574720619E+001  +1.7198891261E-003 -2.8442941554E+001  +2.2607936384E-001 +1.7510963111E+002 
2637048.811 +1.3728944847E-001 +1.6739413184E+002  +6.5779395063E-003 -1.1414293116E+002  +1.4329980359E-002 -1.0858519655E+002  +5.9831582981E-002 +9.0898541384E+000 
2762193.992 +1.1134840502E-001 +1.7675930704E+002  +2.9768483343E-002 -5.6167263908E+001  +2.7848772909E-002 -1.0166745678E+002  +5.2011794111E-001 -6.7976414156E+001 
2887339.174 +9.9982372518E-002 +1.7745733638E+002  +4.1823286932E-002 -8.0514352298E+000  +2.5971222256E-002 -1.5584208141E+002  +1.9281560259E-001 -3.9060216943E+001 
3012484.355 +1.1416603510E-001 +1.5911446892E+002  +2.8979792588E-002 -2.1799383026E+000  +1.4752005670E-002 -1.3761507338E+002  +4.0313753073E-001 -3.1517626200E+001 
3137629.537 +1.3631546156E-001 +1.7462851122E+002  +1.1644517132E-002 -2.9351085337E+001  +1.0695566445E-002 -1.5669076042E+002  +3.2539162951E-001 -8.7480648623E+001 
3262774.718 +1.3867866142E-001 +1.6983078626E+002  +1.0405312876E-002 -6.8832339409E+001  +1.1962873166E-002 -8.5319017391E+001  +2.1289834685E-001 -9.8479948890E+001 
3387919.900 +1.4610175265E-001 +1.6801608944E+002  +1.2610442744E-002 +2.3889506341E+001  +5.6762790100E-003 -9.0919110489E+001  +2.3922178481E-001 +9.7985954031E+001 
3513065.081 +1.4602241308E-001 +1.5971078532E+002  +1.1335133868E-003 +5.2134465121E+001  +1.3236175078E-002 -1.1089819533E+002  +7.8592777079E-002 -7.9193704030E+001 
3638210.263 +1.6040908941E-001 +1.3186617589E+002  +6.0312019061E-002 -1.7399896886E+002  +1.6666154493E-001 +4.6332429979E+001  +2.7525853103E+000 +1.1136569332E+002 
3763355.444 +1.6880572215E-001 +1.5555021062E+002  +8.5124101068E-003 +4.6538028072E+001  +1.4243191168E-003 -1.8200130509E+001  +2.3947277905E-001 +1.3115819194E+002 
3888500.626 +1.8858501793E-001 +1.4561501489E+002  +8.5037848494E-003 +8.7277178184E+001  +1.3788358135E-002 +8.3567930875E+001  +8.8866069433E-001 +1.4732133469E+002 
4013645.807 +1.7044144897E-001 +1.4521222779E+002  +1.8979452548E-002 +1.3011718882E+002  +2.6283553546E-002 +3.8624614163E+001  +6.6730602322E-001 +1.3927090601E+002 
4138790.989 +1.8308616580E-001 +1.5108098706E+002  +9.4589882177E-003 +1.0683373806E+002  +6.7011540201E-003 -1.2784940769E+001  +2.4130569014E-001 +1.1462965397E+002 
4263936.170 +2.0270194612E-001 +1.4598126592E+002  +7.4066123928E-003 +1.3794441642E+001  +1.3737455906E-002 +1.3836552311E+000  +2.2580520943E-001 +1.0820923457E+002 
4389081.352 +2.0509268570E-001 +1.4213981014E+002  +2.5566520208E-002 +1.0332060345E+002  +5.6383835341E-003 +1.3047385978E+002  +7.4706115543E-001 +1.2310284301E+002 
4514226.533 +2.3738473880E-001 +1.4464404170E+002  +8.2224820226E-003 -7.6135816467E+001  +1.7490042466E-002 +1.2987018209E+001  +8.4913038120E-001 +3.6107789757E+001 
4639371.715 +2.7810577394E-001 +1.3240672294E+002  +3.0627850616E-002 +1.3572065742E+002  +2.9602160065E-002 +9.2808780685E+001  +1.1952504488E+000 +1.1128436424E+002 
4764516.896 +4.4427396697E-001 +1.3280473273E+002  +1.2928990322E-001 -1.6644700139E+002  +1.8034912095E-001 +1.5633442705E+002  +4.5819836855E+000 +1.3515152723E+002 
4889662.078 +4.1092875684E-001 +1.3176430065E+002  +1.3406380195E-001 -3.0690301932E+001  +1.1622620248E-001 -1.1138678911E+002  +5.6578379711E+000 -1.1942547169E+002 
5014807.259 +4.3220291767E-001 +1.2991043953E+002  +8.5654093445E-002 -1.3783970025E+002  +7.8280306826E-002 +1.7489215571E+002  +3.3369028684E+000 +1.6768296162E+002 
5139952.441 +4.2219754016E-001 +1.1887122036E+002  +1.3449242137E-001 +9.7593387714E+001  +1.8475726429E-001 +6.1188068692E+000  +5.4270279968E+000 +1.7163089202E+001 
5265097.622 +4.3463113286E-001 +1.2616668962E+002  +6.5774012187E-002 +1.0040983895E+002  +5.0919401963E-002 +9.6814903043E+001  +2.6762632017E+000 +1.0946775090E+002 
5390242.804 +4.7303571441E-001 +1.1583578931E+002  +8.0083432163E-002 +1.0925224157E+002  +8.8425136154E-002 +6.9335971950E+001  +2.1350705858E+000 +9.1862326273E+001 
5515387.985 +4.3960675476E-001 +1.2725613748E+002  +3.7616787683E-002 +8.0361356794E+001  +6.8024294219E-002 +1.2116505539E+001  +2.2767462359E+000 +2.6709829422E+001 
5640533.166 +5.1078013831E-001 +1.2819010683E+002  +5.8687116193E-002 +1.0546296311E+002  +4.5510165999E-002 +8.0683574526E+001  +2.1104254206E+000 +8.5412836967E+001 
5765678.348 +4.2403839115E-001 +1.1324295878E+002  +5.0094779796E-002 +9.3484982527E+001  +6.3956437615E-002 +6.8523167375E+001  +1.5164647835E+000 +8.4552480599E+001 
5890823.529 +5.6060673221E-001 +1.1606483092E+002  +5.2718680381E-002 +1.2404172826E+002  +5.3970181329E-002 +5.4724962914E+001  +2.8697446134E+000 +7.4917920893E+001 
6015968.711 +6.9429110920E-001 +1.2164777647E+002  +8.6808143744E-002 +6.9945148168E+001  +6.9224956513E-002 +3.7960647868E+001  +3.1574812217E+000 +3.8033591821E+001 
6141113.892 +6.5481659501E-001 +9.7089279889E+001  +8.2618948669E-002 +6.8343714282E+001  +7.7306838258E-002 +2.7765174926E+001  +2.1027919804E+000 +3.8740785289E+001 
6266259.074 +6.9369692488E-001 +1.0140963737E+002  +6.0707368553E-002 +2.4829631439E+001  +4.3296060711E-002 +1.3615401093E+001  +1.5127050252E+000 +2.0807558851E+001 
6391404.255 +1.2102298512E+000 +8.7471411306E+001  +9.3128879266E-002 +4.3310088080E+001  +1.0171586654E-001 +4.4497304553E+001  +1.7027195563E+000 +1.8216757216E+001 
6516549.437 +1.0252629989E+000 +8.6784149807E+001  +9.9970731012E-002 +4.1945061117E+001  +6.6593049151E-002 +1.9697097384E+001  +1.6509876583E+000 +7.8419728593E+000 
6641694.618 +1.6651182106E+000 +6.5873797963E+001  +8.7410200652E-002 +3.4384881341E+001  +6.4262887624E-002 -3.6758879355E+000  +1.5123577718E+000 +1.1500347198E+000 
6766839.800 +1.7176441621E+000 +2.7641354518E+001  +6.3781031137E-002 -1.2068588676E+001  +6.4009868958E-002 -1.6192766040E+001  +1.3074074179E+000 -1.1230574034E+001 
6891984.981 +1.9784771222E+000 +3.3056008958E+001  +6.7472959657E-002 +3.2161705034E+001  +7.6425495560E-002 +2.5511294813E+000  +1.2430122617E+000 -8.3282537717E+000 
7017130.163 +2.1487404412E+000 +1.3438844604E+001  +6.5155729407E-002 +1.7357416213E+001  +4.2982100357E-002 +1.4599186563E+001  +1.1696893212E+000 -1.4305496311E+001 
7142275.344 +1.8134682605E+000 +5.7497394946E+000  +4.0790562639E-002 -5.1814315215E+000  +5.0045437642E-002 -1.8550451667E+001  +1.1602665152E+000 -9.4988387565E+000 
7267420.526 +1.3414481082E+000 +9.9869952129E+000  +4.0190852558E-002 +5.9132826735E+000  +3.3741546798E-002 -1.1179078576E+001  +1.3021400406E+000 -1.1121706430E+001 
7392565.707 +1.4647940134E+000 +2.0884344990E+000  +3.6793231373E-002 -1.0307287111E+001  +3.5926197921E-002 -9.2869626231E+000  +1.2415779851E+000 -1.0582184815E+001 
7517710.889 +1.1418849235E+000 +2.8137053603E+000  +3.0982248503E-002 +1.1177529597E+001  +2.1709209681E-002 -1.1401539123E+001  +1.1925704457E+000 -7.6828768622E+000 
7642856.070 +1.0215087245E+000 +4.6422219888E-001  +3.1021459266E-002 +1.7577585997E+001  +3.2362191922E-002 +4.1941586150E+000  +1.0990302645E+000 -1.0292414862E+001 
7768001.252 +9.8102591407E-001 +2.6919671685E-001  +2.8604195672E-002 +1.2950395847E+001  +2.8749170447E-002 +1.0411194956E+001  +9.6395272918E-001 -2.0533290689E+000 
7893146.433 +8.4028917918E-001 +7.7030335427E-001  +2.1166908571E-002 +2.6338969618E+001  +2.5778847966E-002 +2.9575781546E+000  +8.9101124096E-001 -1.5318030063E+000 
8018291.615 +7.4910637281E-001 +9.9028006244E+000  +2.3864286960E-002 -1.0144824204E+001  +1.8940084324E-002 +2.1105029787E+001  +8.0612000936E-001 +3.0171778709E-001 
8143436.796 +7.0322316513E-001 +1.0989080935E+000  +1.9745754199E-002 -5.0646570016E+000  +2.4807502871E-002 +1.2016812876E+001  +7.8564251482E-001 -3.3639329108E+000 
8268581.977 +6.4230372929E-001 +1.3013217009E+001  +2.1939351963E-002 +7.4395372703E-001  +2.5035464431E-002 +1.8164075521E+001  +6.6853408988E-001 +6.0853885297E+000 
8393727.159 +6.6390786099E-001 +6.0147245305E+000  +2.2555965642E-002 +1.2212744649E+000  +2.8654830218E-002 +2.1252663639E-001  +7.4536917505E-001 -4.9762602247E-001 
8518872.340 +5.8595617197E-001 +9.9751539212E+000  +2.8041126855E-002 +6.1067340618E+000  +1.8197318558E-002 +1.6849967114E+001  +7.0681206956E-001 -3.5855847089E+000 
8644017.522 +6.5528688513E-001 +1.4121865542E+001  +2.3247630751E-002 -2.5857353387E+000  +2.1641701312E-002 +3.0826978525E+000  +6.6514952278E-001 -2.0896176121E-001 
8769162.703 +6.1857753730E-001 +6.5411110036E+000  +2.0591621044E-002 -8.5631024811E+000  +2.5740819930E-002 +1.5649546189E+001  +6.0792695927E-001 -2.7573935707E+000 
8894307.885 +6.3478903344E-001 +1.0651912826E+001  +2.7295441655E-002 +1.0702863201E+000  +2.2413175174E-002 +3.6118449617E+000  +6.4858882740E-001 -5.5519094928E-001 
9019453.066 +5.8632934859E-001 +9.2933713580E+000  +2.0768355631E-002 -1.3104093220E+000  +2.3584792849E-002 +1.3448974350E+001  +6.0044274126E-001 -1.0236041413E+000 
9144598.248 +6.1639450857E-001 +3.3888831594E+000  +2.1322444498E-002 -8.6605726717E+000  +1.9424199530E-002 +2.0733648967E+001  +6.2445673224E-001 -4.7085070683E+000 
9269743.429 +5.3679401121E-001 +7.5998570297E+000  +2.1722265576E-002 -1.0490046412E+000  +2.2704940707E-002 +8.7864907465E+000  +5.9525174577E-001 +1.1518804825E+000 
9394888.611 +5.9345245114E-001 +6.1255513804E+000  +2.4293363075E-002 +9.2480113102E-002  +2.7155091372E-002 +1.3030425705E+001  +5.8020482687E-001 -4.7043283749E+000 
9520033.792 +5.8856940625E-001 +8.6059857213E+000  +2.1026643401E-002 -8.5943834103E+000  +2.4565404090E-002 +1.4003116099E+001  +5.5783414774E-001 -3.5911487881E+000 
9645178.974 +5.5218614818E-001 -7.1830437624E-002  +2.3846895358E-002 +5.9720656481E-001  +2.3082764448E-002 +1.3313055619E+001  +6.2132175878E-001 -1.0083680372E+001 
9770324.155 +4.9401734023E-001 -2.1229270611E+000  +2.3441994787E-002 +1.5699270777E+000  +2.5017808272E-002 +4.8610913446E+000  +5.8273119191E-001 -1.0004873812E+001 
9895469.337 +5.2335674287E-001 +6.4993657505E+000  +2.1578177243E-002 -8.2311304594E+000  +2.2950009940E-002 +1.3589432595E+001  +5.6323906917E-001 -3.4442499528E+000 
10020614.518 +5.4904888111E-001 +1.7996728279E+000  +2.4428500868E-002 -6.1435044998E+000  +2.4956526376E-002 +1.6654948709E+001  +5.3643542866E-001 -4.4933731870E+000 
10145759.700 +5.0763483037E-001 +5.0237631547E+000  +2.4022741759E-002 -5.3298901396E+000  +2.0332190201E-002 +1.2356063018E+001  +5.5682623195E-001 -3.9710870925E+000 
10270904.881 +4.9992651099E-001 +7.4852217344E+000  +2.1145896897E-002 +2.9445780400E+000  +2.2857121137E-002 +1.5643960302E+001  +5.7108713080E-001 -3.5955912345E+000 
10396050.063 +5.2259547382E-001 +5.6294842651E+000  +2.2961348265E-002 -1.7016061014E+000  +1.9930608865E-002 +1.7732276291E+001  +5.5777996915E-001 -3.4993456202E+000 
10521195.244 +5.2603434793E-001 +5.6814940495E+000  +2.2370842847E-002 -2.4153042831E+000  +2.3959290028E-002 +1.7640779034E+001  +5.4928848469E-001 -2.8959110224E+000 
10646340.426 +5.3271062540E-001 +5.6643800325E+000  +2.4505691816E-002 -2.3555690214E+000  +2.2248334952E-002 +8.0259797772E+000  +5.8130582342E-001 -1.6985760006E+000 
10771485.607 +5.6416276676E-001 +3.8308676846E+000  +2.2879932854E-002 +2.8078685680E+000  +2.2734091996E-002 +1.8201742625E+001  +5.8126218200E-001 +2.3295229395E+000 
10896630.788 +5.4381263187E-001 +8.1464081172E+000  +2.3956117859E-002 -3.2371320483E+000  +2.2489148175E-002 +9.6231030402E+000  +5.5013152018E-001 +2.2159999195E+000 
11021775.970 +5.7309538301E-001 +4.0759507414E+000  +2.2517158902E-002 +3.2391849547E+000  +2.6501823830E-002 +1.5942314606E+001  +5.9947938076E-001 -4.9083948172E-001 
11146921.151 +5.9833273946E-001 +5.4182264451E+000  +2.7171029833E-002 +3.0712209406E-001  +2.5839452381E-002 +1.3444288381E+001  +5.8567210096E-001 -7.6958142127E-001 
11272066.333 +5.9574396088E-001 +6.8540057774E+000  +2.4387006318E-002 +7.2904503057E+000  +2.3585284340E-002 +1.1290505265E+001  +6.1751986163E-001 +9.5632585172E-001 
11397211.514 +5.8794707189E-001 +7.0274664777E+000  +2.6156127543E-002 +2.0044095812E+000  +2.4448176737E-002 +8.8990964917E+000  +6.2306910091E-001 +2.3659248379E+000 
11522356.696 +6.2355536047E-001 +9.7319165147E+000  +2.6075919326E-002 -5.5492151668E-001  +2.3362176595E-002 +1.8217803720E+001  +6.4358476995E-001 +2.3907832146E+000 
11647501.877 +6.2109451414E-001 +4.4029948443E+000  +2.3607934639E-002 +3.5489061183E+000  +2.4701021520E-002 +1.4414257940E+001  +6.3729846927E-001 -1.1065824597E+000 
11772647.059 +6.0712582651E-001 +6.7076700706E+000  +2.8778210413E-002 +2.9924888676E+000  +2.7325842155E-002 +7.6037146421E+000  +6.4517309252E-001 +9.1833949086E-001 
11897792.240 +6.4556104605E-001 +6.5137104572E+000  +2.3691925322E-002 +5.4152925107E+000  +2.4197513609E-002 +1.3816692460E+001  +6.5834479726E-001 +1.2328588329E+000 
12022937.422 +6.8210910540E-001 +4.8907161832E+000  +2.7368801507E-002 +2.5953952516E+000  +2.5443665050E-002 +1.2126973280E+001  +6.8827300860E-001 +2.3037514632E+000 
12148082.603 +6.5896720961E-001 +2.5701487709E+000  +2.5784826713E-002 +3.6517806819E+000  +2.7901003806E-002 +1.2707783275E+001  +6.5614641576E-001 +1.8788389608E+000 
12273227.785 +6.9680710484E-001 +3.4721278803E+000  +2.6252986927E-002 +1.6412264617E+000  +2.6591238088E-002 +1.0366743826E+001  +7.1157055923E-001 -2.2663306974E+000 
12398372.966 +6.9030127281E-001 +2.3655823159E+000  +2.6539691601E-002 +5.5002383017E+000  +2.6830265864E-002 +1.6964482622E+001  +7.1056219092E-001 +9.3442660628E-001 
12523518.148 +6.9564060900E-001 +4.0197974221E+000  +2.6542010650E-002 +4.9214784760E+000  +2.6466012651E-002 +1.0515635637E+001  +7.3282637453E-001 +2.0335979970E+000 
12648663.329 +7.2716157679E-001 +2.8429363665E+000  +2.7366802564E-002 +4.0539865798E+000  +2.4540224865E-002 +9.7942993212E+000  +7.2257244598E-001 +1.0114283285E-003 
12773808.511 +7.2506181038E-001 +1.2362747945E+000  +2.7113462796E-002 +3.3016590692E+000  +2.5824147369E-002 +1.4132603646E+001  +7.4181884735E-001 -1.7584618386E+000 
12898953.692 +7.4445111325E-001 +7.8630379054E-001  +2.8277551565E-002 +5.3859587808E+000  +2.9508944445E-002 +8.6604933085E+000  +7.4371572643E-001 -9.7306411508E-001 
13024098.874 +7.8614372636E-001 +4.6109964074E-001  +2.8256385750E-002 +4.1174053223E+000  +2.7386850651E-002 +1.1261769940E+001  +7.7693579980E-001 -6.4296586644E-001 
13149244.055 +7.7353360225E-001 -1.0024647938E+000  +2.8763451183E-002 +5.3689604278E+000  +2.8633499790E-002 +7.2170034418E+000  +7.9621899174E-001 -5.2134892287E-001 
13274389.237 +8.0602011540E-001 -6.2811478736E-001  +2.9446148680E-002 +3.4803616402E+000  +2.8716447572E-002 +6.5144464562E+000  +8.2458207717E-001 -1.5856777584E+000 
13399534.418 +8.0519028900E-001 +2.8007872442E-001  +3.1093678942E-002 +4.3131810241E+000  +2.8701832936E-002 +7.5950477482E+000  +8.2713838894E-001 -2.4574703356E+000 
13524679.599 +8.2161614268E-001 -2.5234056379E+000  +2.8503250805E-002 +3.5971447192E+000  +2.8597024949E-002 +8.7257822641E+000  +8.4533091312E-001 -1.7152012920E+000 
13649824.781 +8.3909099431E-001 -2.3720794187E+000  +2.8988800921E-002 +5.3063899081E+000  +3.0085415424E-002 +6.7018195881E+000  +8.6096707988E-001 -4.3118319212E+000 
13774969.962 +8.6777587436E-001 -2.6782853219E+000  +2.9989658857E-002 +3.7161089254E+000  +3.0164625421E-002 +5.5894410576E+000  +8.8309876141E-001 -3.5259993463E+000 
13900115.144 +8.6235996921E-001 -2.9075151456E+000  +3.0360191257E-002 +8.5706847443E-001  +3.0371523158E-002 +6.8179551704E+000  +8.9917019064E-001 -3.3526195373E+000 
14025260.325 +8.9511278805E-001 -4.5285824556E+000  +2.8288598929E-002 +3.1712346567E+000  +3.0961710566E-002 +5.2068200756E+000  +9.2630042029E-001 -4.6231393775E+000 
14150405.507 +9.0542206332E-001 -2.9289291926E+000  +2.9816342369E-002 +3.8782025133E+000  +2.9707662452E-002 +5.3500227202E+000  +9.4219465465E-001 -3.5175447488E+000 
14275550.688 +9.4494709019E-001 -5.2990059294E+000  +3.0935758043E-002 +2.2665533182E+000  +2.9210444916E-002 +6.1196517825E+000  +9.4119974146E-001 -5.6028851350E+000 
14400695.870 +9.6327727152E-001 -4.6142984096E+000  +3.0545314655E-002 +4.5516555407E+000  +2.9878454296E-002 +2.1591021684E+000  +9.5026782157E-001 -4.2603466324E+000 
