!  2-Port S-parameters saved by WinCal
! VAR MeasName=S-Parameters (CALIBRATED_DATA) read from VNA (P5004A)
! VAR MeasDate=26/04/2024 16:07:35
! VAR NAME=ISS_thru_LRRM
! VAR FILENAME=ISS_thru_LRRM_1.S2P
! VAR DATE=26/04/2024 16:07:35
! VAR PHYS_PORTS=1,2
! VAR ObjTypeName=DATASET
! VAR IndexType=Frequency
!
# Hz S MA R 50
9000.000 +1.3207203682E-004 -8.6638315086E+001  +1.0000486393E+000 +3.5720151978E-003  +1.0001042598E+000 +2.1577733502E-002  +2.2268069913E-004 -8.7994080859E+001 
10013997.999 +2.6521564640E-005 -4.2474342146E+001  +9.9986303273E-001 -5.2565505491E-003  +9.9995052843E-001 -1.3609825222E-003  +5.4318418218E-005 +2.6013948086E+001 
20018995.998 +5.1695690482E-005 +2.0003289768E+000  +9.9987431057E-001 -1.0492489419E-002  +9.9997009166E-001 -9.3081187227E-003  +2.5786003671E-005 +6.3073197865E+001 
30023993.997 +5.1303070298E-005 +1.1461451779E+002  +9.9986609556E-001 -1.3363347097E-002  +9.9996926343E-001 -1.1294065007E-002  +4.3140377087E-006 -5.3872636982E+001 
40028991.996 +7.9451167583E-005 +1.2578673749E+002  +9.9986505952E-001 -2.0506995550E-002  +9.9998134512E-001 -2.0009412853E-002  +2.6594640689E-005 +6.6734919791E+001 
50033989.995 +2.4851296704E-005 +9.1923335127E+001  +9.9979186647E-001 -2.0739063720E-002  +9.9988576162E-001 -2.3390948059E-002  +6.1779106251E-005 +1.5216772453E+002 
60038987.994 +4.6917924034E-005 -1.6234794721E+002  +9.9995940623E-001 -2.7622407371E-002  +9.9995981334E-001 -2.6391204913E-002  +2.6819146115E-005 +1.0209999915E+002 
70043985.993 +3.6227994280E-005 -1.0176339275E+002  +9.9991420793E-001 -3.2191737500E-002  +9.9988296430E-001 -3.1072461097E-002  +4.5756028690E-005 -8.8822178799E+001 
80048983.992 +1.3761708298E-005 +1.2500059888E+001  +9.9982961201E-001 -3.0418309170E-002  +9.9991642340E-001 -3.3206034209E-002  +2.7528683062E-005 -3.8451545024E+001 
90053981.991 +2.6039161336E-005 -1.3332252613E+000  +9.9974543951E-001 -4.0468076712E-002  +9.9988662062E-001 -3.8614373157E-002  +2.3841934512E-005 +4.3211258661E+001 
100058979.990 +2.1332831028E-005 +6.6289955051E+001  +9.9982719262E-001 -3.8429873023E-002  +9.9989643807E-001 -4.2056126362E-002  +2.3268379894E-005 -1.4410258472E+002 
110063977.989 +2.3201052641E-005 -1.4573491989E+001  +9.9974793871E-001 -4.4738775238E-002  +9.9984744453E-001 -4.2172610311E-002  +5.0448366452E-005 +7.5981139968E+001 
120068975.988 +3.3682994570E-005 +1.0609470083E+002  +9.9976282958E-001 -4.8222332859E-002  +9.9990932884E-001 -5.1552118911E-002  +2.0608206918E-005 +2.4829428758E+001 
130073973.987 +1.1198424213E-005 -1.2933028057E+002  +9.9982093698E-001 -5.1670248794E-002  +9.9984876852E-001 -5.5099793387E-002  +3.6170375938E-005 +1.7973513911E+002 
140078971.986 +2.1639724453E-005 +1.1537181863E+002  +9.9981050130E-001 -5.8486904153E-002  +9.9988068083E-001 -5.6500952976E-002  +1.1177568165E-005 +7.6136324537E+001 
150083969.985 +4.2069994224E-005 -1.3831468556E+002  +9.9990198592E-001 -6.4399641578E-002  +9.9987158009E-001 -6.0885306415E-002  +5.6620635870E-005 -1.2343697298E+002 
160088967.984 +5.1607437903E-006 -9.7402939405E+001  +9.9986434581E-001 -6.5913451274E-002  +9.9987111843E-001 -6.1698232271E-002  +1.2427517185E-005 -1.5169754708E+002 
170093965.983 +7.6509930935E-005 -7.6208181159E+001  +9.9975926816E-001 -6.3156046466E-002  +9.9979842614E-001 -7.1748543137E-002  +2.2735708494E-005 -1.0377504816E+002 
180098963.982 +2.0655962210E-005 -4.0061829213E+001  +9.9975964504E-001 -6.9985723559E-002  +9.9984110028E-001 -7.4302087458E-002  +1.8150626117E-005 -6.2746845974E+001 
190103961.981 +2.1801123412E-005 +6.2868246560E+001  +9.9968432937E-001 -7.3833766845E-002  +9.9990187756E-001 -7.6053103519E-002  +6.9951200339E-005 +6.4215325065E+000 
200108959.980 +8.1318372353E-005 +1.2041696349E+002  +9.9982601069E-001 -8.1436881658E-002  +9.9995300633E-001 -8.2939498593E-002  +6.8680097266E-005 +1.3796485456E+001 
210113957.979 +9.6525779082E-005 +9.7951485240E+001  +9.9981819708E-001 -8.1218912073E-002  +9.9985680518E-001 -8.2973095520E-002  +8.7769041276E-005 +5.0934161317E+001 
220118955.978 +3.3385987292E-005 +6.4979218221E+001  +9.9980729938E-001 -9.0706127446E-002  +9.9981285509E-001 -8.8983611113E-002  +6.9359351289E-005 +8.4823532063E+001 
230123953.977 +6.1606221437E-006 -1.6594176126E+002  +9.9975481220E-001 -9.3704183992E-002  +9.9990921627E-001 -9.6719182464E-002  +4.1632533167E-005 +1.0453410488E+002 
240128951.976 +1.4880431570E-005 +5.0417083127E+001  +9.9984707302E-001 -8.9161300196E-002  +9.9979393024E-001 -9.2211227613E-002  +2.8059456182E-005 +1.5413401186E+002 
250133949.975 +1.7133892499E-005 +1.3464523043E+002  +9.9973956979E-001 -9.6330800119E-002  +9.9976800997E-001 -9.8632078957E-002  +7.4802804483E-005 -9.4808576301E+001 
260138947.974 +8.0220428071E-005 -1.7822175387E+002  +9.9974048165E-001 -1.0837462684E-001  +9.9974067822E-001 -1.0337957963E-001  +4.4238239831E-005 -1.3282201590E+002 
270143945.973 +3.1549733727E-005 -1.3140483321E+002  +9.9968983487E-001 -1.0336348643E-001  +9.9975745100E-001 -1.0413447345E-001  +4.6735914151E-005 -6.4366844241E+001 
280148943.972 +3.2321477159E-005 -1.1402590365E+002  +9.9969563054E-001 -1.0751264342E-001  +9.9982403418E-001 -1.0797020279E-001  +9.0077994473E-006 +9.2402743609E+000 
290153941.971 +4.3724396044E-005 +6.5542429947E+000  +9.9967670723E-001 -1.1374071289E-001  +9.9969982520E-001 -1.1520189299E-001  +1.6121046360E-005 +3.1985077839E+001 
300158939.970 +4.7250948778E-006 +2.2157155166E+001  +9.9970260841E-001 -1.1969205896E-001  +9.9977242160E-001 -1.1848985114E-001  +5.9559839583E-005 +7.6377924780E+001 
310163937.969 +3.7103709806E-005 -4.5697614316E+001  +9.9966610402E-001 -1.2221548180E-001  +9.9982389513E-001 -1.2426312174E-001  +6.2083462269E-005 +2.0097634730E+001 
320168935.968 +2.7648300272E-005 -7.4386889574E+001  +9.9967384693E-001 -1.2522806539E-001  +9.9979374649E-001 -1.2766730511E-001  +3.9184086672E-005 +1.0407038279E+002 
330173933.967 +7.8529406765E-005 +7.1887994934E+001  +9.9964334395E-001 -1.2869091203E-001  +9.9976854660E-001 -1.2646129673E-001  +3.6006138282E-005 +4.7547599869E+001 
340178931.966 +4.3014324503E-005 +1.5150515035E+002  +9.9966054342E-001 -1.2953763920E-001  +9.9978133519E-001 -1.3623071944E-001  +9.1935608726E-006 -9.4250441803E+001 
350183929.965 +6.5539426086E-005 +1.4459974416E+002  +9.9969447539E-001 -1.3585439624E-001  +9.9969630960E-001 -1.3552673115E-001  +1.9439343507E-005 -3.4090382945E+001 
360188927.964 +2.7463612307E-005 -1.0592293779E+002  +9.9970436667E-001 -1.3721309253E-001  +9.9973084781E-001 -1.4042564462E-001  +3.7886091169E-005 -1.4453678400E+002 
370193925.963 +2.2582611782E-005 +1.2306940881E+002  +9.9966630634E-001 -1.4746534386E-001  +9.9979043523E-001 -1.4550172488E-001  +2.5196254594E-005 +1.4752706959E+000 
380198923.962 +3.4296224825E-005 +2.8076688923E+001  +9.9968233297E-001 -1.4462583320E-001  +9.9971526444E-001 -1.4394297759E-001  +5.6845109365E-005 +1.5392965826E+001 
390203921.961 +4.0260610757E-005 +1.1812568405E+002  +9.9967332614E-001 -1.4716282676E-001  +9.9979266395E-001 -1.5258152975E-001  +1.2134161280E-005 -4.4322672505E+001 
400208919.960 +2.9510721999E-005 +1.0954380883E+002  +9.9969451602E-001 -1.5431227147E-001  +9.9972563962E-001 -1.5325020173E-001  +8.2462356713E-006 -5.4613236867E+001 
410213917.959 +2.9572710108E-005 -6.9656183180E+001  +9.9960747674E-001 -1.5269093770E-001  +9.9978595825E-001 -1.5700350171E-001  +6.9520983712E-005 +4.9701497808E+001 
420218915.958 +1.6481568891E-005 -4.4123913192E+001  +9.9962908528E-001 -1.6084423128E-001  +9.9965845106E-001 -1.6286877371E-001  +3.6824000664E-005 -1.1451039668E+002 
430223913.957 +3.3140928482E-005 +2.8872634123E+000  +9.9963483897E-001 -1.6508471137E-001  +9.9988789815E-001 -1.6462282490E-001  +5.4767148619E-005 +1.2436916101E+002 
440228911.956 +4.9080553710E-005 -1.0135358539E+002  +9.9964568061E-001 -1.7078646672E-001  +9.9977373143E-001 -1.6885810295E-001  +1.1282818028E-005 -1.3365505502E+001 
450233909.955 +5.3947528064E-005 +1.4776833825E+002  +9.9964752870E-001 -1.7079298361E-001  +9.9971738658E-001 -1.7195276279E-001  +1.1021466512E-005 -1.0724468825E+002 
460238907.954 +1.9536450710E-005 -8.2595472777E+001  +9.9959851400E-001 -1.7383006939E-001  +9.9977277678E-001 -1.7896800724E-001  +4.0284784938E-005 -1.1264398142E+002 
470243905.953 +3.3520574244E-005 +1.8294678656E+001  +9.9961146202E-001 -1.8071023281E-001  +9.9968360004E-001 -1.8527659912E-001  +6.1197549189E-005 -4.8647323246E+001 
480248903.952 +2.7660433754E-005 -4.2283882891E+001  +9.9962833456E-001 -1.8612406955E-001  +9.9977275412E-001 -1.8395072436E-001  +6.4247615791E-005 +4.7607256778E+000 
490253901.951 +4.2576464333E-005 -5.9692058320E+001  +9.9963174028E-001 -1.8308948497E-001  +9.9974737387E-001 -1.8939469504E-001  +5.6472203032E-005 -4.6970609815E+001 
500258899.950 +3.5061837596E-005 -1.0787899660E+002  +9.9953515748E-001 -1.9309931927E-001  +9.9980601212E-001 -1.9122639825E-001  +8.9744154453E-005 -1.0085045675E+000 
510263897.949 +6.5597822693E-005 -2.7008608355E+001  +9.9956586461E-001 -1.9428919622E-001  +9.9970797039E-001 -1.9641885318E-001  +6.6410271012E-005 -4.8143603974E+001 
520268895.948 +4.8338599898E-005 -4.1286909704E+001  +9.9962735931E-001 -2.0092980546E-001  +9.9971568594E-001 -1.9686142844E-001  +2.6290189441E-005 +5.0483783444E+001 
530273893.947 +3.4218185060E-005 +5.0297621441E+000  +9.9955565362E-001 -1.9895744733E-001  +9.9968817309E-001 -2.0695653711E-001  +3.1136292281E-005 +1.0867061124E+002 
540278891.946 +3.3352424354E-005 -2.0267604405E+001  +9.9967073722E-001 -2.0359685718E-001  +9.9969560144E-001 -2.0848885374E-001  +5.1569510104E-005 -1.5470426074E+002 
550283889.945 +5.3962168646E-005 -6.2892559241E+001  +9.9961880746E-001 -2.1185979492E-001  +9.9977553029E-001 -2.0752427788E-001  +3.3030097751E-005 -1.2926426942E+002 
560288887.944 +3.1756780452E-005 +6.6254104912E+001  +9.9967233504E-001 -2.1189457001E-001  +9.9970202213E-001 -2.1561528226E-001  +3.9355609811E-005 -1.4344698632E+002 
570293885.943 +2.9736404047E-005 +1.3389796991E+002  +9.9963303393E-001 -2.1704325983E-001  +9.9979125464E-001 -2.1747922915E-001  +3.4290983899E-005 -2.8375034247E+001 
580298883.942 +7.8649968357E-005 -1.6764736538E+002  +9.9962418735E-001 -2.2377506906E-001  +9.9980393078E-001 -2.2164095953E-001  +3.0524261976E-005 -5.3092126621E+001 
590303881.941 +2.1995168063E-005 +8.4443903112E+001  +9.9964411871E-001 -2.2324107517E-001  +9.9979254185E-001 -2.2421047987E-001  +5.8684292772E-005 -2.3452944181E+001 
600308879.940 +3.6437539129E-005 -5.9821387462E+001  +9.9959408043E-001 -2.2715561051E-001  +9.9969206383E-001 -2.2531765002E-001  +1.8052279825E-005 +1.8856574563E+001 
610313877.939 +6.0003047302E-005 +3.2557128364E+001  +9.9962766413E-001 -2.3263598901E-001  +9.9974809485E-001 -2.2794066546E-001  +6.7318690142E-005 +5.6121332251E+001 
620318875.938 +6.0969101718E-005 +5.9596165955E+001  +9.9970474334E-001 -2.3444952577E-001  +9.9983237263E-001 -2.3631701707E-001  +6.3308619467E-005 +1.1814528335E+002 
630323873.937 +5.1641731896E-005 -1.3161368840E+002  +9.9965127107E-001 -2.3849844298E-001  +9.9979398343E-001 -2.3791957456E-001  +1.5588814680E-005 -1.6161905499E+002 
640328871.936 +1.6596754077E-005 +1.3729362909E+001  +9.9964958142E-001 -2.4549718211E-001  +9.9978115484E-001 -2.4741533784E-001  +2.1652376540E-005 -1.5037539222E+002 
650333869.935 +4.3672319513E-005 +7.2482543829E+001  +9.9964246429E-001 -2.4517437699E-001  +9.9974383953E-001 -2.4817267698E-001  +2.8812045960E-005 -1.7904379397E+002 
660338867.934 +1.8915823518E-005 +7.9999000524E+001  +9.9962489393E-001 -2.4614723796E-001  +9.9978921430E-001 -2.5536714421E-001  +2.3766628335E-005 -4.3203420555E+001 
670343865.933 +2.6543786523E-005 -5.7890645861E+001  +9.9963797725E-001 -2.5204066003E-001  +9.9962932404E-001 -2.5345381261E-001  +3.6037272221E-005 +5.2280410400E+001 
680348863.932 +2.3694552037E-005 -2.0628363520E+001  +9.9961578383E-001 -2.5177635708E-001  +9.9967064262E-001 -2.5971216283E-001  +4.5263546177E-005 +1.6972648775E+001 
690353861.931 +2.8251345937E-005 -1.4663829907E+001  +9.9970198280E-001 -2.6106193972E-001  +9.9957433435E-001 -2.6138910455E-001  +4.0901524648E-005 +8.8814076452E+000 
700358859.930 +1.3684458710E-005 +1.4081552057E+002  +9.9960583037E-001 -2.6318775782E-001  +9.9976884459E-001 -2.6011791232E-001  +2.4177203940E-005 +4.8132245272E+000 
710363857.929 +2.3627173546E-005 -5.2343518576E+001  +9.9974948907E-001 -2.6991914467E-001  +9.9971574134E-001 -2.6759847409E-001  +3.2857136369E-005 -9.8466476199E+001 
720368855.928 +2.1242211158E-005 -1.3250355969E+002  +9.9963907858E-001 -2.7038283598E-001  +9.9974923961E-001 -2.7338814942E-001  +5.0748497907E-005 -5.0441650436E+001 
730373853.927 +6.7651452217E-005 -3.9856608407E+001  +9.9960321401E-001 -2.7059923461E-001  +9.9971915272E-001 -2.7921910890E-001  +3.8182384963E-005 +9.4212070810E+001 
740378851.926 +2.9643348714E-005 -4.4786899940E+001  +9.9965915254E-001 -2.7382231546E-001  +9.9973047039E-001 -2.8053155651E-001  +3.7654666476E-005 -1.4012083056E+002 
750383849.925 +2.2455341479E-005 -7.2154401691E+001  +9.9969475629E-001 -2.8318698194E-001  +9.9970786770E-001 -2.8247442001E-001  +1.7438251292E-005 +1.2886859996E+002 
760388847.924 +6.2903225439E-005 -5.8195953735E+001  +9.9966710876E-001 -2.8329559410E-001  +9.9964327298E-001 -2.8611913421E-001  +3.8252160888E-005 +7.4019834821E+001 
770393845.923 +7.6408865878E-006 -1.5525075631E+002  +9.9964638991E-001 -2.8904092579E-001  +9.9975414012E-001 -2.9020707395E-001  +4.3164815682E-005 -1.2351695604E+002 
780398843.922 +7.1477840426E-005 +2.4972485879E+001  +9.9969263923E-001 -2.9101492118E-001  +9.9979256302E-001 -2.9330690400E-001  +5.5086248370E-005 -7.2062901074E+001 
790403841.921 +2.8499734539E-005 +6.9003777243E+001  +9.9964364431E-001 -2.9767314510E-001  +9.9974962495E-001 -2.9439126966E-001  +5.8896064428E-005 +4.1654529418E+001 
800408839.920 +6.7856519810E-005 -3.8173037816E+001  +9.9953802864E-001 -3.0100002494E-001  +9.9972659526E-001 -3.0072632953E-001  +3.6009205506E-005 +4.4557312610E+001 
810413837.919 +2.6085923006E-005 +2.3768922909E+001  +9.9959025730E-001 -3.0567179362E-001  +9.9964947232E-001 -3.0659830499E-001  +4.5564323950E-005 +2.8561218323E+001 
820418835.918 +5.2520221278E-005 -1.7012371038E+002  +9.9958005100E-001 -3.0295019415E-001  +9.9968952990E-001 -3.0980237612E-001  +1.4755658474E-005 +5.9554560946E+001 
830423833.917 +2.6717632911E-005 -5.0834640120E+001  +9.9955780367E-001 -3.0855683301E-001  +9.9969502873E-001 -3.1059344081E-001  +3.5534018803E-005 +1.2109854136E+002 
840428831.916 +6.9875012470E-005 -9.2363773085E+001  +9.9962252469E-001 -3.1285522826E-001  +9.9967001535E-001 -3.1581252328E-001  +1.9490381227E-005 +4.0173114058E+001 
850433829.915 +4.1500292474E-005 -1.3751822351E+002  +9.9960170745E-001 -3.2134322397E-001  +9.9971982489E-001 -3.1929658693E-001  +3.2831744156E-005 -1.4349757739E+002 
860438827.914 +2.4178229828E-005 -9.1625731676E+001  +9.9960165118E-001 -3.2076756027E-001  +9.9968599684E-001 -3.2384242510E-001  +3.3228080507E-005 -1.7915163230E+002 
870443825.913 +4.4691767778E-005 -5.5268213959E+001  +9.9958244658E-001 -3.2489411305E-001  +9.9969064807E-001 -3.2806591194E-001  +3.5330758922E-005 -1.1237852621E+001 
880448823.912 +7.1930756726E-005 +4.6429239672E+001  +9.9957174743E-001 -3.2997638668E-001  +9.9966758000E-001 -3.2805896317E-001  +2.9023610672E-005 +2.3624115055E+001 
890453821.911 +1.6658895207E-005 +1.4484527091E+002  +9.9962446356E-001 -3.2962929898E-001  +9.9962979120E-001 -3.3163127028E-001  +4.9588284545E-005 -7.2472529613E+000 
900458819.910 +3.1522016504E-005 +2.1482259345E+001  +9.9965494894E-001 -3.3519469850E-001  +9.9966745472E-001 -3.3508289208E-001  +5.1129773058E-005 +9.5895518180E+001 
910463817.909 +3.9139364652E-005 -2.0116882777E+000  +9.9965280923E-001 -3.3583768776E-001  +9.9967114046E-001 -3.3905222476E-001  +6.3289324961E-005 +3.8991603646E+001 
920468815.908 +4.2438244754E-005 +1.1580375631E+002  +9.9968085482E-001 -3.4019166390E-001  +9.9963583274E-001 -3.4796733911E-001  +9.2071078693E-005 +4.6682727728E+001 
930473813.907 +7.0147735805E-005 +9.9315026802E+001  +9.9961580340E-001 -3.4625838945E-001  +9.9958146348E-001 -3.4732088559E-001  +5.1199106665E-005 -6.1439348605E+001 
940478811.906 +6.4843977783E-005 -1.7943166102E+002  +9.9956776963E-001 -3.5083111111E-001  +9.9961276655E-001 -3.5686590932E-001  +4.8380824763E-005 -9.1072969692E+001 
950483809.905 +4.2308372209E-005 -2.2064215726E+001  +9.9955123321E-001 -3.5558099320E-001  +9.9964196433E-001 -3.5951514110E-001  +5.8523317039E-005 -9.6890593899E+001 
960488807.904 +3.2128356613E-005 -1.0857647501E+002  +9.9963921817E-001 -3.5783867926E-001  +9.9964306505E-001 -3.6193888157E-001  +3.0488141251E-005 -1.1008967903E+002 
970493805.903 +3.2684150994E-005 -5.5403018500E-001  +9.9956569564E-001 -3.5866962019E-001  +9.9962486214E-001 -3.7239446011E-001  +5.8611080363E-005 -5.7875112717E+001 
980498803.902 +3.8946728697E-005 -3.4427944866E-001  +9.9959714446E-001 -3.6280088887E-001  +9.9963541147E-001 -3.6655871623E-001  +5.6596782047E-005 +1.1261522147E+001 
990503801.901 +4.4734709438E-005 +3.8895389737E+001  +9.9960091038E-001 -3.6612038644E-001  +9.9963430487E-001 -3.6997895292E-001  +4.9247525849E-005 +3.5624918336E+001 
1000508799.900 +9.3281597851E-005 +9.1770323994E+000  +9.9965798193E-001 -3.7115523081E-001  +9.9962304519E-001 -3.7266631808E-001  +3.4600500673E-005 +3.9903621928E+001 
1010513797.899 +5.5628982302E-005 +2.2199822701E+001  +9.9957719365E-001 -3.7515575864E-001  +9.9960892530E-001 -3.7949135180E-001  +4.5415090879E-005 +1.1255670032E+002 
1020518795.898 +3.3703984797E-006 -9.0516923223E+001  +9.9958145921E-001 -3.7959744424E-001  +9.9954143954E-001 -3.8144743040E-001  +9.4745670885E-005 +1.5944839650E+002 
1030523793.897 +6.8905762974E-005 -1.0832888459E+002  +9.9956574256E-001 -3.8182082117E-001  +9.9955086086E-001 -3.8505358442E-001  +2.0907753258E-005 +1.1416029724E+002 
1040528791.896 +4.6975836497E-005 -9.7390882056E+001  +9.9948683149E-001 -3.8798605601E-001  +9.9957594740E-001 -3.8903538839E-001  +2.0637533238E-005 -1.2914354866E+002 
1050533789.895 +7.6632707310E-006 -8.8951320916E+001  +9.9944712897E-001 -3.9196099041E-001  +9.9951748430E-001 -3.9113044672E-001  +2.7777223734E-005 -7.9913057231E+001 
1060538787.894 +5.2452772891E-005 -1.5009316627E+002  +9.9958312316E-001 -3.9768769592E-001  +9.9950654662E-001 -3.9881326963E-001  +5.9101773084E-005 -3.6519336712E+001 
1070543785.893 +1.3832355947E-005 -1.9975060356E+001  +9.9949173159E-001 -3.9756004844E-001  +9.9954109993E-001 -4.0111091126E-001  +2.9339244643E-005 +1.4316336281E+002 
1080548783.892 +7.9493995929E-005 -2.8109298071E+001  +9.9965443001E-001 -3.9930942861E-001  +9.9952051347E-001 -4.0092783108E-001  +3.9697584686E-005 +3.3356734608E+001 
1090553781.891 +8.2206737457E-005 +5.9394565364E+001  +9.9957353868E-001 -4.0510197801E-001  +9.9952592382E-001 -4.0518662265E-001  +6.1895343650E-005 +8.2534645172E+001 
1100558779.890 +2.4141335843E-005 +1.1237358733E+001  +9.9961778791E-001 -4.0672246402E-001  +9.9968675685E-001 -4.1154377293E-001  +4.8657200022E-005 +1.0641774692E+002 
1110563777.889 +2.2226154140E-005 -1.7978321821E+002  +9.9968983846E-001 -4.0853621166E-001  +9.9963967892E-001 -4.1210636467E-001  +5.8391322446E-005 +7.1859460445E+001 
1120568775.888 +4.0474268278E-005 +1.6664053427E+002  +9.9961877838E-001 -4.1227555616E-001  +9.9955523112E-001 -4.2021485456E-001  +4.7524462022E-005 +6.1033928731E+001 
1130573773.887 +5.8036567994E-005 +1.7671216477E+002  +9.9966438647E-001 -4.2034234853E-001  +9.9962881409E-001 -4.2090564792E-001  +4.6908348112E-005 -1.7970530987E+002 
