!  2-Port S-parameters saved by WinCal
! VAR MeasName=S-Parameters (CALIBRATED_DATA) read from VNA (P5004A)
! VAR MeasDate=26/04/2024 18:05:07
! VAR NAME=ISS_thru_LRM+_log
! VAR FILENAME=ISS_thru_LRM+_log_1.S2P
! VAR DATE=26/04/2024 18:05:07
! VAR PHYS_PORTS=1,2
! VAR ObjTypeName=DATASET
! VAR IndexType=Frequency
!
# Hz S MA R 50
9000.000 +1.9479998214E-004 -9.6202037126E+001  +1.0003891326E+000 +1.4831107322E-002  +1.0002671770E+000 -1.3781347367E-002  +2.1247230355E-004 +1.4919435990E+002 
9066.037 +3.2214473887E-004 -1.6932754362E+002  +1.0001054381E+000 -1.9366667322E-002  +1.0004699276E+000 +5.4786522474E-003  +1.9339972267E-004 +1.5035772682E+002 
9132.559 +2.2276306266E-004 -1.2094461026E+002  +1.0003744701E+000 -1.4887652671E-002  +9.9995119222E-001 +7.4350238195E-003  +3.1726319092E-004 +1.1634459796E+002 
9199.568 +2.2393988591E-004 +1.3663379808E+002  +1.0001547420E+000 -7.3891212952E-003  +1.0005926608E+000 -2.1654234494E-002  +4.1768946231E-004 +1.1014042949E+002 
9267.070 +2.1601177564E-004 +1.7627709240E+002  +1.0000150225E+000 -3.7309347888E-003  +1.0006502135E+000 -1.7373242935E-002  +3.2101372403E-004 +1.3724521523E+002 
9335.066 +2.8328764614E-004 +4.8066771481E+000  +9.9949717587E-001 +2.0654632418E-003  +9.9982587806E-001 -1.6771034857E-002  +1.2047291694E-004 +2.9023230872E+001 
9403.562 +1.7031574623E-004 -1.1100066494E+002  +1.0000962029E+000 -2.5883926854E-003  +1.0001549865E+000 +9.7468769051E-003  +1.5430579011E-004 +1.7686351750E+002 
9472.560 +4.7670260683E-004 +7.7008190012E+001  +9.9992651200E-001 -5.4543068866E-003  +1.0004190822E+000 -3.4438751129E-002  +2.9787839864E-004 +1.3658592237E+002 
9542.065 +1.8694126508E-004 -1.2844793651E+002  +1.0002191471E+000 -1.6288139439E-002  +9.9996238928E-001 +1.9751942808E-002  +1.0699548049E-004 +8.1135339686E+001 
9612.079 +1.7920954703E-004 -2.1130408816E+001  +9.9975933577E-001 +2.2767085231E-002  +1.0002084971E+000 +5.8044505835E-004  +2.1269253442E-004 -1.4297367844E+002 
9682.607 +1.4756289682E-004 +1.0658263460E+002  +1.0003091097E+000 -4.5918828213E-004  +1.0001616772E+000 -3.1237943894E-002  +4.7825071907E-004 +1.2256775476E+002 
9753.653 +2.9465005359E-004 -1.4734437781E+002  +1.0006202468E+000 +2.3532481225E-003  +1.0003528612E+000 -3.3814580030E-003  +3.2475801593E-004 +1.3424305829E+002 
9825.220 +1.2959455978E-004 +3.4300446116E+001  +9.9982422849E-001 +4.1193281336E-003  +1.0001639318E+000 -1.1170650781E-002  +8.6694206338E-005 -2.3402764777E+000 
9897.312 +2.1681563682E-004 +1.8258917706E+001  +1.0003990357E+000 +1.6638531873E-002  +9.9989398254E-001 -2.2748649835E-002  +3.8221573148E-004 +1.3510448449E+002 
9969.933 +2.0783751722E-004 -1.1465457882E+002  +1.0001615335E+000 +5.6800923263E-003  +9.9996872482E-001 +2.2465195359E-002  +1.5635850604E-004 -8.0125362337E+001 
10043.087 +4.4450987600E-004 +1.0512789934E+002  +1.0001998013E+000 -6.5351853115E-003  +1.0004225797E+000 -2.5870362902E-002  +3.2003253514E-004 +1.6026576680E+002 
10116.778 +3.4113461853E-004 -5.9686942072E+001  +1.0003211572E+000 -6.9730912484E-003  +9.9991610820E-001 -1.4390708448E-002  +2.8042879217E-004 +1.1154894845E+002 
10191.009 +2.0397796303E-004 -9.3148301534E+001  +1.0003221066E+000 +4.5133012819E-003  +1.0003464433E+000 -1.1759219478E-002  +5.3367663253E-004 +1.6090479180E+002 
10265.785 +1.3702207412E-004 +9.6352740150E+001  +1.0000697476E+000 -8.1888256914E-003  +1.0002724834E+000 -2.4334456650E-002  +3.1202325362E-004 +1.0244687521E+002 
10341.110 +3.6576714153E-004 -9.7553743433E+001  +1.0003848488E+000 +1.6445889209E-002  +1.0002153504E+000 +1.9581350975E-002  +3.4213393533E-004 +1.6887590119E+002 
10416.987 +3.8043047059E-004 -1.6524597696E+002  +1.0001466304E+000 +4.4116553254E-003  +1.0003663734E+000 +1.6849026532E-002  +1.9624209818E-004 -1.1203777009E+002 
10493.421 +4.3976114811E-004 -1.6176743354E+002  +1.0004599298E+000 -1.1568434959E-002  +1.0003831538E+000 +9.9682568631E-003  +3.6674149153E-004 +9.0507182924E+001 
10570.416 +4.5361652372E-005 -1.7026583790E+002  +9.9999834395E-001 -9.1951574373E-003  +1.0002600002E+000 +5.5975922057E-003  +1.2824375524E-004 -1.7145646547E+002 
10647.976 +1.0352787693E-004 -1.7205869664E+002  +1.0000913442E+000 +1.3995486890E-002  +1.0003961379E+000 +5.9894108275E-003  +2.6853840220E-004 -1.2056985660E+002 
10726.105 +1.1657930007E-004 +8.8357150978E+001  +1.0001418599E+000 +2.4021782684E-003  +1.0003333165E+000 -6.9456948354E-003  +3.0803448197E-004 +1.5113351299E+002 
10804.808 +3.7041489911E-004 -1.2578023536E+002  +1.0001695472E+000 -1.4393890931E-002  +1.0001164655E+000 +2.7746120668E-002  +2.3208682756E-004 +1.0439476669E+002 
10884.087 +8.7162543652E-005 -1.1029589812E+002  +1.0004027037E+000 +9.8195652469E-003  +1.0003202010E+000 -5.6313953487E-003  +4.0997478924E-004 +1.7394756191E+002 
10963.949 +1.1492572032E-004 +1.8771122332E+001  +9.9995577909E-001 -6.1354887506E-003  +9.9993099451E-001 -1.0467987310E-002  +9.7800033991E-005 -3.2685613844E+001 
11044.396 +1.0418279628E-004 -1.6879737047E+002  +1.0005021153E+000 +6.1748056516E-003  +1.0004310615E+000 -2.0857237168E-003  +3.4250069240E-004 +1.3174306739E+002 
11125.434 +3.6160738072E-004 -1.0910838088E+002  +1.0005820450E+000 +2.0698793931E-002  +1.0003994977E+000 +3.1013745900E-002  +3.3092547345E-004 -1.7330386785E+002 
11207.066 +3.5188101510E-004 -1.7825754595E+002  +1.0005072654E+000 +1.4008442318E-002  +1.0005738927E+000 +1.1232630026E-002  +5.3393034824E-004 -1.7906531441E+002 
11289.298 +1.8300602381E-004 +2.4443962583E+000  +9.9944555761E-001 +3.4340740542E-004  +9.9985380415E-001 +9.7037024034E-003  +2.8525213193E-004 -8.8185806185E+000 
11372.132 +3.0719350723E-004 +6.2880524216E+001  +1.0000640168E+000 -2.9914313561E-003  +1.0000595093E+000 -1.2510454624E-002  +2.3153618236E-004 -1.0181382161E+002 
11455.575 +3.2204839590E-004 +1.5858707807E+002  +1.0002353192E+000 -7.4260832225E-004  +1.0005996342E+000 +8.6879137290E-003  +2.3572047610E-004 +1.5452645233E+002 
11539.630 +2.8104668906E-004 +1.4571365068E+002  +9.9979192272E-001 -4.0810334292E-003  +1.0004617276E+000 +1.4042361743E-002  +4.0319287474E-004 -6.5911102319E+001 
11624.301 +6.3651494923E-005 -7.1382354719E+001  +1.0000105050E+000 +9.7832894865E-003  +9.9999883912E-001 -1.4314385719E-002  +4.9733357055E-005 +1.3397734264E+002 
11709.594 +1.4421585786E-004 +5.3282570787E+001  +1.0002638109E+000 +2.1970337646E-003  +1.0000414064E+000 -1.6365309619E-002  +2.3736568129E-004 +1.3600408708E+002 
11795.512 +1.0933610287E-004 -7.4909232264E+001  +9.9987840694E-001 -1.6556684181E-003  +1.0003662309E+000 +1.1448327036E-002  +8.3345946791E-005 +9.4252650875E+000 
11882.062 +2.1299615763E-004 -1.4046782491E+002  +9.9987888342E-001 -6.1906087208E-004  +1.0000970527E+000 +1.0368928431E-002  +4.2974920093E-005 +1.4734257363E+002 
11969.246 +1.4359536655E-004 -4.4210029805E+001  +1.0002209466E+000 +1.8441705313E-002  +1.0000292341E+000 -1.3513988103E-002  +2.4851071256E-004 +1.5554075587E+002 
12057.069 +7.8271888057E-005 +2.1795669176E+001  +9.9970465899E-001 +2.0496621003E-005  +9.9988156610E-001 +1.8640086319E-003  +2.0591180792E-004 -2.8557222679E+001 
12145.538 +2.0104976087E-004 -4.9797152668E+001  +1.0001820567E+000 +1.2590015513E-002  +1.0002569256E+000 -1.3936835503E-002  +3.6167119917E-004 +1.7322611396E+002 
12234.655 +3.3433995147E-004 +7.3221725721E+001  +1.0000690223E+000 -8.9383931282E-004  +1.0003406279E+000 -1.7556997549E-002  +1.2712000849E-004 +8.9672774668E+001 
12324.426 +1.0722161909E-004 +1.6053416042E+002  +1.0000948197E+000 -1.7809737381E-002  +1.0000667690E+000 -8.7958426224E-003  +8.4407634353E-005 +5.1129482954E+001 
12414.856 +8.7396579150E-005 -1.6760113488E+002  +9.9999523346E-001 -3.4680450838E-003  +1.0002854057E+000 -1.1078820039E-002  +2.3191640665E-004 +1.2059654308E+002 
12505.949 +1.5777492306E-004 +9.9079987420E+000  +9.9985820111E-001 +1.9118702954E-003  +9.9996127376E-001 -1.0496699763E-002  +1.0759930298E-004 +1.8598825519E+001 
12597.711 +2.2265045840E-004 -2.3842871744E+001  +9.9977422028E-001 +4.1938292621E-003  +9.9941308358E-001 -8.3112418378E-003  +3.1590947253E-004 +2.2632091973E+001 
12690.146 +3.2752738529E-004 -1.1933686080E+002  +1.0001822715E+000 +1.7943051540E-003  +1.0000783665E+000 +1.7380615872E-002  +1.2152875503E-004 +1.3010991852E+002 
12783.260 +2.5790494770E-004 -9.3117664052E+001  +9.9998559987E-001 -1.2603588161E-002  +9.9975574074E-001 +1.9351237547E-003  +3.4639753290E-004 +4.8925795038E+001 
12877.056 +2.1041615180E-004 -1.3933031963E+002  +1.0001770270E+000 +2.7973210386E-003  +1.0002587176E+000 +1.4821944834E-002  +1.8096526760E-004 -7.2249601798E+001 
12971.541 +1.9219052426E-004 -1.2465351268E+002  +9.9996654445E-001 +1.6656827563E-002  +1.0003148622E+000 +1.4146844024E-002  +2.3697984301E-004 -7.6665125888E+001 
13066.719 +1.3493091458E-004 -8.6226551453E+001  +1.0000928800E+000 +1.0237502761E-002  +1.0001183801E+000 -5.9005849413E-003  +1.1607327371E-004 +1.6156795357E+002 
13162.595 +7.0574608160E-005 -1.7533350038E+000  +1.0000133031E+000 +2.1571158492E-002  +1.0001192140E+000 -5.5650869723E-003  +2.1734517929E-004 +1.6856592573E+002 
13259.175 +1.0156911918E-004 -5.6894068996E+001  +9.9999475692E-001 +3.7369868456E-003  +9.9992533561E-001 +1.1524243432E-002  +1.7466515826E-004 +3.3779907427E+001 
13356.464 +1.7839069367E-004 +1.7271318811E+002  +1.0000892891E+000 -2.8128477435E-002  +1.0000620182E+000 +1.3887474763E-002  +2.2243310088E-004 +4.8504602607E+001 
13454.466 +6.3802374312E-005 +7.3316449621E+001  +1.0000097890E+000 -9.5314357275E-003  +1.0001859856E+000 -1.1190037614E-002  +9.1421087868E-005 +1.0287220450E+002 
13553.188 +1.4406771060E-004 -7.6841768539E+000  +9.9992925445E-001 +5.8214405712E-003  +9.9988639422E-001 +2.1022295430E-003  +1.5874223024E-004 -2.2308725896E+001 
13652.634 +7.3793388803E-005 -1.2776166918E+002  +9.9986124040E-001 +3.4241074493E-004  +9.9985332824E-001 +2.2173193007E-002  +1.3755167958E-004 -3.4513469493E+001 
13752.809 +1.0134598829E-004 +9.0680555467E+001  +9.9993509721E-001 +6.6171752463E-003  +1.0002384226E+000 +5.1094708401E-003  +1.6502306636E-004 -9.0021111474E+001 
13853.720 +5.5331122028E-005 +1.6853573395E+002  +1.0001162320E+000 -4.3682520216E-003  +1.0002615476E+000 -3.9715700246E-003  +1.2161132956E-004 +1.7359206968E+002 
13955.371 +1.3425483714E-004 +1.2048822756E+002  +9.9990391789E-001 +1.9408139758E-003  +1.0004620592E+000 +5.0887009784E-003  +8.1524776518E-005 -6.2555095727E+001 
14057.768 +7.5996753360E-005 -3.4385236286E+001  +9.9989408256E-001 +2.4762058475E-004  +1.0003611130E+000 +1.3562419574E-002  +5.1456211357E-005 -1.2689007650E+002 
14160.916 +1.5625792074E-004 +1.3859444453E+002  +1.0002009276E+000 -1.9834299583E-002  +1.0001469851E+000 -1.9719272790E-004  +2.6658470741E-004 +1.0407172986E+002 
14264.821 +1.5651833327E-004 -7.7777345989E+001  +1.0001030096E+000 +9.1523645191E-003  +9.9993533213E-001 +4.5645690986E-003  +2.6680624803E-005 -1.4366776094E+002 
14369.488 +1.6450322759E-004 -1.4870807349E+002  +1.0003845737E+000 +5.4253526297E-003  +1.0002200606E+000 +1.2590390634E-003  +2.0818369128E-004 +1.3866639536E+002 
14474.924 +2.8680388038E-004 +1.6168126378E+002  +1.0001945540E+000 -5.4169936692E-003  +1.0004036437E+000 +2.5910109457E-003  +1.0703039946E-004 +1.2712768645E+002 
14581.133 +1.3984107051E-004 -1.6024417550E+002  +1.0001462698E+000 +5.6596914325E-004  +1.0003258057E+000 +6.6478770292E-003  +4.2105362702E-005 -5.7941256685E+000 
14688.121 +6.2460076115E-005 +3.6472489116E+001  +9.9991691202E-001 -2.4172340364E-003  +1.0000061021E+000 -1.2141441026E-002  +2.0002545097E-004 +1.1641030341E+002 
14795.895 +1.5498360478E-005 -8.8290134553E+001  +1.0001202936E+000 +8.6656138981E-003  +1.0002613085E+000 -3.4218843822E-003  +1.7229818713E-004 +1.3161837704E+002 
14904.459 +3.6861888459E-005 -8.3029130013E+001  +9.9988366771E-001 -1.0243914187E-002  +9.9987598233E-001 -1.1344643674E-002  +2.7076615146E-004 +7.5803908503E+001 
15013.820 +1.2500398650E-004 -1.3906199712E+002  +1.0000163328E+000 +2.6808054652E-003  +1.0001570084E+000 -8.0011641625E-003  +1.1352824529E-004 +9.3419934516E+001 
15123.983 +2.4985662729E-004 +3.9471929632E+000  +9.9970918974E-001 -2.2998812590E-003  +1.0000097942E+000 +1.1181763999E-002  +1.9312645898E-004 +1.6700771746E+001 
15234.954 +5.6768078347E-005 -9.2535916044E+001  +1.0001098078E+000 -1.0262086199E-002  +9.9996156660E-001 -8.7259020645E-003  +3.0870556673E-004 +9.3571058794E+001 
15346.740 +8.9723157434E-005 -1.0552932747E+002  +9.9999233738E-001 -1.3161021721E-002  +9.9994892735E-001 +7.4845620607E-003  +1.3233213129E-004 +4.4432665046E+001 
15459.346 +9.0914130964E-005 -8.4350516543E+001  +9.9983026242E-001 -1.0391335358E-002  +1.0001907567E+000 -1.1973598979E-002  +3.0452456447E-004 +3.9480803750E+001 
15572.778 +7.9566996225E-005 +1.1299258269E+001  +1.0001562835E+000 +9.8339355232E-004  +1.0000833636E+000 -1.5430672487E-002  +1.4606990646E-004 +1.2783610606E+002 
15687.043 +2.5431986431E-004 +3.8293689915E+001  +9.9991044340E-001 -1.3842618185E-002  +9.9998445763E-001 -9.7382936122E-003  +8.6711551720E-005 +4.0453764844E+001 
15802.146 +1.7409216025E-004 -1.3846739658E+002  +1.0002438199E+000 +1.5567328327E-002  +1.0001931199E+000 +2.3918118510E-003  +7.3563237892E-005 -1.6541728799E+002 
15918.093 +7.2755363629E-005 +1.1525351653E+002  +1.0001509366E+000 -1.0773851084E-002  +1.0001709592E+000 -9.2507635419E-003  +2.0885641140E-004 +1.2762260423E+002 
16034.892 +1.8654185209E-004 -1.1045733733E+002  +1.0002303325E+000 +1.1493414917E-002  +1.0000932234E+000 -3.3490418072E-003  +1.5981391180E-004 -1.7170415103E+002 
16152.547 +1.6668944598E-004 -1.2081608212E+002  +1.0001018076E+000 -4.3051422061E-003  +9.9999648363E-001 +1.4112928000E-003  +1.2867794638E-004 +5.9114312658E+001 
16271.065 +1.4986998729E-004 -1.0894492804E+002  +1.0001581924E+000 -3.3496778961E-003  +1.0001012092E+000 -1.8012800878E-003  +1.0944325707E-004 +7.7740285557E+001 
16390.454 +8.5921033145E-005 -1.4318869060E-001  +1.0000183626E+000 +5.3667226011E-003  +9.9997651586E-001 -7.4877707217E-004  +9.0471377350E-005 +8.9985069302E+001 
16510.718 +1.9948623333E-004 -1.4085078874E+002  +1.0000300457E+000 -5.6834004109E-003  +1.0002259220E+000 +1.1577970098E-002  +1.1298752241E-004 -8.2092450524E+001 
16631.864 +1.2871358269E-004 +1.7330163482E+002  +1.0002192412E+000 -1.0023666379E-002  +1.0001803733E+000 -7.9471992097E-003  +2.2340437512E-004 +1.0507609354E+002 
16753.900 +9.8779708422E-005 +1.4761010708E+001  +9.9999767633E-001 +2.4417983030E-003  +9.9990755510E-001 +3.5392189487E-003  +6.6558023219E-005 +5.6542372540E+001 
16876.831 +1.0870662795E-004 -1.7673654723E+001  +9.9987420374E-001 +1.3833727208E-002  +1.0001267596E+000 -1.6220497166E-002  +1.7903411312E-004 -1.0924870733E+002 
17000.664 +6.5620066641E-005 +1.1943798541E+002  +1.0002737331E+000 +1.3683953476E-002  +1.0002956393E+000 -1.2017580072E-003  +2.0267491931E-004 -1.6565819954E+002 
17125.405 +1.9226472949E-004 -2.1170891469E+001  +9.9989398624E-001 +1.2263197269E-002  +9.9991917709E-001 +2.5470126446E-003  +5.0132550479E-005 -1.7156235053E+002 
17251.062 +8.4913048897E-005 -1.4618165301E+002  +1.0002900377E+000 +3.1025673442E-003  +9.9992538073E-001 +6.1399444601E-003  +1.3747219026E-004 -5.7641774278E+000 
17377.641 +1.1437171707E-004 -1.2615275044E+002  +9.9992438285E-001 -1.1782113558E-002  +9.9997067652E-001 +3.6260830074E-003  +8.9922737421E-005 +4.6987781229E+001 
17505.149 +2.0605251668E-004 +1.9183955067E+001  +1.0001191178E+000 +1.3498261136E-002  +9.9975248342E-001 -1.1884055647E-002  +8.4118454066E-005 +1.7270578598E+002 
17633.592 +8.3102068050E-005 -3.6454991206E+001  +9.9988979143E-001 -1.6565034348E-003  +1.0000226647E+000 -9.8924510791E-003  +1.0152330698E-004 +1.1889519562E+002 
17762.977 +1.3307565872E-004 +2.2884911411E+000  +9.9994707189E-001 -2.3112875931E-003  +9.9983634476E-001 -1.1204197710E-002  +6.5962441697E-005 +1.4923541935E+002 
17893.312 +1.6910818320E-004 +1.1325870917E+002  +1.0000497103E+000 +4.4394022766E-005  +1.0002217502E+000 -1.1723127733E-002  +1.0759345121E-004 +1.2855018628E+002 
18024.604 +1.4271209801E-004 -2.4389325502E+001  +9.9991780884E-001 -4.8891097460E-003  +9.9999465108E-001 -1.0088243417E-002  +2.4071532135E-004 +5.6494244031E+001 
18156.858 +1.1539118938E-004 +1.3994078560E+002  +1.0001361699E+000 -1.4690590423E-002  +1.0001728558E+000 -3.9505815569E-003  +4.8865117366E-005 +6.9811540284E+001 
18290.084 +2.4460189670E-005 +8.0005955985E+001  +9.9998944998E-001 -5.2080741874E-005  +1.0000062336E+000 -1.5106576903E-002  +6.5400671781E-005 +1.0267087696E+002 
18424.286 +1.6149290100E-004 -2.8714292190E+001  +9.9998754615E-001 +4.8068054973E-003  +9.9998124335E-001 -1.1115487660E-002  +4.9623152799E-005 +1.7379235348E+002 
18559.473 +6.3718961543E-005 +1.0144801133E+001  +1.0000201479E+000 -3.1990254004E-003  +1.0002266247E+000 -7.1905596562E-003  +1.0207760686E-004 -1.6288405917E+002 
18695.653 +9.3990863120E-005 +1.5035798879E+002  +1.0000195510E+000 +2.0814594554E-003  +1.0000412466E+000 +1.1679141756E-003  +1.0996823048E-004 -4.4039944291E+001 
18832.831 +8.8683741718E-005 -1.6687546404E+002  +1.0001357795E+000 -7.3841394258E-004  +1.0001173047E+000 -4.2273912074E-003  +7.9996563591E-005 +1.5450954264E+001 
18971.016 +1.0848349496E-004 +2.0322947374E+001  +1.0001554719E+000 -1.2284746704E-002  +9.9995493933E-001 -1.6990861183E-003  +5.1059019665E-005 +4.5838280738E+001 
19110.215 +1.5227362863E-004 -1.6802261703E+002  +9.9997675455E-001 +1.5436586356E-003  +1.0001070852E+000 +1.5212617509E-002  +1.7659951635E-004 +3.2531181449E+001 
19250.435 +2.2752131474E-005 -1.5562354729E+002  +9.9985277760E-001 -2.6487958137E-003  +1.0001100356E+000 -5.9612454334E-003  +5.9060951509E-005 +6.5524961186E+001 
19391.685 +1.0713003409E-004 +1.3177431685E+001  +1.0000101361E+000 +4.6393589739E-003  +1.0001243353E+000 +1.3146479581E-004  +1.1950668492E-004 -1.4177740148E+002 
19533.970 +1.1868415429E-004 -1.1953205931E+002  +9.9996101856E-001 +4.4397960301E-005  +1.0000321954E+000 -7.6606643121E-003  +1.9405349999E-004 +5.5806418845E+001 
19677.300 +8.3042330225E-005 +1.6919667794E+001  +1.0001037459E+000 -1.4906195348E-002  +1.0001745487E+000 -1.3132161688E-002  +2.5854909889E-004 +4.7982490669E+001 
19821.681 +9.2926687674E-005 -1.3003454567E+002  +9.9992925116E-001 -3.5049887939E-003  +1.0000236034E+000 +1.8184949438E-004  +8.9386287840E-005 -1.6606089780E+001 
19967.122 +4.5400391996E-005 -1.2816578360E+002  +9.9982679523E-001 -6.4453998695E-003  +1.0000001234E+000 -5.2711978487E-003  +6.7596969731E-005 +4.2724977802E+001 
20113.629 +1.3324696264E-004 -8.4490014206E+001  +9.9986649418E-001 +7.5082340859E-003  +9.9999702896E-001 +7.7702170640E-003  +1.2008242938E-004 +3.6698291983E+001 
20261.212 +3.7859056962E-005 +8.6362122137E+001  +1.0001628487E+000 +7.6195427560E-003  +1.0000988288E+000 -5.2962882832E-003  +1.7651958249E-004 +1.6431794000E+002 
20409.878 +7.2928657308E-005 +1.5600955786E+001  +1.0000191927E+000 -5.1054684167E-004  +1.0000928646E+000 +1.8909330261E-003  +7.8029085005E-005 +2.9276251931E+001 
20559.634 +1.0058802604E-004 +1.4770135516E+002  +1.0001252906E+000 +3.2917387578E-003  +1.0001161105E+000 -2.0795511450E-003  +6.6052077305E-005 -1.6527604675E+002 
20710.490 +3.9973900051E-005 +2.1668399167E+001  +1.0001524691E+000 -1.6611902357E-003  +9.9997872117E-001 -4.3201865786E-004  +6.8773693582E-005 +1.4101942237E+002 
20862.452 +3.1890812653E-005 +1.4954949416E+002  +9.9999076265E-001 +3.0010420896E-003  +1.0001126534E+000 -2.0326060722E-003  +7.1305389979E-005 +1.1393126752E+002 
21015.529 +1.7784314134E-004 -1.0489332557E+002  +1.0001623736E+000 -8.3016007785E-003  +9.9990147865E-001 +5.8028174112E-003  +4.1601428069E-005 +7.9553387992E+001 
