!  2-Port S-parameters saved by WinCal
! VAR MeasName=S-Parameters (CALIBRATED_DATA) read from VNA (P5004A)
! VAR MeasDate=26/04/2024 18:43:51
! VAR NAME=Wafer2_r1_c7_smallform_log
! VAR FILENAME=Wafer2_r1_c7_smallform_log_1.S2P
! VAR DATE=26/04/2024 18:43:51
! VAR PHYS_PORTS=1,2
! VAR ObjTypeName=DATASET
! VAR IndexType=Frequency
!
# Hz S MA R 50
9000.000 +7.9777942899E-001 +1.7314042917E+001  +1.2377348678E-005 +1.6277700310E+002  +1.5943895972E-005 +2.9539445656E+001  +7.9783841620E-001 +1.7312112624E+001 
9066.037 +8.0029961284E-001 +1.7371145083E+001  +6.6134517163E-006 +3.6123585311E+001  +3.9984413301E-005 +1.1711281668E+002  +8.0032866398E-001 +1.7362241155E+001 
9132.559 +8.0257554322E-001 +1.7423463668E+001  +2.1373011802E-005 -1.4300818985E+002  +2.1081377397E-005 -1.6714645511E+002  +8.0241039013E-001 +1.7427049748E+001 
9199.568 +8.0528945292E-001 +1.7494855350E+001  +3.4455316943E-005 +8.9140589043E+001  +2.3021313366E-005 +5.6534538400E+001  +8.0544704606E-001 +1.7495132838E+001 
9267.070 +8.0804775962E-001 +1.7521956222E+001  +6.7009967661E-006 -5.7324317181E+001  +1.8817540684E-005 -2.0804407189E+001  +8.0797161851E-001 +1.7522824307E+001 
9335.066 +8.1055835803E-001 +1.7590419616E+001  +4.1971340194E-005 -2.7194583306E+001  +2.3167302788E-005 +1.7300071955E+002  +8.1045251889E-001 +1.7588374616E+001 
9403.562 +8.1322226904E-001 +1.7631313699E+001  +1.7523732509E-005 -1.3539581683E+002  +3.0325700680E-005 +1.4562121235E+001  +8.1315818894E-001 +1.7628254893E+001 
9472.560 +8.1593951563E-001 +1.7667224959E+001  +3.8543694242E-005 -7.8682846578E+001  +1.1523189502E-005 -7.9492197991E+001  +8.1579597112E-001 +1.7656453186E+001 
9542.065 +8.1876639251E-001 +1.7674840567E+001  +2.5408836633E-005 +4.3330535603E+001  +2.9468552159E-005 -1.3560587767E+002  +8.1846611156E-001 +1.7673575283E+001 
9612.079 +8.2102384318E-001 +1.7723656001E+001  +3.2072230992E-005 +1.2748802077E+002  +3.2643236904E-005 -1.6999536583E+002  +8.2101823014E-001 +1.7709676800E+001 
9682.607 +8.2374397226E-001 +1.7734195175E+001  +3.0261518442E-005 +7.9375622009E+001  +2.1936908457E-005 -1.1825334288E+002  +8.2390556635E-001 +1.7727039622E+001 
9753.653 +8.2636855793E-001 +1.7776798519E+001  +2.5071811675E-005 +1.5035406569E+002  +2.8687746715E-005 +1.0187165898E+002  +8.2627216690E-001 +1.7763351410E+001 
9825.220 +8.2876106347E-001 +1.7785232683E+001  +1.6592100054E-005 -1.6070288827E+002  +3.1916472331E-005 -1.3306663981E+002  +8.2863150437E-001 +1.7789755464E+001 
9897.312 +8.3161773370E-001 +1.7801391774E+001  +9.5593923284E-006 +9.1734535842E+001  +4.3652559226E-005 -9.2596192206E+001  +8.3162491111E-001 +1.7801360230E+001 
9969.933 +8.3423405979E-001 +1.7831229186E+001  +3.2683350172E-005 -1.6426117998E+002  +2.8501904402E-005 +4.1219437921E+001  +8.3392249500E-001 +1.7840132727E+001 
10043.087 +8.3695343277E-001 +1.7849167926E+001  +5.2653646770E-005 +9.5684828864E+001  +3.3660674727E-005 +1.7621069166E+002  +8.3683118612E-001 +1.7845689394E+001 
10116.778 +8.3954900457E-001 +1.7858447893E+001  +4.1907356189E-005 -1.5034133223E+002  +1.9111016339E-005 -1.5638701696E+002  +8.3930086378E-001 +1.7849973794E+001 
10191.009 +8.4210546509E-001 +1.7886114837E+001  +4.4908879390E-005 +4.6847814278E+001  +3.6751691483E-005 -1.5139423967E+002  +8.4201653704E-001 +1.7879829690E+001 
10265.785 +8.4503380929E-001 +1.7885864561E+001  +3.2787367557E-005 -2.0239692578E+001  +4.4429636677E-006 -2.5919981036E+001  +8.4502336385E-001 +1.7869977757E+001 
10341.110 +8.4802395920E-001 +1.7900713165E+001  +3.2040831846E-005 +7.3834039110E+001  +7.0161582874E-006 +1.4906149364E+002  +8.4779921516E-001 +1.7888035271E+001 
10416.987 +8.5074304386E-001 +1.7895479224E+001  +1.2416165782E-005 +6.3698223753E-001  +1.9140655311E-005 +1.0641675516E+002  +8.5055312355E-001 +1.7893007172E+001 
10493.421 +8.5347138427E-001 +1.7893126660E+001  +1.6691801154E-005 -1.0725318086E+002  +1.7902626335E-005 -1.0159006626E+002  +8.5342212380E-001 +1.7886854624E+001 
10570.416 +8.5635305947E-001 +1.7873841953E+001  +1.9358473811E-005 -1.0816271897E+001  +2.0509469769E-005 -1.5551329210E+002  +8.5628887160E-001 +1.7874908535E+001 
10647.976 +8.5906749214E-001 +1.7887198573E+001  +4.6800551210E-005 +5.4374408026E+001  +1.8003948726E-005 -1.7573779809E+002  +8.5903862185E-001 +1.7878279068E+001 
10726.105 +8.6214207348E-001 +1.7877001547E+001  +3.9891181497E-005 +9.7609558140E+001  +1.9519899418E-005 +1.0739482154E+002  +8.6194397415E-001 +1.7862396983E+001 
10804.808 +8.6512286999E-001 +1.7847670224E+001  +3.6660354211E-005 -1.9120977971E+001  +3.0191095507E-005 +9.0527072964E+001  +8.6495213736E-001 +1.7851656043E+001 
10884.087 +8.6817457048E-001 +1.7836064980E+001  +2.2114406220E-005 +9.1955393097E+001  +2.7101484827E-005 +1.1281102667E+002  +8.6809161868E-001 +1.7841589474E+001 
10963.949 +8.7108319555E-001 +1.7803232519E+001  +1.0015613437E-005 +1.6709756366E+002  +3.8562374260E-005 +1.1137737030E+002  +8.7118849135E-001 +1.7804296297E+001 
11044.396 +8.7390620880E-001 +1.7794311917E+001  +2.0971893086E-005 -7.0244739949E+001  +1.1551017490E-005 +8.5074789580E+001  +8.7420943738E-001 +1.7797851856E+001 
11125.434 +8.7641618541E-001 +1.7792384481E+001  +8.2373241203E-006 -1.2523874196E+002  +2.5923851836E-005 +8.8991821557E+001  +8.7651988603E-001 +1.7782852087E+001 
11207.066 +8.7917206516E-001 +1.7765472471E+001  +1.6290653720E-005 +1.6637975533E+002  +2.6665798018E-005 -2.0357581896E+001  +8.7910948744E-001 +1.7760839899E+001 
11289.298 +8.8139311628E-001 +1.7760241213E+001  +2.2858133241E-005 -4.7986490147E+001  +2.4113433650E-006 +8.9797442157E+001  +8.8140040947E-001 +1.7762178558E+001 
11372.132 +8.8404472081E-001 +1.7730993511E+001  +1.7909474317E-005 +7.0742637410E+001  +6.6708273733E-006 -1.3387746222E+002  +8.8408873672E-001 +1.7735576686E+001 
11455.575 +8.8685702616E-001 +1.7711211416E+001  +2.3944056037E-005 +2.1723024314E+001  +2.8059664555E-005 -1.6187363078E+002  +8.8689735282E-001 +1.7703317877E+001 
11539.630 +8.8947835478E-001 +1.7697741500E+001  +1.8397204119E-005 +1.7227845517E+002  +2.1743669444E-005 +8.1154431239E+000  +8.8940794747E-001 +1.7685582296E+001 
11624.301 +8.9209809745E-001 +1.7647261406E+001  +8.5199284923E-006 +8.2571282800E+001  +2.0707589363E-005 +1.9291304125E+001  +8.9201373514E-001 +1.7656594808E+001 
11709.594 +8.9453567781E-001 +1.7617381943E+001  +1.7444842625E-005 -1.3155283324E+001  +6.5467671368E-006 -1.7282116221E+002  +8.9451121340E-001 +1.7621012049E+001 
11795.512 +8.9735428315E-001 +1.7580255733E+001  +2.3588263878E-005 -1.1775612555E+002  +3.3386992137E-005 +1.0599308301E+002  +8.9741022585E-001 +1.7590958514E+001 
11882.062 +8.9999730591E-001 +1.7556188270E+001  +1.4288330907E-005 -1.7544466568E+002  +2.5258261108E-005 -5.8333486728E+001  +8.9993672455E-001 +1.7564262636E+001 
11969.246 +9.0292401081E-001 +1.7519686607E+001  +2.4469129053E-005 -1.5178123509E+002  +1.9957251000E-005 +1.5697503811E+002  +9.0296683620E-001 +1.7509132098E+001 
12057.069 +9.0539958704E-001 +1.7465510077E+001  +2.3639306286E-005 -6.3306319278E+001  +2.9677848942E-005 -1.0688602984E+002  +9.0538109099E-001 +1.7464957008E+001 
12145.538 +9.0829420523E-001 +1.7418530160E+001  +4.2599263190E-005 +2.3052067182E+001  +2.1584154294E-005 -1.7754248172E+002  +9.0820448739E-001 +1.7424254874E+001 
12234.655 +9.1102541268E-001 +1.7373979979E+001  +4.1019502619E-005 +8.4627521728E+001  +2.3665065980E-005 +3.5320947270E+001  +9.1089300538E-001 +1.7378121874E+001 
12324.426 +9.1364833996E-001 +1.7311504572E+001  +3.1466305321E-005 +1.3227993559E+002  +3.7890785858E-005 +1.0152673105E+002  +9.1380053443E-001 +1.7313736648E+001 
12414.856 +9.1638431731E-001 +1.7265893848E+001  +1.5496647666E-005 +5.7270215571E+001  +2.5707615427E-005 +8.6366902869E+001  +9.1626408896E-001 +1.7253555416E+001 
12505.949 +9.1940885998E-001 +1.7207514510E+001  +2.4291987745E-005 +3.6985097122E+001  +2.8690448844E-005 +1.5444320511E+002  +9.1945133606E-001 +1.7213862998E+001 
12597.711 +9.2143792413E-001 +1.7181114324E+001  +2.4632625004E-005 +7.0201181766E+001  +2.9985887279E-005 -1.3460408093E+002  +9.2127642118E-001 +1.7172671071E+001 
12690.146 +9.2404795098E-001 +1.7131373199E+001  +3.0172304995E-005 +6.3257606154E+001  +2.9724385772E-005 +1.5676309099E+002  +9.2407544983E-001 +1.7134018826E+001 
12783.260 +9.2639171668E-001 +1.7086465361E+001  +1.5562892697E-005 -9.7525860217E+000  +2.6218848676E-005 -1.7129785099E+002  +9.2635245752E-001 +1.7089331103E+001 
12877.056 +9.2874919083E-001 +1.7027460019E+001  +1.7006442308E-005 -2.4078847984E+001  +1.2167405511E-005 +1.7561731768E+001  +9.2892320885E-001 +1.7028709906E+001 
12971.541 +9.3131589918E-001 +1.6983596157E+001  +1.2531865361E-005 +1.7327372964E+002  +1.6955417359E-005 -4.5187936338E+001  +9.3126297808E-001 +1.6975482171E+001 
13066.719 +9.3343226479E-001 +1.6920947434E+001  +5.7711387341E-006 -6.7127819109E+001  +2.5737428923E-005 -3.2772421489E+001  +9.3325850068E-001 +1.6921700934E+001 
13162.595 +9.3593410818E-001 +1.6874748229E+001  +1.2606300115E-005 +8.2219716908E+001  +2.5842567378E-005 +2.2201457149E+001  +9.3577129342E-001 +1.6877816093E+001 
13259.175 +9.3836411672E-001 +1.6817084284E+001  +2.4738947691E-005 -1.3053219145E+001  +1.4610262295E-005 -9.5523805847E+001  +9.3843036028E-001 +1.6810125159E+001 
13356.464 +9.4076687886E-001 +1.6752882525E+001  +1.9002322769E-005 +6.8997823550E+001  +2.7174238650E-005 -1.0820430187E+002  +9.4064452021E-001 +1.6752231216E+001 
13454.466 +9.4312624301E-001 +1.6684829879E+001  +6.8720370771E-006 +1.3419122033E+002  +3.5345390703E-005 -1.0029539506E+002  +9.4301498024E-001 +1.6689230348E+001 
13553.188 +9.4542048638E-001 +1.6624944085E+001  +2.8199243140E-005 -8.9338609564E+001  +1.1524608546E-005 +1.7083811541E+002  +9.4544567641E-001 +1.6621231258E+001 
13652.634 +9.4794147152E-001 +1.6558961851E+001  +2.0557405253E-005 +8.7714513989E+001  +4.3061584496E-005 +1.0327791319E+002  +9.4772102792E-001 +1.6561110581E+001 
13752.809 +9.5040599834E-001 +1.6491249398E+001  +2.4690336213E-005 +8.5198831934E+001  +1.5225314035E-005 -6.1101707070E+001  +9.5032764452E-001 +1.6481277452E+001 
13853.720 +9.5291053275E-001 +1.6412013606E+001  +1.7626759823E-006 -1.2087011867E+002  +4.9701511544E-005 +9.4587956525E+001  +9.5275622811E-001 +1.6406287015E+001 
13955.371 +9.5551275878E-001 +1.6350947047E+001  +4.5740962859E-005 -1.4862017578E+002  +1.8195011931E-005 +5.7439801803E+001  +9.5518552596E-001 +1.6340173789E+001 
14057.768 +9.5745198665E-001 +1.6271813830E+001  +3.1282143600E-005 +1.0556362283E+002  +3.0241749215E-005 +4.0316506103E+001  +9.5745086331E-001 +1.6259077865E+001 
14160.916 +9.6003586915E-001 +1.6192683396E+001  +2.5089379966E-005 +1.0692725523E+002  +4.3321594107E-005 +9.4521001648E+001  +9.5973952981E-001 +1.6186078588E+001 
14264.821 +9.6244312198E-001 +1.6114984233E+001  +6.9551511221E-005 +4.9918147589E+001  +4.0874614466E-005 +8.7281161046E+001  +9.6232014320E-001 +1.6105223865E+001 
14369.488 +9.6465561207E-001 +1.6047590834E+001  +1.5152365588E-005 +8.1145661895E+001  +4.7689309188E-006 -2.5685730966E+001  +9.6463478561E-001 +1.6045736354E+001 
14474.924 +9.6621674756E-001 +1.5987898615E+001  +1.3598406564E-005 +3.0520906748E+001  +1.3753844205E-005 -1.1310076569E+002  +9.6622564996E-001 +1.5988765806E+001 
14581.133 +9.6851497644E-001 +1.5937617982E+001  +9.7234540519E-006 -1.5603700062E+002  +1.7956601597E-005 -5.1634849270E+001  +9.6842232555E-001 +1.5929220970E+001 
14688.121 +9.7003936211E-001 +1.5884681910E+001  +4.8374622034E-005 +7.6158152484E+001  +5.5903460659E-006 +1.0681817565E+002  +9.6991868348E-001 +1.5878462859E+001 
14795.895 +9.7191180984E-001 +1.5829885561E+001  +3.3760016131E-005 -8.8270264191E+001  +1.6939819776E-005 +1.1124938402E+002  +9.7194294299E-001 +1.5811152618E+001 
14904.459 +9.7390509408E-001 +1.5742487602E+001  +7.2402130301E-006 -5.3310170509E+001  +3.2771259691E-005 -1.3543342720E+002  +9.7368770242E-001 +1.5749978284E+001 
15013.820 +9.7579409642E-001 +1.5690476401E+001  +1.5760426504E-005 +1.3582617310E+002  +1.0447758309E-005 +2.9799181202E+001  +9.7576494222E-001 +1.5697917361E+001 
15123.983 +9.7759245051E-001 +1.5646239448E+001  +2.2056172116E-005 -1.5712201612E+002  +5.5639540957E-005 +4.6065396830E+001  +9.7757486290E-001 +1.5646250622E+001 
15234.954 +9.7959473229E-001 +1.5566932692E+001  +1.1424383008E-005 +1.4171180048E+001  +2.0764798893E-005 -1.6337134550E+002  +9.7957545653E-001 +1.5577393071E+001 
15346.740 +9.8129526521E-001 +1.5507761412E+001  +2.1405342079E-005 +1.4615439851E+002  +4.3986719244E-005 +6.3894517394E+001  +9.8144540143E-001 +1.5499080572E+001 
15459.346 +9.8315089074E-001 +1.5447205788E+001  +1.8449729533E-005 +1.5830998378E+002  +2.8458194149E-005 -1.6743340105E+002  +9.8347279363E-001 +1.5443940175E+001 
15572.778 +9.8509778520E-001 +1.5378758081E+001  +3.3550286579E-005 +1.2000612114E+002  +1.8585336419E-005 -8.4805694335E+001  +9.8504981179E-001 +1.5377084115E+001 
15687.043 +9.8694641732E-001 +1.5309810989E+001  +3.2332198653E-005 -4.6071226434E+000  +2.3473751647E-005 +4.5529267532E+001  +9.8691156367E-001 +1.5304764568E+001 
15802.146 +9.8892119784E-001 +1.5224691614E+001  +2.9494254695E-005 -3.0610094247E+001  +3.4670467241E-005 +1.2213555411E+002  +9.8892829892E-001 +1.5216246258E+001 
15918.093 +9.9065046588E-001 +1.5155778845E+001  +3.5376119791E-005 +1.8803950654E+001  +1.3317287867E-005 -1.0523063068E+002  +9.9054926723E-001 +1.5150136683E+001 
16034.892 +9.9250267077E-001 +1.5073289798E+001  +1.0259318609E-005 -9.9395734189E+001  +5.2262336863E-005 +5.9813514187E+001  +9.9254834247E-001 +1.5075973843E+001 
16152.547 +9.9439641769E-001 +1.5005494026E+001  +2.8921012478E-005 +1.4649078698E+002  +4.9138412836E-005 +1.1505798581E+002  +9.9432162122E-001 +1.5002720134E+001 
16271.065 +9.9624634111E-001 +1.4927807745E+001  +3.1010623720E-005 +9.7488568546E+001  +2.8494987230E-005 +8.9465007872E+001  +9.9612287420E-001 +1.4923860855E+001 
16390.454 +9.9800133596E-001 +1.4845802201E+001  +1.6679156686E-005 -6.5519474474E+001  +2.8600105766E-005 +1.3152015449E+002  +9.9787864571E-001 +1.4854005440E+001 
16510.718 +9.9982513268E-001 +1.4775153700E+001  +1.4327685753E-005 -7.8532155680E+001  +9.2609990344E-006 -1.0799361442E+002  +9.9983840132E-001 +1.4756730027E+001 
16631.864 +1.0017143937E+000 +1.4678438770E+001  +4.0596556248E-005 +1.3405422343E+002  +2.0810596083E-005 +1.4163959694E+002  +1.0016052842E+000 +1.4675400013E+001 
16753.900 +1.0033529293E+000 +1.4598678633E+001  +1.5482839375E-005 +1.0651788611E+002  +2.9667231525E-005 +4.1567963223E+001  +1.0034837725E+000 +1.4606282777E+001 
16876.831 +1.0052216473E+000 +1.4509906927E+001  +1.8475998700E-005 +4.3488718869E+000  +4.7295916231E-005 -1.4657504397E+002  +1.0051995440E+000 +1.4508116846E+001 
17000.664 +1.0072540177E+000 +1.4434216025E+001  +2.1918073410E-005 -4.4812572061E+001  +2.2129784116E-005 +4.3890182558E+000  +1.0071862492E+000 +1.4434840682E+001 
17125.405 +1.0089505585E+000 +1.4344782436E+001  +2.3299598500E-005 -6.4107954768E+001  +1.5399292020E-005 +7.9719038574E+000  +1.0087394072E+000 +1.4339628817E+001 
17251.062 +1.0107356080E+000 +1.4234810681E+001  +2.4561322639E-006 -3.7273145645E+001  +2.6055985039E-005 +1.4086942377E+001  +1.0104444765E+000 +1.4242142958E+001 
17377.641 +1.0124894192E+000 +1.4154696902E+001  +3.0114222909E-005 -1.6079443552E+002  +2.0998297924E-005 +4.3449371139E+001  +1.0124015158E+000 +1.4144941079E+001 
17505.149 +1.0142841529E+000 +1.4054990554E+001  +2.8247018729E-005 +1.6087721952E+002  +2.1907749525E-005 -5.0418219690E+001  +1.0140802518E+000 +1.4060044485E+001 
17633.592 +1.0159286155E+000 +1.3966580521E+001  +2.6583564038E-005 +1.4377734791E+002  +3.0243280505E-005 +5.9699853584E+001  +1.0158959891E+000 +1.3965686321E+001 
17762.977 +1.0173464637E+000 +1.3855861289E+001  +2.5813286599E-005 +7.6878445927E+000  +3.2260871573E-005 -9.8977856024E+001  +1.0176620285E+000 +1.3865124181E+001 
17893.312 +1.0192417675E+000 +1.3775837678E+001  +1.8623742579E-005 -1.3286261366E+002  +3.4623827691E-005 -3.5236941747E+001  +1.0193166420E+000 +1.3766816694E+001 
18024.604 +1.0211296314E+000 +1.3668744524E+001  +2.2553703965E-005 +1.3345687476E+002  +1.7165227675E-005 +5.7163320440E+001  +1.0212723969E+000 +1.3669188444E+001 
18156.858 +1.0231976737E+000 +1.3578656226E+001  +5.0602235532E-006 +1.0570960330E+002  +1.5755853223E-005 +1.2961044891E+002  +1.0228681916E+000 +1.3568224485E+001 
18290.084 +1.0244446364E+000 +1.3466696912E+001  +2.9274211930E-005 -8.9176266400E+001  +1.4631835247E-005 +6.6507003271E+001  +1.0245446085E+000 +1.3463764349E+001 
18424.286 +1.0263675259E+000 +1.3369433773E+001  +9.7423892561E-006 +1.3688380131E+002  +4.4021964068E-005 +1.0026399138E+002  +1.0261864558E+000 +1.3361148041E+001 
18559.473 +1.0279203616E+000 +1.3245972039E+001  +3.1021904941E-005 +1.1959007808E+002  +3.2403558469E-005 -1.1354058044E+002  +1.0279835555E+000 +1.3248929602E+001 
18695.653 +1.0296975708E+000 +1.3153587717E+001  +5.5401135180E-006 -8.7084277016E+001  +2.5738753455E-005 +1.6830875871E+002  +1.0297671638E+000 +1.3146166927E+001 
18832.831 +1.0312961004E+000 +1.3035270928E+001  +2.1125559185E-005 +1.9762524909E+001  +1.4524166783E-005 -1.5591859472E+002  +1.0313417950E+000 +1.3026589742E+001 
18971.016 +1.0329573874E+000 +1.2910376144E+001  +3.1326272381E-005 +6.9267746662E+001  +5.0916678091E-005 +3.8812873727E+001  +1.0331024212E+000 +1.2920843394E+001 
19110.215 +1.0343822018E+000 +1.2829267802E+001  +4.0433881928E-005 +1.5522544523E+002  +2.7955002844E-005 -1.4274003952E+002  +1.0341510139E+000 +1.2831292309E+001 
19250.435 +1.0355098328E+000 +1.2759335639E+001  +1.1860147983E-005 +1.6800606174E+002  +3.1120415822E-005 +5.6401640438E+001  +1.0352823560E+000 +1.2756703880E+001 
19391.685 +1.0367472788E+000 +1.2713259853E+001  +3.1725088098E-005 +1.2801754228E+002  +3.1993316994E-005 -1.5396422081E+002  +1.0365104675E+000 +1.2704519107E+001 
19533.970 +1.0375089333E+000 +1.2647508304E+001  +3.6875834614E-005 +6.2680937190E+001  +2.5954724420E-005 +1.3537222363E+002  +1.0376693250E+000 +1.2639864660E+001 
19677.300 +1.0389877929E+000 +1.2580878671E+001  +5.7680254872E-005 +6.8982062581E+001  +1.4320057260E-005 -5.1077959027E+001  +1.0389315937E+000 +1.2579969730E+001 
19821.681 +1.0398158470E+000 +1.2524949593E+001  +3.4827287831E-005 -7.5569259603E+001  +3.0912990139E-005 +1.6886949315E+002  +1.0398595138E+000 +1.2523604311E+001 
19967.122 +1.0408684317E+000 +1.2468105660E+001  +3.3826199082E-005 +1.2820385785E+002  +1.0474520529E-005 +1.3333949004E+002  +1.0408629600E+000 +1.2459141688E+001 
20113.629 +1.0420488872E+000 +1.2401528964E+001  +4.0427066473E-005 +2.9278660894E+001  +3.0448400244E-005 -1.7964019582E+002  +1.0419576012E+000 +1.2400005944E+001 
20261.212 +1.0430781322E+000 +1.2336155323E+001  +2.3806845422E-005 +9.4174680522E+001  +3.0524304642E-005 +9.2049236696E+001  +1.0430105374E+000 +1.2344124123E+001 
20409.878 +1.0444489415E+000 +1.2273331327E+001  +2.2847466621E-005 -1.0161609500E+002  +2.1704433927E-005 -7.5937015960E+001  +1.0442065517E+000 +1.2269427785E+001 
20559.634 +1.0454045167E+000 +1.2219698032E+001  +1.7363218941E-006 +1.0521797662E+002  +3.2308212843E-005 +1.4062845279E+002  +1.0451707535E+000 +1.2205007752E+001 
20710.490 +1.0463674567E+000 +1.2135302618E+001  +3.2991600687E-005 -1.0238542512E+002  +5.0085264014E-005 +4.3288345079E+001  +1.0461204833E+000 +1.2132554699E+001 
20862.452 +1.0472233653E+000 +1.2070145730E+001  +1.8392507249E-006 +1.2324543179E+002  +3.0895807276E-005 -9.4896364744E+001  +1.0472073049E+000 +1.2067221378E+001 
21015.529 +1.0484396549E+000 +1.1997948513E+001  +3.0043009794E-005 +3.1384799168E+001  +3.3666099977E-005 -1.1191529881E+002  +1.0482822049E+000 +1.2005188812E+001 
