!  2-Port S-parameters saved by WinCal
! VAR MeasName=S-Parameters (CALIBRATED_DATA) read from VNA (P5004A)
! VAR MeasDate=26/04/2024 18:50:06
! VAR NAME=Wafer2_r1_c2_smallform_log
! VAR FILENAME=Wafer2_r1_c2_smallform_log_1.S2P
! VAR DATE=26/04/2024 18:50:06
! VAR PHYS_PORTS=1,2
! VAR ObjTypeName=DATASET
! VAR IndexType=Frequency
!
# Hz S MA R 50
9000.000 +7.9771174605E-001 +1.7312948500E+001  +2.4708877401E-005 -1.2631676183E+002  +2.0453126983E-005 -6.1054183642E+001  +7.9778881919E-001 +1.7310495599E+001 
9066.037 +8.0050040333E-001 +1.7379117587E+001  +2.4945034617E-005 +7.5465485304E+001  +2.2914363494E-005 -1.3492333772E+002  +8.0032835213E-001 +1.7367645612E+001 
9132.559 +8.0258247872E-001 +1.7421985972E+001  +3.1101988486E-005 -1.1073200739E+002  +3.0798965466E-005 +5.5431863695E+001  +8.0254137646E-001 +1.7422256760E+001 
9199.568 +8.0537005396E-001 +1.7496233559E+001  +1.7500478188E-005 +1.1528718828E+002  +2.4286139499E-005 -1.7762784089E+002  +8.0542292379E-001 +1.7490717854E+001 
9267.070 +8.0809862112E-001 +1.7518246216E+001  +1.4674673645E-005 +9.0023055064E+001  +1.2649166139E-005 +1.5500012837E+002  +8.0790645512E-001 +1.7515402491E+001 
9335.066 +8.1059198871E-001 +1.7589037274E+001  +2.1446100905E-005 +1.1180408334E+002  +2.7061046683E-005 +1.5899945309E+002  +8.1029657915E-001 +1.7586199630E+001 
9403.562 +8.1325636249E-001 +1.7639701218E+001  +3.0862417588E-005 +1.0983301853E+002  +1.1560291710E-005 -1.7487609997E+002  +8.1322228593E-001 +1.7619154127E+001 
9472.560 +8.1589851924E-001 +1.7676251404E+001  +1.8968877416E-005 +1.1063090420E+002  +1.4119205479E-005 +1.7290811213E+001  +8.1582004292E-001 +1.7655139701E+001 
9542.065 +8.1866156862E-001 +1.7684433326E+001  +1.8268884370E-005 +1.3556513318E+002  +2.2744942584E-005 -3.7271341848E+001  +8.1856986061E-001 +1.7674584832E+001 
9612.079 +8.2108437217E-001 +1.7732470449E+001  +3.4162713399E-005 +8.5295810846E+001  +1.5049909714E-005 +9.9029719538E+001  +8.2096228441E-001 +1.7705394191E+001 
9682.607 +8.2373339529E-001 +1.7742998985E+001  +2.6574507177E-005 -1.7799661867E+002  +1.3655926450E-005 -1.5634960168E+002  +8.2377388360E-001 +1.7736739849E+001 
9753.653 +8.2641404513E-001 +1.7783588012E+001  +1.2156167958E-005 +9.7192276844E+001  +5.0169645449E-005 -6.2900183901E+001  +8.2628592691E-001 +1.7762184261E+001 
9825.220 +8.2875448299E-001 +1.7792757298E+001  +8.5808208238E-006 +2.0338030425E+000  +1.4417079892E-005 +1.7384832940E+002  +8.2856924758E-001 +1.7793444034E+001 
9897.312 +8.3159233726E-001 +1.7807090729E+001  +1.7155585839E-005 +1.6709876981E+002  +3.3171719961E-005 +7.0974155884E+001  +8.3153747213E-001 +1.7796997120E+001 
9969.933 +8.3425072170E-001 +1.7842710599E+001  +7.8366520346E-006 -7.0937388435E+001  +3.2684654233E-005 +1.3213927245E+002  +8.3397460509E-001 +1.7834668040E+001 
10043.087 +8.3689940161E-001 +1.7851752366E+001  +3.1893629785E-005 -4.4866589976E+001  +2.0354432608E-005 +4.5712486221E+001  +8.3675861757E-001 +1.7849512325E+001 
10116.778 +8.3961451276E-001 +1.7854522685E+001  +3.5915624106E-005 +3.9553222440E+001  +1.6677863493E-005 +3.2064358610E+001  +8.3930856311E-001 +1.7856250914E+001 
10191.009 +8.4191961958E-001 +1.7880510439E+001  +2.9092867428E-005 +1.0283270956E+002  +3.1426301019E-005 +3.8484362144E+001  +8.4203805189E-001 +1.7883495436E+001 
10265.785 +8.4505226714E-001 +1.7889715738E+001  +1.6167848133E-005 -3.0300291598E+001  +2.5356192399E-005 -9.8892509094E+001  +8.4491173003E-001 +1.7874514358E+001 
10341.110 +8.4792045911E-001 +1.7897156745E+001  +8.6157471611E-006 -5.2420478248E+000  +1.1028127715E-005 +1.6507370808E+002  +8.4770279965E-001 +1.7896986167E+001 
10416.987 +8.5062457523E-001 +1.7893592298E+001  +2.4628036485E-005 +1.2600019974E+002  +6.1532544499E-006 +1.6094653521E+002  +8.5053975166E-001 +1.7899272618E+001 
10493.421 +8.5344959279E-001 +1.7894208703E+001  +2.9361810973E-005 +2.4281796954E+001  +1.6165249525E-005 +5.2256026932E+001  +8.5349967187E-001 +1.7891428771E+001 
10570.416 +8.5623914872E-001 +1.7880599920E+001  +1.6352527440E-005 +1.2921737302E+002  +3.1470186296E-005 -1.6994453873E+002  +8.5641665527E-001 +1.7871418233E+001 
10647.976 +8.5898025324E-001 +1.7884598163E+001  +1.7816056788E-005 +5.6233113004E+001  +6.8874865682E-006 -8.4161603938E+000  +8.5901796996E-001 +1.7877647747E+001 
10726.105 +8.6212238054E-001 +1.7865068521E+001  +2.1724342552E-005 -3.4596903357E+001  +1.2122316751E-005 +1.0261309173E+002  +8.6186911360E-001 +1.7861203177E+001 
10804.808 +8.6525644846E-001 +1.7852128307E+001  +2.5467403642E-005 +2.2953393886E+001  +2.8143001393E-005 +1.1342148772E+002  +8.6499808038E-001 +1.7844180665E+001 
10884.087 +8.6815687559E-001 +1.7839794169E+001  +1.5401442417E-005 -6.6850877906E+000  +1.7683586245E-005 +3.2439556062E+001  +8.6793231778E-001 +1.7831478525E+001 
10963.949 +8.7117038201E-001 +1.7799663963E+001  +1.4922194092E-005 -1.6869411712E+002  +2.5265403278E-005 -5.2512570882E+001  +8.7099072668E-001 +1.7804590810E+001 
11044.396 +8.7406802566E-001 +1.7792598100E+001  +5.8366810111E-006 -1.0776258101E+002  +3.6245704891E-005 +1.0353835266E+002  +8.7408036869E-001 +1.7801944609E+001 
11125.434 +8.7646200741E-001 +1.7790968956E+001  +1.8857610690E-005 -1.7499428104E+002  +1.3706207294E-005 +4.4409906484E+001  +8.7641330258E-001 +1.7780456643E+001 
11207.066 +8.7916835911E-001 +1.7761866580E+001  +8.4594132837E-006 +1.7716318236E+002  +2.5865870802E-005 +1.7365098118E+002  +8.7911593146E-001 +1.7760750244E+001 
11289.298 +8.8155019443E-001 +1.7761482444E+001  +1.5580682195E-005 +8.9955178149E+001  +3.0693847274E-005 +1.7512226878E+002  +8.8147699318E-001 +1.7761729149E+001 
11372.132 +8.8411710246E-001 +1.7734895490E+001  +9.0146525201E-006 +1.4449294076E+002  +3.2090621108E-005 +7.5117488853E+001  +8.8406420637E-001 +1.7734460837E+001 
11455.575 +8.8692809810E-001 +1.7714993822E+001  +2.1313658445E-005 +1.2304862126E+002  +1.5861719121E-005 -9.2060512561E+001  +8.8686221224E-001 +1.7713323685E+001 
11539.630 +8.8948703136E-001 +1.7686569311E+001  +3.6635183278E-005 -4.6169957587E+001  +1.3384605073E-005 -1.2072578686E+002  +8.8929701930E-001 +1.7682774437E+001 
11624.301 +8.9195117686E-001 +1.7655230039E+001  +1.0424229226E-005 -4.6268821829E+001  +7.9603075827E-006 +3.7796542844E+001  +8.9192637075E-001 +1.7645410821E+001 
11709.594 +8.9455284609E-001 +1.7620793970E+001  +3.1545843464E-005 -9.9796256445E+001  +3.0499664302E-005 -2.4049835194E+001  +8.9444660026E-001 +1.7621918052E+001 
11795.512 +8.9731492845E-001 +1.7588338170E+001  +2.3351720337E-005 +1.3593583873E+002  +1.5125928459E-005 +8.1995120822E+001  +8.9731968778E-001 +1.7590052456E+001 
11882.062 +8.9981633940E-001 +1.7556494057E+001  +2.6673828357E-005 +7.0515951390E+001  +2.5775231260E-005 +8.3894468517E+001  +8.9986240486E-001 +1.7557850921E+001 
11969.246 +9.0284007716E-001 +1.7514196534E+001  +4.2795346199E-005 +5.0864849563E+001  +8.5166430395E-006 +1.6978800414E+002  +9.0297737985E-001 +1.7514155934E+001 
12057.069 +9.0538746847E-001 +1.7464442512E+001  +2.1716949552E-005 -1.9680275871E+000  +2.3755480424E-005 -1.6879125623E+002  +9.0548346055E-001 +1.7461064680E+001 
12145.538 +9.0823288841E-001 +1.7415558567E+001  +3.1696210383E-005 +1.5503784192E+002  +2.3324531719E-005 +1.4050390294E+001  +9.0813160313E-001 +1.7431101896E+001 
12234.655 +9.1094778891E-001 +1.7379504554E+001  +2.3973771131E-005 +4.8541620375E+001  +2.3738835776E-005 -4.6270196881E+001  +9.1077178706E-001 +1.7381537868E+001 
12324.426 +9.1366469934E-001 +1.7318776437E+001  +2.1157236994E-005 +1.2757926773E+002  +3.3242300262E-005 +5.6169263209E+001  +9.1376320216E-001 +1.7318533872E+001 
12414.856 +9.1641214495E-001 +1.7263870167E+001  +5.7270564137E-006 -1.1277098124E+001  +1.9602860913E-005 -2.2721651158E+001  +9.1631621670E-001 +1.7262967171E+001 
12505.949 +9.1930898166E-001 +1.7202984838E+001  +1.4641869668E-005 -1.3821132106E+002  +2.3907137642E-005 +1.0467104404E+002  +9.1931143486E-001 +1.7215030159E+001 
12597.711 +9.2133546975E-001 +1.7177121075E+001  +2.7820952303E-005 -1.0922905844E+002  +1.9352080606E-005 -1.5746748067E+002  +9.2124754590E-001 +1.7178008228E+001 
12690.146 +9.2393750511E-001 +1.7133383791E+001  +4.0655997952E-005 +6.9388446558E+001  +1.4310766848E-005 +1.1485242214E+002  +9.2402117703E-001 +1.7129299519E+001 
12783.260 +9.2636223439E-001 +1.7080569687E+001  +2.0767073744E-005 +1.0977183055E+002  +1.8334082521E-005 +9.9125083342E+001  +9.2619846380E-001 +1.7084066485E+001 
12877.056 +9.2878879001E-001 +1.7035660558E+001  +1.0257491601E-005 -2.3465648969E+001  +2.4557010940E-005 -1.6044076241E+002  +9.2889421817E-001 +1.7027365812E+001 
12971.541 +9.3120125596E-001 +1.6976167909E+001  +2.6698641940E-005 -1.0755654112E+002  +4.5839186633E-005 -1.6025671729E+002  +9.3106757368E-001 +1.6978201811E+001 
13066.719 +9.3335761631E-001 +1.6922592024E+001  +4.5477097554E-005 +1.0772547725E+002  +1.3636376845E-005 +1.0705507830E+002  +9.3328674360E-001 +1.6910160227E+001 
13162.595 +9.3585637904E-001 +1.6873957144E+001  +4.0623046310E-005 -8.0390085529E+001  +2.7710400960E-005 +6.9401155156E+001  +9.3579066638E-001 +1.6876672504E+001 
13259.175 +9.3822633227E-001 +1.6820068554E+001  +1.9638610271E-005 -4.7050540990E+001  +5.5713554770E-005 +1.1331163622E+002  +9.3830359424E-001 +1.6824631051E+001 
13356.464 +9.4057458590E-001 +1.6754391352E+001  +2.0488858445E-005 +4.0096307931E+001  +2.5420107009E-005 -1.4238024076E+002  +9.4066180603E-001 +1.6749040413E+001 
13454.466 +9.4309623189E-001 +1.6694774463E+001  +2.4324254242E-005 +1.4975112207E+002  +1.3316365707E-005 +1.7144458958E+002  +9.4303973221E-001 +1.6682492427E+001 
13553.188 +9.4534231111E-001 +1.6618822389E+001  +9.2410537662E-006 +1.6169748147E+002  +3.5216512584E-005 +1.2185633863E+002  +9.4532508161E-001 +1.6624152146E+001 
13652.634 +9.4765459401E-001 +1.6558906268E+001  +2.1571531137E-005 +7.2338184145E+001  +2.5027163108E-005 +1.0710393809E+002  +9.4769441523E-001 +1.6560175456E+001 
13752.809 +9.5026172198E-001 +1.6487134558E+001  +1.3576437316E-005 +1.3987978861E+002  +1.7588001248E-005 -1.0934264959E+002  +9.5018704703E-001 +1.6483394055E+001 
13853.720 +9.5275565067E-001 +1.6410762506E+001  +7.7838312006E-006 -9.6618398104E+001  +3.5929445912E-005 +7.9212420837E+001  +9.5269518216E-001 +1.6405189427E+001 
13955.371 +9.5531757615E-001 +1.6351985987E+001  +3.1986887882E-005 +6.4428452493E+001  +2.8977641542E-005 +1.4997342761E+002  +9.5522753926E-001 +1.6343253782E+001 
14057.768 +9.5729750515E-001 +1.6266606253E+001  +3.3916475304E-005 +7.2539734015E+001  +4.6369410021E-005 +9.2134450123E+001  +9.5738637237E-001 +1.6258826808E+001 
14160.916 +9.5994335421E-001 +1.6192267907E+001  +2.8946595084E-005 -1.7715225311E+002  +1.0292779020E-005 +1.1507919483E+002  +9.5981155905E-001 +1.6184745312E+001 
14264.821 +9.6241659052E-001 +1.6114400836E+001  +3.1229302377E-005 +1.4906911845E+002  +3.7647104566E-005 +6.6766644301E+001  +9.6235559576E-001 +1.6105600626E+001 
14369.488 +9.6446183276E-001 +1.6043652921E+001  +6.6227246313E-005 +4.3807165293E+001  +2.2169206519E-005 -9.8580640008E+001  +9.6445662703E-001 +1.6048137461E+001 
14474.924 +9.6624229879E-001 +1.5989709091E+001  +2.6002807342E-005 -2.0365987450E+001  +2.3791570835E-005 -1.5716052152E+002  +9.6623425304E-001 +1.5989263050E+001 
14581.133 +9.6841424558E-001 +1.5930822501E+001  +1.7759750214E-005 -1.3497522096E+002  +3.2482701444E-005 -6.8110299236E+001  +9.6831106411E-001 +1.5922743211E+001 
14688.121 +9.6992493413E-001 +1.5885704911E+001  +2.5690362334E-005 +1.0191769911E+002  +1.2919439125E-005 -1.0432815386E+002  +9.6995860114E-001 +1.5872312408E+001 
14795.895 +9.7188555687E-001 +1.5828111041E+001  +1.2287201545E-005 +1.7337581553E+001  +3.3865933599E-005 +1.7664981539E+002  +9.7176879124E-001 +1.5813612923E+001 
14904.459 +9.7391873750E-001 +1.5749068778E+001  +3.2781957849E-005 -1.1937504370E+002  +4.9514817703E-005 +8.4528919980E+001  +9.7370650344E-001 +1.5754791802E+001 
15013.820 +9.7559451961E-001 +1.5692436323E+001  +4.1645101752E-005 -1.6916368180E+002  +1.9706608464E-005 -6.9167222632E+001  +9.7560436708E-001 +1.5691375752E+001 
15123.983 +9.7757400857E-001 +1.5649517056E+001  +1.5525960046E-005 -1.7830862172E+002  +4.2119210597E-005 +5.3834869213E+001  +9.7755815391E-001 +1.5640317611E+001 
15234.954 +9.7953283803E-001 +1.5567266285E+001  +3.0374389371E-005 +1.5453379957E+002  +9.0510374680E-006 +2.5714998915E+001  +9.7953458486E-001 +1.5573828512E+001 
15346.740 +9.8125126190E-001 +1.5508914985E+001  +2.9375098678E-005 +8.0692614799E+001  +1.9451748493E-005 -1.4505967021E+002  +9.8146298247E-001 +1.5499370093E+001 
15459.346 +9.8313601519E-001 +1.5445881277E+001  +3.4954419351E-005 +5.2374034978E+001  +3.4270701406E-005 +1.6190066439E+002  +9.8332021048E-001 +1.5445511847E+001 
15572.778 +9.8508995146E-001 +1.5382709080E+001  +4.8636588268E-005 -1.0540152672E+002  +2.7531036548E-005 +5.2723985493E+001  +9.8493491935E-001 +1.5383665504E+001 
15687.043 +9.8699266907E-001 +1.5302109365E+001  +3.6386461371E-005 +1.7438396212E+002  +2.7840499052E-005 -1.6519762057E+002  +9.8706367671E-001 +1.5304640393E+001 
15802.146 +9.8889101133E-001 +1.5226984005E+001  +9.0419929531E-006 -9.7576662648E+001  +4.2649083158E-005 -1.6053774748E+002  +9.8879679611E-001 +1.5221839152E+001 
15918.093 +9.9055894781E-001 +1.5148695664E+001  +5.8278127071E-005 +7.7930528137E+001  +1.7094440568E-005 -9.0730633703E+001  +9.9060751135E-001 +1.5156258924E+001 
16034.892 +9.9249514800E-001 +1.5073529701E+001  +2.3485238117E-005 +1.7290909923E+002  +7.0986138531E-006 +1.0466518749E+002  +9.9251909980E-001 +1.5078041057E+001 
16152.547 +9.9418699593E-001 +1.5010724348E+001  +3.2808901427E-005 +8.9156122752E+001  +1.5842826713E-005 +2.8678502849E+001  +9.9438340039E-001 +1.5006953775E+001 
16271.065 +9.9621900114E-001 +1.4924757232E+001  +3.3416860968E-005 +8.8104949278E+001  +1.7254777366E-005 -8.5206086113E+001  +9.9614128709E-001 +1.4926542958E+001 
16390.454 +9.9806269734E-001 +1.4843372895E+001  +5.5194327865E-005 -1.2744584625E+002  +3.3013649627E-005 +1.4800607116E+002  +9.9793456579E-001 +1.4854577193E+001 
16510.718 +9.9989086355E-001 +1.4776148959E+001  +3.5938924367E-005 +1.5304990743E+002  +1.4083443201E-005 +7.4115279822E+001  +9.9982648025E-001 +1.4752795000E+001 
16631.864 +1.0017044476E+000 +1.4681312095E+001  +1.8869729277E-005 +2.2750288813E+001  +2.5969398188E-005 +4.9146705723E+001  +1.0017199185E+000 +1.4669834524E+001 
16753.900 +1.0033110591E+000 +1.4597736167E+001  +2.1190723210E-005 +3.7290762452E+001  +1.8332824169E-005 -1.2959827685E+002  +1.0035089750E+000 +1.4602100882E+001 
16876.831 +1.0051992796E+000 +1.4508438340E+001  +9.8530843953E-006 -1.7925213520E+002  +3.5694335371E-005 -1.7489532915E+001  +1.0051147847E+000 +1.4507470168E+001 
17000.664 +1.0071481077E+000 +1.4420718331E+001  +2.5164995700E-005 +6.5587605447E+001  +4.0416595388E-005 +5.8933516525E+001  +1.0071279429E+000 +1.4431135639E+001 
17125.405 +1.0089293021E+000 +1.4349529181E+001  +1.9257496242E-005 +1.3019081247E+002  +5.4293552475E-005 +1.7780613342E+002  +1.0087522870E+000 +1.4345455626E+001 
17251.062 +1.0107934182E+000 +1.4238837537E+001  +2.1924283175E-005 +6.7882625928E+001  +4.0429689110E-006 +2.3007000271E+001  +1.0104326079E+000 +1.4238694290E+001 
17377.641 +1.0124218180E+000 +1.4154990336E+001  +4.9095379611E-005 +1.1236216902E+002  +1.6908854880E-005 -1.4689582472E+002  +1.0124430724E+000 +1.4149330653E+001 
17505.149 +1.0142300085E+000 +1.4060629783E+001  +4.0927467779E-005 +1.0495967281E+002  +3.1465370427E-005 +7.5211650020E+000  +1.0142109209E+000 +1.4057294119E+001 
17633.592 +1.0158599965E+000 +1.3969780961E+001  +4.5129086811E-005 +1.1015319232E+002  +2.3792279636E-005 +1.0252535700E+002  +1.0159070494E+000 +1.3968152597E+001 
17762.977 +1.0175515883E+000 +1.3863585059E+001  +1.2157561042E-005 -1.3578620338E+002  +3.5732541713E-005 +4.6487767335E+001  +1.0175859144E+000 +1.3864609161E+001 
17893.312 +1.0192528794E+000 +1.3775275728E+001  +1.4539885668E-005 +1.3146333358E+002  +2.1392650863E-005 +1.0599776029E+002  +1.0192781137E+000 +1.3771239380E+001 
18024.604 +1.0211801147E+000 +1.3667442189E+001  +1.8239975042E-005 -4.3870742390E+000  +3.6048248583E-005 +2.2716391598E+001  +1.0212522764E+000 +1.3670716553E+001 
18156.858 +1.0229566949E+000 +1.3568230159E+001  +2.6693385973E-005 +6.2981852060E+001  +4.6931696673E-005 +1.2678533401E+002  +1.0227832852E+000 +1.3571871296E+001 
18290.084 +1.0245822387E+000 +1.3465453207E+001  +1.1802227778E-005 -1.2649819333E+002  +4.3257842137E-005 -4.4346647236E+001  +1.0245952362E+000 +1.3460600917E+001 
18424.286 +1.0263909307E+000 +1.3368210980E+001  +1.5822004306E-005 +9.2582461449E+001  +2.7390109984E-005 +1.6732327780E+001  +1.0261204409E+000 +1.3362551205E+001 
18559.473 +1.0278483603E+000 +1.3244872208E+001  +3.5904146860E-005 -1.1121684953E+002  +3.7370609504E-005 +1.5773732112E+001  +1.0280146281E+000 +1.3244050187E+001 
18695.653 +1.0296278070E+000 +1.3150617872E+001  +5.1204806585E-005 +1.2989415015E+002  +1.8503172711E-005 -8.3393679217E+001  +1.0297933725E+000 +1.3146490434E+001 
18832.831 +1.0312943871E+000 +1.3027428530E+001  +2.7169115417E-005 +1.6196437341E+002  +5.0127660393E-005 +5.1191379227E+001  +1.0314883824E+000 +1.3037103132E+001 
18971.016 +1.0329193046E+000 +1.2906753520E+001  +2.1718018630E-005 +1.2980126951E+002  +1.8583638612E-005 +6.1746339473E+001  +1.0329660981E+000 +1.2925053438E+001 
19110.215 +1.0342908873E+000 +1.2830788054E+001  +3.7497692562E-005 +1.2227963092E+002  +1.2840500596E-005 +1.2044838238E+002  +1.0342116696E+000 +1.2824186286E+001 
19250.435 +1.0353064742E+000 +1.2759611337E+001  +2.0701689727E-005 +8.8811400780E+000  +1.7172446230E-005 -3.3457498787E+001  +1.0353958924E+000 +1.2758314116E+001 
19391.685 +1.0365895834E+000 +1.2706598938E+001  +2.0718237629E-005 +1.3902703028E+002  +4.1087583712E-005 +1.6264033395E+002  +1.0366649081E+000 +1.2708377888E+001 
19533.970 +1.0376169273E+000 +1.2641913327E+001  +9.8449585714E-006 +1.0039220947E+002  +7.1928316197E-006 +9.0001443515E+001  +1.0377968059E+000 +1.2640961513E+001 
19677.300 +1.0388251580E+000 +1.2579655391E+001  +1.9782950986E-005 -1.0950352053E+002  +4.6037734435E-005 +4.2521661230E+001  +1.0388062378E+000 +1.2579235640E+001 
19821.681 +1.0396549158E+000 +1.2520227079E+001  +2.2725395754E-005 -1.3698654723E+002  +3.7676772570E-005 -1.4582445455E+002  +1.0399274149E+000 +1.2528753745E+001 
19967.122 +1.0408095788E+000 +1.2462874927E+001  +6.6631871147E-005 +4.8335496694E+001  +1.2671523720E-005 -7.1411598436E+001  +1.0408727129E+000 +1.2461206319E+001 
20113.629 +1.0420269130E+000 +1.2395269650E+001  +2.1278571672E-005 +1.1458374411E+002  +2.2192565492E-005 -9.1604889575E+001  +1.0421507457E+000 +1.2398797778E+001 
20261.212 +1.0430245331E+000 +1.2339090077E+001  +2.0183150696E-005 +1.4228641072E+002  +2.3316273103E-005 +1.0617091105E+002  +1.0430144545E+000 +1.2341890868E+001 
20409.878 +1.0443898268E+000 +1.2278081883E+001  +2.9102474082E-005 +1.0396986329E+001  +3.3442672794E-005 +8.6449545054E+001  +1.0441890510E+000 +1.2264611118E+001 
20559.634 +1.0453892902E+000 +1.2213466160E+001  +2.2868861964E-005 +1.0189205328E+002  +5.2602191848E-005 +1.6825963392E+002  +1.0453026417E+000 +1.2202638530E+001 
20710.490 +1.0464437229E+000 +1.2134044200E+001  +4.7886499199E-005 +1.7534463320E+002  +2.8301767314E-005 +1.0773452578E+002  +1.0461910839E+000 +1.2138766117E+001 
20862.452 +1.0473307518E+000 +1.2070329991E+001  +1.8056938958E-005 -1.5629354529E+002  +2.2482238515E-005 +9.0618158777E+001  +1.0471463525E+000 +1.2066441104E+001 
21015.529 +1.0484135533E+000 +1.2000669356E+001  +1.8563575613E-005 +6.0803552516E+001  +3.5396582047E-005 +6.8188963258E+001  +1.0482505357E+000 +1.1999146121E+001 
