!  2-Port S-parameters saved by WinCal
! VAR MeasName=S-Parameters (CALIBRATED_DATA) read from VNA (P5004A)
! VAR MeasDate=26/04/2024 19:13:59
! VAR NAME=Wafer2_r1_c2_fullform_log
! VAR FILENAME=Wafer2_r1_c2_fullform_log_1.S2P
! VAR DATE=26/04/2024 19:13:59
! VAR PHYS_PORTS=1,2
! VAR ObjTypeName=DATASET
! VAR IndexType=Frequency
!
# Hz S MA R 50
9000.000 +7.7865606731E-001 +1.6533618549E+001  +2.1636981754E-002 +2.3423812747E+000  +2.1973056008E-002 +1.4242777474E+000  +7.7845661772E-001 +1.6500428963E+001 
9066.037 +7.8123754500E-001 +1.6591909790E+001  +2.1643729060E-002 +2.4370343387E+000  +2.2010053591E-002 +1.4814184773E+000  +7.8065203563E-001 +1.6559627520E+001 
9132.559 +7.8333847127E-001 +1.6648368328E+001  +2.1598822347E-002 +2.6207656947E+000  +2.2087287342E-002 +1.5365905073E+000  +7.8277261935E-001 +1.6617328641E+001 
9199.568 +7.8585140948E-001 +1.6715853451E+001  +2.1705931508E-002 +2.6724764508E+000  +2.2086107092E-002 +1.8234686872E+000  +7.8549847689E-001 +1.6686109967E+001 
9267.070 +7.8843739949E-001 +1.6749168176E+001  +2.1668882989E-002 +2.9552306297E+000  +2.2078887888E-002 +2.0038517446E+000  +7.8800555113E-001 +1.6712015421E+001 
9335.066 +7.9079796824E-001 +1.6814898019E+001  +2.1718640709E-002 +2.8679676123E+000  +2.2132978660E-002 +2.2872040140E+000  +7.9017594360E-001 +1.6784383195E+001 
9403.562 +7.9328715444E-001 +1.6864146985E+001  +2.1747892016E-002 +3.1185521718E+000  +2.2181858817E-002 +2.3576605803E+000  +7.9285779180E-001 +1.6823465694E+001 
9472.560 +7.9578594950E-001 +1.6892924147E+001  +2.1765712908E-002 +3.4448344292E+000  +2.2196104659E-002 +2.3196850051E+000  +7.9537423932E-001 +1.6852252786E+001 
9542.065 +7.9849573928E-001 +1.6911165132E+001  +2.1804135866E-002 +3.4439297738E+000  +2.2250198624E-002 +2.6304201501E+000  +7.9794969383E-001 +1.6874255798E+001 
9612.079 +8.0066557331E-001 +1.6956101720E+001  +2.1831439701E-002 +3.5727172648E+000  +2.2294368034E-002 +2.9249127467E+000  +8.0027785143E-001 +1.6907496626E+001 
9682.607 +8.0324636992E-001 +1.6972747038E+001  +2.1873402952E-002 +3.6989786275E+000  +2.2347919020E-002 +3.0743482862E+000  +8.0278433683E-001 +1.6935838800E+001 
9753.653 +8.0559152220E-001 +1.7018582529E+001  +2.1887335203E-002 +3.9233958016E+000  +2.2295423221E-002 +3.0658661685E+000  +8.0512151935E-001 +1.6968918044E+001 
9825.220 +8.0784511212E-001 +1.7034482269E+001  +2.2025003957E-002 +4.0220195559E+000  +2.2340677127E-002 +3.2481713875E+000  +8.0723844554E-001 +1.6998360974E+001 
9897.312 +8.1068692422E-001 +1.7039529074E+001  +2.2028626375E-002 +4.2000211669E+000  +2.2431255343E-002 +3.3206418251E+000  +8.1014060528E-001 +1.7003652669E+001 
9969.933 +8.1299980486E-001 +1.7075535048E+001  +2.2061464922E-002 +4.2446145243E+000  +2.2445390579E-002 +3.5369647864E+000  +8.1243350949E-001 +1.7053933103E+001 
10043.087 +8.1547175230E-001 +1.7098656623E+001  +2.2032931522E-002 +4.4027466916E+000  +2.2453956434E-002 +3.6376900357E+000  +8.1502349396E-001 +1.7061890610E+001 
10116.778 +8.1813839046E-001 +1.7106723133E+001  +2.2118963230E-002 +4.6040322885E+000  +2.2469023675E-002 +3.6874965394E+000  +8.1745239990E-001 +1.7068664038E+001 
10191.009 +8.2037435743E-001 +1.7130194988E+001  +2.2178917165E-002 +4.6971877462E+000  +2.2551176573E-002 +3.8870461623E+000  +8.1988464212E-001 +1.7094315442E+001 
10265.785 +8.2329001428E-001 +1.7131850561E+001  +2.2185992376E-002 +4.8587575949E+000  +2.2546287474E-002 +3.9851863908E+000  +8.2270791412E-001 +1.7103775773E+001 
10341.110 +8.2592560583E-001 +1.7150887168E+001  +2.2282617136E-002 +4.8493398299E+000  +2.2545970873E-002 +4.1627126050E+000  +8.2533739869E-001 +1.7115609192E+001 
10416.987 +8.2849428842E-001 +1.7141644490E+001  +2.2269305194E-002 +5.0692426248E+000  +2.2620287061E-002 +4.1556185041E+000  +8.2800250160E-001 +1.7118773351E+001 
10493.421 +8.3122608387E-001 +1.7146021340E+001  +2.2200793715E-002 +5.2269634432E+000  +2.2673777846E-002 +4.3784905675E+000  +8.3061685790E-001 +1.7120329343E+001 
10570.416 +8.3375660821E-001 +1.7140647737E+001  +2.2351736542E-002 +5.2988405862E+000  +2.2694840462E-002 +4.5940099654E+000  +8.3349738863E-001 +1.7108896331E+001 
10647.976 +8.3639302265E-001 +1.7141965332E+001  +2.2273907940E-002 +5.4531114409E+000  +2.2700106193E-002 +4.5893079369E+000  +8.3597873760E-001 +1.7114545476E+001 
10726.105 +8.3942329496E-001 +1.7134345779E+001  +2.2446766384E-002 +5.5186919203E+000  +2.2817037567E-002 +4.7538871214E+000  +8.3874263158E-001 +1.7099445182E+001 
10804.808 +8.4228975675E-001 +1.7118040940E+001  +2.2468030104E-002 +5.7035839411E+000  +2.2808264536E-002 +4.7871505687E+000  +8.4167005354E-001 +1.7085377033E+001 
10884.087 +8.4516259563E-001 +1.7120018707E+001  +2.2533960674E-002 +5.7493862529E+000  +2.2852377500E-002 +4.9769788925E+000  +8.4442122316E-001 +1.7091914083E+001 
10963.949 +8.4789007935E-001 +1.7076413462E+001  +2.2565272918E-002 +5.9233817885E+000  +2.2837393024E-002 +5.1858910782E+000  +8.4738848398E-001 +1.7051948090E+001 
11044.396 +8.5061584141E-001 +1.7068243884E+001  +2.2582764027E-002 +6.0231674334E+000  +2.2920795611E-002 +5.3220667060E+000  +8.5015404025E-001 +1.7044982638E+001 
11125.434 +8.5287607536E-001 +1.7074385467E+001  +2.2663650463E-002 +6.0931224381E+000  +2.2916517631E-002 +5.3321578616E+000  +8.5234528804E-001 +1.7032309845E+001 
11207.066 +8.5543328190E-001 +1.7049238148E+001  +2.2689232244E-002 +6.2907374425E+000  +2.3013002246E-002 +5.3663632395E+000  +8.5487861980E-001 +1.7016278711E+001 
11289.298 +8.5757875751E-001 +1.7041851009E+001  +2.2708052436E-002 +6.5144908501E+000  +2.3059811645E-002 +5.5727890227E+000  +8.5702259594E-001 +1.7024286844E+001 
11372.132 +8.6001513597E-001 +1.7019233571E+001  +2.2725583280E-002 +6.3552225297E+000  +2.3141795493E-002 +5.5981244771E+000  +8.5952605915E-001 +1.6999946728E+001 
11455.575 +8.6281686809E-001 +1.7005052280E+001  +2.2794222157E-002 +6.6320499308E+000  +2.3142803986E-002 +5.7633161193E+000  +8.6217053650E-001 +1.6975168237E+001 
11539.630 +8.6524538661E-001 +1.6979396893E+001  +2.2843895917E-002 +6.6878383665E+000  +2.3177856114E-002 +5.8380923212E+000  +8.6448011998E-001 +1.6957747485E+001 
11624.301 +8.6754225247E-001 +1.6949462897E+001  +2.2940141749E-002 +6.7375074796E+000  +2.3227234118E-002 +6.0695875276E+000  +8.6686215551E-001 +1.6931757766E+001 
11709.594 +8.6999794019E-001 +1.6932475165E+001  +2.2958435707E-002 +6.9749447817E+000  +2.3226903130E-002 +6.1046976912E+000  +8.6925061753E-001 +1.6898806887E+001 
11795.512 +8.7246180029E-001 +1.6892077681E+001  +2.2902119432E-002 +6.9878718814E+000  +2.3318509014E-002 +6.2399582486E+000  +8.7205502590E-001 +1.6870984947E+001 
11882.062 +8.7482209624E-001 +1.6863311938E+001  +2.3060757897E-002 +7.1805516405E+000  +2.3354372335E-002 +6.1124888467E+000  +8.7436849462E-001 +1.6836539122E+001 
11969.246 +8.7779527565E-001 +1.6823779955E+001  +2.3125315605E-002 +7.2235221339E+000  +2.3354755338E-002 +6.3671996379E+000  +8.7724761170E-001 +1.6790471224E+001 
12057.069 +8.8014950590E-001 +1.6770272705E+001  +2.3099014588E-002 +7.2421207778E+000  +2.3435958243E-002 +6.4728640509E+000  +8.7950026973E-001 +1.6756054056E+001 
12145.538 +8.8281864627E-001 +1.6722883385E+001  +2.3156548025E-002 +7.4411906396E+000  +2.3401389125E-002 +6.8395996463E+000  +8.8218738161E-001 +1.6724740534E+001 
12234.655 +8.8548392340E-001 +1.6706305878E+001  +2.3207906650E-002 +7.4974621213E+000  +2.3540870430E-002 +6.6879223702E+000  +8.8463084205E-001 +1.6673154257E+001 
12324.426 +8.8797756536E-001 +1.6637367546E+001  +2.3189897041E-002 +7.4374348628E+000  +2.3512768498E-002 +6.7994178562E+000  +8.8741865264E-001 +1.6624305391E+001 
12414.856 +8.9056101947E-001 +1.6592609908E+001  +2.3310660644E-002 +7.5869989808E+000  +2.3625680559E-002 +6.8459540052E+000  +8.8987963853E-001 +1.6567115188E+001 
12505.949 +8.9343227478E-001 +1.6536066339E+001  +2.3292525646E-002 +7.6648241053E+000  +2.3726130021E-002 +7.0254549908E+000  +8.9270149194E-001 +1.6529554032E+001 
12597.711 +8.9520799622E-001 +1.6518264028E+001  +2.3339053131E-002 +7.8633780046E+000  +2.3700969343E-002 +7.1648369080E+000  +8.9443642009E-001 +1.6490272988E+001 
12690.146 +8.9769987894E-001 +1.6462691468E+001  +2.3374086793E-002 +7.8690393509E+000  +2.3726541335E-002 +7.1652933169E+000  +8.9721849195E-001 +1.6445124403E+001 
12783.260 +8.9986420345E-001 +1.6421296775E+001  +2.3481806589E-002 +7.9712894370E+000  +2.3798866948E-002 +7.2611947993E+000  +8.9919671104E-001 +1.6405411479E+001 
12877.056 +9.0224844469E-001 +1.6372130444E+001  +2.3575123681E-002 +8.0812671449E+000  +2.3837053031E-002 +7.4885930707E+000  +9.0158899077E-001 +1.6356586445E+001 
12971.541 +9.0439729253E-001 +1.6324476813E+001  +2.3538921305E-002 +8.1135835867E+000  +2.3914135633E-002 +7.3253891873E+000  +9.0376768208E-001 +1.6301172500E+001 
13066.719 +9.0652013749E-001 +1.6267250534E+001  +2.3637989903E-002 +8.3212625580E+000  +2.3954437855E-002 +7.6527011483E+000  +9.0573961728E-001 +1.6253667409E+001 
13162.595 +9.0887225394E-001 +1.6229986829E+001  +2.3633224968E-002 +8.3496331668E+000  +2.4022034995E-002 +7.6255877877E+000  +9.0809648441E-001 +1.6214781100E+001 
13259.175 +9.1103897006E-001 +1.6182531587E+001  +2.3690026249E-002 +8.4412322658E+000  +2.4032178149E-002 +7.5141224497E+000  +9.1042388905E-001 +1.6154573413E+001 
13356.464 +9.1348537353E-001 +1.6114457420E+001  +2.3850525199E-002 +8.3549498902E+000  +2.4104283390E-002 +7.7783552340E+000  +9.1269999491E-001 +1.6089907119E+001 
13454.466 +9.1567795192E-001 +1.6057264535E+001  +2.3761840782E-002 +8.5290011780E+000  +2.4136510084E-002 +7.7880320758E+000  +9.1488701134E-001 +1.6032021334E+001 
13553.188 +9.1791112598E-001 +1.6000048716E+001  +2.3845869116E-002 +8.7305250703E+000  +2.4165016933E-002 +7.9171480814E+000  +9.1713765102E-001 +1.5970544444E+001 
13652.634 +9.2012431133E-001 +1.5940500593E+001  +2.3898335680E-002 +8.6238588315E+000  +2.4245814872E-002 +7.9268119812E+000  +9.1936805448E-001 +1.5918669474E+001 
13752.809 +9.2251715156E-001 +1.5871049724E+001  +2.4001381849E-002 +8.7564378421E+000  +2.4325981355E-002 +7.9831058796E+000  +9.2181441358E-001 +1.5843382844E+001 
13853.720 +9.2485163771E-001 +1.5788978992E+001  +2.3996829574E-002 +8.8410007278E+000  +2.4331470213E-002 +8.1983377882E+000  +9.2405455236E-001 +1.5774856131E+001 
13955.371 +9.2727113616E-001 +1.5742171965E+001  +2.4071862932E-002 +8.9812043930E+000  +2.4412986883E-002 +8.2212266515E+000  +9.2643728974E-001 +1.5708347067E+001 
14057.768 +9.2922937408E-001 +1.5653628833E+001  +2.4194048763E-002 +8.8799836306E+000  +2.4475978958E-002 +8.2604404605E+000  +9.2856038983E-001 +1.5633273395E+001 
14160.916 +9.3165353175E-001 +1.5582366909E+001  +2.4127179657E-002 +8.9238390775E+000  +2.4476498305E-002 +8.3000995257E+000  +9.3086921650E-001 +1.5564575186E+001 
14264.821 +9.3388764868E-001 +1.5510813111E+001  +2.4232000837E-002 +9.1979941403E+000  +2.4598372436E-002 +8.4163620597E+000  +9.3314511734E-001 +1.5501738397E+001 
14369.488 +9.3585683812E-001 +1.5451757534E+001  +2.4380678277E-002 +9.0890836550E+000  +2.4579817880E-002 +8.4981343986E+000  +9.3517413717E-001 +1.5436222659E+001 
14474.924 +9.3755166473E-001 +1.5389382509E+001  +2.4362049434E-002 +9.2043928005E+000  +2.4621741820E-002 +8.6095889207E+000  +9.3685255302E-001 +1.5385857470E+001 
14581.133 +9.3955367960E-001 +1.5342125294E+001  +2.4380803867E-002 +9.2072948522E+000  +2.4733227832E-002 +8.5514914855E+000  +9.3884874347E-001 +1.5331709027E+001 
14688.121 +9.4094032850E-001 +1.5297122474E+001  +2.4454328910E-002 +9.4273547649E+000  +2.4773191544E-002 +8.7056533327E+000  +9.4021535592E-001 +1.5279350826E+001 
14795.895 +9.4271066621E-001 +1.5246634388E+001  +2.4509997556E-002 +9.4456323221E+000  +2.4803331003E-002 +8.7191055449E+000  +9.4216878374E-001 +1.5223070330E+001 
14904.459 +9.4463489128E-001 +1.5173765475E+001  +2.4535793095E-002 +9.3122609756E+000  +2.4869882534E-002 +8.7719578698E+000  +9.4374864000E-001 +1.5160260229E+001 
15013.820 +9.4634522621E-001 +1.5117346589E+001  +2.4625880286E-002 +9.5159999772E+000  +2.4894998755E-002 +8.7995596944E+000  +9.4573975349E-001 +1.5108460203E+001 
15123.983 +9.4821496661E-001 +1.5082817222E+001  +2.4678059504E-002 +9.5179884145E+000  +2.4938415262E-002 +8.9104188268E+000  +9.4734217534E-001 +1.5061876192E+001 
15234.954 +9.4999198989E-001 +1.5005931170E+001  +2.4698649234E-002 +9.7074736299E+000  +2.4977569976E-002 +8.8956855112E+000  +9.4938114109E-001 +1.4992645544E+001 
15346.740 +9.5163152844E-001 +1.4946896278E+001  +2.4820663981E-002 +9.6446761566E+000  +2.5051588474E-002 +9.0271880225E+000  +9.5102116350E-001 +1.4931981356E+001 
15459.346 +9.5329528361E-001 +1.4890885271E+001  +2.4810630068E-002 +9.7066938597E+000  +2.5078822359E-002 +9.0846934220E+000  +9.5297044309E-001 +1.4872635451E+001 
15572.778 +9.5523418545E-001 +1.4830120062E+001  +2.4872371919E-002 +9.7158983719E+000  +2.5191320911E-002 +9.1600089182E+000  +9.5444004408E-001 +1.4812682299E+001 
15687.043 +9.5696035014E-001 +1.4754915523E+001  +2.4990012276E-002 +9.8093555674E+000  +2.5210417759E-002 +9.0882186954E+000  +9.5609424486E-001 +1.4742306557E+001 
15802.146 +9.5885736080E-001 +1.4679617806E+001  +2.4998570030E-002 +9.8070810321E+000  +2.5205376391E-002 +9.1219962556E+000  +9.5804622250E-001 +1.4659370496E+001 
15918.093 +9.6038085483E-001 +1.4610344048E+001  +2.5061041101E-002 +9.7149936268E+000  +2.5263262717E-002 +9.1493596174E+000  +9.5973247990E-001 +1.4594971270E+001 
16034.892 +9.6210520682E-001 +1.4534094427E+001  +2.5122781591E-002 +9.9251669738E+000  +2.5345777153E-002 +9.3386082897E+000  +9.6152628408E-001 +1.4531208518E+001 
16152.547 +9.6381802992E-001 +1.4471822398E+001  +2.5122773319E-002 +9.8947973183E+000  +2.5411957014E-002 +9.4196590397E+000  +9.6320239540E-001 +1.4452998756E+001 
16271.065 +9.6562455357E-001 +1.4402168183E+001  +2.5260461424E-002 +9.8741030515E+000  +2.5447979599E-002 +9.3990275035E+000  +9.6498766718E-001 +1.4386830620E+001 
16390.454 +9.6741557601E-001 +1.4325256039E+001  +2.5296948427E-002 +9.9318634694E+000  +2.5524762036E-002 +9.4767920214E+000  +9.6668982271E-001 +1.4315750530E+001 
16510.718 +9.6908571146E-001 +1.4254855235E+001  +2.5353594401E-002 +9.9922751591E+000  +2.5603566766E-002 +9.4457945724E+000  +9.6859939402E-001 +1.4226736849E+001 
16631.864 +9.7085133471E-001 +1.4164434525E+001  +2.5413741126E-002 +9.9839998483E+000  +2.5656669911E-002 +9.4912826405E+000  +9.7007975607E-001 +1.4150093084E+001 
16753.900 +9.7265104825E-001 +1.4086992890E+001  +2.5451112523E-002 +9.9681159229E+000  +2.5693527274E-002 +9.4425375232E+000  +9.7184660578E-001 +1.4080661571E+001 
16876.831 +9.7414123001E-001 +1.4000212466E+001  +2.5492741147E-002 +1.0091089164E+001  +2.5773334872E-002 +9.4948881313E+000  +9.7355349908E-001 +1.3986640300E+001 
17000.664 +9.7589015093E-001 +1.3928508779E+001  +2.5556043554E-002 +1.0112909033E+001  +2.5775241266E-002 +9.5220445687E+000  +9.7539177367E-001 +1.3921110019E+001 
17125.405 +9.7756569741E-001 +1.3851576190E+001  +2.5566145959E-002 +1.0125012583E+001  +2.5857459471E-002 +9.5724696621E+000  +9.7687039582E-001 +1.3838603331E+001 
17251.062 +9.7929550993E-001 +1.3740867272E+001  +2.5686955800E-002 +1.0077545584E+001  +2.5927261236E-002 +9.5998748565E+000  +9.7848558635E-001 +1.3736482520E+001 
17377.641 +9.8092245544E-001 +1.3667807801E+001  +2.5672764637E-002 +1.0035378222E+001  +2.5996090748E-002 +9.5244524598E+000  +9.8031872770E-001 +1.3646487231E+001 
17505.149 +9.8269522421E-001 +1.3583676102E+001  +2.5804994804E-002 +1.0155808062E+001  +2.6009265314E-002 +9.6646901085E+000  +9.8195448275E-001 +1.3573707486E+001 
17633.592 +9.8427812063E-001 +1.3481420719E+001  +2.5847403300E-002 +1.0246570622E+001  +2.6099458562E-002 +9.7200632617E+000  +9.8364356372E-001 +1.3480545741E+001 
17762.977 +9.8580214422E-001 +1.3381007209E+001  +2.5882192251E-002 +1.0160734047E+001  +2.6114170457E-002 +9.6511014222E+000  +9.8530967196E-001 +1.3380872215E+001 
17893.312 +9.8740911698E-001 +1.3304552907E+001  +2.5975508501E-002 +1.0129900275E+001  +2.6200517169E-002 +9.7213311864E+000  +9.8681341309E-001 +1.3292185548E+001 
18024.604 +9.8922061490E-001 +1.3208504134E+001  +2.6006436537E-002 +1.0167617782E+001  +2.6266124486E-002 +9.7722089409E+000  +9.8876964211E-001 +1.3195469423E+001 
18156.858 +9.9106012212E-001 +1.3113587574E+001  +2.6039952129E-002 +1.0321619454E+001  +2.6293750789E-002 +9.7501735338E+000  +9.9030110962E-001 +1.3103657891E+001 
18290.084 +9.9259421018E-001 +1.3011878509E+001  +2.6157612583E-002 +1.0210641442E+001  +2.6403084515E-002 +9.7684208587E+000  +9.9179560947E-001 +1.2995163426E+001 
18424.286 +9.9422123965E-001 +1.2907698984E+001  +2.6254566332E-002 +1.0136983808E+001  +2.6407473254E-002 +9.7535946822E+000  +9.9342005864E-001 +1.2905175887E+001 
18559.473 +9.9564257482E-001 +1.2795611689E+001  +2.6286496678E-002 +1.0291907969E+001  +2.6502044897E-002 +9.7000583491E+000  +9.9519153420E-001 +1.2784973804E+001 
18695.653 +9.9734285710E-001 +1.2705729788E+001  +2.6364441949E-002 +1.0110043497E+001  +2.6462364742E-002 +9.7586086138E+000  +9.9678569343E-001 +1.2703646091E+001 
18832.831 +9.9889637496E-001 +1.2593815310E+001  +2.6351421302E-002 +1.0255764878E+001  +2.6578316050E-002 +9.6667173138E+000  +9.9823631283E-001 +1.2584011762E+001 
18971.016 +1.0002265440E+000 +1.2479960686E+001  +2.6478884174E-002 +1.0209930511E+001  +2.6714420014E-002 +9.7798951341E+000  +9.9987867938E-001 +1.2485044242E+001 
19110.215 +1.0016968738E+000 +1.2396546013E+001  +2.6480492568E-002 +1.0142404983E+001  +2.6722435325E-002 +9.8020567173E+000  +1.0009525244E+000 +1.2390569597E+001 
19250.435 +1.0027378441E+000 +1.2338193849E+001  +2.6562892833E-002 +1.0174183295E+001  +2.6791973948E-002 +9.7739926384E+000  +1.0020158304E+000 +1.2329472531E+001 
19391.685 +1.0040753097E+000 +1.2284384262E+001  +2.6608439690E-002 +1.0013699448E+001  +2.6847262855E-002 +9.7769229180E+000  +1.0031593152E+000 +1.2277358551E+001 
19533.970 +1.0048536086E+000 +1.2224815877E+001  +2.6635952419E-002 +1.0177580303E+001  +2.6896307554E-002 +9.8249699508E+000  +1.0042244829E+000 +1.2225945879E+001 
19677.300 +1.0061371389E+000 +1.2164151661E+001  +2.6714350581E-002 +1.0240227812E+001  +2.6948875572E-002 +9.8546159090E+000  +1.0052660880E+000 +1.2155479617E+001 
19821.681 +1.0069891843E+000 +1.2110843176E+001  +2.6738900854E-002 +1.0305743224E+001  +2.6926706815E-002 +9.7328216777E+000  +1.0062881718E+000 +1.2108881225E+001 
19967.122 +1.0079804838E+000 +1.2055361731E+001  +2.6763862304E-002 +1.0047050790E+001  +2.6984250913E-002 +9.7479952643E+000  +1.0072550972E+000 +1.2040603410E+001 
20113.629 +1.0090007110E+000 +1.1991020156E+001  +2.6793551729E-002 +1.0108962669E+001  +2.7089628897E-002 +9.7786273479E+000  +1.0083733855E+000 +1.1991230006E+001 
20261.212 +1.0100813217E+000 +1.1934746432E+001  +2.6864454002E-002 +1.0125594310E+001  +2.7108263744E-002 +9.7386579319E+000  +1.0093178790E+000 +1.1929729333E+001 
20409.878 +1.0111853542E+000 +1.1875927752E+001  +2.6943141578E-002 +1.0187637385E+001  +2.7140496888E-002 +9.7378132234E+000  +1.0104473094E+000 +1.1861626139E+001 
20559.634 +1.0122575870E+000 +1.1809975692E+001  +2.6974684855E-002 +1.0114741560E+001  +2.7210225131E-002 +9.6759065656E+000  +1.0114069591E+000 +1.1810320928E+001 
20710.490 +1.0131741087E+000 +1.1742893101E+001  +2.7026120286E-002 +1.0139288480E+001  +2.7221652448E-002 +9.7459063820E+000  +1.0122054022E+000 +1.1737105204E+001 
20862.452 +1.0139188305E+000 +1.1679551898E+001  +2.7059505038E-002 +1.0145792155E+001  +2.7306560532E-002 +9.7187594699E+000  +1.0133507202E+000 +1.1669942934E+001 
21015.529 +1.0149604472E+000 +1.1609010957E+001  +2.7078759851E-002 +1.0174762884E+001  +2.7323555623E-002 +9.7081156879E+000  +1.0142590946E+000 +1.1607102674E+001 
