!  2-Port S-parameters saved by WinCal
! VAR MeasName=S-Parameters (CALIBRATED_DATA) read from VNA (P5004A)
! VAR MeasDate=26/04/2024 18:18:17
! VAR NAME=Wafer2_r1_c8_pristine_log
! VAR FILENAME=Wafer2_r1_c8_pristine_log_1.S2P
! VAR DATE=26/04/2024 18:18:17
! VAR PHYS_PORTS=1,2
! VAR ObjTypeName=DATASET
! VAR IndexType=Frequency
!
# Hz S MA R 50
9000.000 +7.9767853596E-001 +1.7310330977E+001  +1.9787519530E-005 -1.2712885157E+002  +3.8783720157E-005 +1.0763522070E+002  +7.9765512040E-001 +1.7307596062E+001 
9066.037 +8.0048089057E-001 +1.7367924246E+001  +3.5528379121E-005 +1.1767803708E+002  +4.2754812676E-005 -4.5627450635E+001  +8.0031071214E-001 +1.7358158698E+001 
9132.559 +8.0259862549E-001 +1.7421680003E+001  +2.8863572804E-005 +1.4377030873E+002  +3.4235981707E-005 -1.4615822033E+002  +8.0243449988E-001 +1.7429123334E+001 
9199.568 +8.0535053317E-001 +1.7491601617E+001  +3.0593549353E-005 +1.5883777097E+002  +3.5429662529E-005 +1.7498784501E+002  +8.0552152474E-001 +1.7492816246E+001 
9267.070 +8.0801087778E-001 +1.7514499413E+001  +8.5859598252E-006 +2.7475692729E+001  +8.3626056277E-006 +1.5677051432E+002  +8.0798229235E-001 +1.7520897710E+001 
9335.066 +8.1056177530E-001 +1.7588588338E+001  +5.3552413167E-005 -1.0289507469E+002  +2.2272973170E-005 -1.6546455259E+002  +8.1043722604E-001 +1.7581615864E+001 
9403.562 +8.1313137695E-001 +1.7631975329E+001  +4.9390072906E-005 +1.3646005621E+002  +3.1225632972E-005 +8.1813133487E+001  +8.1322378959E-001 +1.7632482614E+001 
9472.560 +8.1580126928E-001 +1.7663665933E+001  +4.5443060138E-005 -1.6573026522E-001  +9.4383878930E-006 +7.1082183944E+001  +8.1577595800E-001 +1.7656495319E+001 
9542.065 +8.1867637904E-001 +1.7677672210E+001  +1.9300311987E-005 -2.5651924924E+001  +2.8777258557E-005 -1.0918735923E+002  +8.1849845379E-001 +1.7668035910E+001 
9612.079 +8.2097576296E-001 +1.7731424400E+001  +1.9439928516E-005 -6.2411365010E+001  +6.3851979052E-006 +3.0426896461E+001  +8.2099643619E-001 +1.7712844712E+001 
9682.607 +8.2377867530E-001 +1.7739196913E+001  +1.4922487276E-005 -1.4464809086E+002  +5.0322731434E-005 +1.0059897492E+002  +8.2367268189E-001 +1.7732585952E+001 
9753.653 +8.2645976180E-001 +1.7779371063E+001  +9.6068285088E-006 +8.9127870940E+001  +2.3681781336E-005 -1.5155612605E+002  +8.2615269867E-001 +1.7754802643E+001 
9825.220 +8.2866443226E-001 +1.7793370449E+001  +1.8318864042E-005 +1.1658590176E+002  +1.0578913760E-005 -2.3516442226E+001  +8.2853990329E-001 +1.7787619358E+001 
9897.312 +8.3155439997E-001 +1.7800912321E+001  +2.6057678651E-005 +7.5772146742E+001  +1.7166745011E-005 +9.0518123846E+001  +8.3160089224E-001 +1.7801915313E+001 
9969.933 +8.3414135908E-001 +1.7832999993E+001  +1.7333000188E-005 +5.0902795568E+001  +1.3779202985E-005 -1.7958035105E+001  +8.3400981915E-001 +1.7846381657E+001 
10043.087 +8.3684155571E-001 +1.7854524206E+001  +1.9278155105E-005 -1.6138375336E+002  +1.1658400351E-005 -3.0049837105E+001  +8.3675135256E-001 +1.7852414567E+001 
10116.778 +8.3952567093E-001 +1.7860482460E+001  +3.2800377038E-005 +1.2084683031E+002  +4.7568249382E-005 +4.5149604746E+001  +8.3924865421E-001 +1.7856984941E+001 
10191.009 +8.4204355272E-001 +1.7881921451E+001  +1.6914200360E-005 +2.3033645929E+001  +2.9596886819E-005 -6.4892867884E+000  +8.4189297796E-001 +1.7878378162E+001 
10265.785 +8.4501753816E-001 +1.7884893513E+001  +3.3187058635E-005 +8.5473108064E+001  +1.4025009455E-005 +2.3445687086E+001  +8.4484200347E-001 +1.7873680003E+001 
10341.110 +8.4798250679E-001 +1.7893337707E+001  +1.8660886205E-005 +2.6507018745E+000  +2.4404097128E-005 -5.3829548507E+001  +8.4759192013E-001 +1.7897782879E+001 
10416.987 +8.5065168744E-001 +1.7894688086E+001  +1.0637078084E-005 +1.2869415360E+002  +1.0823332919E-005 -8.8341640682E+001  +8.5054052404E-001 +1.7897513196E+001 
10493.421 +8.5343208734E-001 +1.7888366938E+001  +2.1170018820E-005 -2.4103030381E+001  +4.0891060839E-006 -8.6258414543E+001  +8.5339764346E-001 +1.7888341713E+001 
10570.416 +8.5613984302E-001 +1.7874484954E+001  +2.6931766810E-005 -1.0945784261E+002  +2.5550790280E-005 +1.2830645393E+002  +8.5637642766E-001 +1.7878143834E+001 
10647.976 +8.5893061687E-001 +1.7883982936E+001  +1.0020914189E-005 +7.2658898906E+001  +7.4311664702E-006 +5.8013360877E+001  +8.5893088433E-001 +1.7866201292E+001 
10726.105 +8.6201170087E-001 +1.7864908899E+001  +9.3348455582E-006 -1.2768316691E+002  +1.5266805484E-005 +2.9724418443E+001  +8.6184724936E-001 +1.7870785040E+001 
10804.808 +8.6520773050E-001 +1.7842520707E+001  +3.7365011926E-005 +1.5222380394E+002  +2.3928128847E-005 -9.4239475902E+001  +8.6490354404E-001 +1.7854785598E+001 
10884.087 +8.6819797129E-001 +1.7844702405E+001  +1.2303062129E-005 -1.3294790402E+002  +3.3027529943E-005 +1.5682112591E+002  +8.6807798857E-001 +1.7843827685E+001 
10963.949 +8.7104940456E-001 +1.7793872183E+001  +1.8162565199E-005 -1.1094751363E+002  +7.2264426810E-006 -1.2568296262E+002  +8.7113904406E-001 +1.7807144205E+001 
11044.396 +8.7409893093E-001 +1.7792261878E+001  +8.0387107224E-006 +6.2217080428E+000  +2.1822615473E-005 +4.8322000253E+001  +8.7427985362E-001 +1.7796392993E+001 
11125.434 +8.7637858541E-001 +1.7791419700E+001  +7.5270422222E-006 +6.2903740560E+001  +1.5904515340E-005 -9.1989912398E+001  +8.7648604678E-001 +1.7780981671E+001 
11207.066 +8.7915204379E-001 +1.7771189313E+001  +2.0085877281E-005 -6.3102384251E+000  +1.7729234501E-005 -1.0700593299E+002  +8.7912298822E-001 +1.7760033899E+001 
11289.298 +8.8142098455E-001 +1.7753879852E+001  +7.3599571909E-006 +1.3048448070E+002  +2.3986518064E-005 +2.1937480500E+001  +8.8136147706E-001 +1.7766038876E+001 
11372.132 +8.8393158690E-001 +1.7725868783E+001  +1.6019528283E-005 -1.1887137699E+002  +3.9399421299E-005 +8.0015245860E+001  +8.8411793575E-001 +1.7733327019E+001 
11455.575 +8.8677150777E-001 +1.7710898029E+001  +2.3336339937E-005 -6.1552708065E+001  +2.4810748149E-005 -1.2088101140E+002  +8.8679196420E-001 +1.7710492117E+001 
11539.630 +8.8929416113E-001 +1.7692422363E+001  +3.6539522707E-005 +8.3612956546E+001  +1.5159546849E-005 +1.9286732969E+001  +8.8938089737E-001 +1.7683542429E+001 
11624.301 +8.9209269487E-001 +1.7654124888E+001  +1.9938498047E-005 +1.3056366167E+002  +2.9449409865E-005 -1.4321808600E+002  +8.9197711230E-001 +1.7650099344E+001 
11709.594 +8.9458429191E-001 +1.7617008036E+001  +6.2262263526E-006 +4.2011518477E+001  +1.5924162789E-005 +2.3648968558E+001  +8.9441570199E-001 +1.7618107898E+001 
11795.512 +8.9726482433E-001 +1.7588863265E+001  +2.2305245325E-005 -2.9969569004E+001  +1.2043943466E-005 -4.4245509929E+001  +8.9738754130E-001 +1.7589764904E+001 
11882.062 +8.9998176909E-001 +1.7561225547E+001  +4.2534604202E-005 +1.3244369669E+002  +2.8431880659E-005 +7.4231795318E+001  +8.9981398274E-001 +1.7558611540E+001 
11969.246 +9.0287921516E-001 +1.7511471271E+001  +4.6492450589E-005 -1.7752209117E+002  +2.3020262920E-005 -1.2549548550E+002  +9.0309608171E-001 +1.7512310777E+001 
12057.069 +9.0532847817E-001 +1.7471102103E+001  +3.2852764828E-005 +1.2831948621E+002  +1.7514450156E-005 +1.7732286337E+002  +9.0543663344E-001 +1.7464792250E+001 
12145.538 +9.0828038133E-001 +1.7411403326E+001  +9.3272608686E-006 +5.8225851825E+001  +3.1035707981E-005 +1.7288914195E+002  +9.0808352802E-001 +1.7428471222E+001 
12234.655 +9.1089129564E-001 +1.7375983084E+001  +2.1298508068E-005 +1.3971540454E+002  +1.0826260538E-005 +4.8578586732E+001  +9.1073563850E-001 +1.7369385806E+001 
12324.426 +9.1371112662E-001 +1.7321772007E+001  +3.0035917509E-005 +8.6177907116E+001  +1.3499352245E-005 +1.7167881483E+002  +9.1382139914E-001 +1.7319200717E+001 
12414.856 +9.1630546124E-001 +1.7257247841E+001  +5.1992078215E-006 +1.0384888650E+002  +1.3426555500E-005 +7.8885696587E+001  +9.1637560691E-001 +1.7260248330E+001 
12505.949 +9.1939713337E-001 +1.7208118022E+001  +5.6684604044E-006 -1.7434107954E+002  +3.4520091241E-005 +8.0782119941E+001  +9.1930181891E-001 +1.7217877967E+001 
12597.711 +9.2141956494E-001 +1.7175652073E+001  +2.6162545489E-005 +1.0806154103E+002  +1.9320932368E-005 +3.3033804851E+001  +9.2111833912E-001 +1.7178773575E+001 
12690.146 +9.2404467724E-001 +1.7119744981E+001  +1.7920416406E-005 +1.7656573779E+002  +2.7853263026E-005 -4.0586686422E+001  +9.2392374984E-001 +1.7129662806E+001 
12783.260 +9.2646480814E-001 +1.7082941460E+001  +1.2052510948E-005 +1.4987864119E+002  +5.3303920916E-005 +9.2430976487E+001  +9.2622005514E-001 +1.7091247373E+001 
12877.056 +9.2878127939E-001 +1.7030733955E+001  +6.6550384626E-006 +1.1719165583E+002  +3.0051104485E-005 +1.7489856609E+002  +9.2877388878E-001 +1.7021723148E+001 
12971.541 +9.3113232792E-001 +1.6974107284E+001  +5.4133708267E-005 +1.3798136917E+002  +3.0129209162E-005 +1.6472926913E+002  +9.3115912445E-001 +1.6978654251E+001 
13066.719 +9.3335738581E-001 +1.6919251797E+001  +1.8760213698E-005 -2.0921821994E+001  +2.1363977152E-005 +1.0948018285E+002  +9.3331503301E-001 +1.6921844124E+001 
13162.595 +9.3574072179E-001 +1.6879892440E+001  +2.3818861768E-005 +1.1230032141E+001  +2.4366074664E-005 +8.0258794187E+001  +9.3566700861E-001 +1.6876254060E+001 
13259.175 +9.3823748119E-001 +1.6818710559E+001  +4.1501583467E-005 +1.1651634404E+002  +2.0425010952E-005 -3.1558516774E+001  +9.3827112569E-001 +1.6819066756E+001 
13356.464 +9.4055842771E-001 +1.6752645751E+001  +2.9977269515E-005 +1.6216013491E+002  +1.1264314558E-005 +9.4176689105E+001  +9.4062510095E-001 +1.6743878198E+001 
13454.466 +9.4312499068E-001 +1.6688561088E+001  +3.0420080969E-005 -1.7507397733E+002  +2.2263001662E-005 +1.2208396311E+002  +9.4282679918E-001 +1.6678945666E+001 
13553.188 +9.4535966216E-001 +1.6623077753E+001  +5.4360684053E-006 -6.4403606998E+001  +3.8277348174E-005 +8.8387152951E+001  +9.4540256461E-001 +1.6623402295E+001 
13652.634 +9.4778963644E-001 +1.6566903180E+001  +1.2866109035E-005 +1.7537029473E+002  +2.8899045572E-005 -9.9658739142E+001  +9.4775443051E-001 +1.6563893478E+001 
13752.809 +9.5029583753E-001 +1.6487170399E+001  +3.0407454951E-005 +3.8174305866E+001  +1.7860159830E-005 -1.6007715763E+002  +9.5034065746E-001 +1.6482928475E+001 
13853.720 +9.5273021462E-001 +1.6405847094E+001  +7.4771804490E-006 -4.5192748893E+001  +2.3182261572E-005 +3.9671047447E+001  +9.5272327954E-001 +1.6403757775E+001 
13955.371 +9.5530440856E-001 +1.6348354316E+001  +2.0205227982E-005 -5.5165874395E+001  +5.2544652111E-005 -1.6080434361E+001  +9.5518983258E-001 +1.6349820755E+001 
14057.768 +9.5745105745E-001 +1.6260569955E+001  +1.6686656021E-005 +1.3773491869E+002  +3.2335987322E-005 -7.5081509538E+001  +9.5736695133E-001 +1.6257835534E+001 
14160.916 +9.5999772548E-001 +1.6191796059E+001  +7.1827790095E-006 -3.3753348321E-001  +6.3443734894E-006 +6.2481550813E+001  +9.5979474682E-001 +1.6180801840E+001 
14264.821 +9.6242112133E-001 +1.6110284040E+001  +1.5555013509E-005 +4.8809660885E+001  +3.6850183103E-005 -1.1487518851E+002  +9.6225225950E-001 +1.6113688693E+001 
14369.488 +9.6452623229E-001 +1.6043580702E+001  +9.6923357352E-006 +9.3287353168E+001  +6.9981259524E-006 +1.5914569115E+002  +9.6449534967E-001 +1.6043581414E+001 
14474.924 +9.6627141797E-001 +1.5986188557E+001  +4.1910034709E-005 +1.1853230017E+002  +1.2001471057E-005 -1.0547683775E+001  +9.6603952890E-001 +1.5984147458E+001 
14581.133 +9.6847489880E-001 +1.5934836897E+001  +1.8274455127E-005 +1.3178618951E+002  +1.7908416418E-005 -1.1620662134E+002  +9.6833775653E-001 +1.5925052424E+001 
14688.121 +9.6979744763E-001 +1.5877531092E+001  +2.7495750862E-005 -1.2298276040E+002  +1.7176456214E-005 +9.3966663487E+001  +9.6995204470E-001 +1.5879406793E+001 
14795.895 +9.7190574531E-001 +1.5824669214E+001  +1.9464287713E-005 +1.2861785785E+002  +2.1741328513E-005 -1.7435213012E+002  +9.7181062611E-001 +1.5820798150E+001 
14904.459 +9.7383991988E-001 +1.5750157916E+001  +4.7279377348E-005 +6.5150087847E+001  +2.7196032414E-005 +1.5300575579E+002  +9.7362049076E-001 +1.5748036100E+001 
15013.820 +9.7567670176E-001 +1.5685917807E+001  +2.8039243305E-005 +4.1499256620E+001  +6.0711273027E-006 +1.4288114858E+002  +9.7581390789E-001 +1.5693219579E+001 
15123.983 +9.7755839903E-001 +1.5641949743E+001  +3.6131227251E-005 +4.2293703435E+001  +2.6725712360E-005 +9.8928936134E+000  +9.7751911887E-001 +1.5643276454E+001 
15234.954 +9.7944147611E-001 +1.5568480131E+001  +2.8100857557E-005 -2.9748121907E+001  +4.2861386024E-005 +1.0624004797E+002  +9.7960083514E-001 +1.5574668452E+001 
15346.740 +9.8132740283E-001 +1.5503329500E+001  +1.0456092621E-005 -1.0928457908E+002  +2.1027534007E-005 +1.7345346402E+002  +9.8140781002E-001 +1.5502052652E+001 
15459.346 +9.8315023136E-001 +1.5440205318E+001  +2.6348688141E-005 -1.0049774376E+002  +1.5050898081E-005 +4.9327546253E+001  +9.8342901836E-001 +1.5446810037E+001 
15572.778 +9.8513785484E-001 +1.5377610154E+001  +8.6674060840E-006 -1.4315316517E+002  +1.6666673513E-005 +1.7302086181E+002  +9.8495061230E-001 +1.5376970197E+001 
15687.043 +9.8700098153E-001 +1.5302692994E+001  +2.6848942561E-005 +8.1603986285E+001  +1.9110537858E-005 -2.8552108821E+000  +9.8692283696E-001 +1.5305963100E+001 
15802.146 +9.8892612354E-001 +1.5222899638E+001  +5.2680134601E-005 -6.7149110660E+001  +2.1506295501E-005 +4.1081743924E+001  +9.8880949644E-001 +1.5217005535E+001 
15918.093 +9.9056875296E-001 +1.5155485661E+001  +5.4724099658E-005 +1.2821524073E+002  +2.6600158474E-005 -3.4002711628E+001  +9.9049142888E-001 +1.5152449957E+001 
16034.892 +9.9247977715E-001 +1.5072510746E+001  +2.2635155707E-005 -1.7320538490E+002  +9.7210159112E-006 -5.9886945993E+001  +9.9252380427E-001 +1.5077805752E+001 
16152.547 +9.9429968549E-001 +1.5001426749E+001  +3.4497103452E-005 +1.6086623459E+002  +3.5258834969E-005 -6.1395418114E+001  +9.9435018389E-001 +1.5003288874E+001 
16271.065 +9.9632911953E-001 +1.4922203799E+001  +3.7186662973E-005 -2.6374086800E+001  +5.3174901381E-005 -1.5054619606E+002  +9.9634142507E-001 +1.4923687754E+001 
16390.454 +9.9806669193E-001 +1.4843890885E+001  +2.7901067829E-005 +1.4836379630E+002  +1.4146980859E-005 -1.4663101761E+002  +9.9783813990E-001 +1.4850001567E+001 
16510.718 +9.9981804496E-001 +1.4769527616E+001  +8.8049085787E-006 -1.2284038845E+002  +2.0956972142E-005 -1.4022005307E+002  +9.9963382639E-001 +1.4759479447E+001 
16631.864 +1.0016370085E+000 +1.4678237812E+001  +7.0429765469E-005 +4.4829082949E+001  +4.4755596472E-005 -1.2823243736E+002  +1.0014589696E+000 +1.4672012023E+001 
16753.900 +1.0034050274E+000 +1.4593328188E+001  +1.9901864784E-005 -7.0480056217E+001  +1.5444288020E-005 +7.1547535155E+001  +1.0035349217E+000 +1.4600322362E+001 
16876.831 +1.0051378533E+000 +1.4507289593E+001  +5.6224741870E-005 -1.2675446771E+002  +3.7327514656E-005 -1.7211523545E+002  +1.0052295658E+000 +1.4505575542E+001 
17000.664 +1.0070237387E+000 +1.4424628387E+001  +2.7599158926E-005 +5.2522311834E+001  +1.8913382676E-005 +1.0858780752E+002  +1.0070630449E+000 +1.4433020743E+001 
17125.405 +1.0088558624E+000 +1.4349369719E+001  +1.9848160668E-005 -1.5949516749E+002  +4.3911885719E-005 -4.0504704338E+001  +1.0088118810E+000 +1.4344931588E+001 
17251.062 +1.0108549968E+000 +1.4239213588E+001  +8.7310129696E-006 -2.8365617924E+001  +2.4822242034E-005 +2.6606379414E+001  +1.0104006114E+000 +1.4242014996E+001 
17377.641 +1.0124793687E+000 +1.4153007117E+001  +1.1519934094E-005 +1.9890441333E+001  +3.6827804724E-005 -6.8645929300E+000  +1.0123765088E+000 +1.4143052183E+001 
17505.149 +1.0141706795E+000 +1.4064557946E+001  +2.5845640666E-005 -7.2392309260E+000  +1.4573058066E-006 +4.5610876309E+001  +1.0140457737E+000 +1.4060528028E+001 
17633.592 +1.0159996906E+000 +1.3965705751E+001  +1.7140274548E-005 +7.6340110121E+001  +4.5769736547E-005 +6.4286786400E+001  +1.0158079167E+000 +1.3967929873E+001 
17762.977 +1.0174511091E+000 +1.3852981718E+001  +3.1520325378E-005 +1.0121163575E+002  +1.3557645078E-006 -1.4778610890E+002  +1.0176957603E+000 +1.3864346083E+001 
17893.312 +1.0190949735E+000 +1.3778399408E+001  +4.0176348898E-006 +9.0323192510E+001  +3.1858525857E-005 +1.0627101325E+002  +1.0192556321E+000 +1.3771262790E+001 
18024.604 +1.0210989522E+000 +1.3668134017E+001  +3.0621159493E-005 +6.3645486092E+001  +1.7453218562E-005 -2.8445157511E+001  +1.0213155083E+000 +1.3669963857E+001 
18156.858 +1.0230941605E+000 +1.3573336118E+001  +6.3966690776E-005 +1.2424472168E+002  +3.0128349890E-005 +6.6883534687E+001  +1.0229200713E+000 +1.3566333162E+001 
18290.084 +1.0245054837E+000 +1.3468296824E+001  +7.5132255757E-006 +1.1816586463E+002  +3.9233698493E-005 -1.1097059077E+002  +1.0245954591E+000 +1.3471903021E+001 
18424.286 +1.0261255761E+000 +1.3367256803E+001  +9.9107526296E-006 -1.7732526154E+002  +8.5238157787E-006 +1.9377281660E+001  +1.0261585542E+000 +1.3364698419E+001 
18559.473 +1.0279029999E+000 +1.3237827408E+001  +3.8778487180E-005 +4.2976619422E+001  +5.8280478469E-005 +1.3609029214E+002  +1.0279856779E+000 +1.3238846513E+001 
18695.653 +1.0295799984E+000 +1.3151710400E+001  +2.4295867909E-005 +1.6474380153E+002  +4.0086846214E-005 +9.0634841692E+001  +1.0296472502E+000 +1.3141308485E+001 
18832.831 +1.0312506501E+000 +1.3033055474E+001  +3.2993815704E-005 -1.7765900231E+002  +3.3736074196E-005 +1.0845639413E+002  +1.0313547325E+000 +1.3029519723E+001 
18971.016 +1.0327231527E+000 +1.2910310067E+001  +7.5550943624E-006 -1.4105715063E+002  +3.3252155697E-005 -1.4469413710E+002  +1.0330254780E+000 +1.2913534689E+001 
19110.215 +1.0342951177E+000 +1.2827326276E+001  +1.3492591903E-005 -5.3562820816E+001  +5.3812085972E-005 +9.0888018726E+001  +1.0342471200E+000 +1.2822816414E+001 
19250.435 +1.0354415312E+000 +1.2757847967E+001  +1.8603625077E-005 +1.1522755576E+002  +3.3030403226E-005 -1.7496266761E+002  +1.0353421402E+000 +1.2756050388E+001 
19391.685 +1.0365769093E+000 +1.2707356371E+001  +3.7838777006E-005 -3.1406134460E+001  +1.5493162328E-005 -5.2407081723E+000  +1.0365216818E+000 +1.2708676357E+001 
19533.970 +1.0374840141E+000 +1.2645344300E+001  +3.0108647119E-005 +1.4661584338E+002  +4.7857913663E-005 +2.3229808743E+001  +1.0375232865E+000 +1.2640334872E+001 
19677.300 +1.0388845379E+000 +1.2577516722E+001  +4.3001173994E-005 -2.3795696926E+001  +2.0749531396E-005 -9.3230363032E+001  +1.0388594679E+000 +1.2578022256E+001 
19821.681 +1.0397083936E+000 +1.2526284413E+001  +2.3890779654E-005 +1.5648043414E+002  +1.0562130630E-005 -8.2219713696E+001  +1.0398953024E+000 +1.2524848368E+001 
19967.122 +1.0409174550E+000 +1.2464565593E+001  +6.0711830710E-006 -7.4849635485E+001  +2.2820601672E-006 -5.5009899834E+001  +1.0408215483E+000 +1.2457979511E+001 
20113.629 +1.0419594886E+000 +1.2393913296E+001  +4.6613281575E-005 +1.1590712416E+002  +6.3215989686E-005 +1.4563422495E+002  +1.0419974610E+000 +1.2400572723E+001 
20261.212 +1.0428676739E+000 +1.2336011573E+001  +1.7161987109E-005 +1.6681304471E+002  +1.5774539792E-005 +1.6176666373E+002  +1.0430038321E+000 +1.2336741267E+001 
20409.878 +1.0443121013E+000 +1.2267432980E+001  +4.4650494956E-005 +1.1914219980E+002  +9.9324869243E-006 -1.3958610166E+002  +1.0442242622E+000 +1.2262628987E+001 
20559.634 +1.0451318152E+000 +1.2208399800E+001  +4.1721462476E-005 -1.7027174536E+002  +9.7928179189E-006 -8.1897933371E+001  +1.0451616989E+000 +1.2207874852E+001 
20710.490 +1.0463130348E+000 +1.2147273011E+001  +3.5396197957E-005 +1.3524682213E+002  +4.2446434160E-005 +3.5790324999E+001  +1.0462240491E+000 +1.2138590666E+001 
20862.452 +1.0470940374E+000 +1.2072363557E+001  +3.0016032488E-005 -1.6257549799E+002  +1.6283664387E-005 +7.9396564853E+001  +1.0472200294E+000 +1.2068512345E+001 
21015.529 +1.0483865783E+000 +1.1998308542E+001  +3.4463225851E-005 +1.3367859556E+002  +2.1959128623E-005 +3.5292964302E+001  +1.0482792240E+000 +1.1998124258E+001 
