!  2-Port S-parameters saved by WinCal
! VAR MeasName=S-Parameters (CALIBRATED_DATA) read from VNA (P5004A)
! VAR MeasDate=26/04/2024 17:48:30
! VAR NAME=Wafer2_r1_c7_pristine 2
! VAR FILENAME=Wafer2_r1_c7_pristine 2_1.S2P
! VAR DATE=26/04/2024 17:48:30
! VAR PHYS_PORTS=1,2
! VAR ObjTypeName=DATASET
! VAR IndexType=Frequency
!
# Hz S MA R 50
9000.000 +7.9711412718E-001 +1.7514073942E+001  +1.3708553487E-005 +2.4235599321E+001  +1.8024696162E-005 +2.3599652347E+000  +7.9707375650E-001 +1.7515513126E+001 
10013997.999 +9.8056256643E-001 -1.8415986239E-001  +4.5742872809E-003 +8.8887961716E+001  +4.6175416944E-003 +8.8522398195E+001  +9.8070966670E-001 -1.7968535993E-001 
20018995.998 +9.9488810124E-001 +2.1136025558E-001  +9.2865370948E-003 +8.8990629264E+001  +9.3009942042E-003 +8.8266892436E+001  +9.9478758967E-001 +2.1931358764E-001 
30023993.997 +1.0051955538E+000 -9.4481233567E-002  +1.3970716698E-002 +8.8594088378E+001  +1.3877817507E-002 +8.8130437379E+001  +1.0050546306E+000 -7.5474606603E-002 
40028991.996 +1.0130137727E+000 -8.1155871687E-001  +1.8702193391E-002 +8.8025486338E+001  +1.8566985102E-002 +8.7569918078E+001  +1.0127872505E+000 -7.7651319562E-001 
50033989.995 +1.0136316062E+000 -1.7108024042E+000  +2.3361791518E-002 +8.6970072170E+001  +2.3151128511E-002 +8.7041710913E+001  +1.0137504109E+000 -1.6768766500E+000 
60038987.994 +1.0065794858E+000 -2.5462566735E+000  +2.7777300629E-002 +8.6129326931E+001  +2.7514380646E-002 +8.6357191414E+001  +1.0068290187E+000 -2.5016078119E+000 
70043985.993 +9.9456373407E-001 -2.9346629592E+000  +3.1916237888E-002 +8.5678766847E+001  +3.1753388838E-002 +8.6197697330E+001  +9.9480466552E-001 -2.8971321046E+000 
80048983.992 +9.8449054470E-001 -2.7984001044E+000  +3.6015982123E-002 +8.5838692059E+001  +3.6105329705E-002 +8.6390804601E+001  +9.8484047171E-001 -2.7683220962E+000 
90053981.991 +9.8147483588E-001 -2.4493058201E+000  +4.0383361375E-002 +8.6225106778E+001  +4.0714020725E-002 +8.6502940799E+001  +9.8172570630E-001 -2.4333042425E+000 
100058979.990 +9.8548353351E-001 -2.1412058659E+000  +4.4963293215E-002 +8.6400586841E+001  +4.5397257262E-002 +8.6345694612E+001  +9.8548418378E-001 -2.1294780674E+000 
110063977.989 +9.9452724223E-001 -2.0796926400E+000  +4.9832750803E-002 +8.6400888667E+001  +5.0167624151E-002 +8.6000811725E+001  +9.9411829101E-001 -2.0601432799E+000 
120068975.988 +1.0060891612E+000 -2.4229993725E+000  +5.4873122381E-002 +8.6088447259E+001  +5.4912462063E-002 +8.5523847885E+001  +1.0055670388E+000 -2.3816835302E+000 
130073973.987 +1.0150710374E+000 -3.2278541348E+000  +5.9994140867E-002 +8.5308423406E+001  +5.9635781814E-002 +8.4792215786E+001  +1.0144881365E+000 -3.1529759183E+000 
140078971.986 +1.0157501958E+000 -4.3279352950E+000  +6.4581671329E-002 +8.4152694974E+001  +6.4013257683E-002 +8.3836801623E+001  +1.0154523320E+000 -4.2305320230E+000 
150083969.985 +1.0060187396E+000 -5.3011142539E+000  +6.8434439288E-002 +8.3106633188E+001  +6.7767577982E-002 +8.3145032369E+001  +1.0062555254E+000 -5.1931815613E+000 
160088967.984 +9.9031688284E-001 -5.7110560297E+000  +7.1677445856E-002 +8.2718332768E+001  +7.1158847365E-002 +8.3082604630E+001  +9.9096451830E-001 -5.6101727297E+000 
170093965.983 +9.7757993074E-001 -5.5272827848E+000  +7.5127833761E-002 +8.2963987164E+001  +7.4943809553E-002 +8.3516802180E+001  +9.7844209401E-001 -5.4496429282E+000 
180098963.982 +9.7293667288E-001 -5.0294794994E+000  +7.9207447774E-002 +8.3423474578E+001  +7.9553316741E-002 +8.3989477405E+001  +9.7368528481E-001 -4.9734078961E+000 
190103961.981 +9.7654737299E-001 -4.5518335025E+000  +8.3888553758E-002 +8.3811467009E+001  +8.4733549175E-002 +8.4070034463E+001  +9.7700291928E-001 -4.5266445715E+000 
200108959.980 +9.8689014384E-001 -4.3467577164E+000  +8.9077306091E-002 +8.3948924296E+001  +8.9961651047E-002 +8.3783960373E+001  +9.8654936464E-001 -4.3071675604E+000 
210113957.979 +1.0002802918E+000 -4.5724131372E+000  +9.4634420005E-002 +8.3753078174E+001  +9.5230700650E-002 +8.3267882460E+001  +9.9954965910E-001 -4.5170062950E+000 
220118955.978 +1.0124855545E+000 -5.3386981501E+000  +1.0039586585E-001 +8.3023936386E+001  +1.0026546530E-001 +8.2428415833E+001  +1.0113425168E+000 -5.2395055652E+000 
230123953.977 +1.0168278687E+000 -6.5412749203E+000  +1.0543502296E-001 +8.1777204640E+001  +1.0478000388E-001 +8.1303913165E+001  +1.0159157330E+000 -6.3964592811E+000 
240128951.976 +1.0085729992E+000 -7.7652637714E+000  +1.0906827216E-001 +8.0445729034E+001  +1.0794151762E-001 +8.0266868894E+001  +1.0083214984E+000 -7.5858608212E+000 
250133949.975 +9.9078584887E-001 -8.4744029329E+000  +1.1130219413E-001 +7.9719633045E+001  +1.1015614908E-001 +7.9911210043E+001  +9.9132522304E-001 -8.2869525820E+000 
260138947.974 +9.7298660349E-001 -8.4273201771E+000  +1.1350936815E-001 +7.9850390438E+001  +1.1280584252E-001 +8.0329475093E+001  +9.7423850742E-001 -8.2744344720E+000 
270143945.973 +9.6330972996E-001 -7.8497926344E+000  +1.1680960240E-001 +8.0486232679E+001  +1.1679638526E-001 +8.1060431691E+001  +9.6460893666E-001 -7.7424658965E+000 
280148943.972 +9.6386876973E-001 -7.1632725592E+000  +1.2132522733E-001 +8.1099411895E+001  +1.2205516595E-001 +8.1530025505E+001  +9.6483526139E-001 -7.0868937298E+000 
290153941.971 +9.7305747729E-001 -6.6959376123E+000  +1.2671602705E-001 +8.1431259101E+001  +1.2793972197E-001 +8.1538107260E+001  +9.7339598041E-001 -6.6420847402E+000 
300158939.970 +9.8804149537E-001 -6.6720427909E+000  +1.3280617824E-001 +8.1426552677E+001  +1.3398230674E-001 +8.1178447320E+001  +9.8751181891E-001 -6.6127171198E+000 
310163937.969 +1.0039042870E+000 -7.2438967546E+000  +1.3935431734E-001 +8.0908875759E+001  +1.3986097862E-001 +8.0410165274E+001  +1.0026738767E+000 -7.1420503888E+000 
320168935.968 +1.0139673616E+000 -8.4042228432E+000  +1.4538535316E-001 +7.9747339350E+001  +1.4511270250E-001 +7.9234792046E+001  +1.0124382541E+000 -8.2489377703E+000 
330173933.967 +1.0114660405E+000 -9.8471848242E+000  +1.4965294399E-001 +7.8228673701E+001  +1.4860292699E-001 +7.7855369268E+001  +1.0104168125E+000 -9.6350429350E+000 
340178931.966 +9.9519405054E-001 -1.0992448387E+001  +1.5139763161E-001 +7.7009485125E+001  +1.5004098184E-001 +7.6916409693E+001  +9.9520941318E-001 -1.0752986040E+001 
350183929.965 +9.7299036994E-001 -1.1334964563E+001  +1.5208688663E-001 +7.6706526154E+001  +1.5078998751E-001 +7.6934303123E+001  +9.7391983891E-001 -1.1103731898E+001 
360188927.964 +9.5609927274E-001 -1.0877752792E+001  +1.5367369071E-001 +7.7266790468E+001  +1.5293518185E-001 +7.7737083046E+001  +9.5750779363E-001 -1.0688651734E+001 
370193925.963 +9.5038145509E-001 -1.0034134236E+001  +1.5721938773E-001 +7.8088975855E+001  +1.5736986011E-001 +7.8617768561E+001  +9.5188274539E-001 -9.8960181527E+000 
380198923.962 +9.5583036543E-001 -9.2557105305E+000  +1.6244042500E-001 +7.8738931720E+001  +1.6348493881E-001 +7.9122493716E+001  +9.5685172938E-001 -9.1609555248E+000 
390203921.961 +9.6987108083E-001 -8.8685984235E+000  +1.6886524570E-001 +7.9035522608E+001  +1.7034750477E-001 +7.9082662314E+001  +9.6996113046E-001 -8.8032889674E+000 
400208919.960 +9.8820215386E-001 -9.0905764668E+000  +1.7610714791E-001 +7.8850681937E+001  +1.7738848465E-001 +7.8569503684E+001  +9.8739948547E-001 -8.9984694737E+000 
410213917.959 +1.0045194364E+000 -1.0007496114E+001  +1.8359250740E-001 +7.7990518019E+001  +1.8402645945E-001 +7.7532345803E+001  +1.0029269656E+000 -9.8646254799E+000 
420218915.958 +1.0107563213E+000 -1.1489059591E+001  +1.8945422384E-001 +7.6462998809E+001  +1.8894587293E-001 +7.5998946689E+001  +1.0091742973E+000 -1.1284348130E+001 
430223913.957 +1.0013092324E+000 -1.3046213069E+001  +1.9203409734E-001 +7.4787422381E+001  +1.9073656382E-001 +7.4518657321E+001  +1.0002480600E+000 -1.2780624688E+001 
440228911.956 +9.7869000378E-001 -1.3995030360E+001  +1.9160436383E-001 +7.3818961680E+001  +1.9004588671E-001 +7.3802856512E+001  +9.7889908565E-001 -1.3706801849E+001 
450233909.955 +9.5461938191E-001 -1.3970145350E+001  +1.9087272062E-001 +7.3943239381E+001  +1.8952776136E-001 +7.4203694896E+001  +9.5581429458E-001 -1.3703142502E+001 
460238907.954 +9.3975483341E-001 -1.3192922616E+001  +1.9224540649E-001 +7.4817394248E+001  +1.9168483521E-001 +7.5235370023E+001  +9.4137873096E-001 -1.2972918351E+001 
470243905.953 +9.3783615702E-001 -1.2175181312E+001  +1.9638677999E-001 +7.5770522320E+001  +1.9675786477E-001 +7.6204618784E+001  +9.3945468579E-001 -1.2012181033E+001 
480248903.952 +9.4784283836E-001 -1.1374013528E+001  +2.0257189077E-001 +7.6420215895E+001  +2.0385825304E-001 +7.6685296511E+001  +9.4875381333E-001 -1.1256186023E+001 
490253901.951 +9.6563654148E-001 -1.1105730515E+001  +2.1016419598E-001 +7.6619248871E+001  +2.1176355910E-001 +7.6579919008E+001  +9.6546739114E-001 -1.0997140018E+001 
500258899.950 +9.8632513058E-001 -1.1582376273E+001  +2.1874072368E-001 +7.6205501868E+001  +2.1996480723E-001 +7.5924342821E+001  +9.8504976284E-001 -1.1435872139E+001 
510263897.949 +1.0017469030E+000 -1.2825951645E+001  +2.2685024229E-001 +7.5016057010E+001  +2.2713872959E-001 +7.4601435813E+001  +9.9995633717E-001 -1.2617685519E+001 
520268895.948 +1.0032014392E+000 -1.4553167288E+001  +2.3184826028E-001 +7.3207871741E+001  +2.3115766417E-001 +7.2827204251E+001  +1.0015736054E+000 -1.4277189984E+001 
530273893.947 +9.8681892704E-001 -1.6103032885E+001  +2.3216083312E-001 +7.1551635610E+001  +2.3075874043E-001 +7.1339442497E+001  +9.8610074610E-001 -1.5769033726E+001 
540278891.946 +9.5992699948E-001 -1.6780741606E+001  +2.2952112802E-001 +7.0902414186E+001  +2.2793822201E-001 +7.0924482501E+001  +9.6039365591E-001 -1.6440653623E+001 
550283889.945 +9.3577748869E-001 -1.6408541641E+001  +2.2780410912E-001 +7.1399395973E+001  +2.2658218890E-001 +7.1640312100E+001  +9.3716962760E-001 -1.6097609526E+001 
560288887.944 +9.2378221256E-001 -1.5367161421E+001  +2.2939630723E-001 +7.2472111468E+001  +2.2886884607E-001 +7.2842590833E+001  +9.2548025110E-001 -1.5118449475E+001 
570293885.943 +9.2594517497E-001 -1.4241848043E+001  +2.3431614356E-001 +7.3482954746E+001  +2.3476759481E-001 +7.3830841692E+001  +9.2746463665E-001 -1.4047544256E+001 
580298883.942 +9.3955397982E-001 -1.3480544496E+001  +2.4146251068E-001 +7.4090497714E+001  +2.4285413011E-001 +7.4283958216E+001  +9.4027404612E-001 -1.3324947931E+001 
590303881.941 +9.6020340618E-001 -1.3374405924E+001  +2.5044465617E-001 +7.4194991925E+001  +2.5201648061E-001 +7.4132466958E+001  +9.5995951089E-001 -1.3216635500E+001 
600308879.940 +9.8201334556E-001 -1.4091973790E+001  +2.6035537554E-001 +7.3580568392E+001  +2.6139952525E-001 +7.3314578679E+001  +9.8080006317E-001 -1.3900021007E+001 
610313877.939 +9.9535722748E-001 -1.5628031465E+001  +2.6880113713E-001 +7.2054242145E+001  +2.6897195961E-001 +7.1713691132E+001  +9.9396438085E-001 -1.5365698172E+001 
620318875.938 +9.9174435501E-001 -1.7514320806E+001  +2.7227184896E-001 +7.0040096404E+001  +2.7144219175E-001 +6.9749676880E+001  +9.9036680843E-001 -1.7179208865E+001 
630323873.937 +9.6970827872E-001 -1.8970312993E+001  +2.6995793007E-001 +6.8501596344E+001  +2.6847877970E-001 +6.8359940855E+001  +9.6941381346E-001 -1.8586420818E+001 
640328871.936 +9.4027721761E-001 -1.9358922447E+001  +2.6532715623E-001 +6.8211122279E+001  +2.6378984248E-001 +6.8266495966E+001  +9.4115433249E-001 -1.8978952559E+001 
650333869.935 +9.1748595882E-001 -1.8678327593E+001  +2.6310076359E-001 +6.9017734742E+001  +2.6190720825E-001 +6.9245680421E+001  +9.1907352194E-001 -1.8339217719E+001 
660338867.934 +9.0888480183E-001 -1.7461384524E+001  +2.6517565952E-001 +7.0204868202E+001  +2.6485139318E-001 +7.0534900791E+001  +9.1062215864E-001 -1.7184618141E+001 
670343865.933 +9.1440770501E-001 -1.6301262736E+001  +2.7084246583E-001 +7.1211537140E+001  +2.7154073391E-001 +7.1494006031E+001  +9.1574187347E-001 -1.6073497757E+001 
680348863.932 +9.3087980876E-001 -1.5620618860E+001  +2.7922062484E-001 +7.1788135656E+001  +2.8056492938E-001 +7.1903738088E+001  +9.3152619770E-001 -1.5413775460E+001 
690353861.931 +9.5337599207E-001 -1.5671150833E+001  +2.8948805891E-001 +7.1768232844E+001  +2.9089307903E-001 +7.1687615632E+001  +9.5306958086E-001 -1.5466637810E+001 
700358859.930 +9.7513720956E-001 -1.6623058522E+001  +3.0056290863E-001 +7.0924574236E+001  +3.0127760342E-001 +7.0702529485E+001  +9.7405749001E-001 -1.6375916929E+001 
710363857.929 +9.8583659669E-001 -1.8369515695E+001  +3.0889782189E-001 +6.9146093586E+001  +3.0873303059E-001 +6.8878978668E+001  +9.8448746127E-001 -1.8056349087E+001 
720368855.928 +9.7718335761E-001 -2.0332729541E+001  +3.1047891634E-001 +6.7020365503E+001  +3.0958961992E-001 +6.6837181401E+001  +9.7639358725E-001 -1.9960026441E+001 
730373853.927 +9.5100444964E-001 -2.1651626539E+001  +3.0551812263E-001 +6.5658895272E+001  +3.0423261087E-001 +6.5589489129E+001  +9.5113908425E-001 -2.1251037769E+001 
740378851.926 +9.2042468591E-001 -2.1773500403E+001  +2.9917967964E-001 +6.5662371339E+001  +2.9794793525E-001 +6.5738684937E+001  +9.2148336261E-001 -2.1377627735E+001 
750383849.925 +8.9936003310E-001 -2.0837767579E+001  +2.9653845368E-001 +6.6725208837E+001  +2.9576714296E-001 +6.6906032562E+001  +9.0083501641E-001 -2.0489232284E+001 
760388847.924 +8.9379733831E-001 -1.9481247213E+001  +2.9937280546E-001 +6.8017142407E+001  +2.9930335261E-001 +6.8234122971E+001  +8.9530413235E-001 -1.9188610888E+001 
770393845.923 +9.0250694270E-001 -1.8313144129E+001  +3.0617641557E-001 +6.9001148538E+001  +3.0686126107E-001 +6.9165798852E+001  +9.0349858513E-001 -1.8069131549E+001 
780398843.922 +9.2151632861E-001 -1.7734272748E+001  +3.1576743775E-001 +6.9483720070E+001  +3.1678425728E-001 +6.9533119807E+001  +9.2152282444E-001 -1.7498611552E+001 
790403841.921 +9.4510789594E-001 -1.7970085014E+001  +3.2735292689E-001 +6.9332258871E+001  +3.2824543243E-001 +6.9244267562E+001  +9.4432746488E-001 -1.7707978551E+001 
800408839.920 +9.6568792780E-001 -1.9140300872E+001  +3.3910623256E-001 +6.8261059797E+001  +3.3942079099E-001 +6.8095687541E+001  +9.6455000950E-001 -1.8819221858E+001 
810413837.919 +9.7317375446E-001 -2.1044922086E+001  +3.4677679586E-001 +6.6295738182E+001  +3.4641811109E-001 +6.6130669818E+001  +9.7224061279E-001 -2.0664610712E+001 
820418835.918 +9.6019160046E-001 -2.3008858782E+001  +3.4613394004E-001 +6.4187123482E+001  +3.4538041711E-001 +6.4067665528E+001  +9.5998389529E-001 -2.2584812571E+001 
830423833.917 +9.3123233425E-001 -2.4154511667E+001  +3.3879848102E-001 +6.3026489419E+001  +3.3788801691E-001 +6.2991200296E+001  +9.3193048225E-001 -2.3727453128E+001 
840428831.916 +9.0071780806E-001 -2.4028659553E+001  +3.3114907621E-001 +6.3300237581E+001  +3.3032596447E-001 +6.3349429404E+001  +9.0181144848E-001 -2.3615698452E+001 
850433829.915 +8.8172331339E-001 -2.2884178714E+001  +3.2865613331E-001 +6.4519508536E+001  +3.2809835225E-001 +6.4644404897E+001  +8.8309004669E-001 -2.2519671438E+001 
860438827.914 +8.7926806376E-001 -2.1450562656E+001  +3.3221126205E-001 +6.5837680865E+001  +3.3223535873E-001 +6.5993073622E+001  +8.8039090096E-001 -2.1124165862E+001 
870443825.913 +8.9069551354E-001 -2.0325470579E+001  +3.3991301514E-001 +6.6776049243E+001  +3.4059104317E-001 +6.6878989804E+001  +8.9116350086E-001 -2.0024325318E+001 
880448823.912 +9.1113061990E-001 -1.9862112067E+001  +3.5049444383E-001 +6.7213349041E+001  +3.5143264557E-001 +6.7192559671E+001  +9.1096106225E-001 -1.9555213931E+001 
890453821.911 +9.3487904615E-001 -2.0273104550E+001  +3.6314237068E-001 +6.6932620335E+001  +3.6377816192E-001 +6.6805998156E+001  +9.3408547249E-001 -1.9927413296E+001 
900458819.910 +9.5403605525E-001 -2.1615791665E+001  +3.7563132133E-001 +6.5700485444E+001  +3.7549760072E-001 +6.5544142098E+001  +9.5322132798E-001 -2.1206887076E+001 
910463817.909 +9.5830861761E-001 -2.3615479131E+001  +3.8248017126E-001 +6.3600827892E+001  +3.8169805644E-001 +6.3494943866E+001  +9.5808934171E-001 -2.3155283260E+001 
920468815.908 +9.4191687082E-001 -2.5543607909E+001  +3.7966557308E-001 +6.1492462448E+001  +3.7881527528E-001 +6.1481442411E+001  +9.4260058660E-001 -2.5064484306E+001 
930473813.907 +9.1114251501E-001 -2.6520562576E+001  +3.6996165719E-001 +6.0521134490E+001  +3.6920211329E-001 +6.0576731991E+001  +9.1251274797E-001 -2.6060069569E+001 
940478811.906 +8.8106243730E-001 -2.6167455475E+001  +3.6118385584E-001 +6.1043879592E+001  +3.6082985203E-001 +6.1141850347E+001  +8.8265934315E-001 -2.5755500875E+001 
950483809.905 +8.6449841627E-001 -2.4871513578E+001  +3.5893310971E-001 +6.2422437823E+001  +3.5902748876E-001 +6.2531575107E+001  +8.6575187037E-001 -2.4500856494E+001 
960488807.904 +8.6464077848E-001 -2.3376925280E+001  +3.6348602140E-001 +6.3776784074E+001  +3.6397466028E-001 +6.3855444510E+001  +8.6530787203E-001 -2.3037744506E+001 
970493805.903 +8.7829034627E-001 -2.2311403259E+001  +3.7233734139E-001 +6.4659993784E+001  +3.7310119280E-001 +6.4668833009E+001  +8.7823600380E-001 -2.1962529352E+001 
980498803.902 +8.9976340676E-001 -2.1989085964E+001  +3.8407918609E-001 +6.4980093436E+001  +3.8472330256E-001 +6.4895906278E+001  +8.9911073265E-001 -2.1612131800E+001 
990503801.901 +9.2302025538E-001 -2.2559817058E+001  +3.9764134810E-001 +6.4557083506E+001  +3.9764296349E-001 +6.4424038993E+001  +9.2201268646E-001 -2.2121094737E+001 
1000508799.900 +9.3992529757E-001 -2.4029823662E+001  +4.1005212010E-001 +6.3171658370E+001  +4.0947132804E-001 +6.3072117246E+001  +9.3929479774E-001 -2.3535061654E+001 
1010513797.899 +9.4104950755E-001 -2.6062316347E+001  +4.1573252028E-001 +6.1021534309E+001  +4.1480176416E-001 +6.0998286488E+001  +9.4122882095E-001 -2.5529962311E+001 
1020518795.898 +9.2218690036E-001 -2.7904614922E+001  +4.1089658690E-001 +5.8999654667E+001  +4.1013968379E-001 +5.9049224086E+001  +9.2346919587E-001 -2.7376194286E+001 
1030523793.897 +8.9081647234E-001 -2.8703992448E+001  +3.9937059009E-001 +5.8217957644E+001  +3.9904423894E-001 +5.8303861149E+001  +8.9269729711E-001 -2.8220136115E+001 
1040528791.896 +8.6202994398E-001 -2.8166029097E+001  +3.8988534025E-001 +5.8939794228E+001  +3.8995975824E-001 +5.9031337484E+001  +8.6374064112E-001 -2.7738987496E+001 
1050533789.895 +8.4771593988E-001 -2.6748285218E+001  +3.8808829814E-001 +6.0411451752E+001  +3.8853972356E-001 +6.0477462380E+001  +8.4882519972E-001 -2.6368954140E+001 
1060538787.894 +8.5036488825E-001 -2.5242621023E+001  +3.9362551470E-001 +6.1741709840E+001  +3.9431273703E-001 +6.1761105009E+001  +8.5064436978E-001 -2.4875465302E+001 
1070543785.893 +8.6581661952E-001 -2.4265903914E+001  +4.0350855311E-001 +6.2526603484E+001  +4.0429732152E-001 +6.2472867782E+001  +8.6522901644E-001 -2.3873984410E+001 
1080548783.892 +8.8767909792E-001 -2.4089173893E+001  +4.1594773126E-001 +6.2719287285E+001  +4.1632478273E-001 +6.2585155970E+001  +8.8658134516E-001 -2.3643329714E+001 
1090553781.891 +9.0971136093E-001 -2.4810163089E+001  +4.2994872251E-001 +6.2204647781E+001  +4.2950351374E-001 +6.2045170998E+001  +9.0866771841E-001 -2.4293122898E+001 
1100558779.890 +9.2394579716E-001 -2.6366856818E+001  +4.4209848943E-001 +6.0736248133E+001  +4.4095148946E-001 +6.0653059653E+001  +9.2377162513E-001 -2.5783711143E+001 
1110563777.889 +9.2223941545E-001 -2.8385368831E+001  +4.4656275131E-001 +5.8567728122E+001  +4.4529902613E-001 +5.8597375138E+001  +9.2342512909E-001 -2.7780734917E+001 
1120568775.888 +9.0180665002E-001 -3.0097132369E+001  +4.3989505082E-001 +5.6653726556E+001  +4.3899409557E-001 +5.6775119853E+001  +9.0396210812E-001 -2.9534745433E+001 
1130573773.887 +8.7058536696E-001 -3.0741014411E+001  +4.2689491002E-001 +5.6044048783E+001  +4.2665695866E-001 +5.6206436751E+001  +8.7306066355E-001 -3.0240814494E+001 
