!  2-Port S-parameters saved by WinCal
! VAR MeasName=S-Parameters (CALIBRATED_DATA) read from VNA (P5004A)
! VAR MeasDate=26/04/2024 18:46:59
! VAR NAME=Wafer2_r1_c6_smallform_log
! VAR FILENAME=Wafer2_r1_c6_smallform_log_1.S2P
! VAR DATE=26/04/2024 18:46:59
! VAR PHYS_PORTS=1,2
! VAR ObjTypeName=DATASET
! VAR IndexType=Frequency
!
# Hz S MA R 50
9000.000 +7.9771810848E-001 +1.7315579577E+001  +2.1355043391E-005 +1.2125695168E+002  +7.7586774056E-006 -1.3102226966E+002  +7.9782342327E-001 +1.7305880939E+001 
9066.037 +8.0043674930E-001 +1.7364053248E+001  +3.8188071047E-005 -1.7341813803E+002  +8.1816740508E-006 +9.1958829280E+001  +8.0021972192E-001 +1.7364808534E+001 
9132.559 +8.0274194668E-001 +1.7424624320E+001  +3.8437213198E-005 +1.0841858211E+002  +3.7063508500E-005 -1.7329730936E+001  +8.0251766514E-001 +1.7423783717E+001 
9199.568 +8.0528652180E-001 +1.7494588707E+001  +1.2066809467E-005 +1.6406991339E+002  +3.7522417058E-005 +9.6639351579E+001  +8.0543433250E-001 +1.7490457665E+001 
9267.070 +8.0808222982E-001 +1.7519815171E+001  +3.8644464176E-005 +1.2436944604E+002  +2.1008064636E-005 +8.2908719890E+001  +8.0792673595E-001 +1.7513190007E+001 
9335.066 +8.1052791597E-001 +1.7584286166E+001  +1.9469778679E-005 +1.1602240481E+002  +1.5370197026E-005 +3.9634796883E+001  +8.1029249772E-001 +1.7579457035E+001 
9403.562 +8.1315602027E-001 +1.7629604543E+001  +7.4042757533E-006 -1.4559926956E-001  +1.7073121431E-005 +1.5597864781E+002  +8.1322685387E-001 +1.7626478598E+001 
9472.560 +8.1575078819E-001 +1.7667708003E+001  +1.6460449849E-005 +3.8180126635E+000  +3.8769820527E-005 +1.0633162376E+002  +8.1581994311E-001 +1.7651142148E+001 
9542.065 +8.1860510059E-001 +1.7680977584E+001  +2.4689417898E-005 -2.7142870643E+001  +2.9920461962E-005 +1.0590593291E+002  +8.1842402326E-001 +1.7673949181E+001 
9612.079 +8.2101488206E-001 +1.7717052401E+001  +2.0198744217E-005 -1.5748370870E+002  +3.9414135471E-005 +1.0968586855E+002  +8.2099599091E-001 +1.7704090867E+001 
9682.607 +8.2385113080E-001 +1.7748348222E+001  +2.4737216576E-005 -1.7052915360E+002  +1.9291184657E-005 +1.2172592957E+002  +8.2375543591E-001 +1.7732305794E+001 
9753.653 +8.2636242764E-001 +1.7775459234E+001  +3.7617306278E-005 +7.7099132260E+001  +5.4653169627E-006 -6.3147192356E+001  +8.2624666739E-001 +1.7759877211E+001 
9825.220 +8.2866365801E-001 +1.7790128487E+001  +1.9416104612E-005 +1.7916283239E+002  +1.8789894252E-005 +7.8908312981E+001  +8.2856872002E-001 +1.7784885027E+001 
9897.312 +8.3152042474E-001 +1.7805201166E+001  +2.6442894800E-005 -2.8149559846E+001  +1.3748169264E-005 +1.0645507121E+002  +8.3153786438E-001 +1.7796261641E+001 
9969.933 +8.3411259290E-001 +1.7838581820E+001  +4.0514864601E-005 +9.9695230722E+001  +1.6449455362E-005 -1.2231580248E+002  +8.3399118418E-001 +1.7838568815E+001 
10043.087 +8.3692832512E-001 +1.7861412081E+001  +2.3708923155E-005 +8.4509187230E+001  +2.5595393332E-005 -4.0162166784E+001  +8.3673501250E-001 +1.7851762986E+001 
10116.778 +8.3950804855E-001 +1.7858739455E+001  +1.5341735549E-005 +7.5591366530E+001  +5.5605325159E-006 +1.7580368422E+002  +8.3928160624E-001 +1.7853975246E+001 
10191.009 +8.4204512737E-001 +1.7888869626E+001  +1.8019370611E-005 +1.2051748922E+002  +2.3893927104E-005 +7.0072996816E+001  +8.4187811933E-001 +1.7878678787E+001 
10265.785 +8.4510904414E-001 +1.7886485960E+001  +1.0799415205E-005 +2.5047643266E+001  +4.9822870247E-005 +1.5053219207E+002  +8.4482618650E-001 +1.7887167777E+001 
10341.110 +8.4792015384E-001 +1.7902570408E+001  +2.9884095355E-005 -4.0677939591E+001  +1.9179411991E-005 +1.3870922251E+002  +8.4762631589E-001 +1.7888251162E+001 
10416.987 +8.5061671533E-001 +1.7901986105E+001  +7.4456636249E-006 -6.9585190168E+001  +3.1082162527E-005 -4.1700898569E+001  +8.5075906743E-001 +1.7889035501E+001 
10493.421 +8.5349774523E-001 +1.7889725612E+001  +2.8392465039E-005 +1.0239644599E+002  +2.3444033663E-005 +4.8097878221E+001  +8.5335024429E-001 +1.7896576955E+001 
10570.416 +8.5621311281E-001 +1.7877901398E+001  +3.0855288505E-005 +9.9302412006E+001  +3.7984243890E-005 +8.5918570144E+001  +8.5635821232E-001 +1.7875729493E+001 
10647.976 +8.5881017258E-001 +1.7889342054E+001  +2.4172020765E-005 -1.9257743330E+001  +2.1110663880E-005 +7.3670193037E+001  +8.5900030233E-001 +1.7872219316E+001 
10726.105 +8.6215676252E-001 +1.7866579425E+001  +1.7627164780E-005 +5.6292356783E+001  +1.0235557732E-005 -1.4701791625E+002  +8.6198675120E-001 +1.7865743132E+001 
10804.808 +8.6530013475E-001 +1.7845221892E+001  +1.4964116709E-005 -1.1196833695E+002  +2.2207775256E-005 -3.6799710512E+001  +8.6499904758E-001 +1.7847664813E+001 
10884.087 +8.6815562799E-001 +1.7835223392E+001  +3.2614905340E-005 +1.3922774446E+001  +4.7249724712E-005 +1.0453413428E+001  +8.6809442798E-001 +1.7839905624E+001 
10963.949 +8.7108549061E-001 +1.7801407268E+001  +1.8345580643E-005 +9.2539331827E+001  +2.5446197010E-005 +6.1931924874E+001  +8.7100878110E-001 +1.7812095689E+001 
11044.396 +8.7407127456E-001 +1.7789041915E+001  +1.0607198715E-005 -1.3249562697E+002  +1.2243110093E-005 -9.2826432172E+001  +8.7411367077E-001 +1.7796409971E+001 
11125.434 +8.7636002765E-001 +1.7783134891E+001  +8.8667543488E-006 +1.5483721137E+002  +1.9596214234E-005 -1.7758722711E+002  +8.7634622705E-001 +1.7780015256E+001 
11207.066 +8.7902419910E-001 +1.7770049641E+001  +2.1360138165E-005 +7.2977068494E+001  +2.6884756346E-005 -6.9994798662E+001  +8.7913648313E-001 +1.7756195355E+001 
11289.298 +8.8146291220E-001 +1.7769068730E+001  +1.5449194976E-006 +5.7822099812E+000  +2.8405331830E-005 +9.4059910122E+001  +8.8133843831E-001 +1.7762189458E+001 
11372.132 +8.8399703306E-001 +1.7727605475E+001  +1.4632320445E-005 -1.1509480214E+002  +4.6235176145E-005 +1.3036567443E+002  +8.8405979412E-001 +1.7730383073E+001 
11455.575 +8.8688591951E-001 +1.7716650470E+001  +3.1470109478E-005 +2.6472912092E+001  +2.6509466496E-005 -1.0841870097E+001  +8.8690816798E-001 +1.7706975188E+001 
11539.630 +8.8945259513E-001 +1.7692995415E+001  +9.6366979411E-006 -1.1091491543E+002  +1.9829266371E-005 +3.8364564384E+001  +8.8939309567E-001 +1.7687523681E+001 
11624.301 +8.9203593669E-001 +1.7648943362E+001  +1.7525046918E-005 +1.3644626565E+002  +3.2164991496E-006 +1.6454088438E+002  +8.9191353712E-001 +1.7647770472E+001 
11709.594 +8.9463147717E-001 +1.7620684443E+001  +3.5275662199E-005 +9.4550337554E+001  +6.9272723790E-006 -1.1232860170E+002  +8.9446468461E-001 +1.7623420909E+001 
11795.512 +8.9735337124E-001 +1.7585262501E+001  +2.4893379615E-005 +3.7702339483E+001  +4.5567080769E-005 +1.1991528665E+001  +8.9737249821E-001 +1.7596153809E+001 
11882.062 +8.9988037953E-001 +1.7562763026E+001  +3.9064206886E-005 -1.2360597297E+002  +1.1773225096E-005 -1.6524923112E+002  +8.9984885694E-001 +1.7559867394E+001 
11969.246 +9.0287314985E-001 +1.7518043996E+001  +8.1979874750E-006 +1.2290591378E+002  +2.1535050122E-005 +1.7755169492E+002  +9.0305453569E-001 +1.7517591889E+001 
12057.069 +9.0551247844E-001 +1.7464840119E+001  +9.7139099236E-006 +7.1491907399E+001  +1.5610565355E-005 +1.4005432381E+002  +9.0529674036E-001 +1.7464781912E+001 
12145.538 +9.0821113403E-001 +1.7411421609E+001  +4.7738905389E-005 -3.7581828024E+001  +1.2711737956E-005 +1.1495014804E+002  +9.0797841007E-001 +1.7423175841E+001 
12234.655 +9.1097656714E-001 +1.7383693129E+001  +1.8123516298E-005 -2.3687406754E+001  +4.0917250433E-006 +1.3525869803E+002  +9.1077361737E-001 +1.7375967803E+001 
12324.426 +9.1368111552E-001 +1.7311441435E+001  +1.8092107486E-005 +4.6694671257E+001  +2.3135545459E-005 +5.9937145585E+001  +9.1391189487E-001 +1.7316456922E+001 
12414.856 +9.1643874950E-001 +1.7262303542E+001  +2.6093209115E-005 +1.0971797400E+002  +5.6338534720E-005 -1.7474609163E+002  +9.1639929781E-001 +1.7263319789E+001 
12505.949 +9.1930239899E-001 +1.7209320521E+001  +1.9284428523E-005 +3.2832433525E+001  +1.3957923827E-005 +1.1877790284E+002  +9.1933646661E-001 +1.7220353089E+001 
12597.711 +9.2133789134E-001 +1.7175549802E+001  +7.1195472200E-006 -1.5849953192E+002  +9.4219275149E-006 +1.6201880373E+002  +9.2123447155E-001 +1.7174938197E+001 
12690.146 +9.2396030636E-001 +1.7128484536E+001  +4.4417360565E-005 +5.4852634033E+001  +1.9890330872E-005 +1.4418640517E+002  +9.2398697108E-001 +1.7131753621E+001 
12783.260 +9.2650275869E-001 +1.7082083335E+001  +4.2951937744E-005 +9.1665329817E+001  +1.1978010786E-005 -6.0939849208E+001  +9.2633301067E-001 +1.7077736920E+001 
12877.056 +9.2880997413E-001 +1.7027373033E+001  +2.9944740769E-005 +1.6565375445E+002  +1.5109978191E-005 +1.4138729939E+001  +9.2888760169E-001 +1.7033100876E+001 
12971.541 +9.3124008649E-001 +1.6980526782E+001  +3.4059409001E-005 +2.4093284910E+001  +1.2438643515E-005 +6.7247508822E+001  +9.3112077779E-001 +1.6978964370E+001 
13066.719 +9.3350503486E-001 +1.6916950199E+001  +3.7134841898E-005 -4.4264345799E-001  +2.5601091600E-005 +1.2152762639E+002  +9.3324675990E-001 +1.6917923168E+001 
13162.595 +9.3602022117E-001 +1.6868406380E+001  +5.8257184615E-006 +1.2114949798E+002  +5.3311506495E-005 +3.0069676915E+001  +9.3575823113E-001 +1.6874136268E+001 
13259.175 +9.3829964077E-001 +1.6814939670E+001  +6.9780130262E-006 +1.1434349618E+002  +2.3753895410E-005 -6.9693747141E+001  +9.3837419008E-001 +1.6816137993E+001 
13356.464 +9.4059860072E-001 +1.6753998361E+001  +1.5771680497E-005 +2.5355335051E+001  +2.0180228068E-005 -5.4934353941E+001  +9.4062184509E-001 +1.6754167408E+001 
13454.466 +9.4301445028E-001 +1.6688895956E+001  +3.2939253184E-005 -1.6587799023E+002  +2.8244028362E-005 -1.5131489350E+001  +9.4294353987E-001 +1.6680247665E+001 
13553.188 +9.4541518618E-001 +1.6626393379E+001  +2.0637218730E-005 -1.6716570064E+002  +3.8563216800E-005 -4.0743693236E+001  +9.4519890679E-001 +1.6620964487E+001 
13652.634 +9.4769871283E-001 +1.6563665999E+001  +3.6447800631E-005 +1.2190800247E+002  +1.8213134761E-005 -1.6336800305E+002  +9.4771130830E-001 +1.6556807837E+001 
13752.809 +9.5028323805E-001 +1.6492529886E+001  +3.5738452520E-005 +1.7842932258E+002  +7.0308379782E-006 +1.7118353116E+002  +9.5030375322E-001 +1.6486845505E+001 
13853.720 +9.5275806730E-001 +1.6416076276E+001  +4.2967416275E-005 -3.5394791058E+001  +2.1583186318E-005 +7.8284989087E+001  +9.5275827688E-001 +1.6404522583E+001 
13955.371 +9.5522723572E-001 +1.6349911488E+001  +2.0192755351E-005 +8.2591528455E+001  +2.5603422247E-005 +1.1288445173E+002  +9.5529055289E-001 +1.6342141791E+001 
14057.768 +9.5747930408E-001 +1.6260123386E+001  +5.9943140343E-006 +1.5043028897E+002  +3.1082211095E-005 -3.6781671983E+001  +9.5730229582E-001 +1.6251764347E+001 
14160.916 +9.5990973513E-001 +1.6193828650E+001  +2.9362861825E-005 +1.2639692465E+002  +2.2896998268E-005 +6.8313337417E+001  +9.5983938841E-001 +1.6192917780E+001 
14264.821 +9.6245854974E-001 +1.6111042113E+001  +3.4542796159E-005 +2.6836581852E+000  +1.3814835584E-005 -1.1175111881E+002  +9.6233791038E-001 +1.6107147600E+001 
14369.488 +9.6451880996E-001 +1.6046223833E+001  +2.8340377191E-005 -3.8707209329E+001  +6.9913315135E-006 +1.1924812652E+002  +9.6446746884E-001 +1.6048736988E+001 
14474.924 +9.6629905738E-001 +1.5983272446E+001  +3.0676883591E-005 +6.2524658449E+001  +1.4741615976E-005 +1.5616635648E+002  +9.6630347045E-001 +1.5989395836E+001 
14581.133 +9.6836741721E-001 +1.5937200919E+001  +1.4561756272E-005 +1.0271422399E+002  +3.1674320649E-005 +1.1095395649E+002  +9.6828709811E-001 +1.5928673205E+001 
14688.121 +9.7002898298E-001 +1.5883196387E+001  +9.2394530152E-006 +9.9134572523E+001  +1.7325577425E-005 -8.7626430707E+001  +9.6992221371E-001 +1.5868743255E+001 
14795.895 +9.7179752234E-001 +1.5826590970E+001  +3.7369723303E-006 +9.3552981942E+001  +3.7439726707E-005 +1.1380105643E+002  +9.7196932110E-001 +1.5813058544E+001 
14904.459 +9.7377738579E-001 +1.5740752519E+001  +2.0395861512E-005 -1.0899428941E+002  +8.6849600052E-006 +5.0359506328E+001  +9.7372803961E-001 +1.5749026475E+001 
15013.820 +9.7576850063E-001 +1.5692890787E+001  +3.5211068363E-005 +6.1662418435E+001  +5.5165839000E-005 +1.0881770382E+002  +9.7575537798E-001 +1.5690911469E+001 
15123.983 +9.7767429305E-001 +1.5641669514E+001  +3.3597752839E-005 -6.4329757577E+001  +3.1320897189E-005 +1.7736359829E+002  +9.7757758418E-001 +1.5646768270E+001 
15234.954 +9.7963051194E-001 +1.5564545732E+001  +2.8481931784E-005 +1.0452385963E+002  +1.6955369492E-005 +9.8428061521E+001  +9.7972715457E-001 +1.5575310702E+001 
15346.740 +9.8144396300E-001 +1.5505053030E+001  +2.9377071059E-005 -1.0007914552E+001  +1.2185283483E-005 -4.3978440126E+001  +9.8140784509E-001 +1.5501109573E+001 
15459.346 +9.8323712570E-001 +1.5446364912E+001  +3.1228115830E-005 +1.2835938658E+002  +1.3040272567E-005 +1.4269403311E+000  +9.8334477484E-001 +1.5434844322E+001 
15572.778 +9.8518661402E-001 +1.5373724087E+001  +1.1325507472E-005 -1.0986503325E+002  +4.3777556491E-005 -1.3565822904E+002  +9.8488740720E-001 +1.5374885060E+001 
15687.043 +9.8710365589E-001 +1.5301598556E+001  +3.1852726516E-005 +1.2091134996E+002  +1.4494975865E-005 +7.3477605429E+001  +9.8701240834E-001 +1.5305300574E+001 
15802.146 +9.8895374575E-001 +1.5228279798E+001  +2.1763005541E-005 +1.1350686205E+002  +4.3833479240E-006 +1.0358397269E+001  +9.8874946233E-001 +1.5213690510E+001 
15918.093 +9.9052641333E-001 +1.5158958419E+001  +2.9246817169E-005 +9.2344741121E+001  +7.7511338165E-006 -9.9472437920E+001  +9.9045146056E-001 +1.5154412095E+001 
16034.892 +9.9257549853E-001 +1.5075959582E+001  +1.2252555267E-005 +1.2378232779E+002  +2.1451662782E-005 +1.4360537534E+002  +9.9243554388E-001 +1.5080678890E+001 
16152.547 +9.9444734552E-001 +1.5005710119E+001  +2.4101419293E-005 -5.2498957542E+001  +2.2402412903E-005 +9.9296591636E+001  +9.9427649927E-001 +1.5004282866E+001 
16271.065 +9.9640246847E-001 +1.4928831957E+001  +3.3040266315E-005 +9.0414142360E+001  +2.9185153027E-005 -1.2491944716E+001  +9.9612618367E-001 +1.4919928583E+001 
16390.454 +9.9816337108E-001 +1.4846039245E+001  +4.0872568395E-005 +4.7045356427E+001  +2.1887147284E-005 -1.5729022536E+002  +9.9791302481E-001 +1.4851262013E+001 
16510.718 +9.9987421396E-001 +1.4774085172E+001  +2.8413044994E-005 +1.5551742719E+002  +3.2726663807E-005 +5.5632058958E+001  +9.9969258709E-001 +1.4759604312E+001 
16631.864 +1.0017434577E+000 +1.4681152190E+001  +2.2641891587E-005 +6.8736317254E+001  +1.7626702353E-005 +8.5226317475E+001  +1.0016006601E+000 +1.4665625235E+001 
16753.900 +1.0035324722E+000 +1.4598354319E+001  +7.8312092124E-006 -1.1869422058E+002  +2.1416629406E-005 -1.3683657479E+002  +1.0034924398E+000 +1.4604456932E+001 
16876.831 +1.0052688036E+000 +1.4507898942E+001  +3.8953647781E-005 +1.4456237937E+002  +2.4901819336E-005 +5.5189683687E+001  +1.0052605087E+000 +1.4506668518E+001 
17000.664 +1.0072007391E+000 +1.4426152260E+001  +8.0018545022E-006 +1.2449640168E+002  +1.7498206603E-005 +6.1252474788E+001  +1.0070235801E+000 +1.4430473306E+001 
17125.405 +1.0088088515E+000 +1.4342550616E+001  +1.2084756843E-005 +7.0026258314E+001  +1.6371806016E-006 -3.5757891199E+000  +1.0088220690E+000 +1.4345158364E+001 
17251.062 +1.0108234665E+000 +1.4239601768E+001  +2.3038672040E-005 +3.9328376588E+000  +1.3501797944E-005 -5.2192615160E+000  +1.0105858117E+000 +1.4238273464E+001 
17377.641 +1.0124507711E+000 +1.4155307634E+001  +4.0590432677E-005 +6.0934993663E+001  +1.8988992878E-005 +1.0691481232E+002  +1.0124513524E+000 +1.4144896459E+001 
17505.149 +1.0142361223E+000 +1.4063214353E+001  +4.7661924286E-005 +1.5488621967E+002  +2.5315797665E-005 +4.6530795260E-001  +1.0140918290E+000 +1.4061644270E+001 
17633.592 +1.0160433473E+000 +1.3963641424E+001  +3.5812186720E-005 +1.6961917489E+002  +7.5236752400E-005 +1.3524619213E+002  +1.0159067611E+000 +1.3969674768E+001 
17762.977 +1.0175099088E+000 +1.3865729473E+001  +1.3161060016E-005 +7.5123661655E+001  +1.7056954785E-005 +1.2398400559E+002  +1.0176311168E+000 +1.3867119636E+001 
17893.312 +1.0192262347E+000 +1.3780704016E+001  +2.0407511163E-005 -8.9722159666E+001  +2.1578072217E-005 -1.3292492812E+002  +1.0193616925E+000 +1.3773588275E+001 
18024.604 +1.0213153609E+000 +1.3672023774E+001  +1.8277879245E-005 +7.2379647478E+001  +5.1748495534E-005 +1.0988259143E+002  +1.0212790367E+000 +1.3668045641E+001 
18156.858 +1.0230308088E+000 +1.3577656954E+001  +3.1439309968E-005 -1.6953720656E+002  +1.1797978336E-005 +1.6715395994E+002  +1.0229100456E+000 +1.3569428311E+001 
18290.084 +1.0246991653E+000 +1.3465521575E+001  +2.2090411603E-005 +1.6790591052E+002  +4.7009305402E-005 +1.7163069691E+002  +1.0245043700E+000 +1.3466691312E+001 
18424.286 +1.0263796654E+000 +1.3362282327E+001  +2.6003279692E-005 +2.0296398789E+001  +4.7296274016E-005 -1.5716849503E+002  +1.0262422400E+000 +1.3370959412E+001 
18559.473 +1.0279581952E+000 +1.3246491878E+001  +2.9283177075E-005 +4.5475492760E+001  +1.3078758384E-005 +1.7165842128E+002  +1.0279997254E+000 +1.3241767959E+001 
18695.653 +1.0298180128E+000 +1.3155273200E+001  +5.5154514160E-005 +3.5896150843E+001  +2.6045615046E-005 +1.3037660201E+002  +1.0297396685E+000 +1.3146528495E+001 
18832.831 +1.0314267284E+000 +1.3032644452E+001  +2.8966348331E-005 -1.5205797973E+002  +2.8286973940E-005 +7.9320255509E+001  +1.0314206970E+000 +1.3035337243E+001 
18971.016 +1.0329378104E+000 +1.2909752482E+001  +5.5401489440E-005 +1.0757189126E+002  +9.0831171197E-006 -9.5947692350E+001  +1.0330412714E+000 +1.2922499931E+001 
19110.215 +1.0343739523E+000 +1.2833000138E+001  +5.3096043862E-005 +1.6575471025E+002  +1.9032169659E-005 -2.4612943077E+001  +1.0342899627E+000 +1.2821013967E+001 
19250.435 +1.0355152769E+000 +1.2760008814E+001  +3.8186025901E-005 +1.7948085079E+002  +1.6589491382E-005 -7.0419027197E+001  +1.0354305527E+000 +1.2759973980E+001 
19391.685 +1.0366933541E+000 +1.2707173204E+001  +7.5306798735E-006 +3.8148701932E+001  +1.4269448853E-005 +1.8062903656E+001  +1.0366414263E+000 +1.2706935582E+001 
19533.970 +1.0375729886E+000 +1.2647757753E+001  +4.8064061238E-005 +4.2303312298E+001  +2.0667201059E-005 +1.3172884916E+002  +1.0376898955E+000 +1.2650129062E+001 
19677.300 +1.0388839286E+000 +1.2578452975E+001  +3.8718811171E-005 +1.0807411791E+002  +1.7034889569E-005 +6.2677109725E+001  +1.0387829395E+000 +1.2577280699E+001 
19821.681 +1.0398118438E+000 +1.2526319129E+001  +1.6293125523E-005 +1.4412113809E+002  +7.9764567030E-006 -8.2016830044E+001  +1.0397613897E+000 +1.2528797467E+001 
19967.122 +1.0408323620E+000 +1.2457936206E+001  +1.1672218586E-005 -1.7542125716E+002  +2.9559254961E-005 -8.5495607433E+001  +1.0409299172E+000 +1.2462804528E+001 
20113.629 +1.0419484221E+000 +1.2397160397E+001  +5.1759689055E-005 +8.0980027723E+001  +4.3603453535E-005 +9.9675631364E+001  +1.0419585264E+000 +1.2406310557E+001 
20261.212 +1.0431219239E+000 +1.2332381065E+001  +4.2561940356E-005 -1.1878302305E+000  +2.0482621693E-005 -9.8270729282E+000  +1.0429981745E+000 +1.2341418708E+001 
20409.878 +1.0443202229E+000 +1.2271174639E+001  +2.3016880943E-005 -5.9267069117E+001  +3.0396850158E-005 +9.1619138850E+001  +1.0442013363E+000 +1.2269835596E+001 
20559.634 +1.0454104909E+000 +1.2206478971E+001  +2.3307075057E-005 -4.0689568217E+001  +3.4715409460E-005 -1.7816958744E+002  +1.0451965421E+000 +1.2213240903E+001 
20710.490 +1.0464068396E+000 +1.2140175985E+001  +6.6272889251E-006 +8.6738758959E+001  +1.7956984622E-005 -1.5247575681E+002  +1.0461933015E+000 +1.2136536291E+001 
20862.452 +1.0472866916E+000 +1.2072031744E+001  +4.2442368737E-005 -3.2366621852E+001  +1.9571506285E-005 +9.4079492532E+001  +1.0472298519E+000 +1.2070994415E+001 
21015.529 +1.0483979108E+000 +1.1996772414E+001  +3.6007092886E-005 -4.0331722435E+000  +1.5080840410E-005 +6.6377698756E+001  +1.0482185317E+000 +1.2003545702E+001 
