!  2-Port S-parameters saved by WinCal
! VAR MeasName=S-Parameters (CALIBRATED_DATA) read from VNA (P5004A)
! VAR MeasDate=26/04/2024 18:49:24
! VAR NAME=Wafer2_r1_c3_smallform_log
! VAR FILENAME=Wafer2_r1_c3_smallform_log_1.S2P
! VAR DATE=26/04/2024 18:49:24
! VAR PHYS_PORTS=1,2
! VAR ObjTypeName=DATASET
! VAR IndexType=Frequency
!
# Hz S MA R 50
9000.000 +7.9771443667E-001 +1.7312259343E+001  +4.2083796269E-005 +1.0858349721E+002  +2.9880286551E-005 +8.9812188462E+001  +7.9781669144E-001 +1.7297621798E+001 
9066.037 +8.0048617122E-001 +1.7378619459E+001  +2.2271762536E-005 +1.1468011778E+002  +4.2849555408E-005 -1.1282437002E+002  +8.0022918068E-001 +1.7361454486E+001 
9132.559 +8.0251322380E-001 +1.7422133746E+001  +4.6758883825E-005 +1.3808830352E+002  +9.5460123861E-006 -2.9269041124E+001  +8.0246929362E-001 +1.7426067474E+001 
9199.568 +8.0536166226E-001 +1.7493916366E+001  +1.8440619449E-005 -9.2830329360E+001  +3.5299267137E-005 -8.1604357167E+001  +8.0542063980E-001 +1.7488678484E+001 
9267.070 +8.0799538758E-001 +1.7517141895E+001  +5.5030096080E-006 -1.1692362421E+002  +7.4273189111E-006 +1.7982519738E+002  +8.0787510928E-001 +1.7510900064E+001 
9335.066 +8.1044045068E-001 +1.7594411749E+001  +1.8812761146E-005 +1.3345709039E+002  +2.4634610702E-005 -2.4403250813E+001  +8.1024058202E-001 +1.7580666587E+001 
9403.562 +8.1327518549E-001 +1.7628486490E+001  +1.2714830697E-005 +7.9780297018E+001  +9.3788666598E-006 -4.3361568771E+001  +8.1317313686E-001 +1.7624094199E+001 
9472.560 +8.1586926653E-001 +1.7664604255E+001  +1.9110418673E-005 +6.6961743482E+000  +2.7790231028E-005 +1.3903827400E+002  +8.1571528672E-001 +1.7650725462E+001 
9542.065 +8.1874863969E-001 +1.7678181620E+001  +4.1499732173E-005 -1.1083994302E+002  +9.5774170033E-006 -5.9660437116E+001  +8.1839817192E-001 +1.7668667109E+001 
9612.079 +8.2109781268E-001 +1.7728083424E+001  +2.4348706366E-005 -1.6253089685E+002  +1.7806229337E-005 +1.0749841783E+002  +8.2090269962E-001 +1.7702941126E+001 
9682.607 +8.2378127611E-001 +1.7744891077E+001  +1.9708507257E-005 -1.8092321999E+001  +1.6091863510E-005 -1.8638841036E+001  +8.2357302634E-001 +1.7736635783E+001 
9753.653 +8.2641914956E-001 +1.7779657720E+001  +3.3308701029E-005 -4.0854310712E+001  +4.4402448420E-005 -8.6399302730E+000  +8.2621796954E-001 +1.7762593628E+001 
9825.220 +8.2867263722E-001 +1.7798010058E+001  +2.7799543738E-005 -5.1829854217E+001  +2.1647197828E-005 +1.0462254495E+002  +8.2855499340E-001 +1.7783761072E+001 
9897.312 +8.3164915042E-001 +1.7803310426E+001  +9.1859949007E-006 -1.4538562802E+002  +2.0277606568E-005 -1.7163289191E+002  +8.3151442817E-001 +1.7792869868E+001 
9969.933 +8.3424903822E-001 +1.7845196946E+001  +1.4326872882E-005 -3.6276322961E+001  +3.1758081865E-005 +1.3046170477E+002  +8.3403525172E-001 +1.7837469864E+001 
10043.087 +8.3692831530E-001 +1.7858136949E+001  +6.8655149492E-006 -2.8995633356E+001  +3.1072983172E-005 -7.0245560648E+001  +8.3683867224E-001 +1.7852739921E+001 
10116.778 +8.3955113307E-001 +1.7859097703E+001  +3.6305969107E-005 -1.7238034120E+002  +3.8374446844E-005 +5.5276365033E+001  +8.3929015528E-001 +1.7858109235E+001 
10191.009 +8.4206546844E-001 +1.7889592713E+001  +4.2413975297E-006 +1.7984803927E+002  +2.2823335824E-005 -1.6040054089E+002  +8.4177414394E-001 +1.7874737971E+001 
10265.785 +8.4498311112E-001 +1.7887016441E+001  +1.3936626370E-005 -1.3186027288E+002  +3.9113830320E-005 +4.8557678940E+001  +8.4481661768E-001 +1.7885051605E+001 
10341.110 +8.4789690432E-001 +1.7902423978E+001  +2.0965430936E-005 +6.7802213987E+001  +2.5002389856E-005 -1.6919559970E+001  +8.4766381564E-001 +1.7884600882E+001 
10416.987 +8.5055660835E-001 +1.7897066249E+001  +2.1523312507E-005 -1.1532587354E+002  +3.0079285956E-005 +1.1710684813E+002  +8.5060850857E-001 +1.7895728456E+001 
10493.421 +8.5346236701E-001 +1.7889310727E+001  +8.3758615183E-006 +5.7441837619E+001  +3.4944209094E-005 +7.8144704704E+001  +8.5330046220E-001 +1.7887564988E+001 
10570.416 +8.5627830886E-001 +1.7875666587E+001  +2.9502000621E-005 +2.5826025019E+001  +9.5324695797E-006 +1.6361529445E+002  +8.5640586316E-001 +1.7870270480E+001 
10647.976 +8.5892317212E-001 +1.7891414963E+001  +2.0842739872E-005 +9.5601587185E+001  +2.4068196750E-005 -4.3712236650E+001  +8.5896541623E-001 +1.7874433873E+001 
10726.105 +8.6210399118E-001 +1.7873645216E+001  +1.7919622029E-005 -1.3678052629E+002  +3.0828670918E-005 -4.1666519164E+001  +8.6197493446E-001 +1.7860645266E+001 
10804.808 +8.6519934369E-001 +1.7847300219E+001  +4.0858835745E-005 -4.9003595473E+001  +1.2653759952E-005 +1.0462440946E+002  +8.6490464234E-001 +1.7839899360E+001 
10884.087 +8.6822012739E-001 +1.7841041654E+001  +3.3502182016E-005 -1.7500695646E+001  +1.6467865353E-005 -1.6558447195E+002  +8.6805391539E-001 +1.7839635861E+001 
10963.949 +8.7109995231E-001 +1.7798252505E+001  +3.8339729763E-005 -1.1360692248E+002  +2.1834264049E-005 +1.4154868782E+002  +8.7102849060E-001 +1.7800836358E+001 
11044.396 +8.7408700292E-001 +1.7791743425E+001  +1.3723691129E-005 +7.0628640987E+001  +2.0668073833E-005 +2.8975823666E+001  +8.7408045803E-001 +1.7794856032E+001 
11125.434 +8.7635651281E-001 +1.7787751292E+001  +1.6464160349E-005 +9.5096402318E+001  +6.5438631892E-006 -9.5013487430E+001  +8.7633847120E-001 +1.7782224120E+001 
11207.066 +8.7904048202E-001 +1.7767479979E+001  +1.6661248819E-005 +1.0833101417E+002  +3.4968529819E-005 +9.8744678625E+001  +8.7911614597E-001 +1.7759354795E+001 
11289.298 +8.8138881062E-001 +1.7761221885E+001  +5.3394691840E-005 +1.7103909716E+002  +3.1863743845E-005 +9.0959536838E+001  +8.8131146111E-001 +1.7763459285E+001 
11372.132 +8.8397927878E-001 +1.7739468196E+001  +1.7541555488E-005 -1.4378368160E+002  +3.2756861163E-005 +1.3555098062E+002  +8.8413647928E-001 +1.7733153614E+001 
11455.575 +8.8687678918E-001 +1.7715715116E+001  +5.8875713124E-006 +1.7502849805E+002  +1.1325094468E-005 +2.1635367057E+001  +8.8684624902E-001 +1.7713841063E+001 
11539.630 +8.8946640146E-001 +1.7686142748E+001  +2.3110152697E-005 +1.7296007054E+002  +9.0773714386E-006 +1.0228486712E+002  +8.8948782901E-001 +1.7687842491E+001 
11624.301 +8.9201974553E-001 +1.7652164931E+001  +1.7481934724E-005 +1.3267607643E+002  +8.6635465725E-006 -2.9750249980E+000  +8.9197789091E-001 +1.7648880100E+001 
11709.594 +8.9450736412E-001 +1.7628457187E+001  +2.6558897915E-005 +1.3951096817E+002  +1.5885570334E-005 +1.7810370748E+002  +8.9439079571E-001 +1.7616098663E+001 
11795.512 +8.9730819162E-001 +1.7582483764E+001  +2.3264138820E-005 +3.9348123175E+001  +2.2746417969E-005 -1.3425077001E+002  +8.9730146097E-001 +1.7595284544E+001 
11882.062 +8.9990838257E-001 +1.7563906357E+001  +2.8669400017E-005 -1.4771781563E+002  +1.6832369054E-005 -1.0437181370E+002  +8.9975836845E-001 +1.7552841038E+001 
11969.246 +9.0301115362E-001 +1.7518960400E+001  +2.1900454913E-005 -1.5779172052E+002  +1.0899191877E-005 +1.3237800362E+002  +9.0291693483E-001 +1.7509956560E+001 
12057.069 +9.0532487893E-001 +1.7464735713E+001  +1.0239373790E-005 +1.4956945321E+002  +2.2606883391E-005 +1.6018247995E+001  +9.0528286301E-001 +1.7459312132E+001 
12145.538 +9.0822351296E-001 +1.7416650491E+001  +3.0653655935E-005 +9.2619085822E+001  +1.9883599566E-005 +1.1746727638E+002  +9.0803851696E-001 +1.7421632826E+001 
12234.655 +9.1090049431E-001 +1.7376564142E+001  +2.8164597789E-005 +1.4073484459E+002  +1.2010643701E-005 +1.4171689448E+002  +9.1066893059E-001 +1.7375174135E+001 
12324.426 +9.1362254457E-001 +1.7318234286E+001  +1.6957880452E-005 +1.6385084134E+002  +3.2925232961E-005 +3.9381731367E+001  +9.1379607577E-001 +1.7318791537E+001 
12414.856 +9.1633921156E-001 +1.7266387968E+001  +9.1357444984E-006 -7.9115420436E+001  +1.2790198606E-005 -7.1313230671E+000  +9.1627157222E-001 +1.7260439127E+001 
12505.949 +9.1929490396E-001 +1.7207046252E+001  +1.1695340486E-005 -1.3230581046E+002  +1.9068849718E-005 -4.5329511957E+000  +9.1919105670E-001 +1.7209805447E+001 
12597.711 +9.2139090185E-001 +1.7173751171E+001  +1.0513892163E-005 -1.4062861561E+002  +3.0186410729E-005 -5.5363059490E+001  +9.2109860131E-001 +1.7171649819E+001 
12690.146 +9.2394876200E-001 +1.7127014964E+001  +1.4514746379E-005 -6.6668611583E+001  +8.2727119239E-006 +3.6588561513E+001  +9.2383705401E-001 +1.7128759211E+001 
12783.260 +9.2643373265E-001 +1.7084806639E+001  +3.3132380771E-005 +3.2202406602E+001  +1.4650916848E-005 -4.8599767235E+001  +9.2611773473E-001 +1.7077642999E+001 
12877.056 +9.2868512621E-001 +1.7027501329E+001  +3.0203488479E-005 +1.6321439026E+002  +3.3975669772E-005 +1.0178463389E+002  +9.2886523593E-001 +1.7028107493E+001 
12971.541 +9.3121479521E-001 +1.6970254068E+001  +2.3121415691E-005 +1.1569855330E+001  +1.6146549089E-005 +1.4408208201E+002  +9.3119746961E-001 +1.6980265306E+001 
13066.719 +9.3349142198E-001 +1.6918062787E+001  +3.1206415979E-005 +2.4946823555E+001  +1.3188858278E-005 +7.1041589304E+000  +9.3341288340E-001 +1.6920330349E+001 
13162.595 +9.3583647902E-001 +1.6884131302E+001  +3.6937366367E-005 +1.1340153163E+002  +2.1157775585E-005 +7.5854815490E+001  +9.3573355326E-001 +1.6880431818E+001 
13259.175 +9.3827543777E-001 +1.6815736128E+001  +4.0355808125E-005 +1.4187272220E+001  +3.9163366630E-005 +1.8922930406E+001  +9.3819637980E-001 +1.6817149632E+001 
13356.464 +9.4049232262E-001 +1.6754510255E+001  +2.6173964250E-006 -2.1769725567E+000  +4.4088433165E-005 +1.2606059799E+002  +9.4061775829E-001 +1.6746424131E+001 
13454.466 +9.4311465638E-001 +1.6686290232E+001  +3.2174955441E-005 +2.5598645605E+001  +1.9691072677E-005 +1.1471199132E+002  +9.4295437541E-001 +1.6681385007E+001 
13553.188 +9.4536530083E-001 +1.6625952177E+001  +5.1225265083E-005 +8.3087918764E+001  +9.2742968492E-006 -3.7054268481E+000  +9.4520673434E-001 +1.6625243936E+001 
13652.634 +9.4765207277E-001 +1.6561124692E+001  +2.7775332041E-005 +7.6454352964E+001  +2.2745029939E-005 -9.1198700834E+001  +9.4764296095E-001 +1.6555857638E+001 
13752.809 +9.5027656202E-001 +1.6483597860E+001  +2.1034506157E-005 +1.1490637413E+002  +7.9724900692E-006 -7.5372976241E+001  +9.5027455728E-001 +1.6490394831E+001 
13853.720 +9.5271559743E-001 +1.6411008574E+001  +1.3834759106E-005 +9.7646901211E+001  +3.1261496832E-005 +4.8099883285E+001  +9.5264682735E-001 +1.6400324389E+001 
13955.371 +9.5534239733E-001 +1.6348133038E+001  +8.0947630909E-006 -2.1999933192E+001  +3.8822033739E-005 -1.5959414054E+002  +9.5527331752E-001 +1.6338717566E+001 
14057.768 +9.5746639394E-001 +1.6261474490E+001  +2.8760111393E-005 +1.0955403245E+002  +2.7662534589E-005 +1.4059448371E+002  +9.5732064818E-001 +1.6254639790E+001 
14160.916 +9.6000185180E-001 +1.6187553530E+001  +1.6917828274E-005 -1.7002012414E+002  +3.8667639902E-005 +4.1574540710E+001  +9.5989832076E-001 +1.6189721626E+001 
14264.821 +9.6237134746E-001 +1.6111405888E+001  +3.8162624550E-005 +1.7370989254E+002  +2.0326417113E-005 +9.5244161773E+001  +9.6231875944E-001 +1.6115054897E+001 
14369.488 +9.6448910775E-001 +1.6045161785E+001  +4.5361250119E-006 +5.8493245469E+001  +2.5179792415E-005 +4.0065236326E+001  +9.6435693916E-001 +1.6050323920E+001 
14474.924 +9.6622968498E-001 +1.5987355263E+001  +4.0681145378E-006 +5.6555621645E+001  +1.9640462273E-005 +1.3515723431E+002  +9.6621191967E-001 +1.5984717565E+001 
14581.133 +9.6846380155E-001 +1.5931278317E+001  +5.6931328442E-006 -1.5671288421E+002  +1.5151369115E-005 +3.3124839134E+001  +9.6821105756E-001 +1.5926478313E+001 
14688.121 +9.6986757512E-001 +1.5879032486E+001  +5.4359500840E-006 -9.8860054634E+001  +2.1541155607E-005 +8.6357767279E+001  +9.6991568856E-001 +1.5877557744E+001 
14795.895 +9.7183698710E-001 +1.5814577906E+001  +2.8133673909E-005 +1.2336268835E+001  +3.4913101918E-005 +6.1098785367E+001  +9.7187918080E-001 +1.5813624996E+001 
14904.459 +9.7381579040E-001 +1.5743507813E+001  +1.4692178674E-005 +4.4864552166E+001  +1.8134860340E-005 +7.7159122897E+001  +9.7346958515E-001 +1.5749228534E+001 
15013.820 +9.7577169417E-001 +1.5696068180E+001  +2.7532934128E-005 +1.2317543353E+002  +7.1358501719E-006 -4.5947365021E+001  +9.7553233124E-001 +1.5691524337E+001 
15123.983 +9.7765336919E-001 +1.5648313913E+001  +2.2571184059E-005 +3.2040870874E+001  +1.6664368719E-005 +1.6227815439E+002  +9.7747011650E-001 +1.5642010881E+001 
15234.954 +9.7942296733E-001 +1.5568816186E+001  +1.9284970385E-005 -1.6253170130E+001  +2.5983869876E-005 +5.8858543753E+001  +9.7944592354E-001 +1.5570583013E+001 
15346.740 +9.8126658791E-001 +1.5505423294E+001  +3.8684504316E-005 +1.2632110065E+002  +7.0706987510E-006 +1.6683289687E+001  +9.8140710695E-001 +1.5500810966E+001 
15459.346 +9.8314874230E-001 +1.5448656690E+001  +1.0838813642E-005 -1.5062881704E+002  +4.5587347395E-005 -1.5684854934E+002  +9.8324305761E-001 +1.5444042478E+001 
15572.778 +9.8501066383E-001 +1.5378492454E+001  +1.3729133902E-005 +1.5981652244E+002  +1.9766334124E-005 +5.1017508188E+001  +9.8486832488E-001 +1.5379139065E+001 
15687.043 +9.8706100623E-001 +1.5310495748E+001  +4.1790409110E-005 +3.1869134648E+000  +4.1254328023E-005 +1.0372209395E+001  +9.8679125657E-001 +1.5302616295E+001 
15802.146 +9.8892389165E-001 +1.5231207670E+001  +2.3788114182E-005 +7.9917652767E+001  +4.8415809146E-005 -1.3364176194E+002  +9.8869249875E-001 +1.5210094084E+001 
15918.093 +9.9051077398E-001 +1.5150276996E+001  +1.1690814218E-005 +4.1161611692E+001  +3.1548637887E-005 +1.5181612989E+001  +9.9052639798E-001 +1.5147955245E+001 
16034.892 +9.9259515965E-001 +1.5078638078E+001  +1.4724644467E-005 -1.4873291609E+002  +1.6968314451E-005 +1.1014262808E+002  +9.9230750390E-001 +1.5075464009E+001 
16152.547 +9.9425276984E-001 +1.5001011545E+001  +1.9593256845E-005 -1.3307608713E+002  +2.0125667366E-005 -5.2359787129E+001  +9.9426713884E-001 +1.5000359388E+001 
16271.065 +9.9617439522E-001 +1.4932327662E+001  +4.3404941863E-005 -4.8175584691E+001  +1.2707318537E-005 -6.3518288351E+001  +9.9608775261E-001 +1.4915706379E+001 
16390.454 +9.9815020212E-001 +1.4847513873E+001  +1.9049444178E-005 -1.2442681829E+002  +3.3447893185E-005 -2.9836181122E+001  +9.9772983795E-001 +1.4844373634E+001 
16510.718 +9.9988861104E-001 +1.4769136201E+001  +3.7165898075E-005 +2.7108294184E+000  +2.8218106744E-005 +1.1253530935E+002  +9.9971274215E-001 +1.4755728517E+001 
16631.864 +1.0017911774E+000 +1.4678373835E+001  +1.2240883179E-005 -5.3437250903E+001  +1.2476892356E-005 +4.3662593155E+001  +1.0015829687E+000 +1.4670969000E+001 
16753.900 +1.0034751862E+000 +1.4592856700E+001  +1.1580760407E-005 -1.5292275191E+002  +2.2362623212E-005 +1.3198255120E+002  +1.0033409572E+000 +1.4599173253E+001 
16876.831 +1.0051264361E+000 +1.4511406307E+001  +2.7374465592E-005 +8.7796923654E+001  +6.0040078897E-005 +1.0191931497E+002  +1.0050496587E+000 +1.4509331137E+001 
17000.664 +1.0070850697E+000 +1.4435331445E+001  +3.2770565874E-005 +5.7312419702E+001  +7.7851584008E-006 +1.1289376097E+001  +1.0069729105E+000 +1.4426876321E+001 
17125.405 +1.0088702834E+000 +1.4350426812E+001  +2.4230604821E-005 -4.7365917210E+000  +3.2966074283E-005 -9.7268673719E+001  +1.0086364201E+000 +1.4340216569E+001 
17251.062 +1.0107473571E+000 +1.4236982453E+001  +2.8112779165E-005 +7.9134308456E+001  +6.0355865624E-005 +1.7064061048E+002  +1.0105347109E+000 +1.4240334451E+001 
17377.641 +1.0122980766E+000 +1.4151913611E+001  +7.2503394897E-006 +1.1991653697E+002  +1.3705298903E-005 +6.6260380173E+001  +1.0123227297E+000 +1.4143108586E+001 
17505.149 +1.0141574127E+000 +1.4060609477E+001  +1.9060537203E-005 -8.3883787715E+001  +3.5588954913E-005 +9.2447467628E+000  +1.0140928099E+000 +1.4058926846E+001 
17633.592 +1.0159607083E+000 +1.3957462290E+001  +2.4754363179E-005 -2.2849426799E+001  +2.5450465296E-005 +1.4551278029E+002  +1.0157870543E+000 +1.3964521688E+001 
17762.977 +1.0175886346E+000 +1.3860537332E+001  +5.6866076071E-005 +1.5241324113E+001  +3.9516571578E-005 -2.8326888074E+001  +1.0176016366E+000 +1.3869763358E+001 
17893.312 +1.0191666958E+000 +1.3781208412E+001  +2.3523352938E-005 -1.4998301638E+002  +1.2329286462E-005 +9.2100392411E+001  +1.0192329066E+000 +1.3772187379E+001 
18024.604 +1.0212078357E+000 +1.3670695780E+001  +1.1770926586E-005 +3.1702485763E+000  +2.3767779381E-005 +5.4710584498E+001  +1.0212280527E+000 +1.3672005613E+001 
18156.858 +1.0230644796E+000 +1.3570447673E+001  +2.3989535831E-005 +1.1742904958E+002  +1.2237227208E-005 -6.7054316322E+000  +1.0228109691E+000 +1.3571451413E+001 
18290.084 +1.0245759044E+000 +1.3466135248E+001  +2.5264656258E-005 +1.5178677917E+002  +9.3669655152E-006 +1.3135450267E+002  +1.0245042667E+000 +1.3463660955E+001 
18424.286 +1.0262035211E+000 +1.3365518890E+001  +3.1695193516E-005 -2.2629649899E+001  +3.8377488655E-005 -1.1770674024E+002  +1.0261499700E+000 +1.3365646946E+001 
18559.473 +1.0280544178E+000 +1.3240886025E+001  +2.3491204985E-005 -8.8642139979E+001  +1.2860604488E-005 -6.7155026961E+001  +1.0278737928E+000 +1.3244224507E+001 
18695.653 +1.0297518740E+000 +1.3159024860E+001  +1.6326092061E-005 +8.1516323400E+001  +2.4943145313E-005 -1.3316883575E+002  +1.0298429847E+000 +1.3147139801E+001 
18832.831 +1.0314183582E+000 +1.3037212793E+001  +1.0902713330E-005 +1.1041826853E+002  +1.3285662909E-005 +1.7770227019E+002  +1.0313714090E+000 +1.3030438813E+001 
18971.016 +1.0328328617E+000 +1.2910429681E+001  +2.5466298623E-005 +1.0784620184E+002  +3.0789590623E-005 +1.3297904598E+002  +1.0330718712E+000 +1.2917537775E+001 
19110.215 +1.0343506325E+000 +1.2830629422E+001  +8.3053612485E-006 -1.3232667242E+002  +2.6576290327E-005 +9.7253283043E+001  +1.0341159438E+000 +1.2822758606E+001 
19250.435 +1.0353800061E+000 +1.2759539581E+001  +2.5390428365E-005 -1.1868671404E+002  +3.7474750075E-006 +1.6174416145E+002  +1.0353216040E+000 +1.2769159829E+001 
19391.685 +1.0366575777E+000 +1.2708737731E+001  +1.9785805721E-005 -1.7146861528E+002  +2.7873882632E-005 -5.9285339875E+001  +1.0365389566E+000 +1.2710604014E+001 
19533.970 +1.0375840481E+000 +1.2641518586E+001  +3.4571459987E-005 -4.9994494138E+000  +3.2199970730E-005 +1.3740759500E+002  +1.0375583727E+000 +1.2644220646E+001 
19677.300 +1.0389515662E+000 +1.2575728782E+001  +2.6808565939E-005 +6.7023607673E+001  +1.1128236127E-005 +7.6192799320E+001  +1.0389600838E+000 +1.2578679475E+001 
19821.681 +1.0398754546E+000 +1.2524983654E+001  +3.4280983309E-005 +2.9819002136E+001  +2.2300347822E-005 +5.5107282172E+001  +1.0398605380E+000 +1.2519586690E+001 
19967.122 +1.0410062032E+000 +1.2466691093E+001  +2.6351687962E-005 +1.6762830135E+002  +3.4034969899E-005 -1.6543311148E+002  +1.0407824482E+000 +1.2458245024E+001 
20113.629 +1.0420132143E+000 +1.2403840324E+001  +3.5928097938E-005 +4.7421926815E+001  +3.5359248578E-005 +1.2873693730E+002  +1.0418326432E+000 +1.2397692420E+001 
20261.212 +1.0429976978E+000 +1.2338479931E+001  +1.6230855500E-005 -1.5208291959E+002  +1.5480836319E-005 -5.2974288940E+001  +1.0429149192E+000 +1.2332583065E+001 
20409.878 +1.0442916994E+000 +1.2270380496E+001  +8.4327698342E-006 -5.1143305640E+001  +4.7348134824E-005 +7.3520754303E+001  +1.0441765367E+000 +1.2269673000E+001 
20559.634 +1.0453006913E+000 +1.2209252533E+001  +3.5212516772E-005 -4.3570072652E+001  +2.4064355223E-005 +2.3385911444E+001  +1.0452455801E+000 +1.2207186777E+001 
20710.490 +1.0463661581E+000 +1.2137362665E+001  +1.8293053536E-005 -8.5978667347E+001  +1.3143007850E-005 +7.3482970676E+001  +1.0460586629E+000 +1.2134635890E+001 
20862.452 +1.0473343138E+000 +1.2074795726E+001  +1.5420874215E-005 +1.6283832478E+002  +3.4249005367E-005 +9.9803344893E+001  +1.0471359955E+000 +1.2065475021E+001 
21015.529 +1.0485492127E+000 +1.1997853306E+001  +1.9580186859E-005 -8.0996057235E+001  +4.4496620916E-005 -1.2903613599E+002  +1.0481703075E+000 +1.2000985902E+001 
