!  2-Port S-parameters saved by WinCal
! VAR MeasName=S-Parameters (CALIBRATED_DATA) read from VNA (P5004A)
! VAR MeasDate=26/04/2024 19:12:25
! VAR NAME=Wafer2_r1_c4_fullform_log
! VAR FILENAME=Wafer2_r1_c4_fullform_log_1.S2P
! VAR DATE=26/04/2024 19:12:25
! VAR PHYS_PORTS=1,2
! VAR ObjTypeName=DATASET
! VAR IndexType=Frequency
!
# Hz S MA R 50
9000.000 +7.9773688363E-001 +1.7311504588E+001  +1.8992533500E-005 +7.8794757160E+001  +1.6469304985E-005 +1.7469526324E+002  +7.9782833181E-001 +1.7299211936E+001 
9066.037 +8.0047961552E-001 +1.7371962527E+001  +3.1222143639E-005 +1.7310733961E+002  +8.3949127661E-006 -1.0004789930E+002  +8.0036798959E-001 +1.7361464906E+001 
9132.559 +8.0272423540E-001 +1.7416872432E+001  +1.1234280584E-005 -8.0838042713E+001  +3.8205162837E-005 +1.7893469348E+002  +8.0256070856E-001 +1.7416563360E+001 
9199.568 +8.0531684988E-001 +1.7487947275E+001  +2.1927104655E-005 +1.4487094406E+002  +3.9454672971E-006 -8.2347857415E+001  +8.0537231989E-001 +1.7494826694E+001 
9267.070 +8.0812482233E-001 +1.7511761670E+001  +3.7086450841E-005 -8.8743311829E+001  +2.0059621054E-005 +4.0678661916E+000  +8.0787796146E-001 +1.7511808104E+001 
9335.066 +8.1050129182E-001 +1.7587984476E+001  +2.6244324639E-005 +8.5265167505E+001  +1.6593167861E-005 +5.8868302274E+001  +8.1030371392E-001 +1.7579769451E+001 
9403.562 +8.1327657161E-001 +1.7633285697E+001  +3.1535077756E-005 -1.0471185629E+002  +1.2654797984E-005 +4.8055134864E+001  +8.1318500523E-001 +1.7625963493E+001 
9472.560 +8.1583288925E-001 +1.7670638125E+001  +1.2751883305E-005 +1.0430556408E+002  +1.0962249911E-005 +4.6917065371E+001  +8.1572099647E-001 +1.7648754819E+001 
9542.065 +8.1872258796E-001 +1.7679384375E+001  +3.6835499385E-006 -9.2170214380E+001  +1.7193450362E-005 -5.2472109565E+001  +8.1851230996E-001 +1.7676729026E+001 
9612.079 +8.2107237123E-001 +1.7725999318E+001  +2.5459697853E-005 +4.8858481682E+001  +3.9943297111E-005 +8.5327914293E+001  +8.2092394983E-001 +1.7703114005E+001 
9682.607 +8.2385412509E-001 +1.7742049013E+001  +4.2776570336E-005 +4.8899895132E+001  +1.8237969616E-005 +1.0552041066E+002  +8.2370183891E-001 +1.7731700194E+001 
9753.653 +8.2643804326E-001 +1.7782253700E+001  +1.5855853941E-005 +6.2315274566E+001  +5.1927297869E-005 -2.3768095279E+001  +8.2626801074E-001 +1.7760012943E+001 
9825.220 +8.2879465777E-001 +1.7797095877E+001  +1.7106746404E-005 +9.5691297402E+001  +2.2841615680E-005 +1.4722947270E+002  +8.2857491687E-001 +1.7785546183E+001 
9897.312 +8.3164831947E-001 +1.7804381174E+001  +2.4241667430E-005 -7.8660810301E+001  +2.1778583715E-005 -1.0705094789E+001  +8.3158325748E-001 +1.7800804449E+001 
9969.933 +8.3410434622E-001 +1.7835417883E+001  +1.0296571854E-005 +1.6494741319E+002  +2.6385898412E-005 -1.3883177982E+002  +8.3401956120E-001 +1.7841632218E+001 
10043.087 +8.3693015075E-001 +1.7858473726E+001  +2.2687790923E-005 +1.4050491376E+002  +2.8835402299E-005 -1.6324346698E+002  +8.3670726694E-001 +1.7842945694E+001 
10116.778 +8.3955223987E-001 +1.7862342768E+001  +8.1717755972E-006 -8.0899117011E+000  +3.9762279378E-005 -1.6945283981E+002  +8.3923090949E-001 +1.7843664915E+001 
10191.009 +8.4203645577E-001 +1.7888942882E+001  +2.4413756766E-005 -1.1880255081E+002  +4.4410386093E-005 +1.4711982700E+002  +8.4193665831E-001 +1.7868974290E+001 
10265.785 +8.4505122813E-001 +1.7885984512E+001  +8.6264370100E-006 +1.2112677772E+002  +3.7133569089E-005 -2.3007111138E+001  +8.4501729698E-001 +1.7868794032E+001 
10341.110 +8.4790970604E-001 +1.7898851607E+001  +1.3008178692E-005 -1.2015359038E+001  +1.5779875931E-005 +5.9139487340E+001  +8.4773716919E-001 +1.7892275799E+001 
10416.987 +8.5061771066E-001 +1.7893885029E+001  +4.0179517736E-005 -1.3225181535E+002  +1.9149627589E-005 -1.4431077311E+002  +8.5055795267E-001 +1.7890303141E+001 
10493.421 +8.5345787967E-001 +1.7881927829E+001  +1.8806074247E-005 -1.0809076193E+002  +1.6827933107E-005 -8.5960290656E+001  +8.5338713641E-001 +1.7886807474E+001 
10570.416 +8.5631424292E-001 +1.7877885207E+001  +1.5557797591E-005 +7.2583102113E+001  +2.2520516869E-005 +1.0926017771E+002  +8.5633086448E-001 +1.7874161626E+001 
10647.976 +8.5899734866E-001 +1.7887756079E+001  +1.6667241427E-005 -1.2440643102E+002  +4.9418078834E-005 +2.2909672369E+001  +8.5895507716E-001 +1.7877204591E+001 
10726.105 +8.6213809005E-001 +1.7873005992E+001  +1.3945930709E-005 -9.6469218762E+001  +1.0496011511E-005 -3.6980241554E+001  +8.6189454904E-001 +1.7864228069E+001 
10804.808 +8.6518136565E-001 +1.7849526830E+001  +4.3380369151E-005 +1.6723874061E+002  +1.2103424022E-005 -3.0801817353E+001  +8.6500755133E-001 +1.7849233770E+001 
10884.087 +8.6809936553E-001 +1.7842433295E+001  +2.0101243181E-005 +2.0846067235E+001  +1.1883854651E-005 -1.0845964221E+002  +8.6815940565E-001 +1.7834996480E+001 
10963.949 +8.7105136618E-001 +1.7803803965E+001  +3.5697255292E-005 -1.6290901705E+001  +1.8258029086E-005 +2.4741062990E+001  +8.7109948176E-001 +1.7806106472E+001 
11044.396 +8.7401776655E-001 +1.7796166905E+001  +1.7287989475E-005 +1.2975907874E+002  +1.9321657353E-005 +9.3953828322E+001  +8.7405880523E-001 +1.7801772684E+001 
11125.434 +8.7644108040E-001 +1.7791538910E+001  +2.3392728947E-005 +1.2760604254E+002  +2.3052984633E-005 +1.5744191640E+002  +8.7633458367E-001 +1.7784851221E+001 
11207.066 +8.7911666990E-001 +1.7767763263E+001  +1.2373775077E-005 -1.4277945787E+002  +1.6315107441E-005 +1.1858425336E+002  +8.7920092028E-001 +1.7752686998E+001 
11289.298 +8.8157730255E-001 +1.7759858454E+001  +4.0834939345E-005 +1.1750589039E+002  +1.8353682807E-005 -1.4737745623E+002  +8.8131723445E-001 +1.7763221043E+001 
11372.132 +8.8408898196E-001 +1.7735575658E+001  +3.9604216236E-005 -1.4423569396E+002  +6.6161587315E-006 +1.4299826957E+002  +8.8410433717E-001 +1.7725382488E+001 
11455.575 +8.8691116835E-001 +1.7723830043E+001  +1.5941268640E-005 -9.1455631847E+001  +4.1998854026E-005 +7.9506036426E+001  +8.8673451829E-001 +1.7711022509E+001 
11539.630 +8.8950431777E-001 +1.7690199754E+001  +2.9357560056E-005 -8.3405619333E+001  +8.7145082010E-006 -1.3624646759E+002  +8.8937405836E-001 +1.7689567272E+001 
11624.301 +8.9210212981E-001 +1.7659158666E+001  +1.7892902955E-005 +9.4329446837E+001  +2.4651405549E-005 -4.1083984412E+001  +8.9199032402E-001 +1.7647639664E+001 
11709.594 +8.9455947442E-001 +1.7624828967E+001  +2.5532002406E-005 +3.2044080923E+001  +1.2267818599E-005 +1.7452316876E+002  +8.9449461458E-001 +1.7625319610E+001 
11795.512 +8.9733825319E-001 +1.7591247692E+001  +2.1718065178E-005 -1.5795080247E+002  +2.8027600370E-005 -1.0326370076E+002  +8.9742626463E-001 +1.7594779709E+001 
11882.062 +8.9999233298E-001 +1.7557112287E+001  +3.1964448571E-005 +1.5845991045E+002  +5.2098239251E-005 +1.5361377903E+002  +8.9989020074E-001 +1.7556009258E+001 
11969.246 +9.0294815707E-001 +1.7514840250E+001  +1.5809058319E-005 +3.8922444150E+001  +2.0354511315E-005 -1.7076131069E+002  +9.0303421084E-001 +1.7514473434E+001 
12057.069 +9.0541211761E-001 +1.7471045610E+001  +3.8994909854E-005 +1.3887605222E+002  +1.3775256416E-005 -1.7528284394E+002  +9.0535093208E-001 +1.7461077199E+001 
12145.538 +9.0829641103E-001 +1.7413848490E+001  +4.4433117322E-005 +1.1848070495E+002  +1.2738985277E-005 -1.6961860748E+002  +9.0815332334E-001 +1.7428649676E+001 
12234.655 +9.1091469446E-001 +1.7382856898E+001  +3.4795705510E-005 +1.0280964777E+002  +2.1995350071E-005 +7.4545945802E+001  +9.1076102397E-001 +1.7377252977E+001 
12324.426 +9.1364794402E-001 +1.7320341350E+001  +4.8871800070E-006 -1.3956664487E+002  +1.7602649777E-005 +1.7008978998E+002  +9.1384298770E-001 +1.7312505689E+001 
12414.856 +9.1640792528E-001 +1.7274809016E+001  +2.6010143455E-005 -2.8103383034E+000  +1.9137807948E-005 +3.2461257944E+001  +9.1631565659E-001 +1.7260417838E+001 
12505.949 +9.1931456841E-001 +1.7203431190E+001  +3.1889931216E-006 -6.6167773219E+001  +3.4414489623E-005 +1.2452895021E+002  +9.1935576922E-001 +1.7214170189E+001 
12597.711 +9.2134339603E-001 +1.7172514875E+001  +4.0298751947E-005 -1.1734058582E+002  +2.4435508293E-005 +1.3203648944E+002  +9.2116774697E-001 +1.7172922591E+001 
12690.146 +9.2389369049E-001 +1.7130014940E+001  +1.4857661183E-005 -8.2078156099E+001  +1.6779417245E-005 +6.4326000421E+001  +9.2383824120E-001 +1.7129299345E+001 
12783.260 +9.2640136532E-001 +1.7080940580E+001  +3.6331863623E-005 -9.6884382419E+000  +1.5738525258E-005 +4.8437165300E+001  +9.2634800634E-001 +1.7076563019E+001 
12877.056 +9.2867441403E-001 +1.7027390287E+001  +2.1878178634E-005 +7.6898225508E+000  +1.0963426776E-005 -1.6326123863E+002  +9.2885474866E-001 +1.7031318393E+001 
12971.541 +9.3126390292E-001 +1.6979172527E+001  +1.3443624846E-005 -1.2561492181E+002  +3.0073713073E-005 +1.0620174173E+002  +9.3109668442E-001 +1.6970627468E+001 
13066.719 +9.3331208854E-001 +1.6917125936E+001  +2.5640244600E-005 +1.5680386435E+002  +2.9909479853E-005 +8.8750084349E+001  +9.3326235186E-001 +1.6921887183E+001 
13162.595 +9.3584506630E-001 +1.6876966284E+001  +2.9140475487E-005 +1.8010171379E+001  +1.7326458508E-005 -1.2090543348E+002  +9.3575458902E-001 +1.6872935839E+001 
13259.175 +9.3847207464E-001 +1.6820967553E+001  +2.2072769285E-005 +3.2628715245E+001  +2.4787824800E-005 -4.6795299662E+001  +9.3813779325E-001 +1.6816987538E+001 
13356.464 +9.4061066219E-001 +1.6750493628E+001  +5.5187791073E-005 -8.6450388665E+001  +3.8751025200E-005 +3.2890070664E+001  +9.4051428026E-001 +1.6743759294E+001 
13454.466 +9.4319075945E-001 +1.6687652501E+001  +2.8929285014E-005 +1.3878903089E+002  +1.8681536386E-005 -4.4053123543E+001  +9.4292866655E-001 +1.6677975831E+001 
13553.188 +9.4543460133E-001 +1.6635153852E+001  +1.3920795871E-005 -1.4171715324E+002  +4.8905488237E-005 -1.1756909756E+002  +9.4515447398E-001 +1.6619040362E+001 
13652.634 +9.4776754690E-001 +1.6564120034E+001  +2.0185543954E-005 -1.6573933060E+002  +1.0068924215E-005 +9.1667326850E+001  +9.4766554745E-001 +1.6559034568E+001 
13752.809 +9.5035638395E-001 +1.6493956311E+001  +4.3237557523E-005 -1.7759527244E+002  +2.4293989671E-005 +5.9288974432E+001  +9.5027005671E-001 +1.6486819041E+001 
13853.720 +9.5276501940E-001 +1.6407676421E+001  +4.5907715839E-005 +3.7810039773E+001  +2.6842863476E-005 +1.3154092805E+002  +9.5273840333E-001 +1.6406161710E+001 
13955.371 +9.5545092406E-001 +1.6352172768E+001  +4.2971901046E-005 -2.6273660815E+001  +4.1524656506E-005 -1.3679143236E+002  +9.5525179471E-001 +1.6341303400E+001 
14057.768 +9.5738999026E-001 +1.6266689389E+001  +3.7259353341E-005 +1.7630474371E+001  +4.0390935965E-005 +4.5230870883E+001  +9.5728198606E-001 +1.6256529622E+001 
14160.916 +9.5992855541E-001 +1.6187745504E+001  +2.1686410922E-005 +1.7162729094E+002  +1.8990585380E-005 -1.2936892610E+002  +9.5976504807E-001 +1.6176555370E+001 
14264.821 +9.6231821335E-001 +1.6114609933E+001  +8.4297574149E-006 -1.0817142732E+002  +2.0799736068E-005 -1.5009972868E+002  +9.6222497370E-001 +1.6112911244E+001 
14369.488 +9.6457920321E-001 +1.6047437469E+001  +3.3805253801E-005 +6.7545159759E+001  +2.0087284434E-005 +6.4818639544E+001  +9.6445780724E-001 +1.6050059052E+001 
14474.924 +9.6631949266E-001 +1.5974999584E+001  +2.1281065642E-005 -8.0443832600E+001  +2.6277661781E-005 -1.5756710387E+002  +9.6603625797E-001 +1.5984497215E+001 
14581.133 +9.6842804592E-001 +1.5936585527E+001  +5.8209242044E-006 +4.5352355706E+001  +2.2045229752E-005 -1.1132878954E+002  +9.6833235880E-001 +1.5925436956E+001 
14688.121 +9.7000398449E-001 +1.5890946743E+001  +1.4398600206E-006 +4.2405704030E+001  +1.5275648639E-005 -8.3201564320E+001  +9.6984553329E-001 +1.5871969419E+001 
14795.895 +9.7179022354E-001 +1.5827637092E+001  +2.7934416178E-005 +4.7117200480E+001  +3.1881888079E-005 -9.6799613678E+001  +9.7181115843E-001 +1.5806917480E+001 
14904.459 +9.7390708410E-001 +1.5750952650E+001  +3.0073793071E-005 -8.5794269581E+001  +4.7020604434E-005 +1.3864963169E+002  +9.7355537917E-001 +1.5748832399E+001 
15013.820 +9.7575738123E-001 +1.5690838435E+001  +3.3727342807E-005 -1.0072062952E+002  +3.9353284235E-005 +1.4460312392E+002  +9.7559062483E-001 +1.5699360141E+001 
15123.983 +9.7765261105E-001 +1.5643868071E+001  +6.0461612622E-006 +5.9960102235E+001  +2.6754263415E-005 -1.2750368787E+002  +9.7745382547E-001 +1.5637044584E+001 
15234.954 +9.7958932666E-001 +1.5577239292E+001  +3.0089833782E-005 -8.5263764633E+001  +1.3300048160E-005 -1.3492338243E+002  +9.7951011155E-001 +1.5571847744E+001 
15346.740 +9.8128764061E-001 +1.5509658294E+001  +1.4696454100E-005 +3.7887716906E+001  +3.2120408330E-005 +1.4814321764E+002  +9.8136379856E-001 +1.5501459860E+001 
15459.346 +9.8321373231E-001 +1.5446921773E+001  +2.6262090250E-005 -9.7039424657E+001  +2.0355575343E-005 -1.4201046641E+001  +9.8316905548E-001 +1.5442859108E+001 
15572.778 +9.8526430532E-001 +1.5382779374E+001  +2.9987899402E-005 +1.5875788089E+002  +1.3015105083E-005 -1.0571547798E+002  +9.8482384913E-001 +1.5373718810E+001 
15687.043 +9.8701570768E-001 +1.5305345015E+001  +2.4005350635E-005 -3.6691631603E+001  +1.9085190000E-005 +1.5905283102E+002  +9.8686668540E-001 +1.5296027565E+001 
15802.146 +9.8899953089E-001 +1.5223680216E+001  +2.5123181879E-005 +1.4160586051E+002  +3.8493341114E-005 -7.3170742798E+001  +9.8879936803E-001 +1.5217677014E+001 
15918.093 +9.9060946336E-001 +1.5155317559E+001  +3.6405584608E-005 +1.0292863798E+002  +3.7360886271E-005 +4.5744892508E+001  +9.9049725967E-001 +1.5144275238E+001 
16034.892 +9.9261568546E-001 +1.5073724204E+001  +1.7990561029E-005 -4.4763390164E+001  +2.3619593885E-005 -3.3727472825E+001  +9.9243937657E-001 +1.5075150612E+001 
16152.547 +9.9437259437E-001 +1.5006541116E+001  +9.3225326935E-006 -1.9516504354E+001  +2.1340723100E-005 -5.1418906951E+000  +9.9424974661E-001 +1.4998901508E+001 
16271.065 +9.9634185768E-001 +1.4932363277E+001  +6.0270462333E-006 +1.7861646557E+002  +1.6504534964E-005 -1.6366103664E+002  +9.9608243587E-001 +1.4919099999E+001 
16390.454 +9.9817295151E-001 +1.4843814030E+001  +2.9298004302E-005 -1.0907186919E+002  +4.0199353725E-005 +4.0571984001E+001  +9.9769472846E-001 +1.4847227514E+001 
16510.718 +9.9986408013E-001 +1.4775887931E+001  +1.2692068595E-005 +1.2199019363E+002  +1.7894753107E-005 +4.8341167493E+001  +9.9970806048E-001 +1.4758867270E+001 
16631.864 +1.0018395565E+000 +1.4677959184E+001  +2.9103322984E-005 +1.7943242673E+002  +9.9546431292E-006 +6.9350100313E+001  +1.0015642227E+000 +1.4677049698E+001 
16753.900 +1.0035608404E+000 +1.4602816959E+001  +5.0092231802E-005 +1.4516689044E+002  +2.7022304326E-005 +6.4170262549E+001  +1.0034290632E+000 +1.4605470205E+001 
16876.831 +1.0051810644E+000 +1.4513660605E+001  +5.9983903911E-006 +1.0915316106E+002  +3.8805982037E-005 +1.2921698461E+002  +1.0051179957E+000 +1.4506929706E+001 
17000.664 +1.0070939150E+000 +1.4429844549E+001  +1.4205839095E-005 +1.5892646813E+002  +2.2806977148E-005 +7.2610619738E+001  +1.0069031818E+000 +1.4432647749E+001 
17125.405 +1.0089302530E+000 +1.4348592987E+001  +3.2638934042E-005 +1.0866002472E+002  +1.9520662137E-005 -2.4647589910E+001  +1.0087349826E+000 +1.4340121999E+001 
17251.062 +1.0106953002E+000 +1.4239832436E+001  +6.7125205700E-006 -4.9512798008E+001  +2.2693583646E-005 -8.9714811097E+001  +1.0103932835E+000 +1.4235897746E+001 
17377.641 +1.0125039998E+000 +1.4157664736E+001  +1.1015541954E-005 -1.1741042379E+002  +3.0793738316E-005 +1.6316760765E+002  +1.0122501147E+000 +1.4148322021E+001 
17505.149 +1.0142437398E+000 +1.4061758880E+001  +5.4556875912E-005 -1.7036937894E+002  +2.4218307499E-005 -4.3496347863E+000  +1.0139992725E+000 +1.4051891803E+001 
17633.592 +1.0159641370E+000 +1.3960525517E+001  +8.8330782118E-006 -1.1346649160E+002  +3.0987237767E-005 +1.0129146257E+002  +1.0158454975E+000 +1.3958872087E+001 
17762.977 +1.0175015451E+000 +1.3856942148E+001  +4.7063033712E-005 +1.1074695106E+002  +3.4528584008E-005 +3.4014794872E+001  +1.0177586195E+000 +1.3858027517E+001 
17893.312 +1.0192866334E+000 +1.3783406485E+001  +2.5838401895E-005 +4.8435206136E+001  +4.4171559447E-005 +3.0245172578E+001  +1.0192567995E+000 +1.3772318715E+001 
18024.604 +1.0213133068E+000 +1.3671111462E+001  +2.0521302096E-005 +1.5841651767E+002  +6.6488763313E-005 -6.4385168974E+001  +1.0211366978E+000 +1.3669497385E+001 
18156.858 +1.0232418114E+000 +1.3572980359E+001  +3.0390443885E-005 +1.3904140189E+002  +1.7916521388E-005 +3.9561956426E+001  +1.0229521874E+000 +1.3564679072E+001 
18290.084 +1.0245457353E+000 +1.3467319859E+001  +1.8363349845E-005 +1.3503166981E+002  +1.4673642568E-005 +1.7587328370E+002  +1.0244933843E+000 +1.3461319057E+001 
18424.286 +1.0263584304E+000 +1.3367901703E+001  +3.3578337057E-005 +1.7845978012E+001  +3.3819195591E-005 -1.7439773334E+002  +1.0262497204E+000 +1.3366686362E+001 
18559.473 +1.0279130162E+000 +1.3247364570E+001  +2.5493183089E-006 +1.7414264042E+002  +3.2776796690E-005 +4.2290446848E+001  +1.0279203435E+000 +1.3239557367E+001 
18695.653 +1.0296899933E+000 +1.3150296467E+001  +4.9749975418E-005 +3.8875384903E+001  +3.9906286764E-005 +8.2655213557E+001  +1.0297651349E+000 +1.3143379404E+001 
18832.831 +1.0312751195E+000 +1.3030323203E+001  +3.4374020447E-005 +1.6388263827E+002  +1.1088950585E-005 +9.4177163421E+001  +1.0313856048E+000 +1.3029646244E+001 
18971.016 +1.0329876434E+000 +1.2914944354E+001  +1.7191137120E-005 +1.0480260629E+002  +6.5883848149E-005 +1.0649388438E+002  +1.0329632780E+000 +1.2921710868E+001 
19110.215 +1.0343848927E+000 +1.2827810854E+001  +2.0160770964E-005 +5.0399040318E+001  +1.6428382498E-005 +1.0358741657E+002  +1.0342777793E+000 +1.2824505676E+001 
19250.435 +1.0355417054E+000 +1.2759776573E+001  +1.2748168689E-005 +1.5652076020E+002  +1.6533515644E-005 +9.0062161237E+001  +1.0352827940E+000 +1.2760694482E+001 
19391.685 +1.0366823692E+000 +1.2712027772E+001  +2.7737052262E-005 +2.6087770697E+001  +2.9419757223E-005 -8.1446656776E+001  +1.0364334600E+000 +1.2700827718E+001 
19533.970 +1.0376121240E+000 +1.2647737470E+001  +2.7608822795E-005 +9.5165851029E+001  +1.4247543770E-005 +1.3707939543E+002  +1.0375506511E+000 +1.2639913332E+001 
19677.300 +1.0388897651E+000 +1.2578567238E+001  +4.1542701890E-005 +1.7872732240E+002  +3.7008114947E-005 +1.1358067953E+002  +1.0388124852E+000 +1.2576462397E+001 
19821.681 +1.0398648363E+000 +1.2524561051E+001  +1.1582586657E-005 +1.6602315007E+002  +2.5521497789E-005 -1.7020861756E+002  +1.0397324359E+000 +1.2524433057E+001 
19967.122 +1.0410264884E+000 +1.2464537629E+001  +3.0187769127E-005 +1.6488618663E+002  +2.2007625683E-005 +1.2730981841E+001  +1.0408597636E+000 +1.2458679900E+001 
20113.629 +1.0420168695E+000 +1.2396573877E+001  +2.1825420340E-005 +1.4332876095E+002  +2.0499863350E-005 -1.7222686869E+002  +1.0418243729E+000 +1.2397883021E+001 
20261.212 +1.0432084837E+000 +1.2338766676E+001  +1.7426675681E-005 -6.1499438920E+001  +3.1194712251E-005 +1.7339602369E+002  +1.0428366337E+000 +1.2337624860E+001 
20409.878 +1.0443729192E+000 +1.2276925899E+001  +3.0860437430E-005 +4.0629191967E+001  +3.1861548086E-005 +1.0570753238E+002  +1.0440515983E+000 +1.2265050872E+001 
20559.634 +1.0454598038E+000 +1.2213933160E+001  +2.7321981367E-005 +1.1815865319E+002  +2.5681450520E-005 +1.0568541866E+002  +1.0450611834E+000 +1.2206758473E+001 
20710.490 +1.0463364087E+000 +1.2142919438E+001  +4.0779431210E-005 +8.7511879312E+001  +1.8641465189E-005 +4.6341538253E+001  +1.0459722345E+000 +1.2132187329E+001 
20862.452 +1.0472683175E+000 +1.2076467670E+001  +2.1734783587E-005 +1.1215126871E+001  +2.7149898961E-005 +1.6052797157E+002  +1.0471147456E+000 +1.2067680443E+001 
21015.529 +1.0483403059E+000 +1.2000355513E+001  +3.7565551271E-005 -1.5471998606E+002  +2.1655617640E-005 +9.5917490994E+001  +1.0482792921E+000 +1.2002278382E+001 
