!  2-Port S-parameters saved by WinCal
! VAR MeasName=S-Parameters (CALIBRATED_DATA) read from VNA (P5004A)
! VAR MeasDate=26/04/2024 17:36:30
! VAR NAME=Wafer2_r1_c2_pristine
! VAR FILENAME=Wafer2_r1_c2_pristine_1.S2P
! VAR DATE=26/04/2024 17:36:30
! VAR PHYS_PORTS=1,2
! VAR ObjTypeName=DATASET
! VAR IndexType=Frequency
!
# Hz S MA R 50
9000.000 +7.9711376671E-001 +1.7522574432E+001  +2.0014662289E-005 +1.7066527598E+001  +8.4618508905E-006 +1.4814862188E+002  +7.9703822449E-001 +1.7508856405E+001 
10013997.999 +9.8037718917E-001 -1.9663589406E-001  +4.6885545193E-003 +8.8828891254E+001  +4.7295632583E-003 +8.8505759420E+001  +9.8059351959E-001 -1.8876688487E-001 
20018995.998 +9.9473115610E-001 +2.0175659469E-001  +9.5083449348E-003 +8.8921806202E+001  +9.5168282657E-003 +8.8234920485E+001  +9.9472804458E-001 +2.0446603306E-001 
30023993.997 +1.0051174370E+000 -1.1222293736E-001  +1.4339810572E-002 +8.8604252558E+001  +1.4231780141E-002 +8.8052180449E+001  +1.0050017425E+000 -9.9282284007E-002 
40028991.996 +1.0128138806E+000 -8.3795996222E-001  +1.9207568428E-002 +8.7795664343E+001  +1.9064466591E-002 +8.7484651444E+001  +1.0127964464E+000 -8.0923063915E-001 
50033989.995 +1.0136097446E+000 -1.7455903023E+000  +2.3892561527E-002 +8.6895061048E+001  +2.3665435437E-002 +8.6831632713E+001  +1.0136694294E+000 -1.7072197051E+000 
60038987.994 +1.0065192279E+000 -2.5840139149E+000  +2.8395564814E-002 +8.5996481823E+001  +2.8154451904E-002 +8.6257644229E+001  +1.0067429106E+000 -2.5400723043E+000 
70043985.993 +9.9450351855E-001 -2.9805236579E+000  +3.2639391982E-002 +8.5556862623E+001  +3.2513176486E-002 +8.6136514154E+001  +9.9478926839E-001 -2.9398132893E+000 
80048983.992 +9.8447692465E-001 -2.8490132757E+000  +3.6874971098E-002 +8.5761066163E+001  +3.6979727101E-002 +8.6357425186E+001  +9.8473881085E-001 -2.8209160592E+000 
90053981.991 +9.8145734052E-001 -2.5084175481E+000  +4.1320537825E-002 +8.6054644156E+001  +4.1664104292E-002 +8.6439581694E+001  +9.8157700468E-001 -2.4884410754E+000 
100058979.990 +9.8543186775E-001 -2.2047111375E+000  +4.6040275358E-002 +8.6265478866E+001  +4.6497600151E-002 +8.6237567653E+001  +9.8532266751E-001 -2.1933551331E+000 
110063977.989 +9.9446008607E-001 -2.1428972014E+000  +5.1010500243E-002 +8.6291748607E+001  +5.1349208456E-002 +8.5863876718E+001  +9.9402675534E-001 -2.1330433234E+000 
120068975.988 +1.0059143416E+000 -2.4915449473E+000  +5.6142106126E-002 +8.5928060531E+001  +5.6229050170E-002 +8.5344270822E+001  +1.0053732337E+000 -2.4642262859E+000 
130073973.987 +1.0148282657E+000 -3.3114848464E+000  +6.1362063896E-002 +8.5171325972E+001  +6.1082910737E-002 +8.4616461575E+001  +1.0143325135E+000 -3.2380796370E+000 
140078971.986 +1.0155622818E+000 -4.4146877165E+000  +6.6124351794E-002 +8.3991313075E+001  +6.5473236663E-002 +8.3699290322E+001  +1.0152556527E+000 -4.3226100234E+000 
150083969.985 +1.0057338479E+000 -5.3977334441E+000  +7.0026183489E-002 +8.2945767883E+001  +6.9293468203E-002 +8.2954047574E+001  +1.0060125485E+000 -5.2897328544E+000 
160088967.984 +9.9011848941E-001 -5.8144198752E+000  +7.3353536595E-002 +8.2503936544E+001  +7.2801094259E-002 +8.2897328725E+001  +9.9075631425E-001 -5.7089718471E+000 
170093965.983 +9.7734824015E-001 -5.6315064083E+000  +7.6866003060E-002 +8.2760784716E+001  +7.6705042942E-002 +8.3341425964E+001  +9.7815464652E-001 -5.5504076559E+000 
180098963.982 +9.7273091630E-001 -5.1385200552E+000  +8.1058310971E-002 +8.3254308485E+001  +8.1419022154E-002 +8.3772552216E+001  +9.7340254701E-001 -5.0845246014E+000 
190103961.981 +9.7642452900E-001 -4.6681328082E+000  +8.5837026025E-002 +8.3602242801E+001  +8.6639740439E-002 +8.3839447553E+001  +9.7667527237E-001 -4.6423179984E+000 
200108959.980 +9.8662877802E-001 -4.4614580752E+000  +9.1135311935E-002 +8.3749320693E+001  +9.2047119551E-002 +8.3562915409E+001  +9.8624274800E-001 -4.4373603128E+000 
210113957.979 +9.9995916247E-001 -4.6926533506E+000  +9.6824265748E-002 +8.3535702538E+001  +9.7373141415E-002 +8.3047756066E+001  +9.9913353834E-001 -4.6486097324E+000 
220118955.978 +1.0119969917E+000 -5.4726988529E+000  +1.0265130630E-001 +8.2793883507E+001  +1.0261388922E-001 +8.2212646958E+001  +1.0109546739E+000 -5.3832247096E+000 
230123953.977 +1.0162683727E+000 -6.6767022728E+000  +1.0785669145E-001 +8.1533734971E+001  +1.0718054589E-001 +8.1045647661E+001  +1.0153710212E+000 -6.5414895202E+000 
240128951.976 +1.0079643867E+000 -7.9039757193E+000  +1.1156157629E-001 +8.0176515799E+001  +1.1041402767E-001 +7.9992474512E+001  +1.0077529389E+000 -7.7398866138E+000 
250133949.975 +9.9014235608E-001 -8.6221391389E+000  +1.1386629286E-001 +7.9456251056E+001  +1.1268880601E-001 +7.9683035751E+001  +9.9078630965E-001 -8.4428775752E+000 
260138947.974 +9.7240283569E-001 -8.5742355181E+000  +1.1608958303E-001 +7.9601210800E+001  +1.1536130728E-001 +8.0090269256E+001  +9.7361843129E-001 -8.4252342052E+000 
270143945.973 +9.6271490324E-001 -8.0095240966E+000  +1.1948595461E-001 +8.0190666438E+001  +1.1947154915E-001 +8.0802205479E+001  +9.6399250778E-001 -7.9031703676E+000 
280148943.972 +9.6332090994E-001 -7.3219034841E+000  +1.2404972675E-001 +8.0798633137E+001  +1.2483853850E-001 +8.1242949748E+001  +9.6419713185E-001 -7.2578617734E+000 
290153941.971 +9.7244960719E-001 -6.8611047343E+000  +1.2956863910E-001 +8.1132053957E+001  +1.3086862843E-001 +8.1254693218E+001  +9.7279650684E-001 -6.8219486243E+000 
300158939.970 +9.8741813909E-001 -6.8408630928E+000  +1.3582087281E-001 +8.1128558066E+001  +1.3698953840E-001 +8.0868931379E+001  +9.8674695124E-001 -6.7960721691E+000 
310163937.969 +1.0032909267E+000 -7.4197957972E+000  +1.4247773927E-001 +8.0601552351E+001  +1.4302638621E-001 +8.0076190571E+001  +1.0017471028E+000 -7.3393679288E+000 
320168935.968 +1.0129604263E+000 -8.5835357490E+000  +1.4864619596E-001 +7.9426469543E+001  +1.4836632494E-001 +7.8895240295E+001  +1.0113993441E+000 -8.4522896320E+000 
330173933.967 +1.0104119400E+000 -1.0033421476E+001  +1.5298105099E-001 +7.7883963825E+001  +1.5192055084E-001 +7.7522602776E+001  +1.0093648505E+000 -9.8353320700E+000 
340178931.966 +9.9412075453E-001 -1.1184933449E+001  +1.5477254645E-001 +7.6672017163E+001  +1.5334840758E-001 +7.6592291084E+001  +9.9411488524E-001 -1.0952991587E+001 
350183929.965 +9.7189310333E-001 -1.1532658697E+001  +1.5541034479E-001 +7.6361191411E+001  +1.5406693833E-001 +7.6596174275E+001  +9.7281937272E-001 -1.1307355538E+001 
360188927.964 +9.5493689177E-001 -1.1075692446E+001  +1.5707158437E-001 +7.6914109367E+001  +1.5636303802E-001 +7.7386138021E+001  +9.5649201434E-001 -1.0896197746E+001 
370193925.963 +9.4928973618E-001 -1.0235435294E+001  +1.6066916114E-001 +7.7734675351E+001  +1.6087047319E-001 +7.8275016867E+001  +9.5084128637E-001 -1.0111485169E+001 
380198923.962 +9.5488656033E-001 -9.4658488109E+000  +1.6603320453E-001 +7.8368050135E+001  +1.6711510493E-001 +7.8738781703E+001  +9.5576385977E-001 -9.3835463506E+000 
390203921.961 +9.6888647134E-001 -9.0838348404E+000  +1.7258096261E-001 +7.8661640540E+001  +1.7412702827E-001 +7.8708428604E+001  +9.6883716113E-001 -9.0340242605E+000 
400208919.960 +9.8707296091E-001 -9.3090414167E+000  +1.8001909103E-001 +7.8448551045E+001  +1.8131084959E-001 +7.8188406479E+001  +9.8612922922E-001 -9.2421637261E+000 
410213917.959 +1.0032000687E+000 -1.0232974018E+001  +1.8752699899E-001 +7.7574669310E+001  +1.8804198963E-001 +7.7126146593E+001  +1.0014887538E+000 -1.0118156841E+001 
420218915.958 +1.0092457017E+000 -1.1722985784E+001  +1.9355756877E-001 +7.6043185940E+001  +1.9304290776E-001 +7.5591669750E+001  +1.0075465277E+000 -1.1541789638E+001 
430223913.957 +9.9964157830E-001 -1.3278972228E+001  +1.9615904387E-001 +7.4383269675E+001  +1.9480625275E-001 +7.4105283206E+001  +9.9856324152E-001 -1.3033345096E+001 
440228911.956 +9.7705211561E-001 -1.4229095259E+001  +1.9565771363E-001 +7.3377805907E+001  +1.9412198165E-001 +7.3381150105E+001  +9.7722031604E-001 -1.3957099733E+001 
450233909.955 +9.5293434133E-001 -1.4209262314E+001  +1.9490495518E-001 +7.3526928380E+001  +1.9362187328E-001 +7.3776052235E+001  +9.5417762644E-001 -1.3952296094E+001 
460238907.954 +9.3813481492E-001 -1.3432697432E+001  +1.9632363936E-001 +7.4393869745E+001  +1.9580332050E-001 +7.4812206630E+001  +9.3973663683E-001 -1.3226379099E+001 
470243905.953 +9.3628302734E-001 -1.2417458764E+001  +2.0051997850E-001 +7.5315847979E+001  +2.0102568127E-001 +7.5758535246E+001  +9.3793391615E-001 -1.2269469178E+001 
480248903.952 +9.4633000260E-001 -1.1621651872E+001  +2.0686403385E-001 +7.5969760519E+001  +2.0822949692E-001 +7.6226218458E+001  +9.4714827341E-001 -1.1528819027E+001 
490253901.951 +9.6407487767E-001 -1.1359762492E+001  +2.1464667137E-001 +7.6164287090E+001  +2.1628151744E-001 +7.6126414351E+001  +9.6373033700E-001 -1.1281503002E+001 
500258899.950 +9.8450435985E-001 -1.1843817048E+001  +2.2337567650E-001 +7.5738898672E+001  +2.2464677765E-001 +7.5436013534E+001  +9.8317164427E-001 -1.1732273993E+001 
510263897.949 +9.9971950754E-001 -1.3095881214E+001  +2.3161011385E-001 +7.4527066880E+001  +2.3188719636E-001 +7.4108703207E+001  +9.9777175081E-001 -1.2921780138E+001 
520268895.948 +1.0008913318E+000 -1.4823940843E+001  +2.3667412364E-001 +7.2717410668E+001  +2.3591622432E-001 +7.2333871254E+001  +9.9930592472E-001 -1.4577995216E+001 
530273893.947 +9.8436090457E-001 -1.6372815926E+001  +2.3690415496E-001 +7.1059156201E+001  +2.3548123381E-001 +7.0845808890E+001  +9.8379614207E-001 -1.6067148199E+001 
540278891.946 +9.5746349824E-001 -1.7053161110E+001  +2.3419023010E-001 +7.0407029391E+001  +2.3257542287E-001 +7.0425957235E+001  +9.5812676272E-001 -1.6734583136E+001 
550283889.945 +9.3344374843E-001 -1.6678251722E+001  +2.3248166443E-001 +7.0905158548E+001  +2.3118675950E-001 +7.1146910451E+001  +9.3494201881E-001 -1.6386351105E+001 
560288887.944 +9.2159493468E-001 -1.5643572151E+001  +2.3409177263E-001 +7.1965323840E+001  +2.3362722071E-001 +7.2335511839E+001  +9.2340183473E-001 -1.5410107942E+001 
570293885.943 +9.2381987889E-001 -1.4521819437E+001  +2.3911856408E-001 +7.2952087435E+001  +2.3962738251E-001 +7.3305867590E+001  +9.2541932776E-001 -1.4353575049E+001 
580298883.942 +9.3740434460E-001 -1.3772802516E+001  +2.4639505938E-001 +7.3564407822E+001  +2.4781761156E-001 +7.3755329698E+001  +9.3807932242E-001 -1.3643337646E+001 
590303881.941 +9.5790883162E-001 -1.3672562043E+001  +2.5556620115E-001 +7.3652435581E+001  +2.5717334511E-001 +7.3589318052E+001  +9.5761102037E-001 -1.3548414786E+001 
600308879.940 +9.7938157012E-001 -1.4398229894E+001  +2.6560804372E-001 +7.3020731255E+001  +2.6664376615E-001 +7.2756675036E+001  +9.7818431169E-001 -1.4239947660E+001 
610313877.939 +9.9265518573E-001 -1.5931284480E+001  +2.7417598248E-001 +7.1480415334E+001  +2.7429833291E-001 +7.1145071479E+001  +9.9097088152E-001 -1.5708472991E+001 
620318875.938 +9.8865085749E-001 -1.7814484787E+001  +2.7763716809E-001 +6.9478632893E+001  +2.7675496201E-001 +6.9185677311E+001  +9.8729734098E-001 -1.7517518187E+001 
630323873.937 +9.6654317478E-001 -1.9266824683E+001  +2.7519415975E-001 +6.7941097804E+001  +2.7375775134E-001 +6.7807530260E+001  +9.6633050832E-001 -1.8920429064E+001 
640328871.936 +9.3724435316E-001 -1.9656936658E+001  +2.7051343370E-001 +6.7643677100E+001  +2.6890248660E-001 +6.7695838499E+001  +9.3824687884E-001 -1.9301649000E+001 
650333869.935 +9.1464028616E-001 -1.8978390221E+001  +2.6823247677E-001 +6.8447908561E+001  +2.6706538639E-001 +6.8685652260E+001  +9.1627811874E-001 -1.8664055155E+001 
660338867.934 +9.0610562122E-001 -1.7766274823E+001  +2.7036931131E-001 +6.9633485453E+001  +2.7007993997E-001 +6.9960466628E+001  +9.0790540453E-001 -1.7509377817E+001 
670343865.933 +9.1176356208E-001 -1.6611634713E+001  +2.7615989883E-001 +7.0613972902E+001  +2.7690235353E-001 +7.0908765988E+001  +9.1302804847E-001 -1.6411752626E+001 
680348863.932 +9.2808028270E-001 -1.5935883309E+001  +2.8465700615E-001 +7.1178060207E+001  +2.8610514412E-001 +7.1300498469E+001  +9.2865241827E-001 -1.5765805519E+001 
690353861.931 +9.5034440122E-001 -1.6001911272E+001  +2.9508456951E-001 +7.1152897560E+001  +2.9652029300E-001 +7.1073057895E+001  +9.4999884457E-001 -1.5831517384E+001 
700358859.930 +9.7174883350E-001 -1.6958649909E+001  +3.0629314170E-001 +7.0298340236E+001  +3.0711677525E-001 +7.0064659386E+001  +9.7057535073E-001 -1.6750529112E+001 
710363857.929 +9.8207551366E-001 -1.8708951787E+001  +3.1467381829E-001 +6.8516690614E+001  +3.1453109243E-001 +6.8243299419E+001  +9.8076963257E-001 -1.8428781435E+001 
720368855.928 +9.7320171620E-001 -2.0660913448E+001  +3.1622238498E-001 +6.6395365163E+001  +3.1537714379E-001 +6.6210862732E+001  +9.7251151780E-001 -2.0323726768E+001 
730373853.927 +9.4708864613E-001 -2.1973127070E+001  +3.1114766117E-001 +6.5031619553E+001  +3.0984768015E-001 +6.4967469599E+001  +9.4733636472E-001 -2.1604745840E+001 
740378851.926 +9.1673583349E-001 -2.2092941211E+001  +3.0469955406E-001 +6.5042236028E+001  +3.0346306187E-001 +6.5115995278E+001  +9.1784989220E-001 -2.1725794774E+001 
750383849.925 +8.9583991451E-001 -2.1158698934E+001  +3.0208244877E-001 +6.6101137134E+001  +3.0137783289E-001 +6.6283263256E+001  +8.9739051719E-001 -2.0835534782E+001 
760388847.924 +8.9043720912E-001 -1.9806280741E+001  +3.0494359613E-001 +6.7373727873E+001  +3.0487754805E-001 +6.7597657197E+001  +8.9194295894E-001 -1.9542402466E+001 
770393845.923 +8.9922225079E-001 -1.8653933005E+001  +3.1188545298E-001 +6.8346368274E+001  +3.1259154702E-001 +6.8516947189E+001  +9.0012871211E-001 -1.8432582276E+001 
780398843.922 +9.1786367526E-001 -1.8084366245E+001  +3.2157228937E-001 +6.8824528697E+001  +3.2271271835E-001 +6.8864603137E+001  +9.1800949844E-001 -1.7884620926E+001 
790403841.921 +9.4134632938E-001 -1.8326851460E+001  +3.3329002555E-001 +6.8648986459E+001  +3.3428746985E-001 +6.8560958435E+001  +9.4052676519E-001 -1.8100708310E+001 
800408839.920 +9.6154163322E-001 -1.9498762381E+001  +3.4518920282E-001 +6.7573864920E+001  +3.4555230668E-001 +6.7399262845E+001  +9.6037774077E-001 -1.9225826274E+001 
810413837.919 +9.6855863026E-001 -2.1398838847E+001  +3.5285372710E-001 +6.5604402294E+001  +3.5249760127E-001 +6.5437211642E+001  +9.6772204921E-001 -2.1065101375E+001 
820418835.918 +9.5536269381E-001 -2.3352804975E+001  +3.5210996087E-001 +6.3499293471E+001  +3.5139512265E-001 +6.3382958099E+001  +9.5527387542E-001 -2.2970790639E+001 
830423833.917 +9.2657442075E-001 -2.4494707759E+001  +3.4463151972E-001 +6.2338529572E+001  +3.4372655234E-001 +6.2317628306E+001  +9.2724910703E-001 -2.4103189294E+001 
840428831.916 +8.9626164610E-001 -2.4354713492E+001  +3.3692447169E-001 +6.2632532729E+001  +3.3603194075E-001 +6.2681149031E+001  +8.9745842619E-001 -2.3987099536E+001 
850433829.915 +8.7750444131E-001 -2.3220573905E+001  +3.3438052474E-001 +6.3845390753E+001  +3.3390308473E-001 +6.3964347935E+001  +8.7893340118E-001 -2.2890643371E+001 
860438827.914 +8.7518771330E-001 -2.1794624266E+001  +3.3801549376E-001 +6.5143676516E+001  +3.3811269251E-001 +6.5304735446E+001  +8.7630828867E-001 -2.1500016915E+001 
870443825.913 +8.8662949295E-001 -2.0680488061E+001  +3.4584912725E-001 +6.6074350523E+001  +3.4662941355E-001 +6.6177732058E+001  +8.8716915183E-001 -2.0412257878E+001 
880448823.912 +9.0696166721E-001 -2.0232870817E+001  +3.5659258428E-001 +6.6484072830E+001  +3.5760634562E-001 +6.6473650263E+001  +9.0669521896E-001 -1.9961932643E+001 
890453821.911 +9.3035846304E-001 -2.0649482566E+001  +3.6937355142E-001 +6.6201607756E+001  +3.7004469016E-001 +6.6073968826E+001  +9.2953214141E-001 -2.0345971907E+001 
900458819.910 +9.4904884647E-001 -2.1993446689E+001  +3.8194249511E-001 +6.4957076328E+001  +3.8179151602E-001 +6.4798108183E+001  +9.4810466335E-001 -2.1634264120E+001 
910463817.909 +9.5289790150E-001 -2.3983723794E+001  +3.8876279392E-001 +6.2857596377E+001  +3.8800446198E-001 +6.2754867571E+001  +9.5262638656E-001 -2.3571147941E+001 
920468815.908 +9.3642008679E-001 -2.5893873754E+001  +3.8578824451E-001 +6.0766261336E+001  +3.8492091844E-001 +6.0749034425E+001  +9.3708314743E-001 -2.5463572254E+001 
930473813.907 +9.0578595097E-001 -2.6866025841E+001  +3.7599116726E-001 +5.9797039949E+001  +3.7516965236E-001 +5.9861922085E+001  +9.0723721154E-001 -2.6450634619E+001 
940478811.906 +8.7605675616E-001 -2.6506397777E+001  +3.6703056671E-001 +6.0332680951E+001  +3.6669900204E-001 +6.0420773303E+001  +8.7765467203E-001 -2.6131864150E+001 
950483809.905 +8.5969453917E-001 -2.5215677161E+001  +3.6486348727E-001 +6.1704948373E+001  +3.6495451402E-001 +6.1809018097E+001  +8.6106623988E-001 -2.4881707487E+001 
960488807.904 +8.5999587152E-001 -2.3738027374E+001  +3.6949020603E-001 +6.3035627575E+001  +3.6997089547E-001 +6.3116437461E+001  +8.6068517139E-001 -2.3430123987E+001 
970493805.903 +8.7359959117E-001 -2.2674460848E+001  +3.7847157490E-001 +6.3912614249E+001  +3.7925854444E-001 +6.3912919801E+001  +8.7349671772E-001 -2.2374255252E+001 
980498803.902 +8.9483673128E-001 -2.2368537777E+001  +3.9028161404E-001 +6.4205623758E+001  +3.9100540453E-001 +6.4123505742E+001  +8.9401371290E-001 -2.2036918764E+001 
990503801.901 +9.1766817810E-001 -2.2940891383E+001  +4.0395624554E-001 +6.3770712021E+001  +4.0402249926E-001 +6.3644344657E+001  +9.1657356438E-001 -2.2555356369E+001 
1000508799.900 +9.3407835619E-001 -2.4410893012E+001  +4.1644935594E-001 +6.2387788423E+001  +4.1588474561E-001 +6.2281791670E+001  +9.3347257264E-001 -2.3971986349E+001 
1010513797.899 +9.3475917655E-001 -2.6428045988E+001  +4.2202105049E-001 +6.0240007469E+001  +4.2109225679E-001 +6.0206781633E+001  +9.3507739715E-001 -2.5954556796E+001 
1020518795.898 +9.1594638317E-001 -2.8261756049E+001  +4.1699555999E-001 +5.8222143319E+001  +4.1629716277E-001 +5.8276943662E+001  +9.1729832823E-001 -2.7785968199E+001 
1030523793.897 +8.8479542100E-001 -2.9049299930E+001  +4.0536603362E-001 +5.7457403023E+001  +4.0504103375E-001 +5.7556023732E+001  +8.8679085344E-001 -2.8617266523E+001 
1040528791.896 +8.5638876245E-001 -2.8510465212E+001  +3.9577089768E-001 +5.8180817624E+001  +3.9592156909E-001 +5.8280525617E+001  +8.5816185453E-001 -2.8125694878E+001 
1050533789.895 +8.4240458539E-001 -2.7099562989E+001  +3.9400655107E-001 +5.9645454172E+001  +3.9452648383E-001 +5.9708973779E+001  +8.4353708306E-001 -2.6760081740E+001 
1060538787.894 +8.4508858859E-001 -2.5606615192E+001  +3.9963991551E-001 +6.0955969340E+001  +4.0038362459E-001 +6.0983181720E+001  +8.4534617165E-001 -2.5273430913E+001 
1070543785.893 +8.6049967743E-001 -2.4642008649E+001  +4.0963305005E-001 +6.1723898557E+001  +4.1052684838E-001 +6.1677203209E+001  +8.5984171255E-001 -2.4294738794E+001 
1080548783.892 +8.8195274625E-001 -2.4474277528E+001  +4.2221169262E-001 +6.1907289226E+001  +4.2262607331E-001 +6.1775430840E+001  +8.8083418090E-001 -2.4079592267E+001 
1090553781.891 +9.0351535590E-001 -2.5203930577E+001  +4.3618781741E-001 +6.1373563099E+001  +4.3582099033E-001 +6.1221839300E+001  +9.0244106734E-001 -2.4739260768E+001 
1100558779.890 +9.1729396805E-001 -2.6749872677E+001  +4.4836960095E-001 +5.9904517885E+001  +4.4724933920E-001 +5.9814380850E+001  +9.1716190985E-001 -2.6233988531E+001 
1110563777.889 +9.1524532829E-001 -2.8753031487E+001  +4.5278309744E-001 +5.7751010535E+001  +4.5147799328E-001 +5.7779817161E+001  +9.1640174694E-001 -2.8211100127E+001 
1120568775.888 +8.9483348572E-001 -3.0453330776E+001  +4.4585037410E-001 +5.5851135135E+001  +4.4504728065E-001 +5.5968807448E+001  +8.9712526193E-001 -2.9944735549E+001 
1130573773.887 +8.6398857926E-001 -3.1084668727E+001  +4.3278731769E-001 +5.5256552321E+001  +4.3260678226E-001 +5.5414380751E+001  +8.6657014833E-001 -3.0637339985E+001 
