!  2-Port S-parameters saved by WinCal
! VAR MeasName=S-Parameters (CALIBRATED_DATA) read from VNA (P5004A)
! VAR MeasDate=26/04/2024 18:13:34
! VAR NAME=Wafer2_r1_c3_pristine_log
! VAR FILENAME=Wafer2_r1_c3_pristine_log_1.S2P
! VAR DATE=26/04/2024 18:13:34
! VAR PHYS_PORTS=1,2
! VAR ObjTypeName=DATASET
! VAR IndexType=Frequency
!
# Hz S MA R 50
9000.000 +7.9774368516E-001 +1.7318810596E+001  +1.5460544285E-005 +5.3924096243E+001  +2.5991483043E-005 +1.4515468380E+002  +7.9779573705E-001 +1.7312276623E+001 
9066.037 +8.0059893249E-001 +1.7369697880E+001  +1.1335110234E-005 +1.5678607806E+002  +9.8289788841E-006 -1.5786976644E+002  +8.0034994307E-001 +1.7367298550E+001 
9132.559 +8.0267165716E-001 +1.7429352927E+001  +8.1040606997E-006 +1.1697771397E+002  +3.3610455396E-005 +1.6566236007E+002  +8.0241956570E-001 +1.7421405410E+001 
9199.568 +8.0542332390E-001 +1.7491513552E+001  +3.7033932250E-005 -2.2462258147E+001  +4.6915986061E-005 +1.4109272442E+002  +8.0546237328E-001 +1.7487758672E+001 
9267.070 +8.0807336740E-001 +1.7517319023E+001  +1.1620180076E-005 -7.5906219237E+001  +2.4244507694E-005 -1.7526350807E+002  +8.0791190895E-001 +1.7515251615E+001 
9335.066 +8.1054105825E-001 +1.7591525573E+001  +1.1943241688E-005 +8.6044982938E+001  +2.7510199063E-005 +1.1722352904E+002  +8.1031987694E-001 +1.7579888143E+001 
9403.562 +8.1325211326E-001 +1.7632383734E+001  +4.6570370684E-006 -1.0140558163E+002  +8.6588960049E-006 +1.1936657145E+002  +8.1330050620E-001 +1.7625544869E+001 
9472.560 +8.1597038109E-001 +1.7681291760E+001  +2.5738440723E-005 +1.7630642311E+002  +5.9365937106E-006 +2.8668780346E+001  +8.1584465535E-001 +1.7657533894E+001 
9542.065 +8.1878838330E-001 +1.7683404289E+001  +3.3161001731E-005 +1.5342826412E+002  +4.0216738944E-005 -1.7585353026E+002  +8.1850435358E-001 +1.7683925302E+001 
9612.079 +8.2103176390E-001 +1.7727912770E+001  +1.4869950271E-005 +1.4922718665E+002  +1.8887097291E-005 +1.2531555778E+002  +8.2103322829E-001 +1.7706472768E+001 
9682.607 +8.2375472074E-001 +1.7741662531E+001  +1.9079793257E-005 +1.0093530397E+002  +3.2348467411E-005 +5.8654584418E+001  +8.2365856639E-001 +1.7728834205E+001 
9753.653 +8.2650369399E-001 +1.7777758776E+001  +3.3203009548E-006 -1.4222206334E+001  +1.4533159348E-005 +2.6165492327E+000  +8.2631972066E-001 +1.7766396221E+001 
9825.220 +8.2877190403E-001 +1.7795822127E+001  +5.9957084831E-006 -5.6457425687E+001  +3.4395715479E-005 -3.7194231292E+001  +8.2854936445E-001 +1.7795580068E+001 
9897.312 +8.3164512918E-001 +1.7801937299E+001  +2.6707659300E-005 -7.6752198966E+001  +2.0888856438E-005 +5.9845257044E+001  +8.3164407518E-001 +1.7796660083E+001 
9969.933 +8.3421653431E-001 +1.7842483717E+001  +8.6464713710E-006 +1.1299919385E+002  +1.5008083480E-005 +9.5966924906E+001  +8.3407032080E-001 +1.7841961613E+001 
10043.087 +8.3704144773E-001 +1.7854578954E+001  +1.6225343903E-005 -1.2438674160E+002  +4.1646648102E-005 +1.6359272866E+002  +8.3681097576E-001 +1.7857181671E+001 
10116.778 +8.3959726320E-001 +1.7856891122E+001  +2.0359694268E-005 -1.6617869934E+002  +2.3761434923E-005 +1.0631031171E+002  +8.3931319598E-001 +1.7859408623E+001 
10191.009 +8.4207037750E-001 +1.7884104656E+001  +3.1759244578E-005 +1.5492081017E+001  +4.4363221663E-005 +8.3494784652E+001  +8.4190691065E-001 +1.7878489997E+001 
10265.785 +8.4509884136E-001 +1.7884789884E+001  +4.2660215256E-005 +1.0144297115E+002  +1.8348372906E-005 -1.6738698600E+002  +8.4493259683E-001 +1.7875754640E+001 
10341.110 +8.4785493579E-001 +1.7902082990E+001  +2.2391655340E-005 -5.1703258195E+001  +4.1795088879E-005 +3.7716677714E+001  +8.4777319452E-001 +1.7890770155E+001 
10416.987 +8.5055936512E-001 +1.7896491527E+001  +5.5920390020E-006 -1.0417862669E+002  +2.5871577733E-005 +1.3696296312E+002  +8.5063864725E-001 +1.7897429185E+001 
10493.421 +8.5348251687E-001 +1.7890309989E+001  +2.1084281634E-005 -8.2572107270E+001  +2.6969220183E-005 -1.4721781992E+002  +8.5350599627E-001 +1.7884863022E+001 
10570.416 +8.5627368094E-001 +1.7881513999E+001  +1.0973978693E-005 -1.3533526629E+002  +3.6420512406E-005 +1.0137696119E+002  +8.5633574876E-001 +1.7873888624E+001 
10647.976 +8.5888660072E-001 +1.7889190045E+001  +1.0900986950E-005 -1.2404370104E+002  +4.6527508412E-005 -1.3691357497E+002  +8.5898898314E-001 +1.7874528461E+001 
10726.105 +8.6217209743E-001 +1.7870502189E+001  +2.1526940541E-005 -5.5164436470E+001  +2.4804009942E-005 -1.0263904635E+001  +8.6198019003E-001 +1.7864997065E+001 
10804.808 +8.6534075884E-001 +1.7840491937E+001  +2.8458133301E-005 -1.0961746767E+002  +2.9482698400E-005 +8.2737691076E+001  +8.6502997563E-001 +1.7845989077E+001 
10884.087 +8.6816368690E-001 +1.7845709758E+001  +8.3665075868E-006 +1.1142284225E+002  +1.7645420791E-005 +1.2810750931E+002  +8.6811235734E-001 +1.7840064094E+001 
10963.949 +8.7110375678E-001 +1.7798159820E+001  +2.4947465559E-005 -1.6788466368E+002  +1.6403516084E-005 -1.4313252156E+001  +8.7103429623E-001 +1.7809295600E+001 
11044.396 +8.7394992831E-001 +1.7795378320E+001  +5.0420327962E-005 -1.7583996271E+002  +1.1512060856E-005 +1.4392556846E+002  +8.7423909868E-001 +1.7791598991E+001 
11125.434 +8.7642946705E-001 +1.7788866787E+001  +1.8773219804E-005 +1.0126281608E+002  +4.9502376391E-005 +9.7199378027E+001  +8.7629360989E-001 +1.7776025198E+001 
11207.066 +8.7913933533E-001 +1.7770679719E+001  +9.1502527756E-006 +1.0117031200E+002  +4.0499089963E-005 +1.2073288910E+001  +8.7909908073E-001 +1.7761893391E+001 
11289.298 +8.8135767580E-001 +1.7751775915E+001  +4.5008112887E-005 +4.8740915317E+001  +9.3047818475E-006 -1.7716255887E+002  +8.8134346114E-001 +1.7764440725E+001 
11372.132 +8.8402276600E-001 +1.7738059560E+001  +3.4389907844E-005 -1.0530439229E+002  +3.6680122691E-005 +1.6044490046E+002  +8.8404764080E-001 +1.7725851310E+001 
11455.575 +8.8690585148E-001 +1.7705050449E+001  +6.3353875363E-006 -3.1421916463E+001  +1.6466751741E-005 +4.8490980074E+000  +8.8676409377E-001 +1.7710157551E+001 
11539.630 +8.8944925329E-001 +1.7695605144E+001  +2.1254872974E-005 +1.2350133687E+002  +1.3707717097E-005 +1.4863735538E+002  +8.8936240835E-001 +1.7683573562E+001 
11624.301 +8.9199294707E-001 +1.7652576099E+001  +5.6530527179E-005 +1.1149352070E+002  +2.9396587477E-005 +6.2913108352E+001  +8.9196033757E-001 +1.7643794708E+001 
11709.594 +8.9465703371E-001 +1.7623428800E+001  +3.4512636244E-005 +2.4442606692E+000  +1.5671265350E-005 +7.7560596136E+001  +8.9446666340E-001 +1.7618409219E+001 
11795.512 +8.9733217258E-001 +1.7589620069E+001  +2.4215263559E-005 +8.7089521998E+001  +2.3383386799E-005 +1.4821801631E+002  +8.9742532690E-001 +1.7587527051E+001 
11882.062 +8.9992823052E-001 +1.7564427843E+001  +2.9551979786E-005 +2.3507885766E+001  +3.1987594090E-005 +9.4366894261E+001  +8.9974530221E-001 +1.7559661033E+001 
11969.246 +9.0288248875E-001 +1.7510495476E+001  +1.9247792332E-005 -1.2305019343E+001  +1.6178141141E-005 -1.2784846061E+002  +9.0290700035E-001 +1.7514859314E+001 
12057.069 +9.0528116920E-001 +1.7455525744E+001  +3.8828387416E-006 +2.2209609299E+001  +4.1821097414E-005 +1.4299090906E+002  +9.0531017257E-001 +1.7460947447E+001 
12145.538 +9.0839039289E-001 +1.7411593289E+001  +3.9307927402E-005 +1.1974648089E+002  +1.4860628416E-005 -1.3082573410E+002  +9.0807009565E-001 +1.7425532634E+001 
12234.655 +9.1102400516E-001 +1.7388429297E+001  +2.5487319131E-005 +1.3399583079E+002  +1.9088404601E-005 -1.3500445720E+002  +9.1070932570E-001 +1.7373011564E+001 
12324.426 +9.1366107157E-001 +1.7316075349E+001  +2.3395140303E-005 +1.6511614672E+002  +2.5571886461E-005 +1.3485195893E+001  +9.1380172872E-001 +1.7321108153E+001 
12414.856 +9.1645318985E-001 +1.7267644193E+001  +4.2488534873E-005 -6.7951489157E+001  +1.2087960758E-005 +1.4600798100E+002  +9.1620914713E-001 +1.7260336691E+001 
12505.949 +9.1927750797E-001 +1.7202024938E+001  +3.7151523485E-005 -1.3752842437E+002  +2.2288879842E-005 +2.7065617996E+001  +9.1925119977E-001 +1.7218013639E+001 
12597.711 +9.2132883830E-001 +1.7179138005E+001  +2.4591778286E-005 +1.2955868080E+002  +1.6414695440E-005 -8.0471172304E+001  +9.2118846501E-001 +1.7175058188E+001 
12690.146 +9.2399129913E-001 +1.7127491967E+001  +3.2627975168E-005 -3.4391476425E+001  +2.5843594398E-005 -1.7399070201E+002  +9.2392222512E-001 +1.7130272131E+001 
12783.260 +9.2635155122E-001 +1.7088019640E+001  +5.6684581595E-005 +8.4814278243E+001  +6.8761113476E-006 +1.1838797950E+002  +9.2629078178E-001 +1.7086293904E+001 
12877.056 +9.2880189181E-001 +1.7033667010E+001  +2.7729157891E-005 +1.7196255896E+002  +1.7565520199E-005 +6.3228328840E+001  +9.2883023135E-001 +1.7032569989E+001 
12971.541 +9.3117143459E-001 +1.6978020344E+001  +4.0589048873E-005 +4.0408571512E+001  +1.1305998338E-005 -8.7981207925E+001  +9.3110555735E-001 +1.6977378895E+001 
13066.719 +9.3334950975E-001 +1.6921471765E+001  +7.7672130420E-006 -1.4017751135E+002  +5.1637032281E-005 +8.1199197361E+001  +9.3334759969E-001 +1.6919514852E+001 
13162.595 +9.3590763029E-001 +1.6879384890E+001  +5.0322217944E-006 -1.0340244314E+002  +6.6890252495E-005 -9.4918891573E+001  +9.3586377715E-001 +1.6879246181E+001 
13259.175 +9.3828974088E-001 +1.6816814380E+001  +2.7164625427E-005 +1.0141837183E+002  +2.3087126212E-005 +1.1896802597E+002  +9.3834790431E-001 +1.6815934897E+001 
13356.464 +9.4061577395E-001 +1.6752913746E+001  +3.0158344970E-005 +7.2153540571E+001  +3.0770324077E-005 +1.2220702188E+002  +9.4061121812E-001 +1.6745541149E+001 
13454.466 +9.4314836369E-001 +1.6693359667E+001  +5.6095069710E-006 -1.6455491293E+002  +2.1757511739E-005 -3.7560303163E+001  +9.4292804024E-001 +1.6683577297E+001 
13553.188 +9.4546128844E-001 +1.6623529136E+001  +8.2906222426E-006 -1.4003876490E+001  +1.4076204389E-005 +1.0644832387E+002  +9.4523624615E-001 +1.6625173574E+001 
13652.634 +9.4769044882E-001 +1.6568267910E+001  +3.5366836155E-005 +9.7186231336E+001  +2.9982641981E-005 +4.8734051792E+001  +9.4765738158E-001 +1.6566918883E+001 
13752.809 +9.5033386967E-001 +1.6491384373E+001  +2.1568113264E-005 +1.4185029501E+002  +1.2172214920E-005 -2.6352444931E+001  +9.5021649907E-001 +1.6486963356E+001 
13853.720 +9.5280088027E-001 +1.6404670684E+001  +1.9362707623E-005 +3.6172118941E+001  +3.0582662273E-005 +8.7456307178E+001  +9.5281217846E-001 +1.6402942516E+001 
13955.371 +9.5542306064E-001 +1.6349804026E+001  +2.1019900957E-005 -5.6932857310E+001  +2.4557933180E-005 +1.3752295254E+002  +9.5521294810E-001 +1.6335820592E+001 
14057.768 +9.5727552415E-001 +1.6260007353E+001  +1.1952197174E-005 +5.1815378694E+001  +3.6758676582E-005 -1.4668460450E+000  +9.5731528062E-001 +1.6259094116E+001 
14160.916 +9.6005161722E-001 +1.6190460257E+001  +1.3770096965E-005 +4.9211328888E+001  +3.0757895872E-005 -2.3668307437E+001  +9.5979280228E-001 +1.6184870224E+001 
14264.821 +9.6244252113E-001 +1.6112431301E+001  +1.5167220589E-005 +1.2195007555E+002  +2.1484834840E-005 +3.6323916703E+001  +9.6225904183E-001 +1.6108871251E+001 
14369.488 +9.6462874000E-001 +1.6043373317E+001  +2.4941391019E-005 -1.4633074201E+001  +2.0527411685E-005 -1.1278554233E+001  +9.6453234211E-001 +1.6042511084E+001 
14474.924 +9.6634914316E-001 +1.5987761482E+001  +1.9970251967E-005 +3.2058631064E+001  +1.2076359946E-005 -1.5997446896E+002  +9.6610981182E-001 +1.5983679720E+001 
14581.133 +9.6851026308E-001 +1.5936577315E+001  +2.5441412944E-005 +3.4432190047E+001  +4.9864299797E-005 +1.3399167616E+002  +9.6820204158E-001 +1.5928349055E+001 
14688.121 +9.6992675096E-001 +1.5881270488E+001  +5.1102672202E-005 +4.6849656606E+001  +1.5397782147E-005 +8.3123872490E+001  +9.6988558441E-001 +1.5873557180E+001 
14795.895 +9.7184781883E-001 +1.5831535992E+001  +4.6544619460E-006 -1.6278892878E+002  +1.9554105201E-005 +4.6144752067E+001  +9.7187904911E-001 +1.5813223634E+001 
14904.459 +9.7397662623E-001 +1.5747321513E+001  +3.2396792722E-005 +2.7686864278E+001  +3.1997253808E-005 +1.2924823080E+002  +9.7363224004E-001 +1.5752270908E+001 
15013.820 +9.7570638145E-001 +1.5692472295E+001  +4.2236052586E-005 -1.5534155973E+002  +6.9752168583E-006 -8.1513832175E+001  +9.7563585874E-001 +1.5694063072E+001 
15123.983 +9.7775852594E-001 +1.5655937127E+001  +3.5566402559E-005 +1.1507766969E+002  +4.6162904598E-005 -1.7427211225E+002  +9.7761785814E-001 +1.5643654857E+001 
15234.954 +9.7968540294E-001 +1.5574898453E+001  +3.0040239053E-005 -8.3850399803E+001  +1.3339153604E-005 -1.5643158760E+002  +9.7950936596E-001 +1.5569509120E+001 
15346.740 +9.8138074277E-001 +1.5505768213E+001  +7.8595383385E-006 -1.0656061534E+002  +1.4628692534E-005 -3.5632982946E+001  +9.8130120023E-001 +1.5500014115E+001 
15459.346 +9.8323460765E-001 +1.5446394646E+001  +2.9173739111E-005 +1.6927280440E+002  +2.7129791415E-005 +5.8345911695E+001  +9.8332005430E-001 +1.5446665573E+001 
15572.778 +9.8511542571E-001 +1.5378396784E+001  +3.9075900067E-005 -9.6803577494E+001  +6.6602630605E-006 -1.0368434371E+002  +9.8482869104E-001 +1.5377437384E+001 
15687.043 +9.8714751246E-001 +1.5310572060E+001  +2.2659682955E-005 +1.3372673674E+002  +2.0282840847E-005 -1.7444417977E+002  +9.8687380754E-001 +1.5307373598E+001 
15802.146 +9.8903787222E-001 +1.5223242160E+001  +4.8751968151E-005 -1.4701698999E+002  +1.0330455199E-005 -1.1556071939E+002  +9.8884163002E-001 +1.5218481914E+001 
15918.093 +9.9062745964E-001 +1.5148926467E+001  +2.7577108524E-005 +1.7529335133E+002  +5.0422763722E-005 +3.5788420478E+001  +9.9063652330E-001 +1.5149780987E+001 
16034.892 +9.9258649790E-001 +1.5079758037E+001  +3.2602155547E-005 -8.5076535140E+001  +4.0788010768E-005 -3.1529009436E+000  +9.9253708200E-001 +1.5072343241E+001 
16152.547 +9.9436256232E-001 +1.5001319892E+001  +1.6776369602E-005 -5.7086916053E+001  +2.9150895536E-005 -3.2381053719E+001  +9.9434055535E-001 +1.5002797537E+001 
16271.065 +9.9629692719E-001 +1.4926970091E+001  +2.6744905171E-005 +1.5605667043E+002  +1.5526923590E-005 +2.3833557366E+001  +9.9622153240E-001 +1.4922667850E+001 
16390.454 +9.9802837069E-001 +1.4840611856E+001  +4.3009650710E-005 +1.0811593968E+001  +1.3306304253E-005 +9.1024815693E+001  +9.9782259404E-001 +1.4846500954E+001 
16510.718 +9.9987553163E-001 +1.4771290653E+001  +3.4740739666E-005 +6.7416106740E+001  +2.1150664511E-005 +6.4792175205E+001  +9.9976626106E-001 +1.4753371743E+001 
16631.864 +1.0016759943E+000 +1.4679391225E+001  +3.1892663246E-005 -8.3121788723E+001  +1.8196477014E-005 -1.3365200314E+002  +1.0015634674E+000 +1.4671796820E+001 
16753.900 +1.0034411240E+000 +1.4592464506E+001  +2.7680785260E-005 +4.9942084094E+001  +2.3741521343E-005 -1.4040468879E+002  +1.0035109607E+000 +1.4606625567E+001 
16876.831 +1.0051735121E+000 +1.4509448366E+001  +4.8599855540E-005 +5.1810424336E+001  +3.1218843999E-005 +9.7756650467E+001  +1.0051052027E+000 +1.4508939915E+001 
17000.664 +1.0071500477E+000 +1.4429586577E+001  +1.3666070170E-005 +1.6620446615E+002  +3.9583512600E-005 +6.9020962371E+001  +1.0070504039E+000 +1.4430947259E+001 
17125.405 +1.0087805802E+000 +1.4349893949E+001  +2.9625294846E-005 +1.3556881188E+002  +1.9906342691E-005 -1.1181763187E+002  +1.0086747962E+000 +1.4348590798E+001 
17251.062 +1.0108190683E+000 +1.4238330910E+001  +2.3157742837E-005 +1.1025703648E+002  +2.5444540322E-005 -1.6298177622E+002  +1.0105268681E+000 +1.4249501463E+001 
17377.641 +1.0123792927E+000 +1.4154537975E+001  +5.2783214420E-005 +9.5722938135E+001  +2.3574416306E-005 +6.9021163146E+001  +1.0123932621E+000 +1.4144964873E+001 
17505.149 +1.0142273687E+000 +1.4053684943E+001  +3.3909240341E-005 +1.6666810829E+002  +1.1136208925E-005 -2.7050016537E+000  +1.0140299299E+000 +1.4062415267E+001 
17633.592 +1.0159193380E+000 +1.3964281544E+001  +8.4609143561E-006 +1.4394001428E+002  +5.4009722530E-005 +1.9015320546E+001  +1.0157361937E+000 +1.3962110070E+001 
17762.977 +1.0174752428E+000 +1.3862876896E+001  +3.5055821052E-005 +1.1748989933E+001  +6.0496420685E-006 +3.5525319376E+001  +1.0175751796E+000 +1.3868406195E+001 
17893.312 +1.0192318197E+000 +1.3777834284E+001  +1.2916111087E-005 +6.2256654415E+001  +4.5216395386E-005 +7.2852153686E+001  +1.0192322776E+000 +1.3766088189E+001 
18024.604 +1.0212907587E+000 +1.3673564881E+001  +3.1606718485E-005 +8.6458998539E+001  +2.9122219838E-005 +1.4997956685E+002  +1.0212227054E+000 +1.3666639996E+001 
18156.858 +1.0232046585E+000 +1.3566807911E+001  +1.7186611146E-005 +1.0553284471E+002  +2.9088492922E-005 +5.4909316944E+001  +1.0229122915E+000 +1.3576806211E+001 
18290.084 +1.0247768384E+000 +1.3467801389E+001  +4.3087512514E-005 -1.2636062642E+002  +4.0647476778E-005 -1.4012309465E+002  +1.0244299713E+000 +1.3462555349E+001 
18424.286 +1.0263633983E+000 +1.3364477346E+001  +5.9793347112E-006 -3.5679097139E+001  +1.6133815367E-005 -1.7580360659E+002  +1.0260859578E+000 +1.3361328945E+001 
18559.473 +1.0279486793E+000 +1.3250414640E+001  +1.5404687996E-005 -3.4515306437E+001  +2.0760616784E-005 +1.4024668516E+002  +1.0279359816E+000 +1.3239896663E+001 
18695.653 +1.0297103879E+000 +1.3154540749E+001  +2.0787731503E-005 -1.0089443717E+002  +2.2241948659E-005 -1.5926642934E+002  +1.0297232430E+000 +1.3143869201E+001 
18832.831 +1.0314591453E+000 +1.3024740934E+001  +4.7623403421E-005 +1.5673864947E+002  +1.2951244168E-005 -1.8391211948E+001  +1.0314455920E+000 +1.3031445227E+001 
18971.016 +1.0329556674E+000 +1.2913510933E+001  +2.6261065882E-005 -1.4249039218E+002  +1.4992074028E-005 -1.0687035285E+002  +1.0329568326E+000 +1.2917401943E+001 
19110.215 +1.0343962393E+000 +1.2829797572E+001  +1.6034539574E-005 +1.6034911231E+002  +4.5069047152E-005 +2.6459642916E+001  +1.0342324275E+000 +1.2828582720E+001 
19250.435 +1.0355601397E+000 +1.2760517734E+001  +2.7769892330E-005 +6.4122240296E+001  +4.9841463791E-005 +5.2388873798E+001  +1.0353615334E+000 +1.2765000507E+001 
19391.685 +1.0367117469E+000 +1.2709674202E+001  +1.7891131113E-005 +1.0199300855E+002  +5.0181152117E-005 +1.0808816911E+002  +1.0365424017E+000 +1.2699434242E+001 
19533.970 +1.0376369118E+000 +1.2651401301E+001  +5.8131055324E-005 +5.1564494748E+001  +2.5559677817E-005 +3.9895674929E+001  +1.0376358115E+000 +1.2643614708E+001 
19677.300 +1.0391762291E+000 +1.2578668567E+001  +1.0430084473E-005 -1.5420187221E+002  +3.6980729695E-005 +1.1187538057E+002  +1.0386656147E+000 +1.2576387556E+001 
19821.681 +1.0400349464E+000 +1.2521593774E+001  +7.6824473190E-006 -1.3323573277E+002  +4.1189416066E-005 +6.4570994737E+001  +1.0398027255E+000 +1.2523269874E+001 
19967.122 +1.0410975655E+000 +1.2470499479E+001  +5.8189276108E-005 +7.4947057689E+001  +4.8904946670E-005 +1.2633697985E+002  +1.0407802251E+000 +1.2459668317E+001 
20113.629 +1.0419227705E+000 +1.2398987352E+001  +1.6385202085E-005 -5.8723889027E+000  +1.4477301919E-005 +5.7138455148E+001  +1.0419347111E+000 +1.2398371493E+001 
20261.212 +1.0430350576E+000 +1.2334071143E+001  +5.0095967273E-005 -1.6673948026E+002  +2.4990606023E-005 -8.7807469560E+001  +1.0429992250E+000 +1.2338403763E+001 
20409.878 +1.0443218903E+000 +1.2277409641E+001  +1.2649024948E-005 +9.7013264131E+001  +3.6686344444E-005 -1.7706958709E+002  +1.0440455240E+000 +1.2267028033E+001 
20559.634 +1.0453810592E+000 +1.2212864392E+001  +4.2872511867E-005 +2.2194658584E+001  +1.9912182255E-005 +1.5666736789E+002  +1.0451153614E+000 +1.2210658616E+001 
20710.490 +1.0463387607E+000 +1.2137527568E+001  +4.8837215047E-005 +2.8870785018E+001  +3.0002086756E-005 -1.1261012770E+002  +1.0461008572E+000 +1.2135724280E+001 
20862.452 +1.0471446926E+000 +1.2070789415E+001  +1.9973774224E-005 +1.3385435325E+002  +5.6169471706E-005 +1.2924752695E+002  +1.0471651498E+000 +1.2068288090E+001 
21015.529 +1.0484597501E+000 +1.1997694321E+001  +6.0894464041E-005 +1.5438493363E+002  +5.2420162613E-005 +1.5625770772E+002  +1.0483313607E+000 +1.2005575025E+001 
