!  2-Port S-parameters saved by WinCal
! VAR MeasName=S-Parameters (CALIBRATED_DATA) read from VNA (P5004A)
! VAR MeasDate=26/04/2024 17:43:40
! VAR NAME=Wafer2_r1_c3_pristine
! VAR FILENAME=Wafer2_r1_c3_pristine_1.S2P
! VAR DATE=26/04/2024 17:43:40
! VAR PHYS_PORTS=1,2
! VAR ObjTypeName=DATASET
! VAR IndexType=Frequency
!
# Hz S MA R 50
9000.000 +7.9710634108E-001 +1.7511446049E+001  +1.5178288748E-005 +7.8061405394E+001  +2.9197144459E-005 +2.3467584801E+001  +7.9713498806E-001 +1.7519877966E+001 
10013997.999 +9.8049776869E-001 -1.9559466394E-001  +4.7083273968E-003 +8.8799304166E+001  +4.7502717756E-003 +8.8543038846E+001  +9.8065603045E-001 -1.8744369914E-001 
20018995.998 +9.9486901098E-001 +1.9762652730E-001  +9.5405777758E-003 +8.8921027227E+001  +9.5728231420E-003 +8.8468743213E+001  +9.9475011257E-001 +2.0179051443E-001 
30023993.997 +1.0051801050E+000 -1.1795941804E-001  +1.4378522845E-002 +8.8644184864E+001  +1.4310652963E-002 +8.8070021633E+001  +1.0050380225E+000 -9.6652061191E-002 
40028991.996 +1.0129548761E+000 -8.4330475884E-001  +1.9210687783E-002 +8.7924743103E+001  +1.9112382022E-002 +8.7521873302E+001  +1.0127266557E+000 -8.0904527510E-001 
50033989.995 +1.0136598864E+000 -1.7467898266E+000  +2.3989511505E-002 +8.6911265734E+001  +2.3745472518E-002 +8.6888586179E+001  +1.0136449645E+000 -1.7162124650E+000 
60038987.994 +1.0066782446E+000 -2.5907130822E+000  +2.8583176415E-002 +8.6003631645E+001  +2.8281836117E-002 +8.6334630781E+001  +1.0068280525E+000 -2.5441286198E+000 
70043985.993 +9.9444408445E-001 -2.9864757588E+000  +3.2764209167E-002 +8.5644279067E+001  +3.2652658261E-002 +8.6151506296E+001  +9.9473341740E-001 -2.9455785230E+000 
80048983.992 +9.8447137187E-001 -2.8553541747E+000  +3.6997882107E-002 +8.5774714094E+001  +3.7100438531E-002 +8.6364244279E+001  +9.8481895907E-001 -2.8257761793E+000 
90053981.991 +9.8148101034E-001 -2.5184730479E+000  +4.1504867448E-002 +8.6091563905E+001  +4.1811860424E-002 +8.6381168005E+001  +9.8159516413E-001 -2.4912743147E+000 
100058979.990 +9.8545942711E-001 -2.2183639241E+000  +4.6207789925E-002 +8.6291999847E+001  +4.6649888381E-002 +8.6239488908E+001  +9.8529323665E-001 -2.1994682158E+000 
110063977.989 +9.9449749860E-001 -2.1622099566E+000  +5.1242510925E-002 +8.6288626443E+001  +5.1543005912E-002 +8.5850886025E+001  +9.9398889784E-001 -2.1375890188E+000 
120068975.988 +1.0059852101E+000 -2.5129942887E+000  +5.6360223378E-002 +8.5962251491E+001  +5.6477650175E-002 +8.5381440962E+001  +1.0053308415E+000 -2.4667086533E+000 
130073973.987 +1.0149388190E+000 -3.3215865262E+000  +6.1631556013E-002 +8.5155778990E+001  +6.1282891578E-002 +8.4647915971E+001  +1.0142497368E+000 -3.2468576792E+000 
140078971.986 +1.0156417509E+000 -4.4314876102E+000  +6.6401347116E-002 +8.3981406977E+001  +6.5717782462E-002 +8.3737575713E+001  +1.0151590529E+000 -4.3283163256E+000 
150083969.985 +1.0058041925E+000 -5.4126903579E+000  +7.0320551766E-002 +8.2964261038E+001  +6.9570616766E-002 +8.2994313445E+001  +1.0059230005E+000 -5.2981970338E+000 
160088967.984 +9.9007530117E-001 -5.8260918795E+000  +7.3657377512E-002 +8.2534593464E+001  +7.3061448286E-002 +8.2918010039E+001  +9.9063380241E-001 -5.7167913010E+000 
170093965.983 +9.7734438213E-001 -5.6514683129E+000  +7.7191999791E-002 +8.2773181735E+001  +7.7014439813E-002 +8.3344130375E+001  +9.7807399388E-001 -5.5612710321E+000 
180098963.982 +9.7268600962E-001 -5.1547870428E+000  +8.1371181102E-002 +8.3278289298E+001  +8.1736053465E-002 +8.3803242515E+001  +9.7325173519E-001 -5.0933365077E+000 
190103961.981 +9.7627807897E-001 -4.6850427036E+000  +8.6175337283E-002 +8.3641904848E+001  +8.6993698911E-002 +8.3849920855E+001  +9.7658366796E-001 -4.6538044937E+000 
200108959.980 +9.8662686824E-001 -4.4847167054E+000  +9.1519971450E-002 +8.3743702569E+001  +9.2426765223E-002 +8.3577559470E+001  +9.8617227401E-001 -4.4509100597E+000 
210113957.979 +9.9995395760E-001 -4.7178408284E+000  +9.7202220804E-002 +8.3540512162E+001  +9.7791464000E-002 +8.3052789378E+001  +9.9909038769E-001 -4.6625255961E+000 
220118955.978 +1.0120722085E+000 -5.4970641123E+000  +1.0307433568E-001 +8.2819530757E+001  +1.0304854478E-001 +8.2210064814E+001  +1.0108943918E+000 -5.3929778820E+000 
230123953.977 +1.0162973518E+000 -6.7102282060E+000  +1.0830163981E-001 +8.1534319358E+001  +1.0762142234E-001 +8.1079291759E+001  +1.0153627399E+000 -6.5561160490E+000 
240128951.976 +1.0079423709E+000 -7.9356021298E+000  +1.1200949090E-001 +8.0206838371E+001  +1.1086225919E-001 +8.0015606074E+001  +1.0077256604E+000 -7.7467409547E+000 
250133949.975 +9.9010698419E-001 -8.6550296547E+000  +1.1427826200E-001 +7.9478219754E+001  +1.1314180944E-001 +7.9661294532E+001  +9.9067483650E-001 -8.4570952447E+000 
260138947.974 +9.7243249611E-001 -8.6070814931E+000  +1.1654253526E-001 +7.9609987462E+001  +1.1583808080E-001 +8.0090018421E+001  +9.7358391146E-001 -8.4452036486E+000 
270143945.973 +9.6267031915E-001 -8.0373876170E+000  +1.1991343139E-001 +8.0205238157E+001  +1.1996358285E-001 +8.0795428309E+001  +9.6392573916E-001 -7.9195269425E+000 
280148943.972 +9.6332384193E-001 -7.3528209541E+000  +1.2454930960E-001 +8.0821165060E+001  +1.2538473078E-001 +8.1261931272E+001  +9.6419404850E-001 -7.2717175339E+000 
290153941.971 +9.7253743313E-001 -6.8941506646E+000  +1.3010845720E-001 +8.1156241850E+001  +1.3138476234E-001 +8.1262155883E+001  +9.7276289693E-001 -6.8378932807E+000 
300158939.970 +9.8745245961E-001 -6.8819621456E+000  +1.3636545559E-001 +8.1136473190E+001  +1.3756327738E-001 +8.0896346493E+001  +9.8673067139E-001 -6.8166835544E+000 
310163937.969 +1.0032916194E+000 -7.4596101363E+000  +1.4305051013E-001 +8.0622260201E+001  +1.4360483237E-001 +8.0101853610E+001  +1.0018230109E+000 -7.3538460498E+000 
320168935.968 +1.0130623211E+000 -8.6287343278E+000  +1.4925058538E-001 +7.9453182218E+001  +1.4892791119E-001 +7.8912672717E+001  +1.0114365255E+000 -8.4698452989E+000 
330173933.967 +1.0103566428E+000 -1.0076409334E+001  +1.5357381222E-001 +7.7901154495E+001  +1.5251016594E-001 +7.7528049195E+001  +1.0094057218E+000 -9.8517504533E+000 
340178931.966 +9.9411235350E-001 -1.1220240530E+001  +1.5538487362E-001 +7.6690387120E+001  +1.5396616540E-001 +7.6582487348E+001  +9.9410017586E-001 -1.0970943900E+001 
350183929.965 +9.7189045615E-001 -1.1572040978E+001  +1.5605807819E-001 +7.6387087224E+001  +1.5469288499E-001 +7.6613724738E+001  +9.7277983639E-001 -1.1326204047E+001 
360188927.964 +9.5491370090E-001 -1.1113256670E+001  +1.5770783945E-001 +7.6936495288E+001  +1.5694411863E-001 +7.7414930794E+001  +9.5650724458E-001 -1.0914785023E+001 
370193925.963 +9.4923889084E-001 -1.0276788332E+001  +1.6132504739E-001 +7.7754194376E+001  +1.6151301453E-001 +7.8294347177E+001  +9.5088389803E-001 -1.0131795064E+001 
380198923.962 +9.5486244370E-001 -9.5112555054E+000  +1.6673224793E-001 +7.8395979781E+001  +1.6777675667E-001 +7.8775875857E+001  +9.5588148016E-001 -9.4042736961E+000 
390203921.961 +9.6880062168E-001 -9.1334186116E+000  +1.7326339407E-001 +7.8674872120E+001  +1.7485272504E-001 +7.8724099877E+001  +9.6895892013E-001 -9.0549297893E+000 
400208919.960 +9.8707071787E-001 -9.3589128922E+000  +1.8069360754E-001 +7.8467698399E+001  +1.8205066977E-001 +7.8200940011E+001  +9.8621547835E-001 -9.2617685230E+000 
410213917.959 +1.0032017521E+000 -1.0288315919E+001  +1.8832554807E-001 +7.7600347689E+001  +1.8883388454E-001 +7.7135356448E+001  +1.0015381867E+000 -1.0139784343E+001 
420218915.958 +1.0092835252E+000 -1.1783423598E+001  +1.9433167934E-001 +7.6072579300E+001  +1.9380821561E-001 +7.5618222017E+001  +1.0075845169E+000 -1.1559181923E+001 
430223913.957 +9.9965682061E-001 -1.3335089726E+001  +1.9694338659E-001 +7.4400328909E+001  +1.9561463201E-001 +7.4129855686E+001  +9.9867698911E-001 -1.3058480473E+001 
440228911.956 +9.7703836024E-001 -1.4285020074E+001  +1.9647824558E-001 +7.3413938145E+001  +1.9492817817E-001 +7.3420615003E+001  +9.7726292756E-001 -1.3981055048E+001 
450233909.955 +9.5298392424E-001 -1.4264945051E+001  +1.9573490243E-001 +7.3559606813E+001  +1.9442951925E-001 +7.3806810403E+001  +9.5427526183E-001 -1.3979872293E+001 
460238907.954 +9.3817799092E-001 -1.3484724918E+001  +1.9714744136E-001 +7.4404412511E+001  +1.9657372865E-001 +7.4838664871E+001  +9.3982884187E-001 -1.3253064403E+001 
470243905.953 +9.3636353155E-001 -1.2472986537E+001  +2.0137641200E-001 +7.5342933051E+001  +2.0184002824E-001 +7.5781966306E+001  +9.3804046742E-001 -1.2295752477E+001 
480248903.952 +9.4627593721E-001 -1.1682042091E+001  +2.0775611412E-001 +7.6002198258E+001  +2.0906859002E-001 +7.6249817473E+001  +9.4726882322E-001 -1.1553752118E+001 
490253901.951 +9.6406645828E-001 -1.1430610440E+001  +2.1552217422E-001 +7.6195659017E+001  +2.1720941464E-001 +7.6148290447E+001  +9.6387859329E-001 -1.1307377495E+001 
500258899.950 +9.8459365018E-001 -1.1906152286E+001  +2.2433097272E-001 +7.5763929737E+001  +2.2557536807E-001 +7.5458287587E+001  +9.8322879623E-001 -1.1759365594E+001 
510263897.949 +9.9974440106E-001 -1.3167148248E+001  +2.3257497313E-001 +7.4552118650E+001  +2.3286096843E-001 +7.4134817892E+001  +9.9783215910E-001 -1.2947036948E+001 
520268895.948 +1.0009377183E+000 -1.4893822575E+001  +2.3770168762E-001 +7.2735999888E+001  +2.3690872775E-001 +7.2358901226E+001  +9.9933741730E-001 -1.4606512004E+001 
530273893.947 +9.8436831163E-001 -1.6442715850E+001  +2.3790796001E-001 +7.1083176367E+001  +2.3647667397E-001 +7.0871975103E+001  +9.8379262055E-001 -1.6098352789E+001 
540278891.946 +9.5749214066E-001 -1.7120755941E+001  +2.3521916674E-001 +7.0443315395E+001  +2.3353291156E-001 +7.0447350291E+001  +9.5813192069E-001 -1.6763758362E+001 
550283889.945 +9.3355189136E-001 -1.6742551674E+001  +2.3345922541E-001 +7.0932886240E+001  +2.3215027183E-001 +7.1172452209E+001  +9.3496559646E-001 -1.6421925500E+001 
560288887.944 +9.2163426331E-001 -1.5708348673E+001  +2.3510409569E-001 +7.2003119125E+001  +2.3463585338E-001 +7.2369423090E+001  +9.2346565345E-001 -1.5442865458E+001 
570293885.943 +9.2383030160E-001 -1.4590717605E+001  +2.4011334316E-001 +7.2996483644E+001  +2.4064255052E-001 +7.3339749825E+001  +9.2544902363E-001 -1.4383905174E+001 
580298883.942 +9.3746755770E-001 -1.3844826900E+001  +2.4747320174E-001 +7.3591884129E+001  +2.4886486390E-001 +7.3776706303E+001  +9.3817968651E-001 -1.3676266955E+001 
590303881.941 +9.5803910032E-001 -1.3751551398E+001  +2.5669172055E-001 +7.3684422801E+001  +2.5823605443E-001 +7.3621403321E+001  +9.5771228390E-001 -1.3578758074E+001 
600308879.940 +9.7948159643E-001 -1.4485500826E+001  +2.6676489102E-001 +7.3044237227E+001  +2.6780634604E-001 +7.2787387011E+001  +9.7828224933E-001 -1.4275378445E+001 
610313877.939 +9.9270811204E-001 -1.6022957109E+001  +2.7535567879E-001 +7.1513200237E+001  +2.7549995153E-001 +7.1180544201E+001  +9.9105139523E-001 -1.5745764565E+001 
620318875.938 +9.8867635174E-001 -1.7906254556E+001  +2.7885998402E-001 +6.9500685723E+001  +2.7800492263E-001 +6.9211785521E+001  +9.8730716907E-001 -1.7551814421E+001 
630323873.937 +9.6664661873E-001 -1.9357950395E+001  +2.7641241404E-001 +6.7974060057E+001  +2.7490652971E-001 +6.7832043958E+001  +9.6626631207E-001 -1.8954485018E+001 
640328871.936 +9.3729349717E-001 -1.9738685842E+001  +2.7166467012E-001 +6.7677650689E+001  +2.7005245889E-001 +6.7723416089E+001  +9.3814703938E-001 -1.9344950815E+001 
650333869.935 +9.1459920684E-001 -1.9059882614E+001  +2.6943139613E-001 +6.8486458937E+001  +2.6826768016E-001 +6.8716907590E+001  +9.1632555726E-001 -1.8704239168E+001 
660338867.934 +9.0609257303E-001 -1.7847464674E+001  +2.7152979607E-001 +6.9674196460E+001  +2.7122377087E-001 +6.9993602235E+001  +9.0792185907E-001 -1.7552125753E+001 
670343865.933 +9.1172519905E-001 -1.6697700413E+001  +2.7740843220E-001 +7.0651455647E+001  +2.7812520846E-001 +7.0940206256E+001  +9.1307090311E-001 -1.6456394034E+001 
680348863.932 +9.2807242017E-001 -1.6026022652E+001  +2.8594609680E-001 +7.1218624524E+001  +2.8734912601E-001 +7.1338036311E+001  +9.2874542455E-001 -1.5808672408E+001 
690353861.931 +9.5040357834E-001 -1.6098299723E+001  +2.9645735676E-001 +7.1186064743E+001  +2.9786857319E-001 +7.1098050761E+001  +9.5007811662E-001 -1.5874644735E+001 
700358859.930 +9.7188047535E-001 -1.7062710315E+001  +3.0771807132E-001 +7.0334489031E+001  +3.0847413278E-001 +7.0089656914E+001  +9.7077099585E-001 -1.6795841704E+001 
710363857.929 +9.8215682481E-001 -1.8809215675E+001  +3.1614361497E-001 +6.8542473473E+001  +3.1594506038E-001 +6.8274315933E+001  +9.8083347025E-001 -1.8477215975E+001 
720368855.928 +9.7322720469E-001 -2.0767859630E+001  +3.1765310114E-001 +6.6422119194E+001  +3.1676328819E-001 +6.6235831969E+001  +9.7242630589E-001 -2.0375468255E+001 
730373853.927 +9.4710025404E-001 -2.2075212504E+001  +3.1251374570E-001 +6.5065163191E+001  +3.1118420399E-001 +6.4996510944E+001  +9.4729653201E-001 -2.1651388371E+001 
740378851.926 +9.1675607527E-001 -2.2192848267E+001  +3.0606506214E-001 +6.5085225845E+001  +3.0481249413E-001 +6.5151515196E+001  +9.1782263172E-001 -2.1775799866E+001 
750383849.925 +8.9578607781E-001 -2.1256053986E+001  +3.0345066427E-001 +6.6131734219E+001  +3.0272012304E-001 +6.6305656207E+001  +8.9738297025E-001 -2.0887745697E+001 
760388847.924 +8.9041607240E-001 -1.9904381135E+001  +3.0634769813E-001 +6.7413434309E+001  +3.0626772092E-001 +6.7636147890E+001  +8.9191364754E-001 -1.9592346547E+001 
770393845.923 +8.9919305892E-001 -1.8755841094E+001  +3.1334737295E-001 +6.8383152525E+001  +3.1402161046E-001 +6.8548621291E+001  +9.0013353758E-001 -1.8486128958E+001 
780398843.922 +9.1807016629E-001 -1.8189944544E+001  +3.2307123454E-001 +6.8856329046E+001  +3.2417992588E-001 +6.8886079084E+001  +9.1809562346E-001 -1.7934579391E+001 
790403841.921 +9.4144146356E-001 -1.8439438656E+001  +3.3487806517E-001 +6.8684256446E+001  +3.3582846727E-001 +6.8582802043E+001  +9.4061095664E-001 -1.8155804115E+001 
800408839.920 +9.6155029967E-001 -1.9625521089E+001  +3.4680523153E-001 +6.7595557331E+001  +3.4717462049E-001 +6.7428313915E+001  +9.6039948417E-001 -1.9279482341E+001 
810413837.919 +9.6866064869E-001 -2.1523949496E+001  +3.5449482243E-001 +6.5630766479E+001  +3.5415825937E-001 +6.5467444515E+001  +9.6766951812E-001 -2.1121728714E+001 
820418835.918 +9.5549571114E-001 -2.3478125452E+001  +3.5371449889E-001 +6.3526165039E+001  +3.5296976225E-001 +6.3415352140E+001  +9.5522198001E-001 -2.3031830379E+001 
830423833.917 +9.2657239857E-001 -2.4612453470E+001  +3.4622559028E-001 +6.2377705024E+001  +3.4530273675E-001 +6.2344301904E+001  +9.2725865517E-001 -2.4161438995E+001 
840428831.916 +8.9628545291E-001 -2.4472784643E+001  +3.3850068313E-001 +6.2672421974E+001  +3.3765848773E-001 +6.2711724708E+001  +8.9744521780E-001 -2.4044840566E+001 
850433829.915 +8.7757908933E-001 -2.3330605456E+001  +3.3596924098E-001 +6.3889735059E+001  +3.3545048683E-001 +6.3996302326E+001  +8.7887377518E-001 -2.2947821490E+001 
860438827.914 +8.7530396068E-001 -2.1906601626E+001  +3.3962685560E-001 +6.5191471299E+001  +3.3969453871E-001 +6.5332957666E+001  +8.7635537972E-001 -2.1561349392E+001 
870443825.913 +8.8669793481E-001 -2.0795341210E+001  +3.4757003509E-001 +6.6113832874E+001  +3.4824711009E-001 +6.6203988141E+001  +8.8715656490E-001 -2.0474693350E+001 
880448823.912 +9.0702206017E-001 -2.0359421738E+001  +3.5831342421E-001 +6.6519459095E+001  +3.5929587822E-001 +6.6506366092E+001  +9.0674414832E-001 -2.0024969490E+001 
890453821.911 +9.3037677459E-001 -2.0779714788E+001  +3.7120179551E-001 +6.6234854082E+001  +3.7183844581E-001 +6.6099215582E+001  +9.2956887613E-001 -2.0413509816E+001 
900458819.910 +9.4912488803E-001 -2.2135848108E+001  +3.8384683619E-001 +6.4976483449E+001  +3.8365422531E-001 +6.4818950471E+001  +9.4815907621E-001 -2.1701365284E+001 
910463817.909 +9.5294504479E-001 -2.4132305158E+001  +3.9064885730E-001 +6.2876904722E+001  +3.8987043950E-001 +6.2778733505E+001  +9.5263632683E-001 -2.3641894896E+001 
920468815.908 +9.3643162494E-001 -2.6036611388E+001  +3.8765594653E-001 +6.0790841798E+001  +3.8672879381E-001 +6.0769534341E+001  +9.3696267353E-001 -2.5534971944E+001 
930473813.907 +9.0578086439E-001 -2.7003188093E+001  +3.7778114849E-001 +5.9835675952E+001  +3.7698004381E-001 +5.9886805366E+001  +9.0715463716E-001 -2.6516765802E+001 
940478811.906 +8.7609234675E-001 -2.6641689399E+001  +3.6883982560E-001 +6.0362057751E+001  +3.6846067644E-001 +6.0455019335E+001  +8.7760097241E-001 -2.6202811703E+001 
950483809.905 +8.5970182115E-001 -2.5346985020E+001  +3.6665927660E-001 +6.1741015226E+001  +3.6671041685E-001 +6.1841687518E+001  +8.6094313970E-001 -2.4949852753E+001 
960488807.904 +8.5997542013E-001 -2.3867289740E+001  +3.7132697627E-001 +6.3073086688E+001  +3.7176279887E-001 +6.3148367663E+001  +8.6057118714E-001 -2.3500348144E+001 
970493805.903 +8.7363261181E-001 -2.2812723390E+001  +3.8040096857E-001 +6.3945744844E+001  +3.8112043319E-001 +6.3939248216E+001  +8.7346482451E-001 -2.2446569511E+001 
980498803.902 +8.9494495286E-001 -2.2513527241E+001  +3.9233329609E-001 +6.4237211926E+001  +3.9291885317E-001 +6.4155305238E+001  +8.9410940051E-001 -2.2111560938E+001 
990503801.901 +9.1771964541E-001 -2.3099316075E+001  +4.0602826803E-001 +6.3788428948E+001  +4.0601008426E-001 +6.3665175048E+001  +9.1657371807E-001 -2.2634724552E+001 
1000508799.900 +9.3402565419E-001 -2.4578271644E+001  +4.1855949083E-001 +6.2404903462E+001  +4.1787684475E-001 +6.2305748531E+001  +9.3333594423E-001 -2.4049081856E+001 
1010513797.899 +9.3473404771E-001 -2.6595788403E+001  +4.2407863609E-001 +6.0258861389E+001  +4.2316642391E-001 +6.0231752317E+001  +9.3499884279E-001 -2.6036174033E+001 
1020518795.898 +9.1582336826E-001 -2.8418276581E+001  +4.1904364845E-001 +5.8247991166E+001  +4.1830570870E-001 +5.8306187039E+001  +9.1709253415E-001 -2.7861875529E+001 
1030523793.897 +8.8472908610E-001 -2.9203927337E+001  +4.0738069894E-001 +5.7494862470E+001  +4.0703318471E-001 +5.7576658043E+001  +8.8664589527E-001 -2.8694711048E+001 
1040528791.896 +8.5630222191E-001 -2.8658697633E+001  +3.9778211699E-001 +5.8214863498E+001  +3.9783166546E-001 +5.8306937541E+001  +8.5803501199E-001 -2.8205498227E+001 
1050533789.895 +8.4229442110E-001 -2.7246574805E+001  +3.9603956770E-001 +5.9673456940E+001  +3.9646242670E-001 +5.9736977356E+001  +8.4338351166E-001 -2.6841055776E+001 
1060538787.894 +8.4509741857E-001 -2.5754321618E+001  +4.0172933295E-001 +6.0990967721E+001  +4.0241293701E-001 +6.1005310163E+001  +8.4531003364E-001 -2.5357856630E+001 
1070543785.893 +8.6049228899E-001 -2.4794827215E+001  +4.1178596236E-001 +6.1757488545E+001  +4.1257193393E-001 +6.1700801659E+001  +8.5973281296E-001 -2.4376999695E+001 
1080548783.892 +8.8203410661E-001 -2.4641465665E+001  +4.2449436349E-001 +6.1933499793E+001  +4.2480797192E-001 +6.1796912128E+001  +8.8081387728E-001 -2.4164776517E+001 
1090553781.891 +9.0347626328E-001 -2.5380698702E+001  +4.3852465649E-001 +6.1389574518E+001  +4.3803258024E-001 +6.1243100778E+001  +9.0239755595E-001 -2.4824517688E+001 
1100558779.890 +9.1724991339E-001 -2.6932938863E+001  +4.5072000414E-001 +5.9915621816E+001  +4.4956642112E-001 +5.9838897016E+001  +9.1701662518E-001 -2.6315992215E+001 
1110563777.889 +9.1519469097E-001 -2.8935391283E+001  +4.5513877977E-001 +5.7768429663E+001  +4.5374209081E-001 +5.7804808625E+001  +9.1626503039E-001 -2.8300842983E+001 
1120568775.888 +8.9472631166E-001 -3.0636053724E+001  +4.4819212707E-001 +5.5873672974E+001  +4.4726447352E-001 +5.5993885825E+001  +8.9686356761E-001 -3.0033567597E+001 
1130573773.887 +8.6384124814E-001 -3.1253791358E+001  +4.3502301775E-001 +5.5285111778E+001  +4.3484653952E-001 +5.5441642557E+001  +8.6635747771E-001 -3.0726071378E+001 
