!  2-Port S-parameters saved by WinCal
! VAR MeasName=S-Parameters (CALIBRATED_DATA) read from VNA (P5004A)
! VAR MeasDate=26/04/2024 19:09:09
! VAR NAME=Wafer2_r1_c7_fullform_log
! VAR FILENAME=Wafer2_r1_c7_fullform_log_1.S2P
! VAR DATE=26/04/2024 19:09:16
! VAR PHYS_PORTS=1,2
! VAR ObjTypeName=DATASET
! VAR IndexType=Frequency
!
# Hz S MA R 50
9000.000 +7.1522162564E-001 +1.3941347077E+001  +9.7997088841E-002 +3.2010197235E+000  +9.9191180077E-002 +2.4434776793E+000  +7.1425812732E-001 +1.3830402335E+001 
9066.037 +7.1726376490E-001 +1.3993545461E+001  +9.8063773453E-002 +3.2850710835E+000  +9.9425141887E-002 +2.6291118651E+000  +7.1601595111E-001 +1.3888928056E+001 
9132.559 +7.1897940255E-001 +1.4059069688E+001  +9.8109974287E-002 +3.4977674558E+000  +9.9512133345E-002 +2.7137425469E+000  +7.1759128166E-001 +1.3951341182E+001 
9199.568 +7.2083573752E-001 +1.4135284277E+001  +9.8228227310E-002 +3.5456000718E+000  +9.9728937444E-002 +2.7724449025E+000  +7.1980180947E-001 +1.4024387718E+001 
9267.070 +7.2310924626E-001 +1.4154460381E+001  +9.8434147867E-002 +3.7336937223E+000  +9.9758469255E-002 +2.9595359027E+000  +7.2181431924E-001 +1.4055725727E+001 
9335.066 +7.2484007617E-001 +1.4228849909E+001  +9.8580872585E-002 +3.8348176514E+000  +9.9906597885E-002 +3.1078475206E+000  +7.2352373625E-001 +1.4127332087E+001 
9403.562 +7.2688296101E-001 +1.4277309661E+001  +9.8755714428E-002 +3.9753645578E+000  +1.0017484938E-001 +3.1872553165E+000  +7.2560799365E-001 +1.4163681863E+001 
9472.560 +7.2891750600E-001 +1.4325573993E+001  +9.8891100745E-002 +4.1574701977E+000  +1.0024955618E-001 +3.2697811739E+000  +7.2758448573E-001 +1.4193670710E+001 
9542.065 +7.3114159234E-001 +1.4350729642E+001  +9.8981942670E-002 +4.1930417595E+000  +1.0036113076E-001 +3.4351059727E+000  +7.2947455183E-001 +1.4227235646E+001 
9612.079 +7.3286199919E-001 +1.4403765076E+001  +9.9071906221E-002 +4.2996150475E+000  +1.0063468951E-001 +3.5959770824E+000  +7.3126744263E-001 +1.4256775303E+001 
9682.607 +7.3497387436E-001 +1.4409230845E+001  +9.9256377036E-002 +4.4326339487E+000  +1.0079520182E-001 +3.7539750768E+000  +7.3333615696E-001 +1.4289723619E+001 
9753.653 +7.3688904059E-001 +1.4465895016E+001  +9.9321903714E-002 +4.5409525209E+000  +1.0089282489E-001 +3.7625366229E+000  +7.3528819569E-001 +1.4324447098E+001 
9825.220 +7.3865217237E-001 +1.4482776678E+001  +9.9507022612E-002 +4.6639853433E+000  +1.0101343913E-001 +3.8735800692E+000  +7.3699381092E-001 +1.4367849775E+001 
9897.312 +7.4078064776E-001 +1.4493190656E+001  +9.9803644735E-002 +4.7616546590E+000  +1.0116089778E-001 +3.9993675380E+000  +7.3929524109E-001 +1.4382249677E+001 
9969.933 +7.4273680204E-001 +1.4542154000E+001  +9.9881204772E-002 +4.8341634733E+000  +1.0137217944E-001 +4.1259536610E+000  +7.4102088806E-001 +1.4421091593E+001 
10043.087 +7.4483875522E-001 +1.4572310301E+001  +9.9983542925E-002 +4.9749770884E+000  +1.0148998009E-001 +4.2106693754E+000  +7.4308218692E-001 +1.4448308015E+001 
10116.778 +7.4676018141E-001 +1.4571404588E+001  +1.0021379743E-001 +5.0731753773E+000  +1.0162969640E-001 +4.2896090540E+000  +7.4513572457E-001 +1.4461986872E+001 
10191.009 +7.4866380445E-001 +1.4611388822E+001  +1.0047263071E-001 +5.1915773704E+000  +1.0174969528E-001 +4.4185271483E+000  +7.4699963002E-001 +1.4489827683E+001 
10265.785 +7.5091002942E-001 +1.4615419841E+001  +1.0055484085E-001 +5.2958054246E+000  +1.0192568409E-001 +4.5136527919E+000  +7.4916020791E-001 +1.4501838174E+001 
10341.110 +7.5307427437E-001 +1.4645314399E+001  +1.0071344838E-001 +5.4087281157E+000  +1.0197025865E-001 +4.6448550856E+000  +7.5128104277E-001 +1.4528518167E+001 
10416.987 +7.5507312955E-001 +1.4652032745E+001  +1.0087293657E-001 +5.5204838892E+000  +1.0212415844E-001 +4.7359106918E+000  +7.5359344557E-001 +1.4542585860E+001 
10493.421 +7.5726427122E-001 +1.4656271418E+001  +1.0109175737E-001 +5.5734493193E+000  +1.0235762436E-001 +4.8709951042E+000  +7.5572513402E-001 +1.4554404475E+001 
10570.416 +7.5932579387E-001 +1.4642706206E+001  +1.0130185751E-001 +5.6469809452E+000  +1.0236409468E-001 +4.9477586429E+000  +7.5805905526E-001 +1.4550050096E+001 
10647.976 +7.6145965109E-001 +1.4667053375E+001  +1.0142380682E-001 +5.7728083503E+000  +1.0268570277E-001 +5.1062035145E+000  +7.5977088531E-001 +1.4553747152E+001 
10726.105 +7.6372335879E-001 +1.4667496998E+001  +1.0157432341E-001 +5.9022082267E+000  +1.0282855926E-001 +5.1497603563E+000  +7.6204053786E-001 +1.4556486276E+001 
10804.808 +7.6615636109E-001 +1.4654143464E+001  +1.0175620585E-001 +5.9413029573E+000  +1.0302519935E-001 +5.2680158996E+000  +7.6436879748E-001 +1.4558652127E+001 
10884.087 +7.6844542392E-001 +1.4659760978E+001  +1.0195148103E-001 +6.0748998125E+000  +1.0313789886E-001 +5.3613797868E+000  +7.6678942569E-001 +1.4550790468E+001 
10963.949 +7.7064387202E-001 +1.4631123749E+001  +1.0215227189E-001 +6.1779743992E+000  +1.0322762938E-001 +5.4505184762E+000  +7.6908842823E-001 +1.4542670714E+001 
11044.396 +7.7283188395E-001 +1.4630570243E+001  +1.0229907138E-001 +6.2530805004E+000  +1.0352761339E-001 +5.5575259694E+000  +7.7126540558E-001 +1.4544018515E+001 
11125.434 +7.7451455654E-001 +1.4632353742E+001  +1.0240400415E-001 +6.3560708558E+000  +1.0368027325E-001 +5.6059249320E+000  +7.7301350694E-001 +1.4540630680E+001 
11207.066 +7.7652319442E-001 +1.4638191244E+001  +1.0268758328E-001 +6.4010629432E+000  +1.0387746735E-001 +5.6896645708E+000  +7.7492512211E-001 +1.4533894423E+001 
11289.298 +7.7838042793E-001 +1.4627472200E+001  +1.0284678952E-001 +6.4934409031E+000  +1.0408442112E-001 +5.8291139603E+000  +7.7648445156E-001 +1.4544599388E+001 
11372.132 +7.8041829986E-001 +1.4616909696E+001  +1.0296979781E-001 +6.5661330786E+000  +1.0420088317E-001 +5.8563368996E+000  +7.7866610180E-001 +1.4519150055E+001 
11455.575 +7.8259403490E-001 +1.4607626946E+001  +1.0316337832E-001 +6.6397786655E+000  +1.0428947469E-001 +5.9606569895E+000  +7.8085150635E-001 +1.4525534761E+001 
11539.630 +7.8448210046E-001 +1.4597397066E+001  +1.0332366575E-001 +6.7033681537E+000  +1.0462441483E-001 +6.0257556636E+000  +7.8257398119E-001 +1.4497959646E+001 
11624.301 +7.8637737345E-001 +1.4577360479E+001  +1.0355636063E-001 +6.7693754622E+000  +1.0472225199E-001 +6.0970546774E+000  +7.8431576783E-001 +1.4485619307E+001 
11709.594 +7.8836225640E-001 +1.4560135911E+001  +1.0369499254E-001 +6.8769724523E+000  +1.0481314722E-001 +6.1750042002E+000  +7.8638631755E-001 +1.4467148146E+001 
11795.512 +7.9046559229E-001 +1.4540494023E+001  +1.0380134520E-001 +6.9100618306E+000  +1.0491441425E-001 +6.3091619877E+000  +7.8862679277E-001 +1.4462623845E+001 
11882.062 +7.9250519307E-001 +1.4526873533E+001  +1.0401708086E-001 +7.0130057180E+000  +1.0523568592E-001 +6.3618095769E+000  +7.9052421067E-001 +1.4446521668E+001 
11969.246 +7.9457831698E-001 +1.4492758230E+001  +1.0428048106E-001 +7.0965821439E+000  +1.0537340870E-001 +6.4131906863E+000  +7.9284243937E-001 +1.4415369772E+001 
12057.069 +7.9644451205E-001 +1.4454263946E+001  +1.0438862393E-001 +7.1770442152E+000  +1.0553285339E-001 +6.4848722821E+000  +7.9461695187E-001 +1.4379332116E+001 
12145.538 +7.9864571217E-001 +1.4418399969E+001  +1.0473759056E-001 +7.2338950659E+000  +1.0566112248E-001 +6.5811688106E+000  +7.9667416666E-001 +1.4347746145E+001 
12234.655 +8.0072041007E-001 +1.4401987260E+001  +1.0491217265E-001 +7.2912045202E+000  +1.0587299209E-001 +6.6596576506E+000  +7.9867499870E-001 +1.4314706229E+001 
12324.426 +8.0295617003E-001 +1.4356603562E+001  +1.0494081145E-001 +7.3336079135E+000  +1.0602718826E-001 +6.7158446234E+000  +8.0100123225E-001 +1.4278103221E+001 
12414.856 +8.0483960831E-001 +1.4319817459E+001  +1.0524035812E-001 +7.4011310546E+000  +1.0628369676E-001 +6.7763554285E+000  +8.0267376630E-001 +1.4237466152E+001 
12505.949 +8.0700529577E-001 +1.4275424188E+001  +1.0544532898E-001 +7.4877930792E+000  +1.0656883356E-001 +6.8624502343E+000  +8.0494676487E-001 +1.4206507592E+001 
12597.711 +8.0848639732E-001 +1.4258154622E+001  +1.0566191264E-001 +7.5639685209E+000  +1.0675035290E-001 +6.9208242184E+000  +8.0632544042E-001 +1.4180354816E+001 
12690.146 +8.1045936627E-001 +1.4226576338E+001  +1.0589592786E-001 +7.5858545404E+000  +1.0696129105E-001 +6.9785256346E+000  +8.0838809238E-001 +1.4148746685E+001 
12783.260 +8.1239725532E-001 +1.4196136102E+001  +1.0609677117E-001 +7.6414529854E+000  +1.0721604991E-001 +7.0573823995E+000  +8.1004574886E-001 +1.4118086438E+001 
12877.056 +8.1416646659E-001 +1.4160601888E+001  +1.0618745542E-001 +7.7493916712E+000  +1.0733514180E-001 +7.1486988607E+000  +8.1212333543E-001 +1.4083829825E+001 
12971.541 +8.1594036179E-001 +1.4127282017E+001  +1.0638233134E-001 +7.7999948346E+000  +1.0748078828E-001 +7.2089071862E+000  +8.1399005951E-001 +1.4051829404E+001 
13066.719 +8.1777176405E-001 +1.4086598445E+001  +1.0639512775E-001 +7.8516390161E+000  +1.0760101032E-001 +7.2081919519E+000  +8.1546093162E-001 +1.4013913822E+001 
13162.595 +8.1967762267E-001 +1.4056103784E+001  +1.0658839123E-001 +7.9080846823E+000  +1.0796811126E-001 +7.3294722426E+000  +8.1726849291E-001 +1.3973914674E+001 
13259.175 +8.2129107299E-001 +1.4016580504E+001  +1.0695908506E-001 +7.9182175404E+000  +1.0801928580E-001 +7.3890615567E+000  +8.1916382110E-001 +1.3942048465E+001 
13356.464 +8.2309073534E-001 +1.3968659863E+001  +1.0715775568E-001 +8.0407234945E+000  +1.0827694946E-001 +7.4030533845E+000  +8.2091542494E-001 +1.3876238188E+001 
13454.466 +8.2494068645E-001 +1.3915692057E+001  +1.0736091144E-001 +8.0638873515E+000  +1.0849643069E-001 +7.4729503572E+000  +8.2259932664E-001 +1.3836570125E+001 
13553.188 +8.2651648857E-001 +1.3871892904E+001  +1.0762801317E-001 +8.0868793885E+000  +1.0854703382E-001 +7.4982218452E+000  +8.2444685795E-001 +1.3801573208E+001 
13652.634 +8.2835088468E-001 +1.3824739552E+001  +1.0777950426E-001 +8.1385102384E+000  +1.0873633399E-001 +7.5547546942E+000  +8.2634842740E-001 +1.3757396385E+001 
13752.809 +8.3032835038E-001 +1.3784064653E+001  +1.0799126125E-001 +8.2189610306E+000  +1.0897834981E-001 +7.6132497902E+000  +8.2829240346E-001 +1.3704222740E+001 
13853.720 +8.3233324761E-001 +1.3710839270E+001  +1.0813350799E-001 +8.2522790952E+000  +1.0926283849E-001 +7.6674616905E+000  +8.3001911263E-001 +1.3640646934E+001 
13955.371 +8.3430248883E-001 +1.3673900732E+001  +1.0837708256E-001 +8.3060716189E+000  +1.0947871861E-001 +7.7247306741E+000  +8.3202269267E-001 +1.3591432783E+001 
14057.768 +8.3576843037E-001 +1.3595765300E+001  +1.0853166106E-001 +8.2916708608E+000  +1.0954991347E-001 +7.7592079671E+000  +8.3372461037E-001 +1.3525734145E+001 
14160.916 +8.3776323140E-001 +1.3549340988E+001  +1.0884778710E-001 +8.3827991300E+000  +1.0985795382E-001 +7.8539273749E+000  +8.3541077118E-001 +1.3473189295E+001 
14264.821 +8.3950225110E-001 +1.3499920714E+001  +1.0901062645E-001 +8.4036023840E+000  +1.1005094009E-001 +7.8532235969E+000  +8.3720931692E-001 +1.3426032655E+001 
14369.488 +8.4111956837E-001 +1.3437013781E+001  +1.0926497028E-001 +8.4433125418E+000  +1.1013927321E-001 +7.9244339711E+000  +8.3888620241E-001 +1.3377918026E+001 
14474.924 +8.4247571001E-001 +1.3388633026E+001  +1.0941859412E-001 +8.5189570609E+000  +1.1042308639E-001 +7.9444022821E+000  +8.4020492717E-001 +1.3340398557E+001 
14581.133 +8.4391897112E-001 +1.3359308068E+001  +1.0976242153E-001 +8.5100413425E+000  +1.1051470068E-001 +7.9633633115E+000  +8.4196127680E-001 +1.3297288571E+001 
14688.121 +8.4520897388E-001 +1.3321465832E+001  +1.0984978122E-001 +8.5849535463E+000  +1.1076834605E-001 +8.0447184707E+000  +8.4302873209E-001 +1.3250919256E+001 
14795.895 +8.4665293727E-001 +1.3281209368E+001  +1.1015459959E-001 +8.5646967442E+000  +1.1106878325E-001 +8.0482927819E+000  +8.4438325923E-001 +1.3215532833E+001 
14904.459 +8.4820536227E-001 +1.3217893337E+001  +1.1026007088E-001 +8.6007379275E+000  +1.1123731448E-001 +8.0662014643E+000  +8.4574680775E-001 +1.3167859790E+001 
15013.820 +8.4947765717E-001 +1.3181362163E+001  +1.1043382124E-001 +8.6165716999E+000  +1.1145638503E-001 +8.1464979818E+000  +8.4737602472E-001 +1.3124587999E+001 
15123.983 +8.5086227656E-001 +1.3148690005E+001  +1.1069499134E-001 +8.6765964328E+000  +1.1169964401E-001 +8.1931095065E+000  +8.4864447075E-001 +1.3089844514E+001 
15234.954 +8.5234489414E-001 +1.3094561079E+001  +1.1087699101E-001 +8.7162186804E+000  +1.1173128578E-001 +8.1732877590E+000  +8.5020796426E-001 +1.3036343224E+001 
15346.740 +8.5384684134E-001 +1.3040984324E+001  +1.1111595474E-001 +8.7275120972E+000  +1.1195751516E-001 +8.2339343557E+000  +8.5164042903E-001 +1.2984248924E+001 
15459.346 +8.5496468917E-001 +1.2996862629E+001  +1.1120253218E-001 +8.7481746393E+000  +1.1222657751E-001 +8.2634608758E+000  +8.5320255428E-001 +1.2945052104E+001 
15572.778 +8.5653899449E-001 +1.2947411274E+001  +1.1143299150E-001 +8.8221405970E+000  +1.1226039817E-001 +8.3339685753E+000  +8.5430434808E-001 +1.2896339425E+001 
15687.043 +8.5807166204E-001 +1.2890484143E+001  +1.1161655252E-001 +8.8226310042E+000  +1.1252130711E-001 +8.3111868681E+000  +8.5583307523E-001 +1.2836555853E+001 
15802.146 +8.5949915410E-001 +1.2827403283E+001  +1.1195975027E-001 +8.8863463718E+000  +1.1277188736E-001 +8.3347511131E+000  +8.5729869413E-001 +1.2771080573E+001 
15918.093 +8.6066321124E-001 +1.2769712440E+001  +1.1217251539E-001 +8.8686915217E+000  +1.1293853010E-001 +8.4007542213E+000  +8.5847461616E-001 +1.2720424780E+001 
16034.892 +8.6233016350E-001 +1.2715760652E+001  +1.1223316537E-001 +8.8762618512E+000  +1.1316155406E-001 +8.4351450398E+000  +8.5995765912E-001 +1.2674093248E+001 
16152.547 +8.6357121982E-001 +1.2660067749E+001  +1.1252843753E-001 +8.9154916567E+000  +1.1328934646E-001 +8.4215830601E+000  +8.6151151060E-001 +1.2618072698E+001 
16271.065 +8.6498894837E-001 +1.2597210860E+001  +1.1277377397E-001 +8.9362206950E+000  +1.1341426201E-001 +8.4591022310E+000  +8.6301668140E-001 +1.2549810341E+001 
16390.454 +8.6645060399E-001 +1.2532224287E+001  +1.1288905945E-001 +8.9536715166E+000  +1.1365237484E-001 +8.4924930613E+000  +8.6427090165E-001 +1.2498982894E+001 
16510.718 +8.6766567303E-001 +1.2480582593E+001  +1.1317369791E-001 +8.9918590674E+000  +1.1397305543E-001 +8.5131659178E+000  +8.6556172005E-001 +1.2427886265E+001 
16631.864 +8.6916129760E-001 +1.2411622877E+001  +1.1329829547E-001 +8.9645450273E+000  +1.1423809580E-001 +8.5733391358E+000  +8.6692296664E-001 +1.2351927954E+001 
16753.900 +8.7046383804E-001 +1.2351264768E+001  +1.1354453822E-001 +8.9762738933E+000  +1.1440093761E-001 +8.5662532895E+000  +8.6832322415E-001 +1.2313601985E+001 
16876.831 +8.7193682564E-001 +1.2269934529E+001  +1.1367581277E-001 +8.9727493162E+000  +1.1462996353E-001 +8.5985054042E+000  +8.6959794249E-001 +1.2237653482E+001 
17000.664 +8.7337982964E-001 +1.2209374196E+001  +1.1390050285E-001 +9.0206435475E+000  +1.1478928252E-001 +8.6262720525E+000  +8.7106359620E-001 +1.2167629663E+001 
17125.405 +8.7461334662E-001 +1.2147662105E+001  +1.1419343689E-001 +9.0208024625E+000  +1.1490165421E-001 +8.6106939994E+000  +8.7236240933E-001 +1.2121610936E+001 
17251.062 +8.7602826374E-001 +1.2060987902E+001  +1.1443348247E-001 +9.0130400516E+000  +1.1522510626E-001 +8.5934709634E+000  +8.7371349762E-001 +1.2020983492E+001 
17377.641 +8.7731091608E-001 +1.2000728009E+001  +1.1460924184E-001 +9.0406672661E+000  +1.1543634212E-001 +8.6524027859E+000  +8.7509374285E-001 +1.1950359649E+001 
17505.149 +8.7880643321E-001 +1.1925535908E+001  +1.1484230549E-001 +9.0426935852E+000  +1.1560309830E-001 +8.6643954655E+000  +8.7640955448E-001 +1.1888820849E+001 
17633.592 +8.8020018370E-001 +1.1850094240E+001  +1.1496985574E-001 +9.0452147794E+000  +1.1579264053E-001 +8.6833554732E+000  +8.7791067949E-001 +1.1810895731E+001 
17762.977 +8.8127494449E-001 +1.1767936590E+001  +1.1520562112E-001 +9.0232071452E+000  +1.1599404077E-001 +8.6379123708E+000  +8.7922525612E-001 +1.1737343661E+001 
17893.312 +8.8258009516E-001 +1.1694715760E+001  +1.1548907144E-001 +9.0358842239E+000  +1.1620391039E-001 +8.6641601285E+000  +8.8050262559E-001 +1.1660517730E+001 
18024.604 +8.8415432271E-001 +1.1613141203E+001  +1.1567571156E-001 +9.0244228919E+000  +1.1654987427E-001 +8.6569502931E+000  +8.8195850718E-001 +1.1579960586E+001 
18156.858 +8.8553982905E-001 +1.1534814501E+001  +1.1604725495E-001 +9.0015149771E+000  +1.1664336115E-001 +8.6429252515E+000  +8.8344425176E-001 +1.1499618539E+001 
18290.084 +8.8653910769E-001 +1.1446646529E+001  +1.1622112470E-001 +9.0266228731E+000  +1.1682530594E-001 +8.6374014814E+000  +8.8473070333E-001 +1.1418827753E+001 
18424.286 +8.8796834579E-001 +1.1369232630E+001  +1.1640099977E-001 +9.0051025485E+000  +1.1704540547E-001 +8.6637650209E+000  +8.8595238953E-001 +1.1338188817E+001 
18559.473 +8.8930308663E-001 +1.1274888689E+001  +1.1654322684E-001 +8.9913812308E+000  +1.1730856861E-001 +8.6302936958E+000  +8.8728498085E-001 +1.1242464222E+001 
18695.653 +8.9058154739E-001 +1.1194763860E+001  +1.1675322055E-001 +8.9924699381E+000  +1.1750725611E-001 +8.6512445537E+000  +8.8865897123E-001 +1.1171665078E+001 
18832.831 +8.9193363474E-001 +1.1097864185E+001  +1.1700595186E-001 +9.0107769268E+000  +1.1764987470E-001 +8.6411109702E+000  +8.9002031613E-001 +1.1073580042E+001 
18971.016 +8.9315156776E-001 +1.1005880439E+001  +1.1712804238E-001 +8.9312978428E+000  +1.1785951279E-001 +8.6551484004E+000  +8.9131161391E-001 +1.0991590697E+001 
19110.215 +8.9445051334E-001 +1.0933041725E+001  +1.1741081319E-001 +8.9366752897E+000  +1.1806480136E-001 +8.6572525798E+000  +8.9213689337E-001 +1.0916871783E+001 
19250.435 +8.9499380630E-001 +1.0888539951E+001  +1.1748585005E-001 +8.9261439287E+000  +1.1834385006E-001 +8.6039022360E+000  +8.9296317371E-001 +1.0857986612E+001 
19391.685 +8.9605415506E-001 +1.0848952277E+001  +1.1782056518E-001 +8.9664658003E+000  +1.1842592827E-001 +8.6347941639E+000  +8.9391758619E-001 +1.0823632637E+001 
19533.970 +8.9697328115E-001 +1.0795922843E+001  +1.1777903109E-001 +8.9509764547E+000  +1.1865904105E-001 +8.6596848919E+000  +8.9476713139E-001 +1.0769320759E+001 
19677.300 +8.9791712901E-001 +1.0742856211E+001  +1.1796427924E-001 +8.9395211714E+000  +1.1885472533E-001 +8.6455488545E+000  +8.9579200837E-001 +1.0711524272E+001 
19821.681 +8.9871696816E-001 +1.0701534647E+001  +1.1815705040E-001 +8.9663356680E+000  +1.1903808149E-001 +8.6629946342E+000  +8.9646457978E-001 +1.0680967637E+001 
19967.122 +8.9958396917E-001 +1.0655332398E+001  +1.1828602589E-001 +8.9332376842E+000  +1.1918649487E-001 +8.6491310889E+000  +8.9737358572E-001 +1.0629725564E+001 
20113.629 +9.0038822462E-001 +1.0598205588E+001  +1.1850710473E-001 +8.9184665261E+000  +1.1930493893E-001 +8.6450497099E+000  +8.9813630968E-001 +1.0585206746E+001 
20261.212 +9.0121984078E-001 +1.0560562670E+001  +1.1869849650E-001 +8.9387790958E+000  +1.1949715435E-001 +8.6607119234E+000  +8.9901197047E-001 +1.0534695435E+001 
20409.878 +9.0204141628E-001 +1.0506806754E+001  +1.1892109352E-001 +8.9330389178E+000  +1.1974543684E-001 +8.6398756693E+000  +8.9989390985E-001 +1.0488767007E+001 
20559.634 +9.0310674031E-001 +1.0461388231E+001  +1.1906008772E-001 +8.9452040189E+000  +1.1997011854E-001 +8.6315827491E+000  +9.0053575062E-001 +1.0437676059E+001 
20710.490 +9.0385155086E-001 +1.0397689686E+001  +1.1913640484E-001 +8.9123641632E+000  +1.2002256262E-001 +8.6679129660E+000  +9.0143462984E-001 +1.0382095448E+001 
20862.452 +9.0451449605E-001 +1.0344685890E+001  +1.1928482487E-001 +8.9236549109E+000  +1.2006725048E-001 +8.6707292779E+000  +9.0231543048E-001 +1.0328433461E+001 
21015.529 +9.0531991686E-001 +1.0286926203E+001  +1.1957422656E-001 +8.8814771440E+000  +1.2039032716E-001 +8.6337715882E+000  +9.0303912567E-001 +1.0281180455E+001 
