!  2-Port S-parameters saved by WinCal
! VAR MeasName=S-Parameters (CALIBRATED_DATA) read from VNA (P5004A)
! VAR MeasDate=26/04/2024 19:13:18
! VAR NAME=Wafer2_r1_c3_fullform_log
! VAR FILENAME=Wafer2_r1_c3_fullform_log_1.S2P
! VAR DATE=26/04/2024 19:13:18
! VAR PHYS_PORTS=1,2
! VAR ObjTypeName=DATASET
! VAR IndexType=Frequency
!
# Hz S MA R 50
9000.000 +7.4474751204E-001 +1.5143657271E+001  +6.1706215433E-002 +2.7416671526E+000  +6.2553281303E-002 +1.9891817723E+000  +7.4397049925E-001 +1.5071597747E+001 
9066.037 +7.4690647478E-001 +1.5204211954E+001  +6.1794276275E-002 +2.8589314628E+000  +6.2635941531E-002 +2.1506607449E+000  +7.4604708183E-001 +1.5128019701E+001 
9132.559 +7.4883972156E-001 +1.5258999644E+001  +6.1828042626E-002 +3.0233539043E+000  +6.2788291896E-002 +2.2057056744E+000  +7.4789731559E-001 +1.5182462021E+001 
9199.568 +7.5119127169E-001 +1.5325408801E+001  +6.1894519572E-002 +3.2597604309E+000  +6.2753400014E-002 +2.3611377325E+000  +7.5041915646E-001 +1.5249474839E+001 
9267.070 +7.5355491606E-001 +1.5360148690E+001  +6.2001069998E-002 +3.3702924111E+000  +6.2877326014E-002 +2.5403822237E+000  +7.5250825163E-001 +1.5286667350E+001 
9335.066 +7.5547684771E-001 +1.5438216212E+001  +6.2103413398E-002 +3.5113408866E+000  +6.2968013564E-002 +2.6103758944E+000  +7.5439012762E-001 +1.5352353529E+001 
9403.562 +7.5757645822E-001 +1.5474238874E+001  +6.2206984326E-002 +3.6238777684E+000  +6.3107019854E-002 +2.7883038302E+000  +7.5687293380E-001 +1.5398610296E+001 
9472.560 +7.5991013448E-001 +1.5516315571E+001  +6.2262403696E-002 +3.7418130701E+000  +6.3194774785E-002 +2.9452914541E+000  +7.5894120863E-001 +1.5436342557E+001 
9542.065 +7.6245240832E-001 +1.5533197193E+001  +6.2316443132E-002 +3.9192688827E+000  +6.3203483617E-002 +3.0998134249E+000  +7.6122170528E-001 +1.5444889409E+001 
9612.079 +7.6429257842E-001 +1.5586706167E+001  +6.2447755456E-002 +4.0199133979E+000  +6.3390711755E-002 +3.1653198670E+000  +7.6331940348E-001 +1.5493309847E+001 
9682.607 +7.6674197595E-001 +1.5607178813E+001  +6.2518313871E-002 +4.0991868841E+000  +6.3409797630E-002 +3.3075508772E+000  +7.6551964087E-001 +1.5515680653E+001 
9753.653 +7.6886400028E-001 +1.5640443816E+001  +6.2623696128E-002 +4.2721050164E+000  +6.3494907544E-002 +3.4536284258E+000  +7.6761236663E-001 +1.5553947209E+001 
9825.220 +7.7079720828E-001 +1.5660528448E+001  +6.2756377773E-002 +4.3887002324E+000  +6.3563860371E-002 +3.6442395643E+000  +7.6967257466E-001 +1.5588439838E+001 
9897.312 +7.7312161563E-001 +1.5679980657E+001  +6.2837571187E-002 +4.4606120350E+000  +6.3716291867E-002 +3.6410379773E+000  +7.7219762884E-001 +1.5606386918E+001 
9969.933 +7.7531881586E-001 +1.5721325976E+001  +6.2838658912E-002 +4.5722931295E+000  +6.3869851642E-002 +3.8544262096E+000  +7.7421546562E-001 +1.5650033034E+001 
10043.087 +7.7762841206E-001 +1.5737510330E+001  +6.3024026274E-002 +4.7370095600E+000  +6.3964384803E-002 +3.9102479399E+000  +7.7651937899E-001 +1.5657127813E+001 
10116.778 +7.7983018493E-001 +1.5745934946E+001  +6.3199174342E-002 +4.8350225995E+000  +6.4050095600E-002 +4.1074130416E+000  +7.7863115014E-001 +1.5681324485E+001 
10191.009 +7.8196916524E-001 +1.5780265751E+001  +6.3263698950E-002 +5.0116539769E+000  +6.4136048100E-002 +4.1498213177E+000  +7.8076700879E-001 +1.5709345483E+001 
10265.785 +7.8445646639E-001 +1.5785935832E+001  +6.3388675218E-002 +5.0922526355E+000  +6.4224910274E-002 +4.2748431896E+000  +7.8323478459E-001 +1.5715977757E+001 
10341.110 +7.8684221246E-001 +1.5807946997E+001  +6.3543003211E-002 +5.2234604561E+000  +6.4391087512E-002 +4.4065712080E+000  +7.8557559898E-001 +1.5730258518E+001 
10416.987 +7.8906921669E-001 +1.5814298784E+001  +6.3579315665E-002 +5.2718044538E+000  +6.4448212696E-002 +4.5407885652E+000  +7.8811423941E-001 +1.5734049641E+001 
10493.421 +7.9160480198E-001 +1.5818238860E+001  +6.3652650604E-002 +5.3844146304E+000  +6.4569153466E-002 +4.6316123783E+000  +7.9046636206E-001 +1.5743470047E+001 
10570.416 +7.9388853116E-001 +1.5800928620E+001  +6.3851779516E-002 +5.5217903934E+000  +6.4686677497E-002 +4.7444371999E+000  +7.9290713034E-001 +1.5743297522E+001 
10647.976 +7.9628175718E-001 +1.5828822146E+001  +6.3858170475E-002 +5.6797955567E+000  +6.4769938380E-002 +4.8505715199E+000  +7.9509716549E-001 +1.5746896343E+001 
10726.105 +7.9881243699E-001 +1.5807645794E+001  +6.3994559496E-002 +5.7859720409E+000  +6.4815369730E-002 +4.9372582601E+000  +7.9754496304E-001 +1.5739620542E+001 
10804.808 +8.0148487376E-001 +1.5803350357E+001  +6.4100391217E-002 +5.8158287264E+000  +6.4897213154E-002 +5.0588976788E+000  +8.0012281447E-001 +1.5740572702E+001 
10884.087 +8.0402908577E-001 +1.5804760175E+001  +6.4279855219E-002 +5.9483030154E+000  +6.4947326904E-002 +5.1624888617E+000  +8.0268866455E-001 +1.5737914541E+001 
10963.949 +8.0644075813E-001 +1.5772504426E+001  +6.4380261045E-002 +6.0675728652E+000  +6.5150443698E-002 +5.2559668464E+000  +8.0524954947E-001 +1.5711325482E+001 
11044.396 +8.0901383270E-001 +1.5773306543E+001  +6.4512414391E-002 +6.1756638985E+000  +6.5290793271E-002 +5.3806247428E+000  +8.0788248833E-001 +1.5707671998E+001 
11125.434 +8.1091951786E-001 +1.5772674032E+001  +6.4592941476E-002 +6.2997136347E+000  +6.5355684105E-002 +5.4903406450E+000  +8.0971912540E-001 +1.5700129119E+001 
11207.066 +8.1325833850E-001 +1.5752910329E+001  +6.4693503532E-002 +6.2752337690E+000  +6.5529676373E-002 +5.5978697837E+000  +8.1199673450E-001 +1.5685252825E+001 
11289.298 +8.1514179411E-001 +1.5749442794E+001  +6.4802959268E-002 +6.4770818862E+000  +6.5586144754E-002 +5.7276143351E+000  +8.1379594462E-001 +1.5700932988E+001 
11372.132 +8.1735329813E-001 +1.5736768471E+001  +6.4910459191E-002 +6.6042328023E+000  +6.5669820519E-002 +5.7755950986E+000  +8.1611018671E-001 +1.5677300479E+001 
11455.575 +8.1968429486E-001 +1.5730650298E+001  +6.5075879850E-002 +6.6320117900E+000  +6.5791684675E-002 +5.8526039010E+000  +8.1851350415E-001 +1.5656442144E+001 
11539.630 +8.2180405540E-001 +1.5708742839E+001  +6.5184171509E-002 +6.6988936972E+000  +6.5891938706E-002 +5.9771907127E+000  +8.2058092050E-001 +1.5648892448E+001 
11624.301 +8.2403200298E-001 +1.5678109788E+001  +6.5240936729E-002 +6.8202423296E+000  +6.6177670548E-002 +6.0803599308E+000  +8.2262724584E-001 +1.5620873697E+001 
11709.594 +8.2616335651E-001 +1.5656003000E+001  +6.5361329418E-002 +6.8991211669E+000  +6.6180174663E-002 +6.1767417103E+000  +8.2476865467E-001 +1.5599775956E+001 
11795.512 +8.2847774051E-001 +1.5641597370E+001  +6.5518368754E-002 +6.9909317050E+000  +6.6343655727E-002 +6.2642535406E+000  +8.2731879852E-001 +1.5579028953E+001 
11882.062 +8.3057867176E-001 +1.5613733416E+001  +6.5578333499E-002 +7.0501287792E+000  +6.6387208651E-002 +6.3776567887E+000  +8.2943430365E-001 +1.5562299284E+001 
11969.246 +8.3314071928E-001 +1.5571168419E+001  +6.5782427290E-002 +7.1222957603E+000  +6.6568099826E-002 +6.4036720761E+000  +8.3180944117E-001 +1.5526424064E+001 
12057.069 +8.3520450839E-001 +1.5540061332E+001  +6.5844211400E-002 +7.2204266866E+000  +6.6660529168E-002 +6.5070112209E+000  +8.3389009739E-001 +1.5489260412E+001 
12145.538 +8.3767923358E-001 +1.5496468595E+001  +6.6049518835E-002 +7.3247526025E+000  +6.6719361771E-002 +6.5766224213E+000  +8.3626573973E-001 +1.5459231275E+001 
12234.655 +8.3998359090E-001 +1.5473295420E+001  +6.6117110349E-002 +7.4135474508E+000  +6.6889957413E-002 +6.7075686590E+000  +8.3841163774E-001 +1.5416318809E+001 
12324.426 +8.4230176646E-001 +1.5426736507E+001  +6.6174851414E-002 +7.4315286047E+000  +6.6904851898E-002 +6.7599390314E+000  +8.4106653751E-001 +1.5365758705E+001 
12414.856 +8.4458228091E-001 +1.5377442233E+001  +6.6323067057E-002 +7.5305031554E+000  +6.7175591477E-002 +6.8415857708E+000  +8.4307330522E-001 +1.5323823568E+001 
12505.949 +8.4701815570E-001 +1.5336871983E+001  +6.6435887668E-002 +7.6280292322E+000  +6.7260037658E-002 +6.9407400044E+000  +8.4561787093E-001 +1.5285097175E+001 
12597.711 +8.4883547058E-001 +1.5311474205E+001  +6.6575603697E-002 +7.7244880913E+000  +6.7375801144E-002 +6.9740406236E+000  +8.4708858546E-001 +1.5257785493E+001 
12690.146 +8.5103931721E-001 +1.5276833602E+001  +6.6684167130E-002 +7.7801047486E+000  +6.7452618952E-002 +7.0371906676E+000  +8.4945238383E-001 +1.5217678707E+001 
12783.260 +8.5296317935E-001 +1.5228063231E+001  +6.6848895557E-002 +7.8420313974E+000  +6.7600161615E-002 +7.1281313911E+000  +8.5141242697E-001 +1.5189597360E+001 
12877.056 +8.5500075077E-001 +1.5195143346E+001  +6.6949466450E-002 +7.8959240382E+000  +6.7800178003E-002 +7.2574302753E+000  +8.5355544948E-001 +1.5146044647E+001 
12971.541 +8.5690726571E-001 +1.5152430441E+001  +6.7157734119E-002 +7.9859300953E+000  +6.7978722733E-002 +7.2764881273E+000  +8.5549154063E-001 +1.5099817662E+001 
13066.719 +8.5902124423E-001 +1.5107644468E+001  +6.7288939541E-002 +8.0886710480E+000  +6.8043178112E-002 +7.3782832997E+000  +8.5729354360E-001 +1.5060249029E+001 
13162.595 +8.6094103034E-001 +1.5074300210E+001  +6.7356574570E-002 +8.1224059260E+000  +6.8193886178E-002 +7.4519720746E+000  +8.5934185864E-001 +1.5029670575E+001 
13259.175 +8.6280818577E-001 +1.5024478931E+001  +6.7518513867E-002 +8.1952057216E+000  +6.8263675564E-002 +7.5566842214E+000  +8.6148995682E-001 +1.4967898825E+001 
13356.464 +8.6491606215E-001 +1.4967611945E+001  +6.7656943756E-002 +8.2072813235E+000  +6.8394948048E-002 +7.6210105566E+000  +8.6340148336E-001 +1.4915924770E+001 
13454.466 +8.6702174756E-001 +1.4920856930E+001  +6.7731503704E-002 +8.2550361841E+000  +6.8504362412E-002 +7.6644747893E+000  +8.6540699748E-001 +1.4872233098E+001 
13553.188 +8.6897529776E-001 +1.4870543540E+001  +6.7931212500E-002 +8.3377708675E+000  +6.8654028635E-002 +7.7471292092E+000  +8.6736269305E-001 +1.4816306229E+001 
13652.634 +8.7099534307E-001 +1.4821631091E+001  +6.8020482143E-002 +8.4354864191E+000  +6.8738765587E-002 +7.8331459320E+000  +8.6952570768E-001 +1.4767275182E+001 
13752.809 +8.7317205123E-001 +1.4755053397E+001  +6.8180832851E-002 +8.4808662918E+000  +6.8854733197E-002 +7.8332221491E+000  +8.7159750735E-001 +1.4711802269E+001 
13853.720 +8.7518088344E-001 +1.4683397038E+001  +6.8390912920E-002 +8.4807454976E+000  +6.8995541061E-002 +7.9492460141E+000  +8.7352002161E-001 +1.4644221813E+001 
13955.371 +8.7738059931E-001 +1.4636316268E+001  +6.8477195527E-002 +8.5651673987E+000  +6.9154618403E-002 +7.9404406580E+000  +8.7569645215E-001 +1.4589642666E+001 
14057.768 +8.7921017658E-001 +1.4570951443E+001  +6.8563870389E-002 +8.5704982539E+000  +6.9298385941E-002 +8.0277278771E+000  +8.7742075921E-001 +1.4514718360E+001 
14160.916 +8.8123332429E-001 +1.4508666635E+001  +6.8699602612E-002 +8.6610147919E+000  +6.9460769329E-002 +8.0937837306E+000  +8.7952176652E-001 +1.4459104284E+001 
14264.821 +8.8319775805E-001 +1.4440454576E+001  +6.8890206735E-002 +8.7149483929E+000  +6.9647025968E-002 +8.0945641224E+000  +8.8164832560E-001 +1.4389824619E+001 
14369.488 +8.8501587212E-001 +1.4384786090E+001  +6.9054271023E-002 +8.7788568543E+000  +6.9724946279E-002 +8.2289469166E+000  +8.8351053565E-001 +1.4344845034E+001 
14474.924 +8.8648397980E-001 +1.4326840103E+001  +6.9091037640E-002 +8.8381251601E+000  +6.9820663343E-002 +8.1995762505E+000  +8.8494714940E-001 +1.4296165445E+001 
14581.133 +8.8835251063E-001 +1.4293288438E+001  +6.9318724816E-002 +8.8617742139E+000  +6.9971509180E-002 +8.2887634640E+000  +8.8674317610E-001 +1.4243075512E+001 
14688.121 +8.8966506199E-001 +1.4251517332E+001  +6.9390321951E-002 +8.9250022050E+000  +7.0120961208E-002 +8.2936005156E+000  +8.8802102430E-001 +1.4200634210E+001 
14795.895 +8.9114661900E-001 +1.4197437478E+001  +6.9572761878E-002 +8.9496552620E+000  +7.0250172116E-002 +8.3437928012E+000  +8.8971630957E-001 +1.4142155007E+001 
14904.459 +8.9287600695E-001 +1.4134079720E+001  +6.9688565049E-002 +8.9957499940E+000  +7.0354459848E-002 +8.3795968359E+000  +8.9107439392E-001 +1.4097165002E+001 
15013.820 +8.9446937545E-001 +1.4091081425E+001  +6.9907068587E-002 +9.0272244119E+000  +7.0540729483E-002 +8.4868332454E+000  +8.9281717741E-001 +1.4048028263E+001 
15123.983 +8.9606349853E-001 +1.4051095104E+001  +6.9909585067E-002 +9.0209009853E+000  +7.0696934267E-002 +8.5219018736E+000  +8.9436243613E-001 +1.4012318223E+001 
15234.954 +8.9770014658E-001 +1.3988891975E+001  +7.0125317561E-002 +9.0934459960E+000  +7.0762273032E-002 +8.5579682365E+000  +8.9609242516E-001 +1.3942447380E+001 
15346.740 +8.9912404762E-001 +1.3929731259E+001  +7.0268709941E-002 +9.1363171381E+000  +7.0885296549E-002 +8.5872219503E+000  +8.9764524919E-001 +1.3891378762E+001 
15459.346 +9.0049496079E-001 +1.3882386148E+001  +7.0416898578E-002 +9.1454836840E+000  +7.1070261832E-002 +8.5940706689E+000  +8.9922371508E-001 +1.3849217696E+001 
15572.778 +9.0231288095E-001 +1.3826223287E+001  +7.0588501195E-002 +9.2502205397E+000  +7.1143917716E-002 +8.6732904452E+000  +9.0048599231E-001 +1.3798232841E+001 
15687.043 +9.0379098285E-001 +1.3766151808E+001  +7.0720855426E-002 +9.2503058906E+000  +7.1322177727E-002 +8.6996863367E+000  +9.0211962252E-001 +1.3726510122E+001 
15802.146 +9.0565061233E-001 +1.3697083678E+001  +7.0862112273E-002 +9.2367904429E+000  +7.1403449919E-002 +8.6775105964E+000  +9.0385778847E-001 +1.3656379684E+001 
15918.093 +9.0698146112E-001 +1.3634305099E+001  +7.0900806728E-002 +9.2641003916E+000  +7.1536180454E-002 +8.8203891598E+000  +9.0536982750E-001 +1.3609082740E+001 
16034.892 +9.0869630082E-001 +1.3562189328E+001  +7.1166158701E-002 +9.2969961815E+000  +7.1684595759E-002 +8.8058676108E+000  +9.0689709410E-001 +1.3543726264E+001 
16152.547 +9.1006992914E-001 +1.3508477913E+001  +7.1267350455E-002 +9.3478885311E+000  +7.1930517533E-002 +8.8344701891E+000  +9.0848946728E-001 +1.3477477325E+001 
16271.065 +9.1171975256E-001 +1.3443406705E+001  +7.1398050790E-002 +9.3555545835E+000  +7.2018729561E-002 +8.8526744196E+000  +9.1013434296E-001 +1.3408306457E+001 
16390.454 +9.1318976395E-001 +1.3365181494E+001  +7.1553034962E-002 +9.4077059278E+000  +7.2154605606E-002 +8.9388233701E+000  +9.1141655088E-001 +1.3341074611E+001 
16510.718 +9.1454379081E-001 +1.3310381178E+001  +7.1623656800E-002 +9.4268010271E+000  +7.2256451766E-002 +8.9293713519E+000  +9.1312147504E-001 +1.3267907307E+001 
16631.864 +9.1621476865E-001 +1.3218307077E+001  +7.1802347486E-002 +9.4133455629E+000  +7.2412723993E-002 +9.0110498674E+000  +9.1461979980E-001 +1.3197958784E+001 
16753.900 +9.1768279407E-001 +1.3167594316E+001  +7.1942739347E-002 +9.4688121743E+000  +7.2608757549E-002 +8.9850537657E+000  +9.1623127094E-001 +1.3141073666E+001 
16876.831 +9.1924202425E-001 +1.3085994186E+001  +7.2060426915E-002 +9.4969142193E+000  +7.2757272569E-002 +8.9735411562E+000  +9.1754217305E-001 +1.3050105946E+001 
17000.664 +9.2089085905E-001 +1.3013737691E+001  +7.2218482410E-002 +9.5393491018E+000  +7.2923341010E-002 +9.0973516565E+000  +9.1925939430E-001 +1.2989836698E+001 
17125.405 +9.2231405246E-001 +1.2947816821E+001  +7.2415772946E-002 +9.5329344360E+000  +7.3037934597E-002 +9.0594954613E+000  +9.2070108279E-001 +1.2916871814E+001 
17251.062 +9.2395076421E-001 +1.2845827025E+001  +7.2594850951E-002 +9.5241790469E+000  +7.3142241835E-002 +9.0600972832E+000  +9.2208322632E-001 +1.2828575646E+001 
17377.641 +9.2531670601E-001 +1.2776938808E+001  +7.2724402253E-002 +9.4903610516E+000  +7.3263541206E-002 +9.0548935111E+000  +9.2376071314E-001 +1.2742292492E+001 
17505.149 +9.2684020825E-001 +1.2700862494E+001  +7.2923380681E-002 +9.5649448196E+000  +7.3353204159E-002 +9.0888274195E+000  +9.2521416533E-001 +1.2681222551E+001 
17633.592 +9.2820440279E-001 +1.2619197220E+001  +7.2981968600E-002 +9.5686126992E+000  +7.3614827064E-002 +9.1216446352E+000  +9.2663206137E-001 +1.2590499081E+001 
17762.977 +9.2967639331E-001 +1.2517832517E+001  +7.3130610961E-002 +9.5432562031E+000  +7.3681993024E-002 +9.1043737265E+000  +9.2828052492E-001 +1.2510784967E+001 
17893.312 +9.3121570284E-001 +1.2452154976E+001  +7.3276265062E-002 +9.5807049579E+000  +7.3894252083E-002 +9.1280748342E+000  +9.2958141274E-001 +1.2423859939E+001 
18024.604 +9.3281958173E-001 +1.2355424170E+001  +7.3473851274E-002 +9.5689923989E+000  +7.4030397464E-002 +9.1429190349E+000  +9.3132715405E-001 +1.2330484498E+001 
18156.858 +9.3445833106E-001 +1.2275095504E+001  +7.3559262450E-002 +9.5771645638E+000  +7.4106699871E-002 +9.1431011163E+000  +9.3272088257E-001 +1.2251356305E+001 
18290.084 +9.3577537427E-001 +1.2183769320E+001  +7.3694905190E-002 +9.5261602218E+000  +7.4313109271E-002 +9.1638578106E+000  +9.3407289655E-001 +1.2157418239E+001 
18424.286 +9.3731087188E-001 +1.2098661206E+001  +7.3755904521E-002 +9.5617064476E+000  +7.4411020638E-002 +9.1714811917E+000  +9.3560480239E-001 +1.2074424553E+001 
18559.473 +9.3876135106E-001 +1.1988919200E+001  +7.3957222759E-002 +9.5036786787E+000  +7.4601802193E-002 +9.1525748472E+000  +9.3715310633E-001 +1.1959457721E+001 
18695.653 +9.4016361195E-001 +1.1915318936E+001  +7.4069508364E-002 +9.5750701747E+000  +7.4717226088E-002 +9.1897009124E+000  +9.3859936770E-001 +1.1885796231E+001 
18832.831 +9.4156297634E-001 +1.1800561945E+001  +7.4253076153E-002 +9.5039491367E+000  +7.4812469268E-002 +9.1352054517E+000  +9.4009354606E-001 +1.1784618995E+001 
18971.016 +9.4300462432E-001 +1.1689164127E+001  +7.4442909480E-002 +9.4972883999E+000  +7.4986294830E-002 +9.1709416919E+000  +9.4154227380E-001 +1.1688871235E+001 
19110.215 +9.4432082734E-001 +1.1624464328E+001  +7.4554707112E-002 +9.5268971749E+000  +7.5189954973E-002 +9.1655393684E+000  +9.4241042028E-001 +1.1602107996E+001 
19250.435 +9.4509375711E-001 +1.1566498162E+001  +7.4677314864E-002 +9.4581336375E+000  +7.5296908758E-002 +9.0934264550E+000  +9.4346450261E-001 +1.1549908873E+001 
19391.685 +9.4619963643E-001 +1.1527836916E+001  +7.4826892488E-002 +9.4866652711E+000  +7.5358058912E-002 +9.1860883072E+000  +9.4446194973E-001 +1.1502143642E+001 
19533.970 +9.4696254819E-001 +1.1468048352E+001  +7.4938638001E-002 +9.5150717775E+000  +7.5508623212E-002 +9.1637233442E+000  +9.4537922511E-001 +1.1446763244E+001 
19677.300 +9.4805295588E-001 +1.1406297696E+001  +7.5047269679E-002 +9.5282316453E+000  +7.5604446934E-002 +9.1688308304E+000  +9.4647182448E-001 +1.1394577322E+001 
19821.681 +9.4902038684E-001 +1.1368811801E+001  +7.5156016235E-002 +9.5071867416E+000  +7.5709617318E-002 +9.1643844424E+000  +9.4733008061E-001 +1.1349058673E+001 
19967.122 +9.4989476208E-001 +1.1315280533E+001  +7.5200004904E-002 +9.4699955525E+000  +7.5889309410E-002 +9.1626540477E+000  +9.4817538393E-001 +1.1287699727E+001 
20113.629 +9.5077312478E-001 +1.1255684499E+001  +7.5328233464E-002 +9.4878206150E+000  +7.6023831546E-002 +9.1928909467E+000  +9.4905725205E-001 +1.1246926700E+001 
20261.212 +9.5178393005E-001 +1.1199890650E+001  +7.5491529251E-002 +9.5103454310E+000  +7.6108191532E-002 +9.1947929204E+000  +9.4989854701E-001 +1.1188537049E+001 
20409.878 +9.5284394724E-001 +1.1141530636E+001  +7.5611555980E-002 +9.4853104572E+000  +7.6260365565E-002 +9.1640196530E+000  +9.5095066534E-001 +1.1129679460E+001 
20559.634 +9.5370463604E-001 +1.1094544968E+001  +7.5757300880E-002 +9.5136867651E+000  +7.6334002187E-002 +9.1693973883E+000  +9.5189040054E-001 +1.1084118557E+001 
20710.490 +9.5447269294E-001 +1.1032680789E+001  +7.5908205251E-002 +9.5112867215E+000  +7.6453529320E-002 +9.1721181014E+000  +9.5275300220E-001 +1.1018897956E+001 
20862.452 +9.5518720275E-001 +1.0976564826E+001  +7.5979593239E-002 +9.4716551595E+000  +7.6539671503E-002 +9.1364996086E+000  +9.5353765994E-001 +1.0957165842E+001 
21015.529 +9.5622659140E-001 +1.0904342054E+001  +7.6150098898E-002 +9.4627903797E+000  +7.6683918673E-002 +9.1892831847E+000  +9.5445638201E-001 +1.0905402198E+001 
