!  2-Port S-parameters saved by WinCal
! VAR MeasName=S-Parameters (CALIBRATED_DATA) read from VNA (P5004A)
! VAR MeasDate=26/04/2024 18:16:41
! VAR NAME=Wafer2_r1_c6_pristine_log
! VAR FILENAME=Wafer2_r1_c6_pristine_log_1.S2P
! VAR DATE=26/04/2024 18:16:41
! VAR PHYS_PORTS=1,2
! VAR ObjTypeName=DATASET
! VAR IndexType=Frequency
!
# Hz S MA R 50
9000.000 +7.9767211678E-001 +1.7315325789E+001  +1.8384507753E-005 +1.8538065155E+001  +1.1014182570E-005 +7.7288960681E-001  +7.9770737366E-001 +1.7309423108E+001 
9066.037 +8.0034858341E-001 +1.7369445943E+001  +7.1369316014E-006 -4.6463553063E+001  +1.2626628734E-005 -5.6568687574E+001  +8.0029339123E-001 +1.7361271366E+001 
9132.559 +8.0265147544E-001 +1.7424081492E+001  +4.0126414627E-005 +1.2605357542E+002  +1.3163893997E-005 +1.0602852507E+002  +8.0242192610E-001 +1.7418047251E+001 
9199.568 +8.0538624009E-001 +1.7490633269E+001  +4.9806937729E-006 -1.1144076779E+002  +3.6359895083E-005 +1.4535046171E+000  +8.0532539723E-001 +1.7489355183E+001 
9267.070 +8.0808941130E-001 +1.7519504862E+001  +2.4871248392E-005 -9.4540085978E+000  +1.3794289807E-005 +1.2935030304E+002  +8.0783662049E-001 +1.7507670933E+001 
9335.066 +8.1049947073E-001 +1.7589279519E+001  +2.7578131455E-005 -8.1810947291E+001  +7.5677139134E-006 +8.6865382910E+001  +8.1025898527E-001 +1.7586991366E+001 
9403.562 +8.1311375287E-001 +1.7638105926E+001  +1.0723482406E-005 -8.0152462900E+001  +4.0018393681E-005 -5.3357445918E+001  +8.1316217941E-001 +1.7628071906E+001 
9472.560 +8.1589482541E-001 +1.7671439106E+001  +2.1602255010E-005 -2.4661467668E+000  +1.0372752216E-006 -1.7680845746E+002  +8.1565644711E-001 +1.7654788968E+001 
9542.065 +8.1874230411E-001 +1.7678191594E+001  +2.4706679294E-005 +1.1306436207E+002  +2.8627037865E-005 +1.4822771283E+001  +8.1849483979E-001 +1.7672382746E+001 
9612.079 +8.2098336108E-001 +1.7724804577E+001  +3.4724826031E-005 -1.4302552840E+002  +4.8935514323E-005 +6.8432366101E+001  +8.2099015083E-001 +1.7704510255E+001 
9682.607 +8.2376220682E-001 +1.7742623305E+001  +4.0202507625E-006 +4.0870607253E-001  +2.4721902805E-005 +1.1940640097E+002  +8.2363564964E-001 +1.7727265261E+001 
9753.653 +8.2632914672E-001 +1.7778711955E+001  +9.6112465305E-006 -6.0090809449E+001  +3.7253993825E-005 +1.2023542067E+002  +8.2615620359E-001 +1.7758231929E+001 
9825.220 +8.2870176697E-001 +1.7796679663E+001  +2.2953710125E-005 -9.6825649589E+000  +2.3656531199E-005 +7.2049878167E+001  +8.2846937436E-001 +1.7787690699E+001 
9897.312 +8.3150105499E-001 +1.7804443540E+001  +6.6315170762E-006 +1.4752466882E+002  +1.6455582900E-005 +1.2682425572E+002  +8.3145701508E-001 +1.7796684689E+001 
9969.933 +8.3405274501E-001 +1.7838210124E+001  +3.2335413446E-005 -8.1491518776E+001  +9.3247078725E-006 -1.5285922886E+002  +8.3400123783E-001 +1.7836785061E+001 
10043.087 +8.3689436336E-001 +1.7852930944E+001  +2.5500209890E-005 -1.2851989269E+002  +1.8977739027E-005 +9.5952508998E+001  +8.3682217928E-001 +1.7848434615E+001 
10116.778 +8.3951465764E-001 +1.7858468046E+001  +3.4687157228E-005 +6.9452806760E+001  +1.9431964871E-005 +5.1153542439E+001  +8.3929453022E-001 +1.7854338706E+001 
10191.009 +8.4199654182E-001 +1.7885254998E+001  +2.5541369460E-005 -1.1605870395E+002  +1.2464722769E-005 +6.7814742456E+001  +8.4183579797E-001 +1.7879501390E+001 
10265.785 +8.4501521048E-001 +1.7894087780E+001  +1.2263028575E-005 +9.7672164549E+001  +1.8362410207E-005 -5.1654648313E+001  +8.4474848160E-001 +1.7874005245E+001 
10341.110 +8.4788781991E-001 +1.7897981174E+001  +1.6166822375E-005 -4.5292505157E+001  +1.3207280469E-005 +1.6924933685E+001  +8.4763807518E-001 +1.7891015316E+001 
10416.987 +8.5058522797E-001 +1.7895941610E+001  +9.7653603712E-006 +1.1040935189E+002  +3.4837618698E-006 -1.3772934414E+002  +8.5056706723E-001 +1.7892505622E+001 
10493.421 +8.5351457266E-001 +1.7886712169E+001  +1.0534505651E-005 +1.6349421498E+002  +9.6629901196E-006 -1.2600663907E+002  +8.5336576190E-001 +1.7885018777E+001 
10570.416 +8.5619661537E-001 +1.7874179650E+001  +6.0896941874E-006 -1.4635819446E+002  +3.5583736197E-005 +9.6366744267E+001  +8.5626615032E-001 +1.7867334131E+001 
10647.976 +8.5893093078E-001 +1.7892461606E+001  +3.1680764362E-005 +6.9733085076E+000  +6.5305823246E-006 +9.5478464561E+001  +8.5900619454E-001 +1.7878579913E+001 
10726.105 +8.6214404892E-001 +1.7869742232E+001  +3.6129519237E-005 +1.5171197038E+002  +1.0949639649E-005 -1.3551705309E+002  +8.6186886694E-001 +1.7868708408E+001 
10804.808 +8.6504976789E-001 +1.7852829285E+001  +1.8762073093E-005 -1.4542751320E+002  +3.9003956508E-005 -4.4953314248E+001  +8.6502749108E-001 +1.7844692045E+001 
10884.087 +8.6814488539E-001 +1.7842265940E+001  +2.3801307426E-005 -7.1754532600E+001  +1.7354457589E-005 +1.0323742753E+001  +8.6799536873E-001 +1.7832018198E+001 
10963.949 +8.7106458565E-001 +1.7805742173E+001  +2.7803377381E-005 +1.3689011332E+002  +2.8508339410E-005 +1.3737363983E+002  +8.7100056956E-001 +1.7805247677E+001 
11044.396 +8.7396055198E-001 +1.7794095949E+001  +4.1296444426E-005 +1.1819901403E+002  +2.4259951615E-005 +8.0100355029E+001  +8.7405034057E-001 +1.7799379908E+001 
11125.434 +8.7637594766E-001 +1.7791851556E+001  +1.5259660523E-005 -1.1690887705E+002  +1.9916807796E-005 -5.1786611848E+001  +8.7650056863E-001 +1.7775992263E+001 
11207.066 +8.7906543791E-001 +1.7769653281E+001  +3.2961284385E-006 +5.2344523253E+001  +3.1153867772E-005 +1.1768949293E+002  +8.7906128094E-001 +1.7755678400E+001 
11289.298 +8.8135074696E-001 +1.7760940351E+001  +1.2225768504E-005 +8.7800502519E+001  +2.1189506562E-005 +8.8109374745E+001  +8.8130889542E-001 +1.7767193189E+001 
11372.132 +8.8418593236E-001 +1.7727195934E+001  +3.6231474599E-005 -1.7534438209E+002  +1.8559203584E-005 +2.3324464204E+001  +8.8412706483E-001 +1.7729913849E+001 
11455.575 +8.8686259806E-001 +1.7712553732E+001  +3.4036555116E-005 +5.0142731521E+001  +1.2350510007E-005 -1.2295216766E+002  +8.8678903352E-001 +1.7709430745E+001 
11539.630 +8.8934603113E-001 +1.7693295120E+001  +2.5516547420E-005 +1.0339246956E+002  +1.6172054639E-005 +5.5562649593E+001  +8.8922971038E-001 +1.7689905378E+001 
11624.301 +8.9204110133E-001 +1.7658847695E+001  +2.1843882966E-005 +4.3038991374E+001  +3.1700250161E-006 -7.9410113753E+001  +8.9191360240E-001 +1.7644651159E+001 
11709.594 +8.9454184631E-001 +1.7619395465E+001  +8.4012211777E-006 -1.1273562496E+002  +4.1190425627E-006 -1.5928996694E+002  +8.9447343094E-001 +1.7619849882E+001 
11795.512 +8.9731968680E-001 +1.7585782480E+001  +2.1972166679E-005 +3.0741376201E+001  +9.2065451243E-006 -1.7281121413E+002  +8.9735930961E-001 +1.7597728429E+001 
11882.062 +8.9986200459E-001 +1.7556537439E+001  +7.0342117159E-006 +1.5366530780E+002  +1.9579214910E-005 +5.9028780599E+001  +8.9993487453E-001 +1.7559312553E+001 
11969.246 +9.0288358604E-001 +1.7520355606E+001  +8.0395194277E-006 -1.3148930582E+002  +1.4663883588E-005 +1.3266967316E+002  +9.0296490465E-001 +1.7511018850E+001 
12057.069 +9.0529811644E-001 +1.7464782193E+001  +2.0945398990E-005 +8.3651299726E+001  +1.9367701712E-005 +7.4208254172E+001  +9.0529178614E-001 +1.7457398471E+001 
12145.538 +9.0824134345E-001 +1.7408199506E+001  +1.8685957705E-005 -7.7642307513E+001  +4.4305376700E-005 +1.1162801296E+002  +9.0813114715E-001 +1.7428775557E+001 
12234.655 +9.1088214704E-001 +1.7379278481E+001  +4.1926306271E-005 -1.0825509679E+002  +2.8182640914E-005 +1.7969349423E+002  +9.1080010215E-001 +1.7382571531E+001 
12324.426 +9.1361095685E-001 +1.7314308512E+001  +4.0837489698E-005 +1.5132518299E+002  +1.8861609905E-005 +1.7193118819E+002  +9.1380427502E-001 +1.7315192194E+001 
12414.856 +9.1622856769E-001 +1.7265111520E+001  +3.9591892406E-005 +1.6131699776E+002  +1.3098822570E-005 -9.0592367909E+001  +9.1625654487E-001 +1.7258319061E+001 
12505.949 +9.1934566496E-001 +1.7207102898E+001  +2.2109255169E-005 -1.0942190681E+002  +2.7016742591E-005 +2.8883898633E+001  +9.1930608208E-001 +1.7212710637E+001 
12597.711 +9.2128740101E-001 +1.7177742520E+001  +1.2493535736E-005 +7.4781989205E+001  +1.2244172198E-005 +2.2542351540E+001  +9.2113482798E-001 +1.7170214292E+001 
12690.146 +9.2396845879E-001 +1.7129284051E+001  +2.7333959245E-005 +3.6037657168E+001  +2.8730940622E-005 +4.6424929367E+001  +9.2395561002E-001 +1.7132057197E+001 
12783.260 +9.2633701189E-001 +1.7077701385E+001  +2.8090669551E-005 -5.8945869417E+001  +1.3609487340E-005 -1.1012466199E+002  +9.2616676092E-001 +1.7076126851E+001 
12877.056 +9.2871853812E-001 +1.7027827650E+001  +3.3691506275E-005 +2.6831378525E+001  +1.9683890359E-005 +7.9487320245E+000  +9.2882274887E-001 +1.7027347037E+001 
12971.541 +9.3133240109E-001 +1.6980316613E+001  +3.1857727279E-005 +1.5963467491E+002  +2.2673142880E-005 -1.7504438253E+002  +9.3106042031E-001 +1.6977011184E+001 
13066.719 +9.3330358691E-001 +1.6915309253E+001  +1.5332488836E-005 +3.6055642591E+001  +1.0487974938E-005 +1.3757991876E+002  +9.3321964831E-001 +1.6917480860E+001 
13162.595 +9.3589578565E-001 +1.6871463697E+001  +3.4692167361E-005 +4.4871170281E+001  +1.9967323497E-005 -1.7870351007E+002  +9.3569545707E-001 +1.6873974955E+001 
13259.175 +9.3821609533E-001 +1.6813684728E+001  +6.9564719770E-006 +1.2164313879E+002  +2.8462444385E-005 +1.4916664788E+002  +9.3837899632E-001 +1.6814391667E+001 
13356.464 +9.4058417913E-001 +1.6753422946E+001  +7.4593691513E-006 +1.6594027321E+002  +5.1593353282E-005 -5.3782038515E+000  +9.4054029086E-001 +1.6749239520E+001 
13454.466 +9.4312812544E-001 +1.6683861901E+001  +1.6709858884E-005 +1.5582322283E+002  +1.6613356674E-005 +1.7476802018E+002  +9.4296199710E-001 +1.6676482515E+001 
13553.188 +9.4541027877E-001 +1.6622569067E+001  +4.3181230467E-005 -2.8572388899E+001  +3.4913515763E-005 -1.4520551755E+001  +9.4517642272E-001 +1.6619531236E+001 
13652.634 +9.4776401517E-001 +1.6561025730E+001  +2.7305281972E-005 -1.7564723415E+002  +8.8541874961E-006 +1.4782368519E+002  +9.4774949961E-001 +1.6550486441E+001 
13752.809 +9.5027514841E-001 +1.6490249354E+001  +2.4164065863E-005 +8.8452079781E+001  +1.2232754403E-005 -1.4953381479E+002  +9.5021204236E-001 +1.6481698113E+001 
13853.720 +9.5269825706E-001 +1.6409802282E+001  +3.7914139765E-005 +5.0543004104E+001  +1.0812856207E-005 -1.2702618331E+002  +9.5282885430E-001 +1.6406120184E+001 
13955.371 +9.5538311858E-001 +1.6352825723E+001  +2.5931980985E-005 +1.5451154977E+002  +3.2292313149E-005 +3.6419833142E+001  +9.5513269507E-001 +1.6338844972E+001 
14057.768 +9.5738441974E-001 +1.6261636546E+001  +2.8999451310E-005 +1.6338468822E+002  +2.8878351722E-005 +7.0656760951E+000  +9.5735424687E-001 +1.6250129733E+001 
14160.916 +9.6000311547E-001 +1.6188170618E+001  +4.2552354409E-005 +1.6613740270E+001  +3.0394520721E-005 +4.8251216252E+001  +9.5974777130E-001 +1.6184046138E+001 
14264.821 +9.6235030975E-001 +1.6113987660E+001  +1.5032440117E-005 +8.7160389500E+001  +2.5354181775E-005 -1.3165978588E+002  +9.6224403124E-001 +1.6109997506E+001 
14369.488 +9.6446290260E-001 +1.6042989869E+001  +2.1213324512E-005 +1.7659213143E+002  +1.8423205559E-005 -3.9309944876E+000  +9.6446559618E-001 +1.6039202373E+001 
14474.924 +9.6624053646E-001 +1.5984185518E+001  +6.7954972463E-006 -1.6501155126E+002  +2.4230036934E-005 -1.3811223153E+002  +9.6612222212E-001 +1.5985658567E+001 
14581.133 +9.6840401481E-001 +1.5928341954E+001  +1.7902422864E-005 +6.4733050862E+001  +4.4737316636E-005 +1.3093926614E+001  +9.6827430990E-001 +1.5924209083E+001 
14688.121 +9.6995666914E-001 +1.5883377705E+001  +3.2795652303E-005 -5.3180840684E+000  +2.0374893341E-005 -6.1275482125E+001  +9.6988976243E-001 +1.5872674321E+001 
14795.895 +9.7179269249E-001 +1.5827506334E+001  +1.0358007969E-005 -1.0875916480E+002  +2.6630355213E-005 +1.1958041778E+002  +9.7190305989E-001 +1.5819071452E+001 
14904.459 +9.7387486180E-001 +1.5751465474E+001  +2.4522926737E-005 +8.5264394522E+001  +1.5100139099E-005 +1.5193813019E+002  +9.7371618376E-001 +1.5754886195E+001 
15013.820 +9.7581625593E-001 +1.5698095746E+001  +2.2589040074E-005 +1.1346049313E+002  +1.9177676937E-005 +9.4582210703E+001  +9.7571049101E-001 +1.5692697164E+001 
15123.983 +9.7773899504E-001 +1.5645624341E+001  +1.9713753872E-005 +1.0953490260E-001  +1.9165166048E-005 +1.4320440303E+002  +9.7747324594E-001 +1.5639283765E+001 
15234.954 +9.7955834914E-001 +1.5568439379E+001  +2.2624927397E-005 +1.1092252657E+002  +2.2730185295E-005 -3.2762396009E+000  +9.7944513120E-001 +1.5570273784E+001 
15346.740 +9.8131507034E-001 +1.5500134424E+001  +1.1774606208E-005 -1.1714522432E+002  +1.5612433994E-005 -1.5808937105E+002  +9.8130339917E-001 +1.5498015662E+001 
15459.346 +9.8315906950E-001 +1.5452007701E+001  +2.0879252437E-005 -6.1699138079E+001  +5.9442909546E-005 +1.3228926447E+002  +9.8338725658E-001 +1.5443128280E+001 
15572.778 +9.8519819614E-001 +1.5378056104E+001  +2.0557821907E-005 +1.4561341760E+002  +2.8954520030E-005 +1.1899342711E+002  +9.8485095560E-001 +1.5378001824E+001 
15687.043 +9.8696202981E-001 +1.5303934135E+001  +1.6411298530E-005 +6.9683021840E+001  +3.0348712319E-005 -1.4593277118E+002  +9.8695013467E-001 +1.5309039782E+001 
15802.146 +9.8884892470E-001 +1.5230779675E+001  +4.0689711408E-006 -5.5753971174E+001  +1.5154210705E-005 +8.7740743227E+001  +9.8880941151E-001 +1.5218513738E+001 
15918.093 +9.9053998932E-001 +1.5152771587E+001  +1.3725028395E-005 -1.2050403729E+002  +1.3597891185E-005 +1.0487373057E+002  +9.9057540181E-001 +1.5153700963E+001 
16034.892 +9.9240212109E-001 +1.5072722066E+001  +3.3903907039E-005 +8.5241882597E+001  +3.5447088676E-005 +9.3107646911E+001  +9.9252082056E-001 +1.5078661073E+001 
16152.547 +9.9440796694E-001 +1.5002352133E+001  +5.7075457910E-005 -1.8055212405E+001  +2.2904373325E-005 -1.1639195980E+002  +9.9426289098E-001 +1.5006119949E+001 
16271.065 +9.9615716350E-001 +1.4926414842E+001  +5.9732517486E-005 -1.2409227531E+001  +1.4134832514E-005 -1.5641685401E+002  +9.9615948935E-001 +1.4923056525E+001 
16390.454 +9.9804730425E-001 +1.4848265659E+001  +1.3163643886E-005 -7.4196443575E+001  +1.2274670659E-005 -1.1922463701E+002  +9.9780022807E-001 +1.4849109315E+001 
16510.718 +9.9980139232E-001 +1.4770637612E+001  +2.1101532521E-005 +7.6269829032E+001  +1.9048983972E-005 +4.9284041309E+001  +9.9964475774E-001 +1.4758303981E+001 
16631.864 +1.0016791460E+000 +1.4683576856E+001  +2.7587477133E-005 +1.0364198041E+002  +3.4273458482E-005 +1.7174491236E+002  +1.0015087707E+000 +1.4672998549E+001 
16753.900 +1.0035087420E+000 +1.4602508774E+001  +1.3962462949E-005 +1.1344052047E+002  +2.1761710500E-005 +1.0861131217E+002  +1.0033802772E+000 +1.4600582664E+001 
16876.831 +1.0052481160E+000 +1.4511885205E+001  +2.3060897177E-005 +1.4751581141E+002  +3.5760246009E-005 +5.9245981025E+001  +1.0051587945E+000 +1.4509244336E+001 
17000.664 +1.0072291340E+000 +1.4423503149E+001  +4.0463804165E-005 -1.2132546100E+002  +6.2960328984E-006 -6.7051265996E+001  +1.0072141071E+000 +1.4432944786E+001 
17125.405 +1.0087959961E+000 +1.4349123095E+001  +2.5299974364E-005 +6.5633225436E+001  +4.3847350376E-005 +1.2190300275E+002  +1.0087000013E+000 +1.4343544415E+001 
17251.062 +1.0107388808E+000 +1.4234786273E+001  +2.5463515091E-005 +1.6154510927E+002  +2.2638525697E-005 +1.1984617124E+002  +1.0105066303E+000 +1.4244899977E+001 
17377.641 +1.0125006711E+000 +1.4157566150E+001  +9.0214070619E-006 +1.7893702824E+001  +3.0850357333E-005 +3.6086302196E+001  +1.0123201449E+000 +1.4143742966E+001 
17505.149 +1.0142259355E+000 +1.4062926341E+001  +5.4913908067E-005 +9.7523041513E+001  +3.9442460810E-005 +1.1002138679E+002  +1.0140471339E+000 +1.4060224960E+001 
17633.592 +1.0158479500E+000 +1.3967745847E+001  +2.9786737951E-005 +1.3774215382E+002  +2.4715185597E-005 -1.4898246875E+001  +1.0157632623E+000 +1.3962774990E+001 
17762.977 +1.0175477927E+000 +1.3865366265E+001  +2.1676736623E-005 +1.3634532376E+002  +2.1743002487E-005 +8.2608878248E+001  +1.0175590619E+000 +1.3861578206E+001 
17893.312 +1.0190655366E+000 +1.3774857931E+001  +7.6453863403E-006 -1.0064497894E+002  +3.2125096467E-005 +3.4934450520E+001  +1.0192512047E+000 +1.3770430301E+001 
18024.604 +1.0210844951E+000 +1.3673544345E+001  +3.7041320086E-005 -1.6809974478E+001  +1.0069067386E-005 -1.8856247701E+001  +1.0212256226E+000 +1.3667044160E+001 
18156.858 +1.0230220927E+000 +1.3573644378E+001  +5.3327799735E-005 +7.6154863541E+001  +3.4707037238E-005 -1.7462417576E+002  +1.0228608221E+000 +1.3569217973E+001 
18290.084 +1.0244716508E+000 +1.3468439774E+001  +3.6361605120E-005 +8.5907822367E+001  +2.5273743080E-005 -1.1686324741E+002  +1.0244890609E+000 +1.3461082159E+001 
18424.286 +1.0262879932E+000 +1.3366855000E+001  +3.5116955218E-005 -3.0212549939E+001  +8.6765413105E-006 -2.8559181912E+001  +1.0260832706E+000 +1.3368069600E+001 
18559.473 +1.0279984673E+000 +1.3247791953E+001  +2.8196092910E-005 +1.4787441124E+002  +3.5484775519E-005 -1.7655795310E+002  +1.0279614151E+000 +1.3239278150E+001 
18695.653 +1.0297033813E+000 +1.3151181657E+001  +2.0134698272E-005 +7.3110993750E+001  +3.6200726945E-005 -1.6222061439E+002  +1.0297526739E+000 +1.3149159817E+001 
18832.831 +1.0313335561E+000 +1.3034451834E+001  +1.7292316744E-005 +1.4177277163E+002  +5.8025676791E-005 +1.0734082393E+002  +1.0314168955E+000 +1.3030049459E+001 
18971.016 +1.0328466700E+000 +1.2910930002E+001  +3.5273507407E-006 -1.0354439574E+002  +3.1482214626E-005 +4.2258851044E+001  +1.0329277585E+000 +1.2919983463E+001 
19110.215 +1.0343307650E+000 +1.2820708685E+001  +2.0332721914E-005 +5.7002093910E+001  +2.0947098468E-005 +8.1298053181E+001  +1.0341129293E+000 +1.2824375771E+001 
19250.435 +1.0353829645E+000 +1.2768950872E+001  +2.7149525819E-005 -6.9464706251E+001  +3.9035397427E-005 +1.7437523911E+002  +1.0352267283E+000 +1.2759000789E+001 
19391.685 +1.0366267352E+000 +1.2710702698E+001  +5.1770743097E-005 -8.2082234229E+001  +3.4974006640E-005 +5.5753271043E+001  +1.0365464789E+000 +1.2708853593E+001 
19533.970 +1.0375635897E+000 +1.2645534841E+001  +3.4316122508E-005 +1.0675727214E+001  +3.9526648466E-005 +3.4671356495E+001  +1.0377988813E+000 +1.2650160491E+001 
19677.300 +1.0388640588E+000 +1.2582628192E+001  +2.4101847173E-005 -1.6733706800E+002  +1.5150590842E-005 -9.1059085892E+001  +1.0388603671E+000 +1.2573262098E+001 
19821.681 +1.0398769774E+000 +1.2522726152E+001  +1.8657629520E-005 +1.2270107693E+002  +1.5899100225E-005 -8.8417243399E+001  +1.0398464559E+000 +1.2520031490E+001 
19967.122 +1.0409447634E+000 +1.2457348879E+001  +7.6298978807E-006 +1.1827889745E+002  +8.1005565887E-006 -3.8670197369E+001  +1.0408365881E+000 +1.2461118204E+001 
20113.629 +1.0419835675E+000 +1.2397280907E+001  +4.2882858202E-005 -3.2140710951E+001  +2.0477932558E-005 -1.6815651464E+002  +1.0420153776E+000 +1.2400841008E+001 
20261.212 +1.0429509318E+000 +1.2339729040E+001  +4.2639056382E-005 +1.5658074611E+002  +2.8958943631E-005 +1.3110698059E+002  +1.0430129407E+000 +1.2339151451E+001 
20409.878 +1.0443035773E+000 +1.2268052561E+001  +4.6698019782E-005 +6.1701290890E+001  +1.1082150706E-005 -1.1895174485E+002  +1.0440618710E+000 +1.2272045759E+001 
20559.634 +1.0452943980E+000 +1.2214145748E+001  +1.0809877843E-005 +1.7977287635E+002  +5.0949869728E-005 -4.8586852966E-001  +1.0451620447E+000 +1.2207622524E+001 
20710.490 +1.0463674411E+000 +1.2133497588E+001  +2.8967987370E-005 +1.0463950807E+002  +1.8748157743E-005 +8.5836800568E+001  +1.0461935590E+000 +1.2133993177E+001 
20862.452 +1.0472746368E+000 +1.2071879343E+001  +5.4732739165E-005 -1.0379404671E+002  +2.3212324951E-005 +4.5746538668E+000  +1.0471275088E+000 +1.2070541077E+001 
21015.529 +1.0483632286E+000 +1.1997318399E+001  +1.8995133497E-005 +1.1916152919E+002  +1.7564187491E-005 -6.0601451448E+001  +1.0481337865E+000 +1.2003033356E+001 
