!  2-Port S-parameters saved by WinCal
! VAR MeasName=S-Parameters (CALIBRATED_DATA) read from VNA (P5004A)
! VAR MeasDate=26/04/2024 19:11:42
! VAR NAME=Wafer2_r1_c5_fullform_log
! VAR FILENAME=Wafer2_r1_c5_fullform_log_1.S2P
! VAR DATE=26/04/2024 19:11:42
! VAR PHYS_PORTS=1,2
! VAR ObjTypeName=DATASET
! VAR IndexType=Frequency
!
# Hz S MA R 50
9000.000 +7.8372885993E-001 +1.6744876181E+001  +1.5896451130E-002 +2.2312047743E+000  +1.6213012280E-002 +1.1289670690E+000  +7.8343457814E-001 +1.6707996897E+001 
9066.037 +7.8625183230E-001 +1.6793361350E+001  +1.5936209723E-002 +2.3579982297E+000  +1.6243330866E-002 +1.4488114282E+000  +7.8579215786E-001 +1.6768762203E+001 
9132.559 +7.8837564099E-001 +1.6850839459E+001  +1.5918840332E-002 +2.4069884184E+000  +1.6249249493E-002 +1.4366877713E+000  +7.8789518681E-001 +1.6822502545E+001 
9199.568 +7.9091741302E-001 +1.6923938699E+001  +1.5935980721E-002 +2.7758132594E+000  +1.6222777305E-002 +1.7699286810E+000  +7.9067198455E-001 +1.6898231825E+001 
9267.070 +7.9361970888E-001 +1.6951287594E+001  +1.5984500084E-002 +2.8697749698E+000  +1.6292615827E-002 +1.9026730793E+000  +7.9315010428E-001 +1.6921913659E+001 
9335.066 +7.9575735873E-001 +1.7016383538E+001  +1.6019502061E-002 +2.9619691989E+000  +1.6270733612E-002 +1.9534681363E+000  +7.9541555106E-001 +1.6989815366E+001 
9403.562 +7.9842092733E-001 +1.7063951315E+001  +1.6049971531E-002 +3.1829551081E+000  +1.6352272455E-002 +2.3963658294E+000  +7.9814199743E-001 +1.7036039572E+001 
9472.560 +8.0104930239E-001 +1.7105854067E+001  +1.6022574140E-002 +3.3972918047E+000  +1.6369203680E-002 +2.3674909203E+000  +8.0066592190E-001 +1.7063495970E+001 
9542.065 +8.0381629603E-001 +1.7108264048E+001  +1.6028684674E-002 +3.3821802582E+000  +1.6361991049E-002 +2.8389628316E+000  +8.0323914619E-001 +1.7077865579E+001 
9612.079 +8.0594641448E-001 +1.7154758198E+001  +1.6052318319E-002 +3.5857919221E+000  +1.6387329025E-002 +2.7018700853E+000  +8.0567033988E-001 +1.7118582014E+001 
9682.607 +8.0867023479E-001 +1.7176866640E+001  +1.6073114795E-002 +3.7607503891E+000  +1.6346380084E-002 +2.8277644236E+000  +8.0819873804E-001 +1.7143359503E+001 
9753.653 +8.1107653817E-001 +1.7221314755E+001  +1.6115596748E-002 +3.9781338196E+000  +1.6441868144E-002 +2.9146280143E+000  +8.1073196798E-001 +1.7172021236E+001 
9825.220 +8.1341992034E-001 +1.7234255070E+001  +1.6100423744E-002 +4.0205859157E+000  +1.6492186030E-002 +3.0297273112E+000  +8.1282549180E-001 +1.7193848984E+001 
9897.312 +8.1609269570E-001 +1.7240135372E+001  +1.6212815844E-002 +4.4230054673E+000  +1.6519093818E-002 +3.2562956085E+000  +8.1573577487E-001 +1.7214477431E+001 
9969.933 +8.1844915844E-001 +1.7273451554E+001  +1.6214602299E-002 +4.2281649545E+000  +1.6488940648E-002 +3.1731704833E+000  +8.1804541250E-001 +1.7258440624E+001 
10043.087 +8.2131963516E-001 +1.7300717424E+001  +1.6294130592E-002 +4.2315591451E+000  +1.6499246420E-002 +3.5884750904E+000  +8.2067191798E-001 +1.7273855222E+001 
10116.778 +8.2360156924E-001 +1.7297641255E+001  +1.6297705315E-002 +4.5214247425E+000  +1.6595537354E-002 +3.5486405403E+000  +8.2303107583E-001 +1.7275600421E+001 
10191.009 +8.2608559617E-001 +1.7327498418E+001  +1.6379632594E-002 +4.5724217491E+000  +1.6577178682E-002 +3.6301513559E+000  +8.2559876171E-001 +1.7296053762E+001 
10265.785 +8.2896105264E-001 +1.7330580377E+001  +1.6324637443E-002 +4.9189712921E+000  +1.6657910109E-002 +4.0383297359E+000  +8.2832466164E-001 +1.7301516994E+001 
10341.110 +8.3170672606E-001 +1.7346459812E+001  +1.6381943362E-002 +4.7952181398E+000  +1.6600922444E-002 +4.0168152747E+000  +8.3104792204E-001 +1.7311469130E+001 
10416.987 +8.3430073814E-001 +1.7342230284E+001  +1.6434398746E-002 +4.9553865633E+000  +1.6691545492E-002 +4.1563616024E+000  +8.3386707891E-001 +1.7320028974E+001 
10493.421 +8.3701383268E-001 +1.7336836115E+001  +1.6430596287E-002 +5.0991975696E+000  +1.6725875302E-002 +4.2451404894E+000  +8.3659175341E-001 +1.7320669352E+001 
10570.416 +8.3967037532E-001 +1.7326522520E+001  +1.6496859454E-002 +5.3140573591E+000  +1.6746846703E-002 +4.4212522000E+000  +8.3927303041E-001 +1.7304841789E+001 
10647.976 +8.4230328035E-001 +1.7344122016E+001  +1.6508878594E-002 +5.1816775130E+000  +1.6733359026E-002 +4.4581960925E+000  +8.4197047542E-001 +1.7308620608E+001 
10726.105 +8.4534565718E-001 +1.7324458395E+001  +1.6556274907E-002 +5.5464876529E+000  +1.6765571624E-002 +4.7250280352E+000  +8.4465786547E-001 +1.7303213956E+001 
10804.808 +8.4829313127E-001 +1.7306211812E+001  +1.6513480290E-002 +5.6276302769E+000  +1.6774959905E-002 +4.8265185454E+000  +8.4772917547E-001 +1.7287415219E+001 
10884.087 +8.5110638845E-001 +1.7303336823E+001  +1.6620433283E-002 +5.7801161568E+000  +1.6825318218E-002 +5.2899672266E+000  +8.5065824540E-001 +1.7283722860E+001 
10963.949 +8.5390895139E-001 +1.7264195544E+001  +1.6642842046E-002 +6.0645954865E+000  +1.6843142673E-002 +4.9679510282E+000  +8.5356638230E-001 +1.7254602099E+001 
11044.396 +8.5666059030E-001 +1.7252679361E+001  +1.6598205336E-002 +6.0584435638E+000  +1.6913355991E-002 +5.4206929709E+000  +8.5643988699E-001 +1.7247298145E+001 
11125.434 +8.5896698769E-001 +1.7254688571E+001  +1.6656151487E-002 +6.3424745529E+000  +1.6917298979E-002 +5.4435106930E+000  +8.5851434973E-001 +1.7229925146E+001 
11207.066 +8.6149589370E-001 +1.7236350632E+001  +1.6672459132E-002 +6.2572790201E+000  +1.6969738783E-002 +5.3418259252E+000  +8.6121601129E-001 +1.7208187944E+001 
11289.298 +8.6379446362E-001 +1.7228953753E+001  +1.6690895801E-002 +6.3061407795E+000  +1.6977335584E-002 +5.5273245914E+000  +8.6331576689E-001 +1.7217787294E+001 
11372.132 +8.6629835570E-001 +1.7206384690E+001  +1.6772497966E-002 +6.4703666262E+000  +1.7016197685E-002 +5.6090212659E+000  +8.6586781299E-001 +1.7180899708E+001 
11455.575 +8.6900696388E-001 +1.7187458491E+001  +1.6787120858E-002 +6.7910494500E+000  +1.7048133951E-002 +5.6649492161E+000  +8.6848671102E-001 +1.7172473526E+001 
11539.630 +8.7146164425E-001 +1.7169527714E+001  +1.6830663537E-002 +6.5366227556E+000  +1.7029398113E-002 +5.8061313809E+000  +8.7101322321E-001 +1.7146043116E+001 
11624.301 +8.7391374611E-001 +1.7131455499E+001  +1.6847495397E-002 +6.8409506037E+000  +1.7126597779E-002 +6.1229939444E+000  +8.7334619103E-001 +1.7117849774E+001 
11709.594 +8.7642025423E-001 +1.7105315657E+001  +1.6871031791E-002 +6.8161605481E+000  +1.7131008754E-002 +6.0973947919E+000  +8.7585657300E-001 +1.7085463630E+001 
11795.512 +8.7894598344E-001 +1.7072726735E+001  +1.6859458786E-002 +6.9583547495E+000  +1.7149939946E-002 +6.2902716329E+000  +8.7856829044E-001 +1.7059555806E+001 
11882.062 +8.8160120519E-001 +1.7047839431E+001  +1.6927560643E-002 +7.2573692091E+000  +1.7189759121E-002 +6.2839818009E+000  +8.8101470751E-001 +1.7023421892E+001 
11969.246 +8.8441869099E-001 +1.7003126350E+001  +1.6946115224E-002 +7.0483135863E+000  +1.7235432021E-002 +6.3349788619E+000  +8.8406426553E-001 +1.6979459615E+001 
12057.069 +8.8678063722E-001 +1.6956413854E+001  +1.6949157461E-002 +7.2263410638E+000  +1.7270539942E-002 +6.4732220968E+000  +8.8612732605E-001 +1.6944857249E+001 
12145.538 +8.8948936314E-001 +1.6909105215E+001  +1.7008218168E-002 +7.2282921569E+000  +1.7312179992E-002 +6.6644049481E+000  +8.8876505294E-001 +1.6900508588E+001 
12234.655 +8.9210277648E-001 +1.6875539864E+001  +1.7071123276E-002 +7.5927663721E+000  +1.7398570848E-002 +6.7479400770E+000  +8.9141520248E-001 +1.6850660615E+001 
12324.426 +8.9474278658E-001 +1.6811530836E+001  +1.7129200791E-002 +7.4831383127E+000  +1.7365303800E-002 +6.8555422683E+000  +8.9431015453E-001 +1.6809006878E+001 
12414.856 +8.9735557188E-001 +1.6773089322E+001  +1.7121316338E-002 +7.6418088490E+000  +1.7380242145E-002 +6.8622584146E+000  +8.9670573073E-001 +1.6746242687E+001 
12505.949 +9.0026441075E-001 +1.6717104830E+001  +1.7162848679E-002 +7.7679840498E+000  +1.7423299661E-002 +7.0844841529E+000  +8.9960629867E-001 +1.6702308747E+001 
12597.711 +9.0187547335E-001 +1.6689632787E+001  +1.7192389165E-002 +8.0687963249E+000  +1.7500667606E-002 +7.0767409875E+000  +9.0134337844E-001 +1.6662842883E+001 
12690.146 +9.0456356635E-001 +1.6642886013E+001  +1.7277087327E-002 +7.8444611336E+000  +1.7483981138E-002 +7.1302850382E+000  +9.0393627926E-001 +1.6624563448E+001 
12783.260 +9.0687687417E-001 +1.6591095287E+001  +1.7297367199E-002 +8.1227585806E+000  +1.7540872249E-002 +7.2165235938E+000  +9.0611150123E-001 +1.6578350119E+001 
12877.056 +9.0907508634E-001 +1.6548210232E+001  +1.7310564902E-002 +8.1557388847E+000  +1.7613137479E-002 +7.5040353331E+000  +9.0867188491E-001 +1.6524674365E+001 
12971.541 +9.1158009032E-001 +1.6501244133E+001  +1.7376628839E-002 +8.2453030057E+000  +1.7583575361E-002 +7.5096977215E+000  +9.1077634541E-001 +1.6478215716E+001 
13066.719 +9.1354736512E-001 +1.6443314879E+001  +1.7386526373E-002 +8.3062325904E+000  +1.7660570181E-002 +7.4684676432E+000  +9.1273239433E-001 +1.6427158267E+001 
13162.595 +9.1595732587E-001 +1.6391362048E+001  +1.7404048426E-002 +8.2335624113E+000  +1.7643279777E-002 +7.6096836269E+000  +9.1522873300E-001 +1.6388347739E+001 
13259.175 +9.1821268349E-001 +1.6344531639E+001  +1.7487500647E-002 +8.3809032961E+000  +1.7667068451E-002 +7.6081768228E+000  +9.1773601331E-001 +1.6324737764E+001 
13356.464 +9.2046273652E-001 +1.6288405740E+001  +1.7528647067E-002 +8.4826076891E+000  +1.7745473084E-002 +7.7038146313E+000  +9.1993489557E-001 +1.6254789024E+001 
13454.466 +9.2286614610E-001 +1.6222054749E+001  +1.7551184357E-002 +8.7093400016E+000  +1.7756222682E-002 +7.9396983096E+000  +9.2218377676E-001 +1.6202324974E+001 
13553.188 +9.2508188765E-001 +1.6165756753E+001  +1.7606685445E-002 +8.5520672011E+000  +1.7831167936E-002 +8.0723220569E+000  +9.2433601632E-001 +1.6143223851E+001 
13652.634 +9.2721444894E-001 +1.6110403999E+001  +1.7634011655E-002 +8.9007317256E+000  +1.7888594512E-002 +8.0371606298E+000  +9.2671258356E-001 +1.6085587609E+001 
13752.809 +9.2973594781E-001 +1.6031911820E+001  +1.7703716498E-002 +9.0030782582E+000  +1.7880951695E-002 +7.9653002886E+000  +9.2918760244E-001 +1.6014509981E+001 
13853.720 +9.3215371816E-001 +1.5958265823E+001  +1.7621243663E-002 +8.8297095444E+000  +1.7906611225E-002 +8.2102771290E+000  +9.3143622950E-001 +1.5938496169E+001 
13955.371 +9.3462239671E-001 +1.5898515697E+001  +1.7757422253E-002 +9.0316389880E+000  +1.8039153237E-002 +8.3607246676E+000  +9.3398520396E-001 +1.5873223005E+001 
14057.768 +9.3660148839E-001 +1.5814743371E+001  +1.7798876627E-002 +9.1459944401E+000  +1.8004498928E-002 +8.3283286834E+000  +9.3604175414E-001 +1.5792420285E+001 
14160.916 +9.3901491165E-001 +1.5749861894E+001  +1.7854566466E-002 +9.1772714731E+000  +1.8091719492E-002 +8.4341332884E+000  +9.3829081262E-001 +1.5728725422E+001 
14264.821 +9.4136887473E-001 +1.5672845337E+001  +1.7878544062E-002 +9.2945775020E+000  +1.8083312253E-002 +8.4114580734E+000  +9.4062997144E-001 +1.5661809901E+001 
14369.488 +9.4348594998E-001 +1.5611360986E+001  +1.7910173364E-002 +9.0684179452E+000  +1.8119828878E-002 +8.5490021795E+000  +9.4275529059E-001 +1.5595129636E+001 
14474.924 +9.4506316753E-001 +1.5548625264E+001  +1.7950725150E-002 +9.3226274695E+000  +1.8171391215E-002 +8.7346155739E+000  +9.4441446639E-001 +1.5544873193E+001 
14581.133 +9.4712568641E-001 +1.5502527138E+001  +1.8002310637E-002 +9.3969137927E+000  +1.8207662202E-002 +8.7806579018E+000  +9.4648229651E-001 +1.5483216576E+001 
14688.121 +9.4860219295E-001 +1.5455441402E+001  +1.7977755337E-002 +9.3957821647E+000  +1.8214562116E-002 +8.7300384197E+000  +9.4800815950E-001 +1.5432351709E+001 
14795.895 +9.5031762706E-001 +1.5397327991E+001  +1.8041399433E-002 +9.4250600900E+000  +1.8314307767E-002 +8.8092748843E+000  +9.4980595488E-001 +1.5375844845E+001 
14904.459 +9.5229375078E-001 +1.5321981835E+001  +1.8104076545E-002 +9.3368623594E+000  +1.8300986678E-002 +8.8438834369E+000  +9.5152814731E-001 +1.5310811142E+001 
15013.820 +9.5405929775E-001 +1.5262415291E+001  +1.8119712693E-002 +9.3992925469E+000  +1.8364724447E-002 +8.8153423316E+000  +9.5352984828E-001 +1.5264124077E+001 
15123.983 +9.5587929371E-001 +1.5226101978E+001  +1.8207236868E-002 +9.6869870284E+000  +1.8415888957E-002 +9.0791264356E+000  +9.5523528249E-001 +1.5215474364E+001 
15234.954 +9.5772375446E-001 +1.5152510041E+001  +1.8203231076E-002 +9.8009228681E+000  +1.8439941350E-002 +9.0285284998E+000  +9.5707712908E-001 +1.5136702098E+001 
15346.740 +9.5932171133E-001 +1.5095684874E+001  +1.8235890014E-002 +9.5805267008E+000  +1.8419549969E-002 +9.0353599883E+000  +9.5898924386E-001 +1.5073402117E+001 
15459.346 +9.6116895857E-001 +1.5039074903E+001  +1.8343745932E-002 +9.8030186981E+000  +1.8468385741E-002 +9.0940512951E+000  +9.6075619284E-001 +1.5025042491E+001 
15572.778 +9.6302379771E-001 +1.4971469786E+001  +1.8315566875E-002 +9.7651428853E+000  +1.8485390921E-002 +9.1422073706E+000  +9.6225411388E-001 +1.4957645704E+001 
15687.043 +9.6483811308E-001 +1.4896324501E+001  +1.8383299107E-002 +9.7535878300E+000  +1.8544690957E-002 +9.1418468562E+000  +9.6418412117E-001 +1.4892694672E+001 
15802.146 +9.6674601215E-001 +1.4817566899E+001  +1.8418936330E-002 +9.8372329498E+000  +1.8593851767E-002 +9.3897253382E+000  +9.6606492726E-001 +1.4808514265E+001 
15918.093 +9.6833430690E-001 +1.4756795312E+001  +1.8445104259E-002 +9.8390358241E+000  +1.8658824980E-002 +9.3025866982E+000  +9.6766232845E-001 +1.4735733234E+001 
16034.892 +9.7026043379E-001 +1.4676061846E+001  +1.8422094643E-002 +9.9741811168E+000  +1.8759219923E-002 +9.3360059083E+000  +9.6952633864E-001 +1.4667547250E+001 
16152.547 +9.7190098994E-001 +1.4613547119E+001  +1.8519805485E-002 +1.0042594020E+001  +1.8759240400E-002 +9.3891205359E+000  +9.7128889911E-001 +1.4597386930E+001 
16271.065 +9.7369927842E-001 +1.4540779387E+001  +1.8636858446E-002 +9.9661035225E+000  +1.8778844622E-002 +9.2931117159E+000  +9.7312311060E-001 +1.4521899099E+001 
16390.454 +9.7548734770E-001 +1.4461798855E+001  +1.8631519593E-002 +1.0021849928E+001  +1.8851366607E-002 +9.5288164492E+000  +9.7465689320E-001 +1.4451142404E+001 
16510.718 +9.7720085475E-001 +1.4390664040E+001  +1.8674276417E-002 +1.0081757615E+001  +1.8863428144E-002 +9.5355516010E+000  +9.7650915564E-001 +1.4359904094E+001 
16631.864 +9.7894106653E-001 +1.4299138680E+001  +1.8695160441E-002 +1.0071966590E+001  +1.8915186611E-002 +9.5782912046E+000  +9.7827892227E-001 +1.4282298330E+001 
16753.900 +9.8064945768E-001 +1.4220489672E+001  +1.8735683920E-002 +1.0147045663E+001  +1.8944277482E-002 +9.5313312509E+000  +9.8004359028E-001 +1.4219052720E+001 
16876.831 +9.8223160266E-001 +1.4140693773E+001  +1.8804903959E-002 +1.0149041605E+001  +1.9022382804E-002 +9.5347732010E+000  +9.8172098990E-001 +1.4118747640E+001 
17000.664 +9.8407405301E-001 +1.4061746578E+001  +1.8816695726E-002 +1.0097270075E+001  +1.8996295136E-002 +9.6264444132E+000  +9.8369858382E-001 +1.4051618535E+001 
17125.405 +9.8566145686E-001 +1.3978240436E+001  +1.8837291517E-002 +1.0279705918E+001  +1.9055711619E-002 +9.6272083324E+000  +9.8505497547E-001 +1.3969629745E+001 
17251.062 +9.8758710088E-001 +1.3869761892E+001  +1.8962593185E-002 +1.0119425518E+001  +1.9091735916E-002 +9.6095109432E+000  +9.8677880772E-001 +1.3869927701E+001 
17377.641 +9.8919734051E-001 +1.3790091044E+001  +1.8964296166E-002 +1.0176185357E+001  +1.9104217620E-002 +9.7608293545E+000  +9.8855195205E-001 +1.3771865594E+001 
17505.149 +9.9099824127E-001 +1.3706513744E+001  +1.9034089401E-002 +1.0278735562E+001  +1.9197107891E-002 +9.7540447336E+000  +9.9015391878E-001 +1.3695068206E+001 
17633.592 +9.9253142976E-001 +1.3608413832E+001  +1.9047413302E-002 +1.0138606674E+001  +1.9249725272E-002 +9.7748149976E+000  +9.9191182740E-001 +1.3604969180E+001 
17762.977 +9.9415010936E-001 +1.3509900611E+001  +1.9078742619E-002 +1.0255017702E+001  +1.9288104390E-002 +9.7463719444E+000  +9.9361069337E-001 +1.3506406165E+001 
17893.312 +9.9568722469E-001 +1.3434123384E+001  +1.9124648573E-002 +1.0493562287E+001  +1.9345124726E-002 +9.7317526146E+000  +9.9524869454E-001 +1.3416757966E+001 
18024.604 +9.9755830262E-001 +1.3324249724E+001  +1.9177572605E-002 +1.0224443596E+001  +1.9374662503E-002 +9.7566426266E+000  +9.9718356554E-001 +1.3315259107E+001 
18156.858 +9.9927406843E-001 +1.3239814649E+001  +1.9217364590E-002 +1.0338351005E+001  +1.9390433974E-002 +9.7512750756E+000  +9.9869287574E-001 +1.3218452350E+001 
18290.084 +1.0008915419E+000 +1.3126551993E+001  +1.9292688417E-002 +1.0360386970E+001  +1.9475738763E-002 +9.8206867400E+000  +1.0002321260E+000 +1.3122445640E+001 
18424.286 +1.0026062982E+000 +1.3037163348E+001  +1.9283744984E-002 +1.0258207066E+001  +1.9471249363E-002 +9.7934989195E+000  +1.0020424029E+000 +1.3026874691E+001 
18559.473 +1.0041117648E+000 +1.2917477539E+001  +1.9378911139E-002 +1.0207001605E+001  +1.9524104090E-002 +9.9302106586E+000  +1.0037070688E+000 +1.2907293492E+001 
18695.653 +1.0057424743E+000 +1.2827037267E+001  +1.9367622851E-002 +1.0316239611E+001  +1.9556746139E-002 +9.8248198029E+000  +1.0053600780E+000 +1.2812073129E+001 
18832.831 +1.0074656304E+000 +1.2711387897E+001  +1.9460546892E-002 +1.0231582783E+001  +1.9562421608E-002 +9.8062369757E+000  +1.0069530922E+000 +1.2705387547E+001 
18971.016 +1.0088711209E+000 +1.2590540851E+001  +1.9483042297E-002 +1.0210099552E+001  +1.9622201367E-002 +9.9509911055E+000  +1.0085397439E+000 +1.2596925502E+001 
19110.215 +1.0103100663E+000 +1.2516356925E+001  +1.9533321497E-002 +1.0186708909E+001  +1.9706527256E-002 +9.9385430901E+000  +1.0096469462E+000 +1.2505506442E+001 
19250.435 +1.0113360096E+000 +1.2452333149E+001  +1.9512052485E-002 +1.0282851858E+001  +1.9798771327E-002 +1.0018985387E+001  +1.0108083001E+000 +1.2447831958E+001 
19391.685 +1.0125516385E+000 +1.2393651962E+001  +1.9618520042E-002 +1.0384542057E+001  +1.9810940434E-002 +9.6715009512E+000  +1.0118547611E+000 +1.2394041921E+001 
19533.970 +1.0132965671E+000 +1.2340441186E+001  +1.9646853677E-002 +1.0254679728E+001  +1.9824481396E-002 +9.8933966022E+000  +1.0128978126E+000 +1.2331565442E+001 
19677.300 +1.0146727584E+000 +1.2273967934E+001  +1.9641700917E-002 +1.0150409764E+001  +1.9883076416E-002 +9.8599188858E+000  +1.0141498850E+000 +1.2266031877E+001 
19821.681 +1.0156202925E+000 +1.2219716574E+001  +1.9722952899E-002 +1.0359885327E+001  +1.9839298384E-002 +9.7426198508E+000  +1.0150997472E+000 +1.2219979910E+001 
19967.122 +1.0166324685E+000 +1.2163737094E+001  +1.9753696283E-002 +1.0425567998E+001  +1.9874812309E-002 +1.0011934284E+001  +1.0161812959E+000 +1.2147928993E+001 
20113.629 +1.0176001607E+000 +1.2098015521E+001  +1.9728923420E-002 +1.0331243846E+001  +1.9902717325E-002 +9.9988251490E+000  +1.0170214577E+000 +1.2093666519E+001 
20261.212 +1.0187367885E+000 +1.2033995874E+001  +1.9821684278E-002 +1.0383208847E+001  +2.0039467026E-002 +9.9000629205E+000  +1.0181514961E+000 +1.2030266416E+001 
20409.878 +1.0197580469E+000 +1.1976151405E+001  +1.9843052213E-002 +1.0321704108E+001  +1.9996269825E-002 +9.8532042322E+000  +1.0191608465E+000 +1.1967148840E+001 
20559.634 +1.0208993534E+000 +1.1918513854E+001  +1.9840977313E-002 +1.0449351761E+001  +2.0036408412E-002 +1.0104497503E+001  +1.0202732853E+000 +1.1914797745E+001 
20710.490 +1.0217410786E+000 +1.1844459487E+001  +1.9981868743E-002 +1.0324967968E+001  +2.0098300577E-002 +9.9534949667E+000  +1.0211232959E+000 +1.1843465618E+001 
20862.452 +1.0227739751E+000 +1.1782599209E+001  +1.9982630695E-002 +1.0349505961E+001  +2.0118527081E-002 +9.8961746412E+000  +1.0219945776E+000 +1.1774011356E+001 
21015.529 +1.0238642426E+000 +1.1711269590E+001  +2.0028845916E-002 +1.0269293583E+001  +2.0166652753E-002 +9.7879040480E+000  +1.0231369343E+000 +1.1713667039E+001 
