!  2-Port S-parameters saved by WinCal
! VAR MeasName=S-Parameters (CALIBRATED_DATA) read from VNA (P5004A)
! VAR MeasDate=26/04/2024 18:48:30
! VAR NAME=Wafer2_r1_c4_smallform_log
! VAR FILENAME=Wafer2_r1_c4_smallform_log_1.S2P
! VAR DATE=26/04/2024 18:48:36
! VAR PHYS_PORTS=1,2
! VAR ObjTypeName=DATASET
! VAR IndexType=Frequency
!
# Hz S MA R 50
9000.000 +7.9775416731E-001 +1.7320635212E+001  +2.5938084822E-005 -1.0766160709E+002  +1.6492218093E-005 +9.1209708779E+001  +7.9780313059E-001 +1.7305822769E+001 
9066.037 +8.0047285587E-001 +1.7370858873E+001  +1.0248524168E-005 +8.2115161217E+000  +5.0287715295E-005 -5.7740964814E-001  +8.0041761161E-001 +1.7366648640E+001 
9132.559 +8.0269304928E-001 +1.7427398650E+001  +7.4658658015E-006 +6.5906429523E+001  +4.2213182836E-005 +7.0058025934E+001  +8.0252051146E-001 +1.7430114731E+001 
9199.568 +8.0528260874E-001 +1.7490375597E+001  +1.7895910087E-005 -1.3862867958E+002  +1.5109569500E-005 +4.9818373613E+001  +8.0548606891E-001 +1.7492374171E+001 
9267.070 +8.0819711282E-001 +1.7520966286E+001  +1.7173277327E-005 +1.7403332070E+002  +2.7146400242E-005 +3.9490471348E+001  +8.0798628039E-001 +1.7515067587E+001 
9335.066 +8.1053926671E-001 +1.7587668376E+001  +1.0702920217E-005 +9.4960938793E+001  +2.5016397422E-005 +1.1503769289E+002  +8.1037252309E-001 +1.7583710866E+001 
9403.562 +8.1324273635E-001 +1.7642058848E+001  +3.0055612812E-005 +8.2199587161E+001  +1.1137155007E-005 -8.3872536969E+001  +8.1325377586E-001 +1.7622893020E+001 
9472.560 +8.1585163721E-001 +1.7673116016E+001  +3.7228467265E-006 +4.0488895291E+001  +1.5912021586E-005 +1.3808727388E+002  +8.1584683142E-001 +1.7649773650E+001 
9542.065 +8.1875178193E-001 +1.7678761645E+001  +9.9096556233E-006 +5.4496044108E+001  +3.0601398712E-005 -1.4762963549E+002  +8.1855062580E-001 +1.7675718850E+001 
9612.079 +8.2104818863E-001 +1.7718190762E+001  +3.4645091141E-005 +5.1088944316E+000  +1.6346064521E-005 +3.4863519680E+001  +8.2114640405E-001 +1.7710339800E+001 
9682.607 +8.2374032307E-001 +1.7744028793E+001  +2.0629005599E-005 +7.0242219455E+000  +4.4415276208E-005 -7.5319812445E+001  +8.2371029798E-001 +1.7730232343E+001 
9753.653 +8.2639747397E-001 +1.7780790603E+001  +2.4317956948E-005 +1.7455563621E+001  +2.1034686760E-005 -3.5775059885E+001  +8.2628273569E-001 +1.7763498551E+001 
9825.220 +8.2886102874E-001 +1.7795980109E+001  +2.8672607485E-005 +5.9214150540E+001  +2.2383644577E-005 -8.1983954537E+001  +8.2853410939E-001 +1.7791713119E+001 
9897.312 +8.3160333016E-001 +1.7805057455E+001  +1.3853509881E-005 +1.2245993910E+002  +2.7064544968E-005 +1.7700899425E+002  +8.3158520095E-001 +1.7798333128E+001 
9969.933 +8.3414550069E-001 +1.7842037071E+001  +2.1027727325E-005 -5.8557249544E+001  +3.0538574684E-005 -1.5622346749E+002  +8.3404839298E-001 +1.7834848048E+001 
10043.087 +8.3694027985E-001 +1.7861384142E+001  +1.3531616496E-005 +9.1717975154E+001  +2.2698900752E-005 +1.4003720988E+002  +8.3673927546E-001 +1.7848581728E+001 
10116.778 +8.3963530151E-001 +1.7862400702E+001  +3.9573180645E-005 +1.4907162658E+002  +7.7993392318E-006 -1.0715528277E+002  +8.3934542771E-001 +1.7856923552E+001 
10191.009 +8.4213323710E-001 +1.7883796305E+001  +3.4291927599E-005 +1.3417363486E+002  +4.5069390407E-005 +1.1867508666E+002  +8.4202545846E-001 +1.7874061856E+001 
10265.785 +8.4498655628E-001 +1.7886779666E+001  +1.1908166328E-005 +3.1332889236E+001  +3.7680751006E-006 -1.4753694063E+002  +8.4486593217E-001 +1.7876235899E+001 
10341.110 +8.4800257397E-001 +1.7899148478E+001  +3.2858968285E-005 -2.3520816536E+001  +8.1658963052E-006 -2.6845339272E+001  +8.4776529805E-001 +1.7894663321E+001 
10416.987 +8.5061109034E-001 +1.7892974273E+001  +4.5925688490E-005 +1.1968856566E+002  +1.4988479631E-005 -5.6131680295E+001  +8.5053115365E-001 +1.7896041938E+001 
10493.421 +8.5345228653E-001 +1.7888021754E+001  +4.8387187476E-005 +1.4533798668E+002  +9.9710019713E-006 +6.7505269094E+001  +8.5337684218E-001 +1.7884053337E+001 
10570.416 +8.5630914052E-001 +1.7881750065E+001  +7.3521569119E-006 -1.0705789627E+002  +2.6120110951E-005 +1.7379259499E+002  +8.5628741738E-001 +1.7872995516E+001 
10647.976 +8.5899349247E-001 +1.7886648472E+001  +3.2215495044E-005 +1.5432484646E+002  +1.9545182663E-005 -1.3468837481E+002  +8.5897734610E-001 +1.7872458253E+001 
10726.105 +8.6208982033E-001 +1.7875603462E+001  +2.3132699535E-005 -2.7985523371E+000  +3.6708372350E-005 +8.3572811154E+001  +8.6191492392E-001 +1.7856119444E+001 
10804.808 +8.6533549246E-001 +1.7848166488E+001  +3.8038491806E-005 +2.3868620768E+001  +2.9746143242E-005 -1.8295649931E+001  +8.6502695329E-001 +1.7842880697E+001 
10884.087 +8.6829294940E-001 +1.7845521352E+001  +8.3356142345E-006 +9.8039727432E+001  +2.0921602989E-005 -7.6357617020E+001  +8.6809241112E-001 +1.7837514298E+001 
10963.949 +8.7102309399E-001 +1.7807514445E+001  +3.1478618556E-005 +9.6436428701E+001  +3.1080068952E-005 +1.0323803686E+002  +8.7106876461E-001 +1.7806623640E+001 
11044.396 +8.7396956933E-001 +1.7790528747E+001  +2.7290414471E-005 +1.3012647559E+002  +1.2690596921E-005 +4.0386088016E+001  +8.7417111720E-001 +1.7800738406E+001 
11125.434 +8.7643407976E-001 +1.7783836917E+001  +2.2914919280E-005 -7.9687744406E+001  +2.9437607513E-005 +1.4737568866E+002  +8.7635744280E-001 +1.7785427686E+001 
11207.066 +8.7919667939E-001 +1.7768390896E+001  +1.4109985576E-005 +1.2609664875E+002  +4.5376681265E-005 +9.5576287091E+000  +8.7917887217E-001 +1.7754925315E+001 
11289.298 +8.8148871573E-001 +1.7760386679E+001  +5.4435064585E-005 -1.1610884675E+002  +1.6668515282E-005 +1.3293179198E+002  +8.8131120817E-001 +1.7760321271E+001 
11372.132 +8.8410466576E-001 +1.7733224867E+001  +2.5640041803E-005 +7.3437361042E+001  +3.1419663771E-005 +3.5872096215E+001  +8.8409703807E-001 +1.7719803596E+001 
11455.575 +8.8692475217E-001 +1.7713203481E+001  +1.0104938125E-005 -7.3260386876E+001  +1.8743964063E-005 +1.5998703739E+002  +8.8687873653E-001 +1.7703374368E+001 
11539.630 +8.8940437381E-001 +1.7696485267E+001  +8.7302561382E-006 +6.5145277351E+001  +2.2711100850E-005 -8.3562207053E+001  +8.8931526718E-001 +1.7682770440E+001 
11624.301 +8.9198738780E-001 +1.7650885742E+001  +3.3396240769E-005 -1.5744623342E+002  +2.9065590039E-005 +1.1142987007E+002  +8.9200162360E-001 +1.7650602817E+001 
11709.594 +8.9460902363E-001 +1.7625979720E+001  +1.7629126535E-005 +1.2238002964E+002  +3.4114535526E-005 +1.4919635796E+002  +8.9444144033E-001 +1.7618922331E+001 
11795.512 +8.9734441792E-001 +1.7595095453E+001  +2.0779288935E-005 -1.7743605446E+002  +2.6583463025E-005 +3.1689614654E+001  +8.9739923316E-001 +1.7599345334E+001 
11882.062 +8.9997311763E-001 +1.7556981931E+001  +3.8260887443E-005 +9.6431126046E+001  +4.4106548372E-005 +1.3024109876E+002  +8.9993399977E-001 +1.7567549660E+001 
11969.246 +9.0289421671E-001 +1.7513306712E+001  +1.0371564064E-005 +1.7816761681E+002  +1.3131200736E-005 -4.3839252657E+000  +9.0290187298E-001 +1.7511364655E+001 
12057.069 +9.0532100433E-001 +1.7466218710E+001  +2.1196643418E-005 +8.5280508429E+001  +1.8870056955E-005 -1.7589194340E+002  +9.0550247613E-001 +1.7466397365E+001 
12145.538 +9.0832224297E-001 +1.7414998293E+001  +1.9125094928E-005 -5.0587562353E+001  +1.8415717197E-005 -1.6546321181E+002  +9.0813172649E-001 +1.7427812206E+001 
12234.655 +9.1089754009E-001 +1.7385634351E+001  +1.0447138159E-005 +8.5755357804E+001  +4.8209215419E-005 +1.1696509407E+002  +9.1095489734E-001 +1.7377217842E+001 
12324.426 +9.1377781143E-001 +1.7315871961E+001  +1.6710501432E-005 -5.1870694361E+001  +1.9148452588E-005 -1.6334658725E+002  +9.1379641686E-001 +1.7315030669E+001 
12414.856 +9.1625477768E-001 +1.7261983177E+001  +1.0401635703E-005 +1.0074090522E+002  +1.9832576585E-005 +1.0320145197E+002  +9.1634668925E-001 +1.7251764076E+001 
12505.949 +9.1935725528E-001 +1.7205417056E+001  +2.8065193018E-005 -3.6915230713E+001  +5.3141544448E-005 +5.4477090045E+001  +9.1934184117E-001 +1.7219074783E+001 
12597.711 +9.2133817462E-001 +1.7184754956E+001  +8.5776873186E-006 +7.1131579427E+001  +1.3792821406E-005 -1.6498666167E+002  +9.2127443851E-001 +1.7175636579E+001 
12690.146 +9.2401442980E-001 +1.7126398312E+001  +2.8775960574E-005 +1.6472745047E+002  +8.8340434939E-006 +6.2365213952E+001  +9.2401423805E-001 +1.7133411815E+001 
12783.260 +9.2633505694E-001 +1.7078399963E+001  +2.4075314077E-005 +1.4072219012E+002  +2.0721816226E-005 -2.0500034337E+001  +9.2633275009E-001 +1.7082140532E+001 
12877.056 +9.2869495574E-001 +1.7035080616E+001  +4.7387828200E-006 +1.2631119646E+002  +2.0883403518E-005 +1.7158305203E+002  +9.2889543465E-001 +1.7027861916E+001 
12971.541 +9.3119444823E-001 +1.6982745557E+001  +1.9028381604E-005 +9.4551417904E+001  +7.9502908790E-006 +1.2052680916E+002  +9.3108930285E-001 +1.6977155041E+001 
13066.719 +9.3328540938E-001 +1.6916381060E+001  +2.4886133292E-005 +8.8607311601E+001  +4.0047252599E-005 +5.8759165233E+001  +9.3336014203E-001 +1.6916752689E+001 
13162.595 +9.3586190021E-001 +1.6871890763E+001  +2.4373989201E-005 +6.9228807806E+001  +6.4768418165E-006 -1.6413145784E+002  +9.3581213750E-001 +1.6878340656E+001 
13259.175 +9.3828757241E-001 +1.6816162380E+001  +1.9716360606E-005 +1.1033666644E+002  +1.2273560167E-005 +5.4531864258E+001  +9.3829293035E-001 +1.6815647150E+001 
13356.464 +9.4059907307E-001 +1.6754446602E+001  +3.8163794804E-005 +5.9007538872E+001  +3.5040346183E-005 -1.7219606012E+002  +9.4077925694E-001 +1.6746834660E+001 
13454.466 +9.4312150228E-001 +1.6678482395E+001  +2.7331629994E-005 -1.6805114124E+002  +1.8063624478E-005 -1.9983413742E+001  +9.4301495821E-001 +1.6680686511E+001 
13553.188 +9.4536273942E-001 +1.6628752601E+001  +1.7543456075E-005 -1.1859929889E+002  +3.0594107694E-005 +2.0371603162E+001  +9.4529443315E-001 +1.6615503625E+001 
13652.634 +9.4767227075E-001 +1.6564333226E+001  +2.0530931952E-005 -7.5933476442E-001  +2.7004998922E-005 +1.7864382951E+001  +9.4772025282E-001 +1.6557893304E+001 
13752.809 +9.5040516931E-001 +1.6492219800E+001  +1.7484550691E-005 +1.3221138987E+002  +1.1016925121E-005 +8.9698893030E+001  +9.5028060582E-001 +1.6485637614E+001 
13853.720 +9.5287275137E-001 +1.6408587863E+001  +4.1821493956E-005 +1.1760986645E+002  +3.0980419278E-005 +9.9283969275E+001  +9.5274819952E-001 +1.6407718310E+001 
13955.371 +9.5543843764E-001 +1.6354444988E+001  +2.1272248739E-005 +1.7430692986E+001  +3.2430506846E-005 -1.3729517046E+002  +9.5520768431E-001 +1.6344452499E+001 
14057.768 +9.5748526966E-001 +1.6263461564E+001  +1.4973307701E-005 +9.4872024860E+001  +2.7260071711E-005 -8.7860416856E+001  +9.5740668079E-001 +1.6255986629E+001 
14160.916 +9.5999474254E-001 +1.6188324950E+001  +4.6561264484E-005 +1.6403485126E+002  +1.2789331408E-005 -1.5991767518E+002  +9.5977508158E-001 +1.6188884220E+001 
14264.821 +9.6239801641E-001 +1.6112132919E+001  +2.0651168040E-005 -6.1338057112E+001  +1.2262822733E-005 -1.6200925008E+002  +9.6239055302E-001 +1.6107448516E+001 
14369.488 +9.6457944705E-001 +1.6043478507E+001  +4.1945090973E-005 +1.7672379775E+002  +3.8109183342E-005 +1.1623036875E+002  +9.6460100173E-001 +1.6045637499E+001 
14474.924 +9.6641074380E-001 +1.5983546448E+001  +3.0914028392E-005 -4.4502940602E+001  +2.2198846472E-005 -1.3665630395E+002  +9.6624967450E-001 +1.5983548680E+001 
14581.133 +9.6852833552E-001 +1.5930932953E+001  +5.3074042199E-005 +1.2102680260E+002  +2.7425300553E-005 -1.5381815506E+001  +9.6831825534E-001 +1.5927794956E+001 
14688.121 +9.7007076656E-001 +1.5881681615E+001  +1.6312560421E-005 +9.3425214179E+000  +1.7755115401E-005 +5.8435767177E+001  +9.6993193637E-001 +1.5871870768E+001 
14795.895 +9.7185061621E-001 +1.5823859173E+001  +3.6516446850E-005 -1.5613015442E+002  +1.2356931676E-005 -3.3330596548E+001  +9.7190628057E-001 +1.5813424505E+001 
14904.459 +9.7391608408E-001 +1.5747261996E+001  +1.9314642432E-005 -3.8185433046E+001  +3.9099979946E-005 -1.4931403648E+002  +9.7358308467E-001 +1.5746885615E+001 
15013.820 +9.7571293616E-001 +1.5689701092E+001  +1.8768996473E-005 +8.5730761649E+001  +2.2739687513E-005 +4.9849698274E+001  +9.7573461978E-001 +1.5695100292E+001 
15123.983 +9.7761295856E-001 +1.5653042290E+001  +2.4945940708E-005 -1.4526331525E+002  +1.0736681138E-005 +8.3678532329E+001  +9.7759739978E-001 +1.5648129915E+001 
15234.954 +9.7952924109E-001 +1.5569472926E+001  +3.1455312343E-005 -4.5588868390E+001  +3.9523756114E-005 +6.2140329522E+001  +9.7953127538E-001 +1.5568782876E+001 
15346.740 +9.8139513440E-001 +1.5511932574E+001  +3.6451202627E-005 +1.1358622351E+002  +3.2920865195E-005 -1.4577015664E+002  +9.8148904378E-001 +1.5496613825E+001 
15459.346 +9.8316374233E-001 +1.5444216749E+001  +1.0785988918E-005 -1.3474430244E+002  +5.9409499795E-006 +7.1280789442E+001  +9.8334787694E-001 +1.5443000111E+001 
15572.778 +9.8515304165E-001 +1.5377762717E+001  +6.1820694244E-005 +1.3359633798E+002  +2.7011020711E-005 -5.8059200619E+001  +9.8498181766E-001 +1.5379412446E+001 
15687.043 +9.8700585894E-001 +1.5307725608E+001  +3.8822230853E-005 -1.0107248489E+002  +4.4319826637E-006 +9.3768287089E+001  +9.8685329173E-001 +1.5300818176E+001 
15802.146 +9.8887363235E-001 +1.5228517970E+001  +8.2623202325E-006 +9.6649472556E+001  +3.5906565564E-005 -1.7644198159E+002  +9.8879766453E-001 +1.5219511415E+001 
15918.093 +9.9062054342E-001 +1.5154109991E+001  +3.1425611357E-005 -8.3144493488E+001  +1.7112961015E-005 +3.2440090915E+001  +9.9063590571E-001 +1.5153487194E+001 
16034.892 +9.9256773828E-001 +1.5081293436E+001  +6.9223754169E-006 +1.5807162812E+001  +1.6758400093E-005 +1.7245259147E+002  +9.9243299437E-001 +1.5072181466E+001 
16152.547 +9.9441689514E-001 +1.5005903087E+001  +2.5771024727E-005 -9.0725784438E+001  +4.5339251879E-005 +1.5671310716E+002  +9.9427873393E-001 +1.5005665414E+001 
16271.065 +9.9630412723E-001 +1.4930306104E+001  +1.7128359240E-005 -2.3653559978E+001  +1.6137992806E-005 +9.7191511133E+001  +9.9614652071E-001 +1.4919045693E+001 
16390.454 +9.9817831621E-001 +1.4849128370E+001  +3.0293110451E-005 +1.5228142572E+002  +3.8627022913E-005 +9.2059898572E+001  +9.9778180056E-001 +1.4854092290E+001 
16510.718 +9.9982786509E-001 +1.4770804577E+001  +3.1516105295E-006 -1.2819258749E+002  +1.0921326457E-005 +1.1617794477E+001  +9.9973461258E-001 +1.4756074861E+001 
16631.864 +1.0018758751E+000 +1.4675529982E+001  +2.5424367198E-005 +1.0604980321E+002  +1.8109355620E-005 -7.3251922428E+001  +1.0015419746E+000 +1.4673683746E+001 
16753.900 +1.0035116162E+000 +1.4597333397E+001  +1.8227920325E-005 +9.7154756695E+001  +3.9160433922E-005 +4.2917167910E+001  +1.0034559416E+000 +1.4605029840E+001 
16876.831 +1.0051291713E+000 +1.4511723935E+001  +6.4922577827E-006 -1.3319753966E+002  +4.9486553882E-005 +1.1382049225E+002  +1.0052093040E+000 +1.4507378065E+001 
17000.664 +1.0070665281E+000 +1.4427993960E+001  +1.1872495457E-005 -1.0314406957E+002  +3.6210463325E-005 +1.7974918552E+002  +1.0071519741E+000 +1.4432243885E+001 
17125.405 +1.0088630931E+000 +1.4347587509E+001  +3.8309878076E-005 +4.8559479981E+001  +3.2238591516E-005 +1.4889356109E+002  +1.0087506926E+000 +1.4344992189E+001 
17251.062 +1.0107627515E+000 +1.4233772000E+001  +3.5578375843E-005 +1.1540491296E+002  +2.0139199125E-005 -1.8565074840E+001  +1.0104765664E+000 +1.4241179010E+001 
17377.641 +1.0124609025E+000 +1.4153056696E+001  +4.1974314487E-005 +4.2271749215E+001  +1.5206600014E-005 +1.2647979627E+002  +1.0124314684E+000 +1.4141742313E+001 
17505.149 +1.0142527598E+000 +1.4058207890E+001  +2.1559254372E-005 +1.5716950523E+002  +2.4369396111E-005 +8.1314621299E+001  +1.0141397034E+000 +1.4054520336E+001 
17633.592 +1.0158185583E+000 +1.3962584112E+001  +1.1749697802E-005 -1.4692391334E+001  +1.9098542929E-005 +6.8700560887E+001  +1.0159917406E+000 +1.3963707848E+001 
17762.977 +1.0174142031E+000 +1.3855656746E+001  +3.8524460400E-005 +1.1992464138E+002  +2.4378398307E-005 +1.6955862963E+002  +1.0176012881E+000 +1.3868885853E+001 
17893.312 +1.0193374582E+000 +1.3770001001E+001  +6.7174645410E-006 +1.4497879452E+001  +3.2531923333E-005 +5.2587971266E+001  +1.0193492616E+000 +1.3769175264E+001 
18024.604 +1.0211461241E+000 +1.3675336156E+001  +3.0946716781E-005 +5.3135345248E+001  +2.9886300606E-005 -6.7903702234E+001  +1.0212078112E+000 +1.3673208550E+001 
18156.858 +1.0231385809E+000 +1.3573697857E+001  +1.1284947510E-005 -1.5877338693E+002  +1.9786277593E-005 +1.7693638830E+002  +1.0230346510E+000 +1.3572674418E+001 
18290.084 +1.0245433365E+000 +1.3463338377E+001  +6.8466274812E-005 +1.7671486703E+002  +3.3445061608E-005 -1.0066879131E+002  +1.0246068546E+000 +1.3464403027E+001 
18424.286 +1.0264218613E+000 +1.3365417047E+001  +5.7654361791E-005 +3.5534866565E+001  +4.1481503062E-005 +8.9056867171E+001  +1.0261839254E+000 +1.3360567611E+001 
18559.473 +1.0278527982E+000 +1.3247402165E+001  +2.2480982082E-005 +2.3449174945E+001  +2.7129960083E-005 -1.0235885367E+002  +1.0279606729E+000 +1.3249397989E+001 
18695.653 +1.0296600701E+000 +1.3148096907E+001  +5.8535800427E-005 +1.2442811212E+002  +2.2078848153E-005 +1.3748338757E+002  +1.0297383997E+000 +1.3144213775E+001 
18832.831 +1.0313152222E+000 +1.3037363491E+001  +2.7466494173E-005 -3.0455321689E+001  +2.4160908510E-005 +9.3326862797E+001  +1.0314566058E+000 +1.3039225576E+001 
18971.016 +1.0328969364E+000 +1.2910604598E+001  +5.1379684686E-005 +7.5158585931E+001  +4.9611023669E-005 +1.1938822444E+002  +1.0331141957E+000 +1.2917539508E+001 
19110.215 +1.0343816757E+000 +1.2829139840E+001  +1.9232355348E-005 +1.7170411919E+002  +2.2331574336E-005 +1.7343530430E+002  +1.0343328965E+000 +1.2825601101E+001 
19250.435 +1.0353343901E+000 +1.2761683905E+001  +1.5100085697E-005 +1.0992529362E+001  +4.9312846296E-006 +1.5030278917E+002  +1.0353994150E+000 +1.2755291446E+001 
19391.685 +1.0367250210E+000 +1.2706039048E+001  +2.8523677971E-005 +1.1689266297E+002  +3.2335709572E-005 -1.4429904318E+002  +1.0366402799E+000 +1.2711775790E+001 
19533.970 +1.0375822741E+000 +1.2643247386E+001  +1.3105252681E-005 -4.4265288149E+001  +9.9793492637E-006 -1.5981176916E+001  +1.0376386573E+000 +1.2641307746E+001 
19677.300 +1.0389588480E+000 +1.2575656880E+001  +6.3681149568E-006 -6.9086396077E+001  +1.5578312170E-005 +2.7724507383E+001  +1.0388794825E+000 +1.2576901097E+001 
19821.681 +1.0398624402E+000 +1.2523027696E+001  +4.7601110648E-005 -5.5342648269E+001  +3.6478719115E-005 +4.4440673578E+001  +1.0398596462E+000 +1.2523667452E+001 
19967.122 +1.0409846444E+000 +1.2466095829E+001  +3.7571882856E-005 +1.3603596112E+002  +1.8416314153E-005 -1.2792369486E+002  +1.0409203683E+000 +1.2458905504E+001 
20113.629 +1.0419203975E+000 +1.2397050290E+001  +3.1190565823E-005 -1.8089096421E+001  +9.3185026932E-006 +9.3167522042E+001  +1.0419955090E+000 +1.2400084572E+001 
20261.212 +1.0431392796E+000 +1.2340846508E+001  +2.6967384454E-005 +6.6118479879E+001  +4.5877852560E-005 +1.7622408231E+002  +1.0430820389E+000 +1.2341426317E+001 
20409.878 +1.0442791739E+000 +1.2265619498E+001  +2.4573023207E-005 -7.0998919236E+001  +2.3018489091E-005 +1.0881731111E+002  +1.0440728343E+000 +1.2266038552E+001 
20559.634 +1.0453799520E+000 +1.2205261771E+001  +3.1886510035E-005 -5.5845311260E+001  +7.8192639838E-005 +8.7098958428E+001  +1.0450879452E+000 +1.2205380401E+001 
20710.490 +1.0463403211E+000 +1.2139197632E+001  +2.0150520199E-005 -1.4948231318E+002  +4.0288460815E-005 -9.7686320956E+001  +1.0462426684E+000 +1.2139140111E+001 
20862.452 +1.0472790349E+000 +1.2075966232E+001  +3.0963229559E-005 -5.8263135804E+001  +3.5177027992E-005 +7.3988435442E+001  +1.0470947316E+000 +1.2067269215E+001 
21015.529 +1.0485429321E+000 +1.1999779241E+001  +1.3866956664E-005 +1.0406910553E+002  +2.7992094060E-005 +4.5153336897E+001  +1.0483208806E+000 +1.2000625316E+001 
