!  2-Port S-parameters saved by WinCal
! VAR MeasName=S-Parameters (CALIBRATED_DATA) read from VNA (P5004A)
! VAR MeasDate=26/04/2024 18:15:51
! VAR NAME=Wafer2_r1_c5_pristine_log
! VAR FILENAME=Wafer2_r1_c5_pristine_log_1.S2P
! VAR DATE=26/04/2024 18:15:51
! VAR PHYS_PORTS=1,2
! VAR ObjTypeName=DATASET
! VAR IndexType=Frequency
!
# Hz S MA R 50
9000.000 +7.9772363096E-001 +1.7315341568E+001  +2.4281520844E-005 +1.6088989726E+002  +1.5402671452E-005 +1.2749872809E+002  +7.9778376635E-001 +1.7300077632E+001 
9066.037 +8.0054232679E-001 +1.7374436006E+001  +1.9399805835E-005 -6.6927307935E+001  +9.2006406293E-006 +9.7209483911E+001  +8.0037559697E-001 +1.7371211674E+001 
9132.559 +8.0276861446E-001 +1.7423528685E+001  +3.2531437217E-005 +9.8480962476E+001  +2.8840095510E-005 -1.6084652478E+002  +8.0250221696E-001 +1.7421590900E+001 
9199.568 +8.0544849083E-001 +1.7495755064E+001  +2.5889187688E-005 +8.7007548765E+001  +2.4221673433E-005 +1.6773712793E+002  +8.0540118776E-001 +1.7492328802E+001 
9267.070 +8.0807317342E-001 +1.7519620127E+001  +3.8988207500E-005 +4.3338732299E+001  +2.8679719672E-005 +1.7132447763E+002  +8.0793099753E-001 +1.7518810329E+001 
9335.066 +8.1055031355E-001 +1.7591414279E+001  +3.2004660123E-005 -9.3235828811E+001  +2.4472173695E-005 +3.3928910498E+001  +8.1029499265E-001 +1.7585427201E+001 
9403.562 +8.1329968511E-001 +1.7641955012E+001  +1.4373943661E-005 -1.5201932082E+001  +3.7339826188E-005 +1.6252996857E+002  +8.1317926212E-001 +1.7626284846E+001 
9472.560 +8.1588021028E-001 +1.7674008778E+001  +1.9044234712E-005 +1.0895283989E+002  +7.3784860072E-006 +1.0677869722E+002  +8.1572472057E-001 +1.7651164844E+001 
9542.065 +8.1865327462E-001 +1.7686045809E+001  +4.3914766056E-005 +6.6593538713E+001  +1.1970224829E-005 +5.7584528338E+001  +8.1848139545E-001 +1.7679351068E+001 
9612.079 +8.2119125642E-001 +1.7732552680E+001  +1.7145667971E-005 +6.7904094133E+001  +6.9304533264E-006 -3.8030586436E+001  +8.2097515482E-001 +1.7710887859E+001 
9682.607 +8.2377299756E-001 +1.7746927448E+001  +3.2441882745E-005 +1.0382244985E+002  +1.5186489009E-005 +1.2954593490E+002  +8.2376146523E-001 +1.7724877026E+001 
9753.653 +8.2640534091E-001 +1.7779378858E+001  +4.4563083977E-006 -7.5640336148E+001  +2.5372270549E-005 +6.9084962883E+000  +8.2617961248E-001 +1.7761687862E+001 
9825.220 +8.2877160009E-001 +1.7797064447E+001  +2.1105969481E-005 -6.0052464471E+001  +1.0860191498E-005 +6.9893118129E+001  +8.2855813283E-001 +1.7792937496E+001 
9897.312 +8.3154132965E-001 +1.7811014876E+001  +2.8418217478E-006 +1.0203856406E+002  +2.1539418580E-005 -8.7220722448E+001  +8.3159847249E-001 +1.7800549815E+001 
9969.933 +8.3415038557E-001 +1.7842331212E+001  +1.3332074915E-005 -5.4333137117E+001  +2.6478162206E-005 -1.3408184922E+002  +8.3405510584E-001 +1.7836441704E+001 
10043.087 +8.3689424820E-001 +1.7854343950E+001  +3.1464539642E-005 +5.3757425970E+001  +1.8135634921E-005 +8.5467375599E+001  +8.3671713395E-001 +1.7851063838E+001 
10116.778 +8.3957086888E-001 +1.7859351791E+001  +2.1066922568E-005 +2.9989501872E+000  +8.1625292943E-006 +5.4064039555E+001  +8.3933459020E-001 +1.7851521441E+001 
10191.009 +8.4205637812E-001 +1.7886804929E+001  +2.1290746925E-005 -1.2055875407E+002  +1.4881113500E-005 -1.7799628437E+002  +8.4183102044E-001 +1.7874555160E+001 
10265.785 +8.4505464773E-001 +1.7887531860E+001  +1.2328471257E-005 +1.7443949122E+002  +1.4121113698E-005 +1.4016713623E+002  +8.4492578120E-001 +1.7882418587E+001 
10341.110 +8.4791803805E-001 +1.7895522959E+001  +1.3450547413E-005 +1.6065438761E+002  +3.7485678678E-005 +1.3608332537E+001  +8.4765985587E-001 +1.7894447680E+001 
10416.987 +8.5071580444E-001 +1.7893743028E+001  +2.6641953365E-005 +7.8789469042E+001  +1.1545231220E-005 -4.7580185521E+001  +8.5056713341E-001 +1.7889761764E+001 
10493.421 +8.5355139270E-001 +1.7887987199E+001  +8.0264241306E-006 -1.7540552502E+002  +2.7668259234E-005 +9.6807606093E+001  +8.5335853829E-001 +1.7891281294E+001 
10570.416 +8.5622749203E-001 +1.7877792186E+001  +5.9209199871E-006 +9.3599037994E+001  +1.1583614928E-005 +1.5392829861E+002  +8.5629950386E-001 +1.7870851141E+001 
10647.976 +8.5896500064E-001 +1.7891205684E+001  +7.1482747719E-006 +8.8809790851E+001  +3.8788604803E-005 -1.6872607051E+002  +8.5903744205E-001 +1.7874486528E+001 
10726.105 +8.6220240884E-001 +1.7869921408E+001  +7.4804892870E-006 +9.8836591002E+001  +2.9795598160E-005 +2.1007548995E+001  +8.6188265273E-001 +1.7868219370E+001 
10804.808 +8.6525324633E-001 +1.7850092218E+001  +6.7308769687E-006 -2.6100492159E+001  +1.6512671836E-005 +1.2545205693E+001  +8.6498617365E-001 +1.7854277288E+001 
10884.087 +8.6814930483E-001 +1.7848922658E+001  +2.7343234037E-005 -1.0280785039E+002  +1.3438957326E-005 +6.7529415168E+001  +8.6807655198E-001 +1.7847179030E+001 
10963.949 +8.7114274549E-001 +1.7803043248E+001  +4.8992303658E-006 +7.2028110906E+001  +7.0794157179E-006 +5.6688842434E+001  +8.7100701133E-001 +1.7804656534E+001 
11044.396 +8.7405448868E-001 +1.7794269855E+001  +2.1935434496E-005 +1.6629284586E+002  +2.3305197224E-005 +1.0287385030E+002  +8.7417156346E-001 +1.7797046522E+001 
11125.434 +8.7633955140E-001 +1.7789588625E+001  +1.6783168845E-005 -5.9922125433E+001  +1.6158083443E-005 +7.3362726627E+001  +8.7644201308E-001 +1.7779635823E+001 
11207.066 +8.7912356314E-001 +1.7766109992E+001  +1.8340528411E-005 +1.0367640059E+002  +3.6211312273E-005 +6.1040760777E+001  +8.7911275457E-001 +1.7757161706E+001 
11289.298 +8.8135488713E-001 +1.7752798200E+001  +5.5388012881E-006 +1.1349030625E+002  +2.5496321477E-005 -8.3771546469E+001  +8.8143291639E-001 +1.7767415193E+001 
11372.132 +8.8405196442E-001 +1.7729277930E+001  +2.1229534825E-005 -1.1966155936E+002  +1.8720105863E-005 +1.7738418947E+001  +8.8403663330E-001 +1.7736989288E+001 
11455.575 +8.8691120350E-001 +1.7709804682E+001  +4.1869258469E-006 +1.4543008226E+001  +2.6107517943E-005 +1.5782099174E+001  +8.8685855037E-001 +1.7709203257E+001 
11539.630 +8.8944798089E-001 +1.7695322981E+001  +1.4675586673E-005 +4.3040919636E+001  +3.9774217425E-005 +7.4187745526E+001  +8.8947600136E-001 +1.7688536817E+001 
11624.301 +8.9206977717E-001 +1.7651355277E+001  +2.0915221115E-006 +3.0074340745E+001  +1.0003969232E-005 +3.6065170215E+001  +8.9202444675E-001 +1.7648416837E+001 
11709.594 +8.9460750390E-001 +1.7619305619E+001  +2.8389165606E-005 +8.5349627121E+001  +3.7713047708E-005 +1.6659899346E+002  +8.9446747799E-001 +1.7627464291E+001 
11795.512 +8.9727045525E-001 +1.7586810810E+001  +5.5163538511E-005 -1.0589915003E+002  +2.4421298087E-005 +4.6297809684E+001  +8.9745038944E-001 +1.7594387095E+001 
11882.062 +8.9992305243E-001 +1.7559009404E+001  +8.1831211619E-006 -1.6712363048E+002  +1.1391850569E-005 +1.1452528732E+002  +8.9992861954E-001 +1.7555927966E+001 
11969.246 +9.0299152758E-001 +1.7513821095E+001  +7.7505555923E-006 +6.5918538417E+001  +1.6879818486E-005 -1.7773617878E+001  +9.0291175945E-001 +1.7510700695E+001 
12057.069 +9.0529883534E-001 +1.7466535612E+001  +3.6464135746E-005 +8.2756958925E+001  +2.1496756687E-005 +1.5362111755E+002  +9.0531403990E-001 +1.7466602583E+001 
12145.538 +9.0824134850E-001 +1.7416242363E+001  +9.7291561309E-006 +8.6418680132E+001  +3.3985872878E-005 +5.7330951512E+001  +9.0812763446E-001 +1.7425181501E+001 
12234.655 +9.1085282385E-001 +1.7386086815E+001  +4.8501861071E-005 +7.9950927246E+001  +5.7469104817E-006 +7.0288187338E+001  +9.1077258341E-001 +1.7376663940E+001 
12324.426 +9.1364500409E-001 +1.7318971679E+001  +1.8382476873E-005 +2.2992346697E+001  +1.8743974497E-005 -1.1593263352E+002  +9.1372613830E-001 +1.7318262201E+001 
12414.856 +9.1633565437E-001 +1.7261842118E+001  +3.2973456558E-005 +1.1402463564E+002  +3.8929243921E-005 +1.2412512438E+001  +9.1630889053E-001 +1.7259721905E+001 
12505.949 +9.1921492807E-001 +1.7208971199E+001  +1.8619539778E-005 -1.0659133341E+002  +5.3032686983E-006 -1.0082861819E+002  +9.1938119076E-001 +1.7214037112E+001 
12597.711 +9.2137064071E-001 +1.7176239389E+001  +1.2902955442E-005 +9.7230646539E+000  +1.2265233892E-005 -3.1839364363E+001  +9.2123822238E-001 +1.7185218468E+001 
12690.146 +9.2405797677E-001 +1.7131282135E+001  +1.1375623847E-005 +7.0063699745E+001  +1.7868390873E-005 +6.9519982904E+001  +9.2407367451E-001 +1.7129094904E+001 
12783.260 +9.2641377589E-001 +1.7085722052E+001  +2.0484842362E-005 -1.5654195100E+002  +2.8216029363E-005 +9.6048015646E+001  +9.2633815500E-001 +1.7077793437E+001 
12877.056 +9.2881401367E-001 +1.7034764625E+001  +1.1615198036E-005 -7.5119821545E+001  +8.8756450728E-006 -1.9686660028E+001  +9.2895002668E-001 +1.7030256462E+001 
12971.541 +9.3122615508E-001 +1.6982190033E+001  +2.5409480732E-005 +9.6706939561E+001  +1.2678865241E-005 -1.3175874797E+002  +9.3110779080E-001 +1.6978909251E+001 
13066.719 +9.3330993647E-001 +1.6915232780E+001  +1.0281349811E-005 +1.5623120105E+002  +3.1630372977E-005 +2.0325231393E+001  +9.3321044847E-001 +1.6922401511E+001 
13162.595 +9.3587568235E-001 +1.6876533005E+001  +1.2147690293E-005 +1.0267674392E+002  +3.3197175793E-005 +4.2135509547E+001  +9.3574036730E-001 +1.6874365081E+001 
13259.175 +9.3837981028E-001 +1.6818745076E+001  +1.5847448230E-005 +4.0732093272E+001  +1.7518902272E-005 -7.4478911197E+001  +9.3821185640E-001 +1.6814816265E+001 
13356.464 +9.4068178112E-001 +1.6751508265E+001  +1.3660964844E-005 -8.4499848833E+001  +3.3049291447E-005 +1.1143815466E+002  +9.4058959103E-001 +1.6745245567E+001 
13454.466 +9.4311559530E-001 +1.6684891454E+001  +3.1470896603E-005 -8.8651117184E+001  +4.7407785608E-005 -1.2799419502E+002  +9.4293159889E-001 +1.6684450166E+001 
13553.188 +9.4543697878E-001 +1.6623152833E+001  +2.7533672202E-005 +9.3169667450E+000  +1.9596235381E-005 +1.2206491108E+002  +9.4528378490E-001 +1.6622196155E+001 
13652.634 +9.4777467241E-001 +1.6558514721E+001  +4.1164872874E-005 +3.6993888140E+001  +2.4065374147E-005 -4.5526735240E+001  +9.4769737425E-001 +1.6555656013E+001 
13752.809 +9.5042821597E-001 +1.6488368395E+001  +5.4879782707E-005 +3.9744335525E+001  +7.9953260371E-006 +1.4874088788E+002  +9.5033114246E-001 +1.6490550456E+001 
13853.720 +9.5267370838E-001 +1.6418453009E+001  +2.6797350552E-005 +5.8055351860E+001  +1.7307179072E-005 -3.4486493842E+001  +9.5260187692E-001 +1.6405193590E+001 
13955.371 +9.5543720594E-001 +1.6356541557E+001  +2.6539541743E-005 -1.6178389802E+002  +1.8460441520E-005 +3.8385012146E+001  +9.5519890985E-001 +1.6336138187E+001 
14057.768 +9.5749550795E-001 +1.6264033342E+001  +2.0018317095E-005 +7.4970125877E+001  +5.2847247675E-006 -9.4346725317E+001  +9.5730476436E-001 +1.6249326404E+001 
14160.916 +9.6000984036E-001 +1.6196377658E+001  +2.2195448405E-005 -2.0971589024E+001  +5.3325939790E-005 +2.5700789165E+001  +9.5982447163E-001 +1.6186392563E+001 
14264.821 +9.6235850906E-001 +1.6110549947E+001  +6.8959676658E-006 -1.3806834432E+002  +1.9275065267E-005 -3.2316489443E+001  +9.6224706387E-001 +1.6107501687E+001 
14369.488 +9.6454264495E-001 +1.6046278973E+001  +1.0403528283E-005 +3.0754607312E+001  +1.8512794169E-005 +7.6571406946E+001  +9.6440067564E-001 +1.6047623443E+001 
14474.924 +9.6634785906E-001 +1.5985160333E+001  +2.3004754190E-005 +4.6942993001E+001  +1.7844358511E-005 -8.0781822568E+001  +9.6616573085E-001 +1.5981393343E+001 
14581.133 +9.6839157488E-001 +1.5938622869E+001  +4.4349332891E-005 +4.3114718705E+001  +2.4547360506E-005 -3.2218627977E+001  +9.6812050703E-001 +1.5922301449E+001 
14688.121 +9.6991204012E-001 +1.5881175445E+001  +2.3078764970E-005 -2.9065821914E+000  +1.8731638088E-005 +1.0516349679E+002  +9.6988624585E-001 +1.5875200721E+001 
14795.895 +9.7196010649E-001 +1.5831103435E+001  +2.3992614980E-005 -2.1286320721E+001  +9.5005487668E-006 +4.7158016991E+001  +9.7188213773E-001 +1.5812963894E+001 
14904.459 +9.7395690146E-001 +1.5746927368E+001  +3.8479977490E-005 +3.7469075555E+001  +4.9235608684E-005 -6.2684689968E+001  +9.7361977582E-001 +1.5747382858E+001 
15013.820 +9.7577825502E-001 +1.5695149223E+001  +3.3828334630E-005 +4.4035376470E+001  +6.1604547642E-006 +1.4971089036E+002  +9.7560347929E-001 +1.5690232336E+001 
15123.983 +9.7772036615E-001 +1.5649807722E+001  +2.1030445641E-005 -1.5560061060E+002  +1.3106165135E-005 -1.0548642441E+002  +9.7758336571E-001 +1.5647123214E+001 
15234.954 +9.7964493757E-001 +1.5573223912E+001  +8.2739908754E-006 +1.5928970418E+002  +5.3567592377E-005 +1.7252217875E+002  +9.7955393704E-001 +1.5573708465E+001 
15346.740 +9.8136191964E-001 +1.5508016046E+001  +2.9805453047E-005 -3.0376490639E+000  +3.7673811700E-005 +1.3629664433E+001  +9.8134912182E-001 +1.5501247907E+001 
15459.346 +9.8322425738E-001 +1.5449975673E+001  +2.5065654169E-005 +1.5359511423E+000  +1.5687295294E-005 +1.1615297898E+002  +9.8329653345E-001 +1.5442122278E+001 
15572.778 +9.8514995767E-001 +1.5381410965E+001  +4.4330822382E-005 +7.5400863481E+001  +1.8783101874E-005 +1.3588364198E+002  +9.8495987143E-001 +1.5381072549E+001 
15687.043 +9.8692664317E-001 +1.5299611892E+001  +3.6537533200E-005 +1.6442224715E+002  +3.4872188919E-005 +8.0443754244E+001  +9.8679432362E-001 +1.5305181449E+001 
15802.146 +9.8902615460E-001 +1.5222680759E+001  +2.8695045076E-005 +1.3108707183E+002  +4.7411484565E-005 +1.6294831750E+002  +9.8878492547E-001 +1.5218008468E+001 
15918.093 +9.9060828100E-001 +1.5155434304E+001  +4.7243085808E-006 -1.4486817385E+002  +1.3816281051E-005 +1.5552177553E+002  +9.9054869715E-001 +1.5145938048E+001 
16034.892 +9.9262881532E-001 +1.5080069072E+001  +3.8686129725E-005 +2.3016252012E+001  +9.4861839698E-006 -1.4131467035E+002  +9.9242480047E-001 +1.5073786045E+001 
16152.547 +9.9431330035E-001 +1.5007670400E+001  +3.7251147494E-005 -1.1447498932E+002  +2.6353259239E-005 +2.7161670803E+000  +9.9428724765E-001 +1.5002600248E+001 
16271.065 +9.9634870269E-001 +1.4926814884E+001  +1.2497591871E-005 -1.2086642069E+002  +2.3309271758E-005 -8.2890926281E+001  +9.9619400202E-001 +1.4923196266E+001 
16390.454 +9.9815210843E-001 +1.4847739716E+001  +7.9835208926E-006 -8.7755901190E+001  +8.4890844433E-006 +1.1616947840E+001  +9.9784098203E-001 +1.4853127285E+001 
16510.718 +9.9983455380E-001 +1.4777695995E+001  +1.4491240132E-005 -1.6219170992E+002  +2.1235579782E-005 +5.0870980210E+001  +9.9977452903E-001 +1.4759100098E+001 
16631.864 +1.0016665093E+000 +1.4677171977E+001  +3.7875822396E-005 -3.7635348610E+001  +3.3206253790E-005 +4.7680745660E+001  +1.0014805492E+000 +1.4672769188E+001 
16753.900 +1.0034252619E+000 +1.4595077732E+001  +2.6471287910E-005 -1.7890936406E+002  +3.0244946188E-005 +1.6494802672E+002  +1.0035184241E+000 +1.4602902813E+001 
16876.831 +1.0052075145E+000 +1.4511391053E+001  +3.3325924695E-005 -6.5534315244E+000  +4.8588939439E-005 -1.7020144965E+002  +1.0052073301E+000 +1.4509872472E+001 
17000.664 +1.0071145547E+000 +1.4430407263E+001  +2.6935941029E-005 +1.7989689478E+001  +4.9737298180E-005 +8.6267514966E+001  +1.0070191174E+000 +1.4430330288E+001 
17125.405 +1.0088977289E+000 +1.4343843782E+001  +2.1629048364E-005 -1.7264798943E+002  +3.3512404532E-005 +1.2435482772E+002  +1.0086695783E+000 +1.4339737686E+001 
17251.062 +1.0107307002E+000 +1.4232971882E+001  +4.0980517693E-005 -1.7746681345E+002  +1.0686734682E-005 +1.3102221259E+002  +1.0104393798E+000 +1.4242130881E+001 
17377.641 +1.0124180081E+000 +1.4153583609E+001  +7.5801124711E-006 -1.1711266620E+002  +2.8282648593E-005 -2.6050345544E+001  +1.0124037386E+000 +1.4144943294E+001 
17505.149 +1.0143562532E+000 +1.4058905441E+001  +2.6541449069E-005 +1.0451614612E+002  +3.0633412876E-005 +1.0191081630E+002  +1.0140906655E+000 +1.4064708016E+001 
17633.592 +1.0159381212E+000 +1.3961534536E+001  +2.9044027462E-005 +9.1816732054E+001  +1.6474558512E-005 +2.3153214696E+001  +1.0157600726E+000 +1.3964155285E+001 
17762.977 +1.0175497068E+000 +1.3860480142E+001  +4.8185771184E-005 +8.0028600665E+001  +2.5504466214E-005 +1.4362421226E+002  +1.0175929419E+000 +1.3862416709E+001 
17893.312 +1.0192325108E+000 +1.3780313887E+001  +3.5809648604E-005 -7.9667783452E+001  +2.5403559333E-006 +3.1672027846E+000  +1.0191974867E+000 +1.3772339927E+001 
18024.604 +1.0212126221E+000 +1.3672309136E+001  +4.7718011049E-005 +7.4674397182E+001  +7.9105038149E-005 +9.0767202337E+001  +1.0211608397E+000 +1.3667354114E+001 
18156.858 +1.0230092610E+000 +1.3572602186E+001  +3.1998723502E-005 -1.4351989028E+002  +1.7129718572E-005 +9.8101577675E+001  +1.0229389037E+000 +1.3566192822E+001 
18290.084 +1.0244228867E+000 +1.3466326621E+001  +2.0937070996E-005 -1.1205356931E+001  +1.1642827886E-005 -1.2421034738E+002  +1.0245058750E+000 +1.3461158705E+001 
18424.286 +1.0263345829E+000 +1.3363421381E+001  +1.2591326165E-005 -1.2978092905E+002  +3.9302479904E-005 +9.5588912024E+001  +1.0261901797E+000 +1.3369638987E+001 
18559.473 +1.0278981615E+000 +1.3244398013E+001  +5.0132569981E-005 -1.4195650992E+002  +1.9149537876E-005 -1.0392289733E+002  +1.0279444218E+000 +1.3240996731E+001 
18695.653 +1.0297114140E+000 +1.3156504554E+001  +5.9328514283E-005 +1.4597796702E+002  +4.7406816061E-005 +3.1454340749E+001  +1.0296521263E+000 +1.3142003812E+001 
18832.831 +1.0314539386E+000 +1.3035826493E+001  +3.6238015205E-005 -1.7629980543E+002  +1.9826732886E-005 +1.0372361782E+002  +1.0313792307E+000 +1.3030554071E+001 
18971.016 +1.0328244079E+000 +1.2913829444E+001  +4.6185820724E-005 +8.8358991621E+001  +1.5250817946E-005 -3.7107236145E+001  +1.0330264034E+000 +1.2913728966E+001 
19110.215 +1.0344187934E+000 +1.2824577181E+001  +4.0901335942E-005 -3.1859022703E+001  +3.5566361309E-005 +4.1244305882E+001  +1.0341061218E+000 +1.2829472674E+001 
19250.435 +1.0352775725E+000 +1.2760105461E+001  +1.3622119698E-005 -1.7619739761E+002  +2.8840628824E-005 +7.0502557040E+001  +1.0352705933E+000 +1.2757563226E+001 
19391.685 +1.0366623737E+000 +1.2711709717E+001  +1.2566790025E-005 -2.0946714522E+001  +3.6957114094E-005 +4.7739326239E+001  +1.0364488360E+000 +1.2708493504E+001 
19533.970 +1.0375445758E+000 +1.2641335351E+001  +6.5090914704E-006 +1.0683978500E+002  +8.4342750254E-005 +7.0245438156E+001  +1.0375706047E+000 +1.2639983311E+001 
19677.300 +1.0389178454E+000 +1.2580737599E+001  +2.7498237699E-005 +6.1923000978E+001  +2.9157826613E-005 +9.1835943702E+001  +1.0388145117E+000 +1.2577295539E+001 
19821.681 +1.0397531867E+000 +1.2520552886E+001  +1.7408327127E-005 +1.7804229313E+002  +3.0541437953E-005 +1.0471311569E+002  +1.0398165588E+000 +1.2522551333E+001 
19967.122 +1.0410239312E+000 +1.2467639527E+001  +9.0506146681E-005 +5.5742554560E+001  +2.7287955099E-005 +5.8424104348E+001  +1.0407522478E+000 +1.2462522320E+001 
20113.629 +1.0419888959E+000 +1.2395407775E+001  +1.8644503836E-005 -1.3483066547E-001  +4.0623458774E-005 -1.0936554782E+002  +1.0420241046E+000 +1.2405647385E+001 
20261.212 +1.0430803250E+000 +1.2340138158E+001  +3.0049768634E-005 -2.7545363016E+001  +3.9289339503E-006 +1.5422999434E+002  +1.0429442333E+000 +1.2329523563E+001 
20409.878 +1.0442699758E+000 +1.2272563295E+001  +3.0034725781E-005 +1.1356305947E+002  +1.9071118220E-005 +3.8847071032E+000  +1.0442713140E+000 +1.2270038912E+001 
20559.634 +1.0453701083E+000 +1.2202921798E+001  +2.3283402556E-005 -1.4028300036E+002  +2.4168673056E-005 +1.0897305418E+002  +1.0452250647E+000 +1.2206098755E+001 
20710.490 +1.0462787784E+000 +1.2144575902E+001  +3.0233020042E-005 +1.2181070229E+002  +1.8967747028E-005 +8.2590868590E+001  +1.0461123641E+000 +1.2126197482E+001 
20862.452 +1.0472487282E+000 +1.2071363813E+001  +4.7709616874E-005 +1.1886815023E+002  +1.5365489409E-005 -9.6321024805E+001  +1.0470987220E+000 +1.2066886516E+001 
21015.529 +1.0484592649E+000 +1.2001329671E+001  +1.7715655690E-005 -7.8222858067E+001  +2.4987128626E-005 +1.1100542951E+002  +1.0483514858E+000 +1.2004983934E+001 
