!  2-Port S-parameters saved by WinCal
! VAR MeasName=S-Parameters (CALIBRATED_DATA) read from VNA (P5004A)
! VAR MeasDate=26/04/2024 18:14:54
! VAR NAME=Wafer2_r1_c4_pristine_log
! VAR FILENAME=Wafer2_r1_c4_pristine_log_1.S2P
! VAR DATE=26/04/2024 18:14:54
! VAR PHYS_PORTS=1,2
! VAR ObjTypeName=DATASET
! VAR IndexType=Frequency
!
# Hz S MA R 50
9000.000 +7.9772442684E-001 +1.7318257602E+001  +4.1496907138E-005 +1.5430029173E+002  +7.2853133274E-006 -2.9979433486E+001  +7.9768339822E-001 +1.7301593278E+001 
9066.037 +8.0029916315E-001 +1.7370298922E+001  +3.7662368429E-005 +1.2197673232E+002  +1.3653752365E-005 -4.5784052919E+001  +8.0029949265E-001 +1.7365156467E+001 
9132.559 +8.0269314398E-001 +1.7429138983E+001  +8.4433763347E-006 -2.7533914381E+001  +3.8375883126E-005 -1.5275950936E+002  +8.0257184579E-001 +1.7430280954E+001 
9199.568 +8.0530080120E-001 +1.7487244372E+001  +1.2300644579E-005 -1.7004329540E+002  +3.1371846951E-005 -4.7192897982E+000  +8.0538054038E-001 +1.7490051925E+001 
9267.070 +8.0807448817E-001 +1.7517093405E+001  +2.3348259069E-005 +1.3083247437E+002  +1.5190142400E-005 +2.0270051996E+001  +8.0799580185E-001 +1.7517164756E+001 
9335.066 +8.1051663413E-001 +1.7589077221E+001  +2.8699446309E-005 -9.5503716371E+001  +2.3047608646E-005 -5.6104792033E+000  +8.1042635814E-001 +1.7589596371E+001 
9403.562 +8.1323418582E-001 +1.7641924341E+001  +8.2189973909E-006 -1.0850944842E+001  +1.1914731227E-005 +1.4664995283E+002  +8.1326510555E-001 +1.7631201646E+001 
9472.560 +8.1588550970E-001 +1.7669647602E+001  +2.7574024255E-005 +1.4258107728E+002  +2.4803179116E-006 -1.4568571682E+001  +8.1581491292E-001 +1.7658272412E+001 
9542.065 +8.1873488674E-001 +1.7675175404E+001  +5.0338576220E-005 +2.3351880955E+001  +4.0132903915E-005 -5.9261352953E+001  +8.1848260938E-001 +1.7675742845E+001 
9612.079 +8.2104522156E-001 +1.7721341928E+001  +1.0679158356E-005 -4.5458181459E+001  +2.2474102702E-005 +6.4440017185E+001  +8.2090726308E-001 +1.7705717293E+001 
9682.607 +8.2381566248E-001 +1.7743074643E+001  +2.4551765512E-005 +9.7975847340E+001  +1.8949142821E-005 +1.6077262878E+002  +8.2357824138E-001 +1.7725094104E+001 
9753.653 +8.2635097653E-001 +1.7779615419E+001  +1.0781612156E-005 +6.7322076949E+001  +7.4215532158E-006 -6.3815824925E+001  +8.2622004497E-001 +1.7759858726E+001 
9825.220 +8.2874561816E-001 +1.7792209603E+001  +1.9685725937E-005 -1.1853709826E+002  +2.3867155267E-005 -1.1871993462E+002  +8.2856427007E-001 +1.7790199733E+001 
9897.312 +8.3160068673E-001 +1.7796403400E+001  +3.2200450953E-005 +7.5902525411E+001  +1.8826993448E-005 -9.2989239510E+001  +8.3162300239E-001 +1.7798344534E+001 
9969.933 +8.3425357022E-001 +1.7840071684E+001  +1.6112813792E-005 -1.3522269794E+002  +1.4533188103E-005 -1.4786958905E+002  +8.3396045444E-001 +1.7839534301E+001 
10043.087 +8.3698642657E-001 +1.7859626702E+001  +4.0692885287E-005 +2.6312556083E+001  +1.4067085560E-005 +1.5213393395E+002  +8.3681617518E-001 +1.7847996762E+001 
10116.778 +8.3959030905E-001 +1.7859821772E+001  +2.5256282238E-005 +1.4294494945E+002  +1.4981849417E-005 +9.5883452130E+001  +8.3930994206E-001 +1.7859488745E+001 
10191.009 +8.4207395446E-001 +1.7882072238E+001  +2.6779073348E-005 +1.0817204578E+002  +3.4054879032E-005 -6.9358783184E-001  +8.4189820301E-001 +1.7881131969E+001 
10265.785 +8.4499373106E-001 +1.7886694852E+001  +2.0993081111E-005 +1.1484592964E+002  +2.5114265092E-005 -4.6152663722E+001  +8.4484999681E-001 +1.7878521245E+001 
10341.110 +8.4794334523E-001 +1.7895510402E+001  +1.1408586310E-005 +1.6799030282E+002  +7.0736823712E-006 -1.1664725279E+002  +8.4762376081E-001 +1.7891808205E+001 
10416.987 +8.5058241694E-001 +1.7886990885E+001  +1.5249275322E-005 -8.2118593534E+001  +3.2944649698E-005 -1.1455051378E+001  +8.5058279304E-001 +1.7899758091E+001 
10493.421 +8.5351690963E-001 +1.7887641171E+001  +1.1510280673E-005 +1.4752443908E+002  +4.1667086205E-006 -7.9713131105E+001  +8.5337496999E-001 +1.7889253580E+001 
10570.416 +8.5627999331E-001 +1.7873170375E+001  +1.4031532687E-005 +6.6820854084E+001  +4.6435692248E-005 -1.4952316836E+002  +8.5638108460E-001 +1.7871236555E+001 
10647.976 +8.5897410912E-001 +1.7884985250E+001  +1.7740577467E-005 -8.8010051917E+000  +2.3109180350E-005 -2.9403814096E+001  +8.5888327244E-001 +1.7878221131E+001 
10726.105 +8.6206380660E-001 +1.7863488844E+001  +4.3051318736E-005 +1.1320793341E+002  +1.7663404265E-005 -1.2971488856E+001  +8.6181490547E-001 +1.7865199791E+001 
10804.808 +8.6521472210E-001 +1.7850063679E+001  +4.1767914474E-005 -9.1701954974E+001  +8.2447417022E-006 +1.1952942707E+002  +8.6489654508E-001 +1.7839547271E+001 
10884.087 +8.6803469541E-001 +1.7840972011E+001  +2.9391422014E-005 -1.2961211442E+002  +6.6431447342E-006 -5.2743725910E+001  +8.6801222987E-001 +1.7835991540E+001 
10963.949 +8.7110212890E-001 +1.7803071435E+001  +2.3898420319E-005 +1.0929635544E+002  +3.4003363655E-005 +3.3025358059E+001  +8.7107072678E-001 +1.7806499829E+001 
11044.396 +8.7400877098E-001 +1.7796746054E+001  +2.6629074649E-005 +1.5786742736E+002  +1.9817968383E-005 +6.0870209920E+001  +8.7406174637E-001 +1.7795317428E+001 
11125.434 +8.7632237265E-001 +1.7793192572E+001  +1.5966745713E-005 +1.7649223582E+001  +6.3636479353E-006 +6.0156983973E+001  +8.7642517674E-001 +1.7778793896E+001 
11207.066 +8.7915600247E-001 +1.7771294265E+001  +2.6344171423E-005 -2.9487343361E+001  +2.0585685231E-005 -5.3062238045E+001  +8.7913180299E-001 +1.7759395084E+001 
11289.298 +8.8137976665E-001 +1.7761825209E+001  +2.5584379754E-005 -8.5016745283E+001  +1.6731467067E-005 +7.7807763667E+001  +8.8131666209E-001 +1.7768400640E+001 
11372.132 +8.8404024634E-001 +1.7738025695E+001  +2.4722801951E-005 +1.3105027570E+001  +3.6924424449E-005 +1.1387328621E+000  +8.8409809846E-001 +1.7733314329E+001 
11455.575 +8.8698572366E-001 +1.7713006524E+001  +1.2530456206E-005 -1.3043537051E+002  +1.8236298886E-005 -1.2722923991E+001  +8.8700324632E-001 +1.7711792207E+001 
11539.630 +8.8942095339E-001 +1.7689915618E+001  +2.3206699518E-005 -1.7127975144E+002  +3.6467106869E-005 +9.1997977498E+001  +8.8929505079E-001 +1.7682490402E+001 
11624.301 +8.9207999383E-001 +1.7652596753E+001  +9.4831426782E-006 -4.0816017424E+001  +2.5052026579E-005 +5.6392103562E+001  +8.9197947302E-001 +1.7652823401E+001 
11709.594 +8.9456602344E-001 +1.7629288212E+001  +1.5076708336E-005 -1.7760352989E+002  +2.9428701562E-005 -2.2829637225E+001  +8.9444103934E-001 +1.7614211419E+001 
11795.512 +8.9741726210E-001 +1.7589794101E+001  +2.7885998943E-005 -1.3159080895E+001  +1.1730013806E-005 +1.0680496235E+002  +8.9727016207E-001 +1.7587343783E+001 
11882.062 +8.9991337130E-001 +1.7558269060E+001  +1.1594291407E-005 +6.0921492190E+001  +3.2448165941E-005 +1.4110232612E+002  +8.9995318459E-001 +1.7551548625E+001 
11969.246 +9.0302368265E-001 +1.7520335442E+001  +3.4249833917E-005 +1.3675208289E+002  +6.0479043140E-005 +6.4469866008E+001  +9.0301488782E-001 +1.7506175587E+001 
12057.069 +9.0524137736E-001 +1.7460130076E+001  +2.5816218429E-005 -1.0909996563E+002  +2.7235457339E-005 +5.1690432985E+001  +9.0530938725E-001 +1.7469876771E+001 
12145.538 +9.0820033816E-001 +1.7418547594E+001  +1.6066595569E-005 -5.7610668037E+001  +1.6361359993E-005 -1.3605915268E+002  +9.0798046811E-001 +1.7424883398E+001 
12234.655 +9.1086620413E-001 +1.7376174474E+001  +2.2696474704E-005 -3.5834291469E+001  +9.5670802154E-006 -1.5444244022E+002  +9.1079303166E-001 +1.7377937074E+001 
12324.426 +9.1366888755E-001 +1.7308528780E+001  +4.1204056735E-005 +5.3016473753E+001  +5.8722281092E-006 +8.0612987293E+001  +9.1379036092E-001 +1.7317102487E+001 
12414.856 +9.1640630290E-001 +1.7270165233E+001  +2.2711779261E-005 +1.3085000718E+002  +3.7838157202E-005 +1.1117422358E+002  +9.1631513025E-001 +1.7255450182E+001 
12505.949 +9.1933893836E-001 +1.7205749159E+001  +1.0794763255E-005 -8.1219118625E+001  +9.7638382296E-006 +4.9511070601E+001  +9.1929540658E-001 +1.7215646923E+001 
12597.711 +9.2138349378E-001 +1.7181171549E+001  +7.0627686781E-006 +6.1059369503E+001  +9.7251367534E-006 -1.4256491248E+002  +9.2105636702E-001 +1.7174613587E+001 
12690.146 +9.2399952758E-001 +1.7134969344E+001  +3.8783171208E-005 -1.4885880522E+002  +1.0995981618E-005 +3.8595718327E+001  +9.2383533510E-001 +1.7123241249E+001 
12783.260 +9.2639303841E-001 +1.7079000874E+001  +6.5890072225E-006 +3.2731443085E+001  +3.8961006847E-005 +6.0485621221E+001  +9.2618934557E-001 +1.7086498405E+001 
12877.056 +9.2872456454E-001 +1.7035870850E+001  +2.5416847392E-005 +8.8433579985E+001  +4.2494694962E-005 -1.3552820273E+002  +9.2880030008E-001 +1.7031074423E+001 
12971.541 +9.3141395130E-001 +1.6981039001E+001  +1.6785676724E-005 +6.6295585487E+001  +3.9474556072E-005 +7.3255871030E+001  +9.3100682330E-001 +1.6977199337E+001 
13066.719 +9.3335449413E-001 +1.6920843244E+001  +1.5857140387E-005 -2.1533284769E+001  +1.8491181165E-005 -1.1533290680E+002  +9.3324576659E-001 +1.6922198885E+001 
13162.595 +9.3599099977E-001 +1.6869070777E+001  +9.5452598656E-006 +1.4758879855E+001  +3.0072517423E-006 +2.0793109692E+001  +9.3570698222E-001 +1.6874516057E+001 
13259.175 +9.3823553409E-001 +1.6819700948E+001  +1.6040648338E-005 +1.2125811186E+002  +9.1851864341E-006 -4.6537782558E+001  +9.3817259746E-001 +1.6814633869E+001 
13356.464 +9.4061227620E-001 +1.6749396706E+001  +3.7865536249E-005 +2.1607235921E+001  +1.0410777637E-005 +3.1583692152E+001  +9.4062010224E-001 +1.6736815499E+001 
13454.466 +9.4319558899E-001 +1.6693535099E+001  +2.8619392851E-005 +1.2092081045E+002  +4.3707237522E-005 +1.2716399315E+002  +9.4293944993E-001 +1.6682938494E+001 
13553.188 +9.4540084950E-001 +1.6626311657E+001  +2.9740262921E-005 +1.0710917420E+001  +1.5245137445E-005 +9.3119485853E+001  +9.4517827633E-001 +1.6627056204E+001 
13652.634 +9.4768131136E-001 +1.6561354692E+001  +5.8089449383E-005 +9.1442789128E+001  +3.6591793812E-005 +7.3148412399E+001  +9.4767666241E-001 +1.6556742570E+001 
13752.809 +9.5032457817E-001 +1.6493720198E+001  +3.4180556822E-005 +9.3448522773E+001  +2.4482202289E-005 +9.2521213881E+000  +9.5028357036E-001 +1.6489761722E+001 
13853.720 +9.5273194465E-001 +1.6410134226E+001  +3.5479445357E-005 +1.3463105576E+002  +3.5461346564E-005 +6.6839286149E+001  +9.5271263999E-001 +1.6398092680E+001 
13955.371 +9.5531686879E-001 +1.6357389345E+001  +3.8904448706E-005 +1.4297790098E+002  +1.1520283615E-005 +9.1321456100E+001  +9.5512795206E-001 +1.6338179454E+001 
14057.768 +9.5746877088E-001 +1.6267832941E+001  +1.0219798548E-005 +7.7015440524E+001  +2.1236039841E-005 +6.4223212921E+001  +9.5735938845E-001 +1.6258220202E+001 
14160.916 +9.6002792644E-001 +1.6193461884E+001  +3.5470486446E-005 -8.6788289792E+001  +1.1667173180E-005 -5.6203301605E+001  +9.5986542607E-001 +1.6183838015E+001 
14264.821 +9.6239583385E-001 +1.6112872242E+001  +3.2828540171E-005 -1.6069223723E+002  +3.2025835171E-005 +8.2464729563E+001  +9.6236573857E-001 +1.6109533601E+001 
14369.488 +9.6453755031E-001 +1.6051592119E+001  +5.1717617735E-006 -4.3578813289E+001  +4.8553431843E-005 +2.1344282998E+001  +9.6457232016E-001 +1.6049947901E+001 
14474.924 +9.6634691647E-001 +1.5980614265E+001  +2.6636508243E-005 +1.1065974893E+002  +1.6722742049E-005 +1.1707021329E+002  +9.6617764058E-001 +1.5986888267E+001 
14581.133 +9.6845649673E-001 +1.5929802794E+001  +2.5308612608E-005 -1.4651358995E+002  +2.1193294828E-005 -9.6882575067E+001  +9.6825856576E-001 +1.5926998359E+001 
14688.121 +9.6987050790E-001 +1.5882369542E+001  +4.7826251424E-006 +7.5090921053E+001  +3.2626091837E-005 +3.9816944552E+001  +9.6978698901E-001 +1.5873723530E+001 
14795.895 +9.7168969083E-001 +1.5827176900E+001  +2.5310862283E-005 -1.0383336551E+002  +3.0191407073E-005 +6.1295933947E+001  +9.7191071799E-001 +1.5809912080E+001 
14904.459 +9.7385351417E-001 +1.5743432300E+001  +3.1879854743E-005 +1.4695365398E+002  +2.3325943275E-005 +3.7449941196E+001  +9.7367817197E-001 +1.5754269061E+001 
15013.820 +9.7574722616E-001 +1.5690333388E+001  +2.0490059811E-005 +5.6515628614E+001  +7.2591672613E-006 +1.5822143416E+002  +9.7567753136E-001 +1.5691463074E+001 
15123.983 +9.7755853065E-001 +1.5646783563E+001  +6.9861707278E-005 +5.1112224212E+001  +1.4330315094E-005 +3.1742049659E+001  +9.7748616396E-001 +1.5646484068E+001 
15234.954 +9.7943316801E-001 +1.5572412548E+001  +1.7018359506E-005 +1.0619493095E+002  +2.4194715315E-005 +7.6130014447E+001  +9.7949618366E-001 +1.5567546916E+001 
15346.740 +9.8129121802E-001 +1.5501936394E+001  +2.4031157166E-005 +4.5269766060E-001  +2.1658713901E-005 -7.0117616723E+001  +9.8128555300E-001 +1.5493123900E+001 
15459.346 +9.8308873376E-001 +1.5447621174E+001  +4.1376201055E-005 +1.4159601036E+002  +7.9543793164E-006 +1.3965960564E+002  +9.8326575064E-001 +1.5444772563E+001 
15572.778 +9.8522282416E-001 +1.5371890459E+001  +7.2117025864E-006 +2.3603196013E+001  +2.1021520227E-005 +8.1276653947E+001  +9.8489937241E-001 +1.5376448589E+001 
15687.043 +9.8693395728E-001 +1.5301754043E+001  +1.3841969298E-005 +1.7452310207E+002  +8.1685866497E-006 -9.2094771130E+001  +9.8687824282E-001 +1.5301903573E+001 
15802.146 +9.8887706111E-001 +1.5227314973E+001  +8.6122591759E-006 +2.5134036226E+001  +3.1565790379E-005 +4.2073298603E+001  +9.8875075103E-001 +1.5213267520E+001 
15918.093 +9.9067384027E-001 +1.5149560918E+001  +3.2357478016E-005 +9.3041613204E+001  +4.9214362320E-005 +8.3058325526E+001  +9.9057823845E-001 +1.5147064922E+001 
16034.892 +9.9255711620E-001 +1.5083685827E+001  +2.1235274121E-005 -1.1976077878E+002  +3.5601923878E-005 +7.8552130206E+001  +9.9243938730E-001 +1.5079227422E+001 
16152.547 +9.9446763050E-001 +1.5006939856E+001  +4.9936909476E-005 +6.0841040817E+001  +4.3990091376E-006 +3.7445822859E+001  +9.9430049344E-001 +1.5001865867E+001 
16271.065 +9.9628615856E-001 +1.4922610346E+001  +2.5296688133E-005 +1.4277801808E+002  +7.6314498459E-006 +5.0425618005E+000  +9.9611371150E-001 +1.4924652400E+001 
16390.454 +9.9815031674E-001 +1.4841155090E+001  +2.0783317019E-005 +1.4744770237E+001  +1.0658273365E-005 -3.3043644031E+000  +9.9776520137E-001 +1.4848921995E+001 
16510.718 +9.9988264176E-001 +1.4778058818E+001  +6.7260577395E-006 +1.4088390935E+002  +1.2350331025E-005 +1.4718405592E+002  +9.9962627528E-001 +1.4751572064E+001 
16631.864 +1.0017205244E+000 +1.4680248256E+001  +1.5239234955E-005 +1.3229573494E+002  +2.9355997155E-005 +1.6457109433E+002  +1.0015406808E+000 +1.4671300985E+001 
16753.900 +1.0034134600E+000 +1.4595555668E+001  +2.9065039719E-005 +3.0111888201E+001  +1.2181616699E-005 -2.6756722906E+001  +1.0034183332E+000 +1.4603955719E+001 
16876.831 +1.0051901445E+000 +1.4510941925E+001  +2.6786378575E-005 +1.6262408734E+002  +1.8169686461E-005 +1.6037748860E+001  +1.0051385602E+000 +1.4512462810E+001 
17000.664 +1.0070949400E+000 +1.4427431033E+001  +2.4142699014E-005 +9.9517313995E+001  +2.8699126274E-005 +1.1081945103E+002  +1.0069559175E+000 +1.4428807750E+001 
17125.405 +1.0087446031E+000 +1.4345033466E+001  +4.3948421390E-005 +1.2706394894E+002  +4.2752923992E-005 +9.6508235785E+000  +1.0086557307E+000 +1.4343837106E+001 
17251.062 +1.0107605514E+000 +1.4235973524E+001  +4.0048595147E-005 +1.2577743827E+002  +2.3761984167E-005 -2.5338577949E+001  +1.0104766568E+000 +1.4243685633E+001 
17377.641 +1.0124306012E+000 +1.4158616006E+001  +1.8832766697E-005 +1.7626997882E+002  +3.4579974213E-005 +3.9845170328E+001  +1.0123668185E+000 +1.4144547994E+001 
17505.149 +1.0144348269E+000 +1.4058430934E+001  +2.6633938426E-005 +1.4598755411E+002  +2.9914764398E-005 +6.5466246481E+001  +1.0140946023E+000 +1.4066815172E+001 
17633.592 +1.0158903482E+000 +1.3971342667E+001  +5.1149722511E-005 +7.5566345747E+001  +5.5879649735E-005 +1.2988623917E+002  +1.0158231437E+000 +1.3964878111E+001 
17762.977 +1.0174985750E+000 +1.3862009033E+001  +3.2324513937E-005 -8.7677025418E+001  +2.1882968314E-005 -1.3600187361E+002  +1.0176538279E+000 +1.3874803529E+001 
17893.312 +1.0193563276E+000 +1.3776100961E+001  +2.1513788873E-005 +1.7819608106E+002  +3.9272365179E-005 +4.3093069371E+001  +1.0193122705E+000 +1.3770670503E+001 
18024.604 +1.0210763961E+000 +1.3673190218E+001  +3.9093174529E-005 +1.4063270463E+002  +6.2502262962E-006 -1.7078638006E+002  +1.0211120383E+000 +1.3668266089E+001 
18156.858 +1.0229958474E+000 +1.3566473231E+001  +1.3007814199E-005 -1.1579931661E+000  +1.9455533441E-005 +1.2417297497E+002  +1.0228968362E+000 +1.3572566613E+001 
18290.084 +1.0246124306E+000 +1.3464488598E+001  +1.7429947990E-005 +1.0190647973E+001  +4.7901959533E-006 -9.3216880504E+001  +1.0244539877E+000 +1.3463870566E+001 
18424.286 +1.0262508017E+000 +1.3363514159E+001  +1.4887411921E-005 -1.4527240093E+002  +7.2841011084E-005 +8.6277789581E+001  +1.0261780635E+000 +1.3363927388E+001 
18559.473 +1.0279001894E+000 +1.3244849255E+001  +2.5040563353E-005 +1.3573458706E+001  +2.1174551294E-005 +1.6513437431E+002  +1.0279403057E+000 +1.3240717947E+001 
18695.653 +1.0295829693E+000 +1.3149473004E+001  +2.5666938523E-005 +3.4762315800E+001  +2.1745795252E-005 -1.7280437635E+002  +1.0297333143E+000 +1.3147085323E+001 
18832.831 +1.0312476447E+000 +1.3031364800E+001  +5.1660668169E-005 +1.4260836715E+002  +1.3434587000E-005 +8.5688021822E+001  +1.0314098987E+000 +1.3029486028E+001 
18971.016 +1.0329662589E+000 +1.2908172285E+001  +1.8891558915E-005 -1.2837314211E+002  +2.4538610783E-005 +1.0190405507E+002  +1.0329378887E+000 +1.2918292519E+001 
19110.215 +1.0343927056E+000 +1.2824565840E+001  +5.1669303258E-005 +4.9571636696E+001  +4.6213141394E-005 -1.2966323035E+002  +1.0343017863E+000 +1.2827907581E+001 
19250.435 +1.0352770184E+000 +1.2759820687E+001  +3.3909132534E-005 -1.7449917052E+002  +2.4272416807E-005 +6.4617965928E+001  +1.0353203657E+000 +1.2761661836E+001 
19391.685 +1.0366148766E+000 +1.2708635083E+001  +1.1083401069E-005 +1.0757314918E+002  +1.8822771471E-005 -1.5134694582E+002  +1.0364795978E+000 +1.2710042879E+001 
19533.970 +1.0375295347E+000 +1.2642956162E+001  +6.2093588277E-006 +4.6865604074E+001  +3.8671266866E-005 -1.6721047568E+002  +1.0377860990E+000 +1.2643197693E+001 
19677.300 +1.0388666627E+000 +1.2579408135E+001  +2.4305808212E-005 +1.3428888614E+002  +2.5556098025E-005 +7.0006855964E+001  +1.0388204465E+000 +1.2580151263E+001 
19821.681 +1.0399235991E+000 +1.2532167104E+001  +9.8239602634E-006 +9.9928745536E+001  +2.4930244598E-005 +1.0162526505E+002  +1.0398439585E+000 +1.2526833507E+001 
19967.122 +1.0409097325E+000 +1.2467658438E+001  +3.8016480923E-005 +3.5330821748E+001  +5.8290460096E-006 -8.0362013704E+001  +1.0408496824E+000 +1.2454950915E+001 
20113.629 +1.0419146071E+000 +1.2396609337E+001  +3.8776962142E-005 +7.3194947790E+001  +3.3931254793E-005 +1.1892631851E+002  +1.0419328593E+000 +1.2397969355E+001 
20261.212 +1.0430660937E+000 +1.2341681630E+001  +1.4379563226E-005 -1.3035136345E+001  +3.4733168337E-005 -1.4345480584E+002  +1.0428089426E+000 +1.2340109838E+001 
20409.878 +1.0443343170E+000 +1.2268113352E+001  +4.0460409990E-005 +9.1139600240E+001  +2.7763967829E-005 -1.6039715454E+002  +1.0440983965E+000 +1.2268887553E+001 
20559.634 +1.0454277339E+000 +1.2214058766E+001  +1.7249416906E-005 -6.5980775730E+001  +2.6222813864E-005 +1.0902535482E+002  +1.0450335592E+000 +1.2209277806E+001 
20710.490 +1.0463314917E+000 +1.2137570608E+001  +2.4409298232E-005 +1.6929780172E+000  +2.9129415907E-005 +1.1593775468E+002  +1.0461856862E+000 +1.2133696059E+001 
20862.452 +1.0472464552E+000 +1.2078826196E+001  +5.4120374738E-005 -1.5739149796E+002  +1.8644623244E-005 +4.1388059070E+001  +1.0471398722E+000 +1.2070616531E+001 
21015.529 +1.0484068773E+000 +1.1996226209E+001  +4.9959513387E-005 +4.2296696313E+001  +1.7322949307E-005 +6.4137883262E+001  +1.0483353202E+000 +1.2002395039E+001 
