!  2-Port S-parameters saved by WinCal
! VAR NAME=Wafer2_r10_c11_shortall
! VAR DATE=26/04/2024 16:52:53
! VAR FILENAME=Wafer2_r10_c11_shortall_1.S2P
! VAR MeasName=S-Parameters (CALIBRATED_DATA) read from VNA (P5004A)
! VAR MeasDate=26/04/2024 16:30:26
! VAR PHYS_PORTS=1,2
! VAR ObjTypeName=DATASET
! VAR IndexType=Frequency
!
# Hz S MA R 50
9000.000 +6.5951684524E-001 +1.4306443064E+002  +2.8422147411E-003 -4.9134937151E+001  +3.0009979124E-003 -4.9233703615E+001  +6.5922044741E-001 +1.4304915487E+002 
10013997.999 +9.9992687096E-001 +1.7986137958E+002  +4.4902798244E-003 -4.8921366325E-001  +4.4383780657E-003 +2.6156463706E-001  +9.9917607516E-001 +1.7988488298E+002 
20018995.998 +9.8336511382E-001 +1.7916381896E+002  +4.4372675284E-003 -4.3486529835E-001  +4.3773090872E-003 -2.6650296082E-001  +9.8273056367E-001 +1.7915832470E+002 
30023993.997 +9.7295387044E-001 +1.7925842111E+002  +4.3441329820E-003 -5.2961529853E-001  +4.3614610822E-003 +4.0634260899E-002  +9.7191403451E-001 +1.7925088238E+002 
40028991.996 +9.6638607978E-001 +1.7971827159E+002  +4.3125842148E-003 -7.6165330272E-003  +4.3450190767E-003 +2.8374195092E-001  +9.6547322209E-001 +1.7972045654E+002 
50033989.995 +9.6672572052E-001 -1.7972543417E+002  +4.3126755664E-003 +7.0458124294E-001  +4.3505085720E-003 +7.1429804553E-001  +9.6592065600E-001 -1.7973108949E+002 
60038987.994 +9.7229764325E-001 -1.7929308422E+002  +4.3390991567E-003 +1.2701377049E+000  +4.3672137903E-003 +9.6537835872E-001  +9.7162534846E-001 -1.7929404680E+002 
70043985.993 +9.8175271686E-001 -1.7914698162E+002  +4.3741599802E-003 +1.6317263028E+000  +4.3894140974E-003 +1.0420732509E+000  +9.8081976839E-001 -1.7913180755E+002 
80048983.992 +9.9201249377E-001 -1.7940883444E+002  +4.4317721718E-003 +1.5394922971E+000  +4.4164682970E-003 +9.4223709438E-001  +9.9116449942E-001 -1.7939569835E+002 
90053981.991 +9.9726602666E-001 +1.7995337965E+002  +4.4684097752E-003 +9.3215901498E-001  +4.4256011116E-003 +5.2305401995E-001  +9.9690221784E-001 +1.7996117625E+002 
100058979.990 +9.9359482387E-001 +1.7923625157E+002  +4.4548262886E-003 +9.6644750594E-002  +4.4086265451E-003 +1.3788589636E-001  +9.9326456585E-001 +1.7923917655E+002 
110063977.989 +9.8199921689E-001 +1.7884231279E+002  +4.3984193062E-003 -3.2880762230E-001  +4.3509437577E-003 +6.7962091008E-002  +9.8134996599E-001 +1.7883722547E+002 
120068975.988 +9.6949623225E-001 +1.7901169557E+002  +4.3297518005E-003 -5.4403776758E-002  +4.3119602564E-003 +5.1367788723E-001  +9.6873120341E-001 +1.7900358299E+002 
130073973.987 +9.6234518438E-001 +1.7959166340E+002  +4.2892695047E-003 +6.1529127677E-001  +4.3048248150E-003 +1.2116091395E+000  +9.6173834966E-001 +1.7957733514E+002 
140078971.986 +9.6283024033E-001 -1.7973412980E+002  +4.2913619813E-003 +1.4427899149E+000  +4.3260237155E-003 +1.7558909298E+000  +9.6223744028E-001 -1.7973987269E+002 
150083969.985 +9.6939690789E-001 -1.7919572576E+002  +4.3152349233E-003 +2.0714135154E+000  +4.3553863934E-003 +2.0604159950E+000  +9.6853344670E-001 -1.7919272888E+002 
160088967.984 +9.8073683870E-001 -1.7897094189E+002  +4.3593488195E-003 +2.6169660097E+000  +4.3906785969E-003 +2.1738198290E+000  +9.7984643818E-001 -1.7896533556E+002 
170093965.983 +9.9318595992E-001 -1.7919922574E+002  +4.4274419175E-003 +2.5698617843E+000  +4.4299472108E-003 +2.0123850177E+000  +9.9266391702E-001 -1.7918303683E+002 
180098963.982 +1.0016368828E+000 -1.7989478022E+002  +4.4705608219E-003 +2.0241244088E+000  +4.4483849581E-003 +1.5832543186E+000  +1.0011919610E+000 -1.7988172676E+002 
190103961.981 +9.9980567979E-001 +1.7918766959E+002  +4.4770314983E-003 +1.0485466182E+000  +4.4375821493E-003 +7.4431740109E-001  +9.9924523722E-001 +1.7919098402E+002 
200108959.980 +9.8731956596E-001 +1.7854325262E+002  +4.4145847782E-003 +2.8051946063E-001  +4.3707586303E-003 +3.9996010446E-001  +9.8664612418E-001 +1.7854786551E+002 
210113957.979 +9.7117137269E-001 +1.7855633649E+002  +4.3360561342E-003 +4.0848374641E-001  +4.2976715770E-003 +7.6908400846E-001  +9.7057974602E-001 +1.7854294890E+002 
220118955.978 +9.5968833126E-001 +1.7914936050E+002  +4.2767787037E-003 +1.0898057322E+000  +4.2648584088E-003 +1.6124645626E+000  +9.5920168499E-001 +1.7913054363E+002 
230123953.977 +9.5695907384E-001 +1.7997893578E+002  +4.2627190488E-003 +2.0337920082E+000  +4.2777569837E-003 +2.4600365492E+000  +9.5629540824E-001 +1.7996723272E+002 
240128951.976 +9.6260420868E-001 -1.7925731645E+002  +4.2815335892E-003 +2.8113777345E+000  +4.3201976872E-003 +3.0813029082E+000  +9.6150434220E-001 -1.7926617834E+002 
250133949.975 +9.7458629714E-001 -1.7880187428E+002  +4.3261412878E-003 +3.4613335089E+000  +4.3645108577E-003 +3.2910693075E+000  +9.7366795707E-001 -1.7880638178E+002 
260138947.974 +9.8986864729E-001 -1.7883598060E+002  +4.3851516039E-003 +3.6993073621E+000  +4.4122082649E-003 +3.1804540098E+000  +9.8923488022E-001 -1.7882593848E+002 
270143945.973 +1.0031866069E+000 -1.7944261902E+002  +4.4551260129E-003 +3.2860200595E+000  +4.4543238147E-003 +2.6566172668E+000  +1.0026171469E+000 -1.7942929871E+002 
280148943.972 +1.0074256577E+000 +1.7950066323E+002  +4.4909715582E-003 +2.3455146263E+000  +4.4612111685E-003 +1.8460019529E+000  +1.0065591381E+000 +1.7951940360E+002 
290153941.971 +9.9791007645E-001 +1.7849663296E+002  +4.4545228600E-003 +1.2496014977E+000  +4.4088655713E-003 +1.0366732639E+000  +9.9721497442E-001 +1.7850066700E+002 
300158939.970 +9.7917090289E-001 +1.7808846182E+002  +4.3593490896E-003 +7.8421794548E-001  +4.3209370761E-003 +9.4448944234E-001  +9.7879604467E-001 +1.7808559559E+002 
310163937.969 +9.6145367931E-001 +1.7847076804E+002  +4.2787484845E-003 +1.2294739651E+000  +4.2511033736E-003 +1.7378426701E+000  +9.6110555234E-001 +1.7846459201E+002 
320168935.968 +9.5257856602E-001 +1.7937944197E+002  +4.2324589470E-003 +2.2353383809E+000  +4.2278366052E-003 +2.8124575523E+000  +9.5190976945E-001 +1.7936338091E+002 
330173933.967 +9.5391245916E-001 -1.7962032844E+002  +4.2333208562E-003 +3.3129805261E+000  +4.2526112737E-003 +3.7779043610E+000  +9.5308918018E-001 -1.7963187361E+002 
340178931.966 +9.6425645856E-001 -1.7883904410E+002  +4.2657756465E-003 +4.1437920749E+000  +4.2993354931E-003 +4.2945093277E+000  +9.6355125189E-001 -1.7884184211E+002 
350183929.965 +9.8093901001E-001 -1.7850972634E+002  +4.3276918980E-003 +4.7609742784E+000  +4.3563459005E-003 +4.4774376618E+000  +9.8021648614E-001 -1.7851574524E+002 
360188927.964 +9.9913378265E-001 -1.7884102246E+002  +4.4066698819E-003 +4.7491956446E+000  +4.4259898653E-003 +4.2369313950E+000  +9.9827236053E-001 -1.7883281610E+002 
370193925.963 +1.0114744222E+000 -1.7982312610E+002  +4.4701349043E-003 +3.8810650861E+000  +4.4689822388E-003 +3.3871703809E+000  +1.0105349285E+000 -1.7982096437E+002 
380198923.962 +1.0098707950E+000 +1.7888111912E+002  +4.4746514808E-003 +2.6184471644E+000  +4.4503227161E-003 +2.2088772609E+000  +1.0092810378E+000 +1.7888852502E+002 
390203921.961 +9.9342884097E-001 +1.7791964217E+002  +4.4002573771E-003 +1.6347062782E+000  +4.3530465305E-003 +1.4919906557E+000  +9.9308834225E-001 +1.7792086033E+002 
400208919.960 +9.7092617393E-001 +1.7780481913E+002  +4.2919965824E-003 +1.6771556784E+000  +4.2570702155E-003 +1.7927338334E+000  +9.7049657428E-001 +1.7780199110E+002 
410213917.959 +9.5349834537E-001 +1.7852373423E+002  +4.2186216299E-003 +2.4601589063E+000  +4.1913647601E-003 +2.8157831448E+000  +9.5310818166E-001 +1.7850984810E+002 
420218915.958 +9.4718471423E-001 +1.7964586345E+002  +4.1810317190E-003 +3.5903160459E+000  +4.1849453830E-003 +4.0683869365E+000  +9.4671165215E-001 +1.7962905279E+002 
430223913.957 +9.5229532395E-001 -1.7924520198E+002  +4.1963065378E-003 +4.7755530522E+000  +4.2148900234E-003 +5.1174500505E+000  +9.5180870023E-001 -1.7926130255E+002 
440228911.956 +9.6676590945E-001 -1.7847744205E+002  +4.2501944316E-003 +5.6628494892E+000  +4.2841474600E-003 +5.7634294087E+000  +9.6615123641E-001 -1.7848756774E+002 
450233909.955 +9.8746384309E-001 -1.7830660690E+002  +4.3262435792E-003 +6.1725674540E+000  +4.3619556478E-003 +5.8857914081E+000  +9.8659569660E-001 -1.7831644211E+002 
460238907.954 +1.0078329089E+000 -1.7892601676E+002  +4.4219802031E-003 +5.7597822397E+000  +4.4379037099E-003 +5.2914428752E+000  +1.0069548422E+000 -1.7892329250E+002 
470243905.953 +1.0181814400E+000 +1.7976642570E+002  +4.4756503379E-003 +4.6349864415E+000  +4.4691895811E-003 +4.0908409541E+000  +1.0175233515E+000 +1.7976380607E+002 
480248903.952 +1.0108884370E+000 +1.7830194455E+002  +4.4521743461E-003 +3.1474808627E+000  +4.4237060972E-003 +2.7959235932E+000  +1.0104058266E+000 +1.7830483304E+002 
490253901.951 +9.8858511685E-001 +1.7744701420E+002  +4.3446891250E-003 +2.3029724701E+000  +4.3053793806E-003 +2.2442619531E+000  +9.8817907233E-001 +1.7744465164E+002 
500258899.950 +9.6315549215E-001 +1.7760597811E+002  +4.2293171055E-003 +2.6762912081E+000  +4.1901892713E-003 +2.8758935382E+000  +9.6286802059E-001 +1.7760036053E+002 
510263897.949 +9.4652104754E-001 +1.7860018839E+002  +4.1442925601E-003 +3.8199597208E+000  +4.1311037944E-003 +4.2066342215E+000  +9.4614159559E-001 +1.7858362656E+002 
520268895.948 +9.4277831089E-001 +1.7990806504E+002  +4.1294840549E-003 +5.2489112397E+000  +4.1309303106E-003 +5.5882100700E+000  +9.4233926020E-001 +1.7989746983E+002 
530273893.947 +9.5142517434E-001 -1.7889366003E+002  +4.1551673301E-003 +6.4716102776E+000  +4.1746281338E-003 +6.7806388895E+000  +9.5081985273E-001 -1.7891142233E+002 
540278891.946 +9.7015543801E-001 -1.7814983509E+002  +4.2244919291E-003 +7.4787230421E+000  +4.2589067966E-003 +7.5262547628E+000  +9.6944696829E-001 -1.7816549904E+002 
550283889.945 +9.9459997968E-001 -1.7815595460E+002  +4.3290091472E-003 +7.9147751066E+000  +4.3545423301E-003 +7.6985167675E+000  +9.9391337211E-001 -1.7816928566E+002 
560288887.944 +1.0161699344E+000 -1.7908319997E+002  +4.4422672893E-003 +7.2044556450E+000  +4.4489601580E-003 +6.8326999232E+000  +1.0153641315E+000 -1.7908433590E+002 
570293885.943 +1.0235382355E+000 +1.7932205984E+002  +4.4899753587E-003 +5.6749204464E+000  +4.4795468616E-003 +5.2998894480E+000  +1.0229838475E+000 +1.7932331249E+002 
580298883.942 +1.0103533944E+000 +1.7776428640E+002  +4.4377247385E-003 +4.0801169735E+000  +4.4071413591E-003 +3.9201888465E+000  +1.0099729555E+000 +1.7777034875E+002 
590303881.941 +9.8313560059E-001 +1.7707381819E+002  +4.3112082871E-003 +3.5014998356E+000  +4.2784111587E-003 +3.4148842440E+000  +9.8295209856E-001 +1.7706679204E+002 
600308879.940 +9.5647418434E-001 +1.7750222538E+002  +4.1925525750E-003 +4.1555514193E+000  +4.1648395719E-003 +4.2809839774E+000  +9.5618129893E-001 +1.7749773287E+002 
610313877.939 +9.4120449985E-001 +1.7870902080E+002  +4.1314151699E-003 +5.3231201435E+000  +4.1134548862E-003 +5.7128573432E+000  +9.4081140299E-001 +1.7870233515E+002 
620318875.938 +9.4020396994E-001 -1.7984185347E+002  +4.1216030810E-003 +6.7062182404E+000  +4.1331063481E-003 +7.0481741723E+000  +9.3977878828E-001 -1.7985755961E+002 
630323873.937 +9.5195229120E-001 -1.7860859089E+002  +4.1655439189E-003 +8.0204569728E+000  +4.1868077276E-003 +8.1446895226E+000  +9.5135031753E-001 -1.7861785606E+002 
640328871.936 +9.7393044732E-001 -1.7792158951E+002  +4.2379935965E-003 +8.8394662040E+000  +4.2626372352E-003 +8.7682775231E+000  +9.7325990385E-001 -1.7793308174E+002 
650333869.935 +1.0008468866E+000 -1.7810734767E+002  +4.3502851512E-003 +9.1371483253E+000  +4.3700468581E-003 +8.8109753116E+000  +1.0001600327E+000 -1.7812242052E+002 
660338867.934 +1.0227092502E+000 -1.7928875473E+002  +4.4564779810E-003 +8.2590135930E+000  +4.4591794472E-003 +7.8345816649E+000  +1.0222420704E+000 -1.7930052507E+002 
670343865.933 +1.0269637524E+000 +1.7888392225E+002  +4.4884619145E-003 +6.4728136613E+000  +4.4766517238E-003 +6.1292626564E+000  +1.0266230326E+000 +1.7888447675E+002 
680348863.932 +1.0085795013E+000 +1.7729687157E+002  +4.4082109564E-003 +4.8232618882E+000  +4.3884581951E-003 +4.6628635680E+000  +1.0082817417E+000 +1.7729543693E+002 
690353861.931 +9.7787977961E-001 +1.7676352677E+002  +4.2685107868E-003 +4.3695052107E+000  +4.2431245689E-003 +4.4293414355E+000  +9.7735883153E-001 +1.7676310089E+002 
700358859.930 +9.5061156706E-001 +1.7743358915E+002  +4.1460793311E-003 +5.3219572187E+000  +4.1214218819E-003 +5.4925853173E+000  +9.4997503301E-001 +1.7742713897E+002 
710363857.929 +9.3685936601E-001 +1.7882697776E+002  +4.0895380795E-003 +6.7899492537E+000  +4.0818485404E-003 +7.1309768764E+000  +9.3645287655E-001 +1.7881851671E+002 
720368855.928 +9.3812398192E-001 -1.7962357110E+002  +4.0953886241E-003 +8.3305295487E+000  +4.0975888749E-003 +8.6311133759E+000  +9.3765686257E-001 -1.7963642641E+002 
730373853.927 +9.5270678530E-001 -1.7837002237E+002  +4.1389058600E-003 +9.5936654453E+000  +4.1580434762E-003 +9.7628608836E+000  +9.5193511854E-001 -1.7837953223E+002 
740378851.926 +9.7761428358E-001 -1.7775116364E+002  +4.2204996298E-003 +1.0487315813E+001  +4.2438969946E-003 +1.0437153807E+001  +9.7690581532E-001 -1.7776187728E+002 
750383849.925 +1.0068970065E+000 -1.7811323167E+002  +4.3438375928E-003 +1.0663641871E+001  +4.3562266808E-003 +1.0490264891E+001  +1.0063570076E+000 -1.7812281749E+002 
760388847.924 +1.0286715314E+000 -1.7953823733E+002  +4.4572031868E-003 +9.6367296170E+000  +4.4616140617E-003 +9.4325252773E+000  +1.0280421485E+000 -1.7953616072E+002 
770393845.923 +1.0294827091E+000 +1.7847497201E+002  +4.4852403812E-003 +7.8292138181E+000  +4.4691146869E-003 +7.5523273776E+000  +1.0286721930E+000 +1.7846891967E+002 
780398843.922 +1.0065414907E+000 +1.7689668866E+002  +4.3934988621E-003 +6.2162572183E+000  +4.3705466972E-003 +6.1004213270E+000  +1.0056560080E+000 +1.7689745089E+002 
790403841.921 +9.7292985372E-001 +1.7653824173E+002  +4.2523490335E-003 +5.9426304254E+000  +4.2273894635E-003 +6.0162288085E+000  +9.7240328647E-001 +1.7653099131E+002 
800408839.920 +9.4562922849E-001 +1.7740239859E+002  +4.1377861897E-003 +6.9562970858E+000  +4.1251842110E-003 +7.1467877607E+000  +9.4535094966E-001 +1.7740151770E+002 
810413837.919 +9.3323831448E-001 +1.7894686897E+002  +4.0913334930E-003 +8.4697852485E+000  +4.0893476068E-003 +8.7365289400E+000  +9.3281140568E-001 +1.7893560139E+002 
820418835.918 +9.3683594560E-001 -1.7943211449E+002  +4.0997019795E-003 +1.0058548833E+001  +4.1093671626E-003 +1.0201144052E+001  +9.3581844629E-001 -1.7944778286E+002 
830423833.917 +9.5374087083E-001 -1.7816567066E+002  +4.1618547829E-003 +1.1323248090E+001  +4.1750466648E-003 +1.1336777212E+001  +9.5308594566E-001 -1.7817017515E+002 
840428831.916 +9.8124698416E-001 -1.7761667093E+002  +4.2548667195E-003 +1.2085376291E+001  +4.2742325565E-003 +1.1991492910E+001  +9.8064454275E-001 -1.7762166284E+002 
850433829.915 +1.0123135679E+000 -1.7814010964E+002  +4.3927648121E-003 +1.1953121834E+001  +4.3948408329E-003 +1.1761834073E+001  +1.0115293412E+000 -1.7815119089E+002 
860438827.914 +1.0334359647E+000 -1.7976454479E+002  +4.5048746774E-003 +1.0628995639E+001  +4.4944423194E-003 +1.0457145407E+001  +1.0327115916E+000 -1.7977513217E+002 
870443825.913 +1.0309490529E+000 +1.7809245865E+002  +4.5059439281E-003 +8.4954542640E+000  +4.4914768944E-003 +8.4032863493E+000  +1.0302465958E+000 +1.7808597109E+002 
880448823.912 +1.0039399646E+000 +1.7654805718E+002  +4.3877822586E-003 +6.8628165998E+000  +4.3738632112E-003 +6.9987595674E+000  +1.0035097750E+000 +1.7654705630E+002 
890453821.911 +9.6825887298E-001 +1.7636272209E+002  +4.2295934421E-003 +6.9099595454E+000  +4.2165673954E-003 +7.0127020209E+000  +9.6791753226E-001 +1.7635778733E+002 
900458819.910 +9.4148108846E-001 +1.7740678279E+002  +4.1156324332E-003 +8.0711894689E+000  +4.1063474334E-003 +8.2690251169E+000  +9.4073777599E-001 +1.7739908702E+002 
910463817.909 +9.3092189363E-001 +1.7907196626E+002  +4.0789926900E-003 +9.8407491720E+000  +4.0771223758E-003 +9.9733630181E+000  +9.3018196156E-001 +1.7905809995E+002 
920468815.908 +9.3655908611E-001 -1.7927812687E+002  +4.0978980628E-003 +1.1367775740E+001  +4.1022053602E-003 +1.1383879893E+001  +9.3605895297E-001 -1.7929132968E+002 
930473813.907 +9.5552674597E-001 -1.7804422682E+002  +4.1562614792E-003 +1.2581581140E+001  +4.1657767521E-003 +1.2498432128E+001  +9.5505134634E-001 -1.7805202055E+002 
940478811.906 +9.8471150829E-001 -1.7759196373E+002  +4.2598565972E-003 +1.3368312273E+001  +4.2668331728E-003 +1.3185346301E+001  +9.8404686937E-001 -1.7760305288E+002 
950483809.905 +1.0162672128E+000 -1.7824865775E+002  +4.3948672512E-003 +1.3189035341E+001  +4.3846212170E-003 +1.2975859857E+001  +1.0153610190E+000 -1.7826283564E+002 
960488807.904 +1.0363988125E+000 +1.7998329326E+002  +4.4999842341E-003 +1.1707226125E+001  +4.4818246445E-003 +1.1609741018E+001  +1.0357747242E+000 +1.7997067946E+002 
970493805.903 +1.0312404649E+000 +1.7777124574E+002  +4.4964485212E-003 +9.5024357733E+000  +4.4780235297E-003 +9.5504794236E+000  +1.0307439893E+000 +1.7776760032E+002 
980498803.902 +1.0013496711E+000 +1.7626850860E+002  +4.3627009480E-003 +7.9610674452E+000  +4.3442511548E-003 +8.0953322831E+000  +1.0007983915E+000 +1.7626307676E+002 
990503801.901 +9.6428216069E-001 +1.7621202590E+002  +4.1941439542E-003 +8.0952167969E+000  +4.1856809114E-003 +8.2309623800E+000  +9.6353285460E-001 +1.7620285249E+002 
1000508799.900 +9.3783681116E-001 +1.7741712261E+002  +4.0773887524E-003 +9.5058926190E+000  +4.0739073983E-003 +9.7007456011E+000  +9.3722023388E-001 +1.7740566131E+002 
1010513797.899 +9.2889877273E-001 +1.7917325832E+002  +4.0424352556E-003 +1.1348912193E+001  +4.0524984653E-003 +1.1455646265E+001  +9.2854731356E-001 +1.7916511432E+002 
1020518795.898 +9.3654909290E-001 -1.7914256347E+002  +4.0673617674E-003 +1.2939319258E+001  +4.0803771274E-003 +1.2947713479E+001  +9.3595496994E-001 -1.7915203068E+002 
1030523793.897 +9.5736509555E-001 -1.7794908042E+002  +4.1288838940E-003 +1.4234924507E+001  +4.1435033853E-003 +1.4018858504E+001  +9.5675588139E-001 -1.7795711223E+002 
1040528791.896 +9.8780551361E-001 -1.7758933558E+002  +4.2403969167E-003 +1.5043050940E+001  +4.2343016878E-003 +1.4764626020E+001  +9.8722328689E-001 -1.7760207573E+002 
1050533789.895 +1.0196974011E+000 -1.7837624382E+002  +4.3801656972E-003 +1.4889795550E+001  +4.3633896893E-003 +1.4609117829E+001  +1.0192668155E+000 -1.7837992855E+002 
1060538787.894 +1.0385721104E+000 +1.7973339847E+002  +4.4824902374E-003 +1.3377098221E+001  +4.4610669594E-003 +1.3224006970E+001  +1.0381290925E+000 +1.7972540587E+002 
1070543785.893 +1.0308305953E+000 +1.7748130556E+002  +4.4634948717E-003 +1.1098514374E+001  +4.4504242188E-003 +1.1206251364E+001  +1.0299830692E+000 +1.7746621494E+002 
1080548783.892 +9.9860905477E-001 +1.7604163301E+002  +4.3245788207E-003 +9.7834579955E+000  +4.3139415570E-003 +9.9373407731E+000  +9.9792689298E-001 +1.7603338618E+002 
1090553781.891 +9.6067644027E-001 +1.7612119576E+002  +4.1567842925E-003 +1.0079298763E+001  +4.1598777055E-003 +1.0284350548E+001  +9.6013417212E-001 +1.7610927348E+002 
1100558779.890 +9.3509438347E-001 +1.7745365209E+002  +4.0599377401E-003 +1.1730871417E+001  +4.0688464428E-003 +1.1872857520E+001  +9.3458547346E-001 +1.7744853005E+002 
1110563777.889 +9.2788569329E-001 +1.7927895575E+002  +4.0463398075E-003 +1.3592542548E+001  +4.0606025927E-003 +1.3651693482E+001  +9.2739097121E-001 +1.7927237298E+002 
1120568775.888 +9.3732824491E-001 -1.7904937689E+002  +4.0961485479E-003 +1.5160342386E+001  +4.1022853228E-003 +1.5110798137E+001  +9.3664702525E-001 -1.7905940640E+002 
1130573773.887 +9.5952049339E-001 -1.7791736054E+002  +4.1720382045E-003 +1.6326751442E+001  +4.1798443348E-003 +1.6099108465E+001  +9.5915963653E-001 -1.7792926664E+002 
