!  2-Port S-parameters saved by WinCal
! VAR MeasName=S-Parameters (CALIBRATED_DATA) read from VNA (P5004A)
! VAR MeasDate=26/04/2024 17:48:02
! VAR NAME=Wafer2_r1_c7_pristine
! VAR FILENAME=Wafer2_r1_c7_pristine_1.S2P
! VAR DATE=26/04/2024 17:48:02
! VAR PHYS_PORTS=1,2
! VAR ObjTypeName=DATASET
! VAR IndexType=Frequency
!
# Hz S MA R 50
9000.000 +7.9703010513E-001 +1.7513243725E+001  +1.5519271499E-005 +9.2326697136E+001  +2.0122904744E-005 +6.0240784834E+001  +7.9709445273E-001 +1.7513393682E+001 
10013997.999 +9.8057408256E-001 -1.8329919722E-001  +4.5787016850E-003 +8.8876885144E+001  +4.6177781771E-003 +8.8510420317E+001  +9.8066017046E-001 -1.8144784860E-001 
20018995.998 +9.9485143757E-001 +2.1218676582E-001  +9.2949432502E-003 +8.9004860145E+001  +9.2941609410E-003 +8.8448129481E+001  +9.9479683905E-001 +2.1947289866E-001 
30023993.997 +1.0051534879E+000 -9.4996524908E-002  +1.4007766328E-002 +8.8684605864E+001  +1.3883451095E-002 +8.8172160324E+001  +1.0050017035E+000 -7.5555038655E-002 
40028991.996 +1.0128956295E+000 -8.1110291119E-001  +1.8710520179E-002 +8.8017266648E+001  +1.8602826962E-002 +8.7536838676E+001  +1.0128344770E+000 -7.8104200785E-001 
50033989.995 +1.0135916307E+000 -1.7109853474E+000  +2.3343901768E-002 +8.7009076247E+001  +2.3124551176E-002 +8.6879179512E+001  +1.0136861850E+000 -1.6772137997E+000 
60038987.994 +1.0066880042E+000 -2.5421940500E+000  +2.7739895623E-002 +8.6160044985E+001  +2.7486699744E-002 +8.6387631497E+001  +1.0068424119E+000 -2.4983797085E+000 
70043985.993 +9.9448680451E-001 -2.9311077874E+000  +3.1917492685E-002 +8.5700844908E+001  +3.1746673402E-002 +8.6200709003E+001  +9.9484049774E-001 -2.8939651264E+000 
80048983.992 +9.8452343380E-001 -2.7965614051E+000  +3.6018426267E-002 +8.5872279940E+001  +3.6083664016E-002 +8.6435936870E+001  +9.8487779435E-001 -2.7698609023E+000 
90053981.991 +9.8146406862E-001 -2.4508133219E+000  +4.0361263724E-002 +8.6168810413E+001  +4.0701113178E-002 +8.6549538390E+001  +9.8172037629E-001 -2.4286013403E+000 
100058979.990 +9.8548176289E-001 -2.1453121602E+000  +4.4977330904E-002 +8.6384162212E+001  +4.5426870823E-002 +8.6364751565E+001  +9.8541331628E-001 -2.1307705349E+000 
110063977.989 +9.9456300039E-001 -2.0790800965E+000  +4.9804848345E-002 +8.6388024909E+001  +5.0239710528E-002 +8.6029765365E+001  +9.9415727687E-001 -2.0645963763E+000 
120068975.988 +1.0060638162E+000 -2.4243770004E+000  +5.4858611679E-002 +8.6072345625E+001  +5.4948852332E-002 +8.5480425877E+001  +1.0055684677E+000 -2.3831502638E+000 
130073973.987 +1.0150204699E+000 -3.2276726481E+000  +5.9981274251E-002 +8.5297311150E+001  +5.9666757913E-002 +8.4781280455E+001  +1.0145143615E+000 -3.1547696410E+000 
140078971.986 +1.0157553754E+000 -4.3293006551E+000  +6.4613117952E-002 +8.4150961537E+001  +6.4005801516E-002 +8.3858081916E+001  +1.0154503966E+000 -4.2306969141E+000 
150083969.985 +1.0060919636E+000 -5.3076220610E+000  +6.8440902231E-002 +8.3124368113E+001  +6.7713863735E-002 +8.3177108283E+001  +1.0062627164E+000 -5.1924372236E+000 
160088967.984 +9.9034370466E-001 -5.7165549858E+000  +7.1714997589E-002 +8.2694258255E+001  +7.1164451680E-002 +8.3087551021E+001  +9.9101134051E-001 -5.6056512293E+000 
170093965.983 +9.7762919593E-001 -5.5299909023E+000  +7.5122870093E-002 +8.2946759953E+001  +7.4952560395E-002 +8.3523463488E+001  +9.7838779261E-001 -5.4464110034E+000 
180098963.982 +9.7296941321E-001 -5.0313279307E+000  +7.9215999365E-002 +8.3449960553E+001  +7.9561622825E-002 +8.3951896810E+001  +9.7367354294E-001 -4.9727502433E+000 
190103961.981 +9.7667380267E-001 -4.5545841387E+000  +8.3934968266E-002 +8.3801127028E+001  +8.4686989132E-002 +8.4040867437E+001  +9.7690055776E-001 -4.5223909839E+000 
200108959.980 +9.8689665794E-001 -4.3456149661E+000  +8.9076079261E-002 +8.3960334401E+001  +8.9912219483E-002 +8.3770626483E+001  +9.8649183010E-001 -4.3107364210E+000 
210113957.979 +1.0002641061E+000 -4.5688275795E+000  +9.4638989027E-002 +8.3751270966E+001  +9.5186653898E-002 +8.3243064716E+001  +9.9946192503E-001 -4.5183787748E+000 
220118955.978 +1.0125441025E+000 -5.3383360500E+000  +1.0039995986E-001 +8.3013007739E+001  +1.0032048713E-001 +8.2413655040E+001  +1.0113652253E+000 -5.2362281427E+000 
230123953.977 +1.0168488424E+000 -6.5434440803E+000  +1.0547637928E-001 +8.1781572499E+001  +1.0478167155E-001 +8.1311804985E+001  +1.0158723017E+000 -6.3948259953E+000 
240128951.976 +1.0086224487E+000 -7.7634847802E+000  +1.0907572211E-001 +8.0439245931E+001  +1.0793913428E-001 +8.0273310810E+001  +1.0083279482E+000 -7.5851491555E+000 
250133949.975 +9.9077029481E-001 -8.4776978219E+000  +1.1130475599E-001 +7.9707018750E+001  +1.1018982060E-001 +7.9903263974E+001  +9.9141791895E-001 -8.2907742224E+000 
260138947.974 +9.7305351783E-001 -8.4264224419E+000  +1.1352026827E-001 +7.9847465301E+001  +1.1280007616E-001 +8.0351283751E+001  +9.7419200050E-001 -8.2708009711E+000 
270143945.973 +9.6339210718E-001 -7.8521051541E+000  +1.1683892121E-001 +8.0469646506E+001  +1.1679136378E-001 +8.1056170184E+001  +9.6466222532E-001 -7.7399660560E+000 
280148943.972 +9.6389371841E-001 -7.1626844536E+000  +1.2132195541E-001 +8.1094247856E+001  +1.2205939683E-001 +8.1538443204E+001  +9.6485362891E-001 -7.0876052295E+000 
290153941.971 +9.7305477564E-001 -6.6950039389E+000  +1.2673626768E-001 +8.1437900604E+001  +1.2798456495E-001 +8.1544973482E+001  +9.7341423976E-001 -6.6444285120E+000 
300158939.970 +9.8803849682E-001 -6.6726982333E+000  +1.3279817684E-001 +8.1426206139E+001  +1.3395988305E-001 +8.1178780916E+001  +9.8750022326E-001 -6.6155019777E+000 
310163937.969 +1.0039707788E+000 -7.2473663126E+000  +1.3931682975E-001 +8.0915787894E+001  +1.3988919807E-001 +8.0407663020E+001  +1.0026670264E+000 -7.1415562227E+000 
320168935.968 +1.0138831388E+000 -8.4055167797E+000  +1.4537075678E-001 +7.9758462129E+001  +1.4512436222E-001 +7.9235053463E+001  +1.0123623642E+000 -8.2497359919E+000 
330173933.967 +1.0114020544E+000 -9.8477831682E+000  +1.4968525573E-001 +7.8222138633E+001  +1.4863384139E-001 +7.7840465062E+001  +1.0104237141E+000 -9.6306226815E+000 
340178931.966 +9.9525375229E-001 -1.0991751067E+001  +1.5141297584E-001 +7.7013038047E+001  +1.5003860589E-001 +7.6915261183E+001  +9.9519747850E-001 -1.0750839160E+001 
350183929.965 +9.7294689755E-001 -1.1337301692E+001  +1.5208043662E-001 +7.6698282615E+001  +1.5076146322E-001 +7.6940107934E+001  +9.7389777451E-001 -1.1100139785E+001 
360188927.964 +9.5595721508E-001 -1.0879503555E+001  +1.5367952931E-001 +7.7258772973E+001  +1.5293094826E-001 +7.7730162430E+001  +9.5752444325E-001 -1.0691237595E+001 
370193925.963 +9.5026426710E-001 -1.0034835195E+001  +1.5723603651E-001 +7.8094101193E+001  +1.5734086671E-001 +7.8622318440E+001  +9.5184655488E-001 -9.8969754661E+000 
380198923.962 +9.5582326034E-001 -9.2565401526E+000  +1.6243878237E-001 +7.8745880968E+001  +1.6344426946E-001 +7.9107756266E+001  +9.5686143189E-001 -9.1613299983E+000 
390203921.961 +9.6982048207E-001 -8.8683983952E+000  +1.6888158488E-001 +7.9036998210E+001  +1.7036551437E-001 +7.9082669463E+001  +9.6997697789E-001 -8.7995554154E+000 
400208919.960 +9.8814079542E-001 -9.0913749831E+000  +1.7612270444E-001 +7.8844459458E+001  +1.7736627167E-001 +7.8576090897E+001  +9.8740247746E-001 -8.9998531936E+000 
410213917.959 +1.0044872433E+000 -1.0005600283E+001  +1.8357347069E-001 +7.7991559010E+001  +1.8404884185E-001 +7.7535684588E+001  +1.0028306310E+000 -9.8697062920E+000 
420218915.958 +1.0108115696E+000 -1.1491338071E+001  +1.8945855488E-001 +7.6459137848E+001  +1.8897102760E-001 +7.6003504831E+001  +1.0090602474E+000 -1.1288680799E+001 
430223913.957 +1.0012788403E+000 -1.3048815634E+001  +1.9207265196E-001 +7.4778739810E+001  +1.9076690447E-001 +7.4513255110E+001  +1.0003235605E+000 -1.2776091414E+001 
440228911.956 +9.7867287944E-001 -1.3992811402E+001  +1.9162108531E-001 +7.3806723795E+001  +1.9009948688E-001 +7.3807441490E+001  +9.7892245837E-001 -1.3707905453E+001 
450233909.955 +9.5458334177E-001 -1.3971319443E+001  +1.9089250366E-001 +7.3944293323E+001  +1.8957466096E-001 +7.4195300573E+001  +9.5592604908E-001 -1.3707810209E+001 
460238907.954 +9.3969426641E-001 -1.3192726329E+001  +1.9222524889E-001 +7.4814808826E+001  +1.9168735439E-001 +7.5247495577E+001  +9.4144730285E-001 -1.2975714847E+001 
470243905.953 +9.3784741106E-001 -1.2175519111E+001  +1.9636520223E-001 +7.5759270408E+001  +1.9677873670E-001 +7.6202139248E+001  +9.3949296145E-001 -1.2010470945E+001 
480248903.952 +9.4779157865E-001 -1.1375801988E+001  +2.0254390939E-001 +7.6420777878E+001  +2.0385400636E-001 +7.6682593105E+001  +9.4875869886E-001 -1.1256986116E+001 
490253901.951 +9.6566021341E-001 -1.1104990793E+001  +2.1019326008E-001 +7.6627755162E+001  +2.1179923529E-001 +7.6581138084E+001  +9.6550398936E-001 -1.0997988124E+001 
500258899.950 +9.8630309783E-001 -1.1577647927E+001  +2.1875856957E-001 +7.6213850859E+001  +2.2000708687E-001 +7.5924148978E+001  +9.8507374623E-001 -1.1435161972E+001 
510263897.949 +1.0016962008E+000 -1.2826989543E+001  +2.2688115362E-001 +7.5017747041E+001  +2.2714439130E-001 +7.4583223843E+001  +9.9998667095E-001 -1.2621650069E+001 
520268895.948 +1.0032335718E+000 -1.4552907166E+001  +2.3191058287E-001 +7.3204252353E+001  +2.3111083038E-001 +7.2822661047E+001  +1.0015823490E+000 -1.4277745266E+001 
530273893.947 +9.8683406184E-001 -1.6103818376E+001  +2.3220984251E-001 +7.1557132710E+001  +2.3070883623E-001 +7.1338088857E+001  +9.8615072168E-001 -1.5772154148E+001 
540278891.946 +9.5994443801E-001 -1.6784377698E+001  +2.2959154889E-001 +7.0896643828E+001  +2.2790243781E-001 +7.0918002120E+001  +9.6048901903E-001 -1.6442808177E+001 
550283889.945 +9.3584803017E-001 -1.6410315070E+001  +2.2785127991E-001 +7.1404222129E+001  +2.2655695428E-001 +7.1640578485E+001  +9.3720921927E-001 -1.6101646125E+001 
560288887.944 +9.2381662342E-001 -1.5367728856E+001  +2.2941719427E-001 +7.2475230281E+001  +2.2892201204E-001 +7.2841236502E+001  +9.2554279268E-001 -1.5120118154E+001 
570293885.943 +9.2596038162E-001 -1.4242197106E+001  +2.3429383415E-001 +7.3472708680E+001  +2.3478510133E-001 +7.3833683812E+001  +9.2753680549E-001 -1.4050450063E+001 
580298883.942 +9.3954313607E-001 -1.3483398942E+001  +2.4151671583E-001 +7.4093086036E+001  +2.4283910763E-001 +7.4285002507E+001  +9.4029154214E-001 -1.3328046238E+001 
590303881.941 +9.6027862638E-001 -1.3376615996E+001  +2.5048251466E-001 +7.4194433919E+001  +2.5200736152E-001 +7.4141461058E+001  +9.6002535490E-001 -1.3217435502E+001 
600308879.940 +9.8196641010E-001 -1.4096376117E+001  +2.6034849388E-001 +7.3577204149E+001  +2.6138760109E-001 +7.3313196799E+001  +9.8080653222E-001 -1.3899315909E+001 
610313877.939 +9.9551163101E-001 -1.5629861199E+001  +2.6884279015E-001 +7.2046912350E+001  +2.6896685202E-001 +7.1717732728E+001  +9.9396144526E-001 -1.5367779278E+001 
620318875.938 +9.9169454290E-001 -1.7516655403E+001  +2.7235229569E-001 +7.0040111111E+001  +2.7142679764E-001 +6.9742836902E+001  +9.9037982745E-001 -1.7182893942E+001 
630323873.937 +9.6966264818E-001 -1.8974375656E+001  +2.6990095639E-001 +6.8500866414E+001  +2.6850930644E-001 +6.8365319853E+001  +9.6942212842E-001 -1.8588987325E+001 
640328871.936 +9.4025774035E-001 -1.9355303036E+001  +2.6532482896E-001 +6.8202619715E+001  +2.6375823124E-001 +6.8256625225E+001  +9.4120348068E-001 -1.8982854214E+001 
650333869.935 +9.1755218457E-001 -1.8678334155E+001  +2.6310594862E-001 +6.9015651546E+001  +2.6190421661E-001 +6.9248493167E+001  +9.1915557169E-001 -1.8343476009E+001 
660338867.934 +9.0887404307E-001 -1.7462484150E+001  +2.6519183173E-001 +7.0204030051E+001  +2.6484925993E-001 +7.0532501615E+001  +9.1065019074E-001 -1.7184380846E+001 
670343865.933 +9.1435042114E-001 -1.6303279518E+001  +2.7090665558E-001 +7.1194751533E+001  +2.7152821499E-001 +7.1487653993E+001  +9.1574376549E-001 -1.6076238605E+001 
680348863.932 +9.3082359683E-001 -1.5614332886E+001  +2.7925532420E-001 +7.1786198955E+001  +2.8058995738E-001 +7.1898698518E+001  +9.3151343892E-001 -1.5419466271E+001 
690353861.931 +9.5344267542E-001 -1.5668938496E+001  +2.8956663297E-001 +7.1776261056E+001  +2.9086202881E-001 +7.1687673735E+001  +9.5309402696E-001 -1.5466829744E+001 
700358859.930 +9.7515163493E-001 -1.6621624963E+001  +3.0057569026E-001 +7.0928984222E+001  +3.0131033291E-001 +7.0701371717E+001  +9.7403415170E-001 -1.6378507515E+001 
710363857.929 +9.8580983087E-001 -1.8368128667E+001  +3.0895311344E-001 +6.9143396354E+001  +3.0873127301E-001 +6.8891230778E+001  +9.8453756376E-001 -1.8055422250E+001 
720368855.928 +9.7714170351E-001 -2.0333923476E+001  +3.1050858545E-001 +6.7022654171E+001  +3.0960577201E-001 +6.6834219065E+001  +9.7639217288E-001 -1.9962994496E+001 
730373853.927 +9.5096767473E-001 -2.1654337564E+001  +3.0553056608E-001 +6.5656828650E+001  +3.0427207696E-001 +6.5585349373E+001  +9.5115959678E-001 -2.1249846468E+001 
740378851.926 +9.2046731152E-001 -2.1773301552E+001  +2.9919950525E-001 +6.5663906890E+001  +2.9793834291E-001 +6.5742499138E+001  +9.2159192885E-001 -2.1380851360E+001 
750383849.925 +8.9934143869E-001 -2.0838049852E+001  +2.9662744192E-001 +6.6720766577E+001  +2.9581798598E-001 +6.6897847397E+001  +9.0090119630E-001 -2.0489796222E+001 
760388847.924 +8.9379685494E-001 -1.9478123278E+001  +2.9939937451E-001 +6.8015014155E+001  +2.9930715517E-001 +6.8235146157E+001  +8.9537984695E-001 -1.9192053689E+001 
770393845.923 +9.0258286443E-001 -1.8320719911E+001  +3.0622786488E-001 +6.8996610012E+001  +3.0684295636E-001 +6.9169914939E+001  +9.0354338728E-001 -1.8068870595E+001 
780398843.922 +9.2141894999E-001 -1.7737824111E+001  +3.1578089505E-001 +6.9485557542E+001  +3.1680285585E-001 +6.9528223631E+001  +9.2159867416E-001 -1.7499285158E+001 
790403841.921 +9.4521272313E-001 -1.7968139907E+001  +3.2736233513E-001 +6.9338298674E+001  +3.2826913602E-001 +6.9241746884E+001  +9.4441171442E-001 -1.7703716000E+001 
800408839.920 +9.6578207255E-001 -1.9142739889E+001  +3.3913645619E-001 +6.8260447900E+001  +3.3942514345E-001 +6.8086014027E+001  +9.6462195139E-001 -1.8824483218E+001 
810413837.919 +9.7309998096E-001 -2.1046884844E+001  +3.4677353718E-001 +6.6296082589E+001  +3.4642670840E-001 +6.6125337525E+001  +9.7226738434E-001 -2.0664404224E+001 
820418835.918 +9.6020728550E-001 -2.3007441237E+001  +3.4617192651E-001 +6.4183312562E+001  +3.4532712908E-001 +6.4072064503E+001  +9.6001882087E-001 -2.2584192136E+001 
830423833.917 +9.3123366883E-001 -2.4159937021E+001  +3.3881536410E-001 +6.3017203392E+001  +3.3786066073E-001 +6.2987414552E+001  +9.3192641008E-001 -2.3728349750E+001 
840428831.916 +9.0068395743E-001 -2.4024760401E+001  +3.3120014166E-001 +6.3302282735E+001  +3.3034005912E-001 +6.3349398378E+001  +9.0184878810E-001 -2.3619290155E+001 
850433829.915 +8.8172361240E-001 -2.2884902027E+001  +3.2866267400E-001 +6.4522164070E+001  +3.2808141659E-001 +6.4637836899E+001  +8.8307392653E-001 -2.2523994424E+001 
860438827.914 +8.7927610102E-001 -2.1446914167E+001  +3.3221127478E-001 +6.5843264523E+001  +3.3223100732E-001 +6.5992421509E+001  +8.8042607992E-001 -2.1127701728E+001 
870443825.913 +8.9073543383E-001 -2.0324212770E+001  +3.3995041132E-001 +6.6780404358E+001  +3.4058150501E-001 +6.6881662788E+001  +8.9118518770E-001 -2.0020854072E+001 
880448823.912 +9.1111596202E-001 -1.9864469617E+001  +3.5052527902E-001 +6.7202988343E+001  +3.5150277654E-001 +6.7192845221E+001  +9.1100380942E-001 -1.9559388884E+001 
890453821.911 +9.3501000030E-001 -2.0272081427E+001  +3.6319475871E-001 +6.6936696804E+001  +3.6375628036E-001 +6.6808034950E+001  +9.3422416680E-001 -1.9932213243E+001 
900458819.910 +9.5416134104E-001 -2.1615326533E+001  +3.7569645298E-001 +6.5699868720E+001  +3.7553771493E-001 +6.5540394407E+001  +9.5325702399E-001 -2.1208177732E+001 
910463817.909 +9.5834815035E-001 -2.3615351971E+001  +3.8253248571E-001 +6.3604670003E+001  +3.8175926087E-001 +6.3497130594E+001  +9.5805766082E-001 -2.3152239936E+001 
920468815.908 +9.4196214174E-001 -2.5538430469E+001  +3.7970990459E-001 +6.1497822605E+001  +3.7879250554E-001 +6.1479812072E+001  +9.4256777464E-001 -2.5064145160E+001 
930473813.907 +9.1116304268E-001 -2.6521445251E+001  +3.7000914117E-001 +6.0517214537E+001  +3.6927336663E-001 +6.0582752197E+001  +9.1260316698E-001 -2.6062937951E+001 
940478811.906 +8.8108915550E-001 -2.6168003164E+001  +3.6117940231E-001 +6.1049961472E+001  +3.6084161226E-001 +6.1139383560E+001  +8.8265903120E-001 -2.5755770545E+001 
950483809.905 +8.6443682734E-001 -2.4871603223E+001  +3.5900315683E-001 +6.2429102811E+001  +3.5899613562E-001 +6.2526681864E+001  +8.6572343692E-001 -2.4500684516E+001 
960488807.904 +8.6460366812E-001 -2.3381917155E+001  +3.6351375075E-001 +6.3775724428E+001  +3.6390674589E-001 +6.3853013179E+001  +8.6527969813E-001 -2.3040971813E+001 
970493805.903 +8.7827513418E-001 -2.2306813114E+001  +3.7238150712E-001 +6.4665926052E+001  +3.7307682483E-001 +6.4667367872E+001  +8.7823272554E-001 -2.1964016030E+001 
980498803.902 +8.9974473421E-001 -2.1990368427E+001  +3.8407687425E-001 +6.4973117499E+001  +3.8473230370E-001 +6.4898872185E+001  +8.9912310771E-001 -2.1610842962E+001 
990503801.901 +9.2298444068E-001 -2.2557242902E+001  +3.9765996103E-001 +6.4552786236E+001  +3.9764837237E-001 +6.4419944112E+001  +9.2206072615E-001 -2.2126864051E+001 
1000508799.900 +9.3990747492E-001 -2.4030152909E+001  +4.1005765937E-001 +6.3179429538E+001  +4.0946013151E-001 +6.3067743163E+001  +9.3934708368E-001 -2.3536484155E+001 
1010513797.899 +9.4099788745E-001 -2.6057979430E+001  +4.1576778504E-001 +6.1018218736E+001  +4.1481252246E-001 +6.0996794575E+001  +9.4135580387E-001 -2.5533652390E+001 
1020518795.898 +9.2216435462E-001 -2.7900814217E+001  +4.1090387322E-001 +5.8997382943E+001  +4.1013231637E-001 +5.9050810868E+001  +9.2350962843E-001 -2.7376623528E+001 
1030523793.897 +8.9078944865E-001 -2.8703643880E+001  +3.9940997265E-001 +5.8213320529E+001  +3.9903543161E-001 +5.8307749880E+001  +8.9270752353E-001 -2.8224837612E+001 
1040528791.896 +8.6206723743E-001 -2.8164380669E+001  +3.8991733220E-001 +5.8940307214E+001  +3.8995163787E-001 +5.9029717539E+001  +8.6374040140E-001 -2.7743467648E+001 
1050533789.895 +8.4763754529E-001 -2.6748871538E+001  +3.8812389776E-001 +6.0410153128E+001  +3.8854938436E-001 +6.0478647887E+001  +8.4888906191E-001 -2.6370656503E+001 
1060538787.894 +8.5034914567E-001 -2.5241331774E+001  +3.9364069169E-001 +6.1740119652E+001  +3.9432427035E-001 +6.1759979915E+001  +8.5068649141E-001 -2.4876287194E+001 
1070543785.893 +8.6577022149E-001 -2.4260906110E+001  +4.0354445636E-001 +6.2530613270E+001  +4.0429511703E-001 +6.2470999901E+001  +8.6523195555E-001 -2.3878061446E+001 
1080548783.892 +8.8770592862E-001 -2.4088890579E+001  +4.1602363279E-001 +6.2715557366E+001  +4.1638479321E-001 +6.2585392172E+001  +8.8654431584E-001 -2.3646469492E+001 
1090553781.891 +9.0970083925E-001 -2.4815930905E+001  +4.2994865061E-001 +6.2197751097E+001  +4.2949882467E-001 +6.2048122356E+001  +9.0874429599E-001 -2.4295835715E+001 
1100558779.890 +9.2395086207E-001 -2.6364477592E+001  +4.4210156468E-001 +6.0731886823E+001  +4.4096539306E-001 +6.0644119580E+001  +9.2382623112E-001 -2.5787679102E+001 
1110563777.889 +9.2227667193E-001 -2.8381348728E+001  +4.4661476321E-001 +5.8570945851E+001  +4.4525251300E-001 +5.8600496859E+001  +9.2341357832E-001 -2.7785967853E+001 
1120568775.888 +9.0170905151E-001 -3.0099785722E+001  +4.3988109603E-001 +5.6651340845E+001  +4.3899438254E-001 +5.6765821047E+001  +9.0400859433E-001 -2.9539424153E+001 
1130573773.887 +8.7061901771E-001 -3.0743725025E+001  +4.2695851158E-001 +5.6042006928E+001  +4.2665879003E-001 +5.6204270485E+001  +8.7310266961E-001 -3.0242304374E+001 
