!  2-Port S-parameters saved by WinCal
! VAR NAME=Wafer2_r10_c9_opensig
! VAR DATE=26/04/2024 16:52:37
! VAR FILENAME=Wafer2_r10_c9_opensig_1.S2P
! VAR MeasName=S-Parameters (CALIBRATED_DATA) read from VNA (P5004A)
! VAR MeasDate=26/04/2024 16:28:33
! VAR PHYS_PORTS=1,2
! VAR ObjTypeName=DATASET
! VAR IndexType=Frequency
!
# Hz S MA R 50
9000.000 +7.9690607687E-001 +1.7521908677E+001  +2.1550184376E-005 +1.7346269374E+002  +2.0286617764E-005 +6.3946554536E+001  +7.9700802501E-001 +1.7516770785E+001 
10013997.999 +9.8064668791E-001 +7.2860724506E-002  +2.1848273272E-005 +8.9504445013E+001  +2.2458926438E-005 +9.6846559664E+001  +9.8079865453E-001 +7.9599206742E-002 
20018995.998 +9.9502571963E-001 +7.3976411874E-001  +4.6519869345E-005 +8.8561435057E+001  +4.5967123928E-005 +9.2126785892E+001  +9.9499138550E-001 +7.3657161239E-001 
30023993.997 +1.0054431561E+000 +7.0611798397E-001  +6.9551661015E-005 +9.1676226698E+001  +6.7599533885E-005 +9.0738235989E+001  +1.0054719379E+000 +7.0248191316E-001 
40028991.996 +1.0135718773E+000 +2.6531661693E-001  +9.3299952784E-005 +9.0044512086E+001  +9.1637481102E-005 +8.7621285845E+001  +1.0135033672E+000 +2.6720469647E-001 
50033989.995 +1.0147848737E+000 -3.7001312450E-001  +1.1659253493E-004 +8.9971495767E+001  +1.1594826173E-004 +8.8968232943E+001  +1.0147832459E+000 -3.7037297599E-001 
60038987.994 +1.0080881212E+000 -9.4290061148E-001  +1.3963912715E-004 +8.7864923503E+001  +1.3750550546E-004 +8.8178179553E+001  +1.0081124550E+000 -9.4088058211E-001 
70043985.993 +9.9629571838E-001 -1.0924898271E+000  +1.6088580195E-004 +8.7806091961E+001  +1.6181963262E-004 +8.8725630967E+001  +9.9634125115E-001 -1.0879454506E+000 
80048983.992 +9.8638794933E-001 -7.2249150963E-001  +1.8026180103E-004 +8.8274096039E+001  +1.7703702747E-004 +8.8355156073E+001  +9.8643838987E-001 -7.2034254864E-001 
90053981.991 +9.8321315910E-001 -1.3164965093E-001  +1.9946396249E-004 +8.9199395250E+001  +1.9914659336E-004 +9.0074885620E+001  +9.8322095310E-001 -1.2665909220E-001 
100058979.990 +9.8710831798E-001 +4.3644312666E-001  +2.2086932290E-004 +9.0815213247E+001  +2.2384574916E-004 +9.0079349654E+001  +9.8701812238E-001 +4.3179109942E-001 
110063977.989 +9.9621645476E-001 +7.8349149260E-001  +2.4828179084E-004 +9.0872619462E+001  +2.4833800361E-004 +9.1246994908E+001  +9.9611870644E-001 +7.7319651000E-001 
120068975.988 +1.0081689644E+000 +7.3309048687E-001  +2.7259423303E-004 +9.1281188585E+001  +2.7443404664E-004 +9.0064860819E+001  +1.0081238638E+000 +7.2387107152E-001 
130073973.987 +1.0182413454E+000 +2.2092248744E-001  +2.9613001321E-004 +9.0646027495E+001  +2.9415218958E-004 +9.0540837633E+001  +1.0182111681E+000 +2.1538397111E-001 
140078971.986 +1.0201918304E+000 -6.1584433991E-001  +3.1548301925E-004 +9.1001522045E+001  +3.1945810872E-004 +9.0616320774E+001  +1.0202078936E+000 -6.1878977577E-001 
150083969.985 +1.0116479870E+000 -1.3667609316E+000  +3.4355193821E-004 +8.9751849554E+001  +3.3837917563E-004 +9.0304269853E+001  +1.0117568133E+000 -1.3592804261E+000 
160088967.984 +9.9656507559E-001 -1.5713703129E+000  +3.6257493048E-004 +9.0059643736E+001  +3.5637827544E-004 +9.0524110038E+001  +9.9667199338E-001 -1.5670043816E+000 
170093965.983 +9.8368940967E-001 -1.1870322679E+000  +3.8578131718E-004 +8.9799543066E+001  +3.8711395659E-004 +9.0352177525E+001  +9.8374579218E-001 -1.1819502762E+000 
180098963.982 +9.7844262696E-001 -4.7169820769E-001  +4.0669861431E-004 +9.0614612974E+001  +4.0504001987E-004 +9.0334457198E+001  +9.7851014566E-001 -4.6475285636E-001 
190103961.981 +9.8142800234E-001 +2.7349310664E-001  +4.2422685367E-004 +9.0701242369E+001  +4.3070579459E-004 +9.1262831136E+001  +9.8153221327E-001 +2.6486475956E-001 
200108959.980 +9.9144170478E-001 +7.8612645914E-001  +4.4965568661E-004 +9.1656640693E+001  +4.5229358454E-004 +9.1124927676E+001  +9.9140467244E-001 +7.8229050675E-001 
210113957.979 +1.0055562828E+000 +8.8993142899E-001  +4.8201824167E-004 +9.2815952089E+001  +4.8644132539E-004 +9.2545455631E+001  +1.0055345908E+000 +8.8469252968E-001 
220118955.978 +1.0193527451E+000 +4.4731401784E-001  +5.1560519288E-004 +9.2320649307E+001  +5.1674138639E-004 +9.1600507789E+001  +1.0193225756E+000 +4.4725171517E-001 
230123953.977 +1.0261885561E+000 -4.7797103225E-001  +5.4899940265E-004 +9.0069402916E+001  +5.4319478065E-004 +8.9872039324E+001  +1.0260951232E+000 -4.7657670463E-001 
240128951.976 +1.0201614947E+000 -1.4926553108E+000  +5.6773948605E-004 +8.8704255359E+001  +5.6254718963E-004 +8.9029940657E+001  +1.0202917972E+000 -1.4874254379E+000 
250133949.975 +1.0036112370E+000 -2.0475402031E+000  +5.7955682621E-004 +8.8258773244E+001  +5.7248990554E-004 +8.8408147186E+001  +1.0037002997E+000 -2.0411755558E+000 
260138947.974 +9.8574903721E-001 -1.8600956882E+000  +5.9009156368E-004 +8.8529450262E+001  +5.8123998066E-004 +8.8596711177E+001  +9.8597679794E-001 -1.8513439299E+000 
270143945.973 +9.7505133542E-001 -1.1078472462E+000  +6.0295251404E-004 +8.9574744693E+001  +5.9970355780E-004 +8.9869626604E+001  +9.7512026346E-001 -1.1075219731E+000 
280148943.972 +9.7423329895E-001 -1.7981244537E-001  +6.2322545921E-004 +8.9977016256E+001  +6.2828384950E-004 +9.0445542545E+001  +9.7430178543E-001 -1.7757225864E-001 
290153941.971 +9.8235688687E-001 +6.0594776471E-001  +6.4789974484E-004 +9.0770658153E+001  +6.5364179071E-004 +9.1161786153E+001  +9.8245761123E-001 +5.9992905772E-001 
300158939.970 +9.9744927205E-001 +1.0019897796E+000  +6.7240550715E-004 +9.1664387986E+001  +6.7824030337E-004 +9.1438009746E+001  +9.9747628584E-001 +9.9218126037E-001 
310163937.969 +1.0153415507E+000 +8.1622720650E-001  +7.0902386264E-004 +9.2721170314E+001  +7.0875336585E-004 +9.2030726837E+001  +1.0151991942E+000 +8.0765672190E-001 
320168935.968 +1.0286392407E+000 -1.6653180241E-002  +7.5899927028E-004 +9.1552439052E+001  +7.6181221612E-004 +9.1114563494E+001  +1.0286029345E+000 -2.4749903508E-002 
330173933.967 +1.0300747766E+000 -1.2356967255E+000  +7.8559129928E-004 +8.9864477870E+001  +7.8166797398E-004 +8.8846888072E+001  +1.0300648375E+000 -1.2328169359E+000 
340178931.966 +1.0165133103E+000 -2.2639188089E+000  +7.9257256764E-004 +8.8082941767E+001  +7.8917919322E-004 +8.7965289393E+001  +1.0166560796E+000 -2.2572251424E+000 
350183929.965 +9.9485085928E-001 -2.5359262545E+000  +7.9630394223E-004 +8.7813135556E+001  +7.9034299242E-004 +8.8032071779E+001  +9.9496028344E-001 -2.5297930881E+000 
360188927.964 +9.7648473709E-001 -1.9864717368E+000  +8.0295246055E-004 +8.8412256894E+001  +7.9972099845E-004 +8.8905185106E+001  +9.7674392538E-001 -1.9792815001E+000 
370193925.963 +9.6860382081E-001 -9.6116335310E-001  +8.2275574356E-004 +8.9782285149E+001  +8.2042817217E-004 +9.0345778422E+001  +9.6886779171E-001 -9.6369704146E-001 
380198923.962 +9.7204238506E-001 +1.0627794840E-001  +8.4687684722E-004 +9.0416522613E+001  +8.4478477588E-004 +9.0813525765E+001  +9.7209542384E-001 +1.0597704656E-001 
390203921.961 +9.8498622052E-001 +8.8618416347E-001  +8.7450747850E-004 +9.1213416196E+001  +8.8115069400E-004 +9.1273583086E+001  +9.8503068032E-001 +8.7894149609E-001 
400208919.960 +1.0045289916E+000 +1.1200115397E+000  +9.0887019344E-004 +9.1312084159E+001  +9.1864292406E-004 +9.0976969724E+001  +1.0045739387E+000 +1.1175642849E+000 
410213917.959 +1.0246416264E+000 +6.2960640926E-001  +9.5019865411E-004 +9.1136191360E+001  +9.5290877576E-004 +9.0641507396E+001  +1.0245686403E+000 +6.2092275155E-001 
420218915.958 +1.0363822301E+000 -5.5254567713E-001  +9.8921141360E-004 +9.0131384595E+001  +9.8212757491E-004 +8.9496589834E+001  +1.0362758866E+000 -5.5593103855E-001 
430223913.957 +1.0319237898E+000 -1.9765176088E+000  +1.0041006563E-003 +8.8271425017E+001  +1.0004492536E-003 +8.8189601359E+001  +1.0318388391E+000 -1.9691736480E+000 
440228911.956 +1.0116803344E+000 -2.9145698024E+000  +1.0092739850E-003 +8.7651882445E+001  +1.0017447198E-003 +8.7457670773E+001  +1.0117659878E+000 -2.9076022350E+000 
450233909.955 +9.8686833120E-001 -2.9027809601E+000  +1.0035443831E-003 +8.7441870628E+001  +9.9577418961E-004 +8.7938282661E+001  +9.8699330363E-001 -2.8961457557E+000 
460238907.954 +9.6912773702E-001 -2.0534743015E+000  +1.0083049180E-003 +8.8479096765E+001  +9.9748734067E-004 +8.8794637621E+001  +9.6930586676E-001 -2.0499908091E+000 
470243905.953 +9.6389765070E-001 -8.3251864483E-001  +1.0191424914E-003 +8.9640482365E+001  +1.0207248669E-003 +9.0124931674E+001  +9.6404480447E-001 -8.2997180063E-001 
480248903.952 +9.7105049630E-001 +3.2920895361E-001  +1.0461341479E-003 +9.0772097197E+001  +1.0538811932E-003 +9.1320597630E+001  +9.7118556512E-001 +3.2616009774E-001 
490253901.951 +9.8820034129E-001 +1.0839006304E+000  +1.0792040055E-003 +9.1449843737E+001  +1.0918085678E-003 +9.1807846181E+001  +9.8831115173E-001 +1.0814790519E+000 
500258899.950 +1.0116273117E+000 +1.1512330398E+000  +1.1245104100E-003 +9.2123743355E+001  +1.1302337125E-003 +9.1815348349E+001  +1.0116150029E+000 +1.1484630727E+000 
510263897.949 +1.0332857238E+000 +3.5340975735E-001  +1.1660816467E-003 +9.1770716521E+001  +1.1728943335E-003 +9.1377022325E+001  +1.0331379059E+000 +3.5130010135E-001 
520268895.948 +1.0424028446E+000 -1.1304242966E+000  +1.2179159082E-003 +9.1052771808E+001  +1.2151738410E-003 +9.0528353247E+001  +1.0422882399E+000 -1.1353341052E+000 
530273893.947 +1.0316158682E+000 -2.6685160276E+000  +1.2413837873E-003 +8.8999862091E+001  +1.2330795351E-003 +8.9002691027E+001  +1.0316319660E+000 -2.6596691591E+000 
540278891.946 +1.0060248733E+000 -3.4583359308E+000  +1.2318464959E-003 +8.8015126266E+001  +1.2275778049E-003 +8.7939957809E+001  +1.0061240645E+000 -3.4473527660E+000 
550283889.945 +9.7938438808E-001 -3.1647678920E+000  +1.2250512346E-003 +8.7709175061E+001  +1.2218444092E-003 +8.8036793524E+001  +9.7945369133E-001 -3.1524246141E+000 
560288887.944 +9.6295100283E-001 -2.0649376962E+000  +1.2268545938E-003 +8.8744327365E+001  +1.2210623154E-003 +8.9305550264E+001  +9.6312556861E-001 -2.0554516456E+000 
570293885.943 +9.6050408519E-001 -6.8436260595E-001  +1.2364667636E-003 +9.0040274248E+001  +1.2369274235E-003 +9.0449284820E+001  +9.6066283727E-001 -6.8591689183E-001 
580298883.942 +9.7107107978E-001 +5.2780493330E-001  +1.2660234007E-003 +9.1219990514E+001  +1.2718767446E-003 +9.1467227806E+001  +9.7112715468E-001 +5.2194715599E-001 
590303881.941 +9.9204619718E-001 +1.2277994442E+000  +1.3052850957E-003 +9.1772953113E+001  +1.3146793698E-003 +9.1869312430E+001  +9.9203193238E-001 +1.2255049165E+000 
600308879.940 +1.0184098340E+000 +1.1161274101E+000  +1.3532252239E-003 +9.1985693158E+001  +1.3606125026E-003 +9.1900112579E+001  +1.0184902270E+000 +1.1072290603E+000 
610313877.939 +1.0408862094E+000 +3.2251320416E-002  +1.4094862832E-003 +9.1453557955E+001  +1.4124701603E-003 +9.1236277848E+001  +1.0409383940E+000 +2.9271981090E-002 
620318875.938 +1.0466688220E+000 -1.7046096282E+000  +1.4444156716E-003 +8.9877967235E+001  +1.4407768090E-003 +8.9448871321E+001  +1.0465041666E+000 -1.7079810850E+000 
630323873.937 +1.0300452620E+000 -3.2863965004E+000  +1.4553570630E-003 +8.8288666535E+001  +1.4516687238E-003 +8.8044042583E+001  +1.0300405155E+000 -3.2776227871E+000 
640328871.936 +1.0003954260E+000 -3.8894170302E+000  +1.4388253521E-003 +8.7580116205E+001  +1.4286973800E-003 +8.7254873161E+001  +1.0004705121E+000 -3.8857837186E+000 
650333869.935 +9.7315436104E-001 -3.3458346701E+000  +1.4155278969E-003 +8.7839057798E+001  +1.4082487577E-003 +8.8081644418E+001  +9.7326739271E-001 -3.3329511920E+000 
660338867.934 +9.5850565164E-001 -2.0567948636E+000  +1.4164872337E-003 +8.9196081974E+001  +1.4098613831E-003 +8.9629599789E+001  +9.5867990090E-001 -2.0504858388E+000 
670343865.933 +9.5847449466E-001 -5.8060571749E-001  +1.4305243655E-003 +9.0622279917E+001  +1.4342641816E-003 +9.0859903648E+001  +9.5858120742E-001 -5.7752157543E-001 
680348863.932 +9.7192415665E-001 +6.5684419169E-001  +1.4715400085E-003 +9.1817110196E+001  +1.4741594206E-003 +9.2058156094E+001  +9.7208311728E-001 +6.5276838987E-001 
690353861.931 +9.9602919777E-001 +1.2992201514E+000  +1.5274222533E-003 +9.2659736023E+001  +1.5290575954E-003 +9.2629325625E+001  +9.9598567926E-001 +1.2875335234E+000 
700358859.930 +1.0250434388E+000 +1.0110000602E+000  +1.5893415155E-003 +9.2593843370E+001  +1.5969740549E-003 +9.2299424093E+001  +1.0249442852E+000 +1.0005100202E+000 
710363857.929 +1.0473783460E+000 -3.1923025615E-001  +1.6562155612E-003 +9.1350754648E+001  +1.6550308836E-003 +9.1027062985E+001  +1.0471508884E+000 -3.3070461974E-001 
720368855.928 +1.0495501113E+000 -2.2497831214E+000  +1.6828147532E-003 +8.9161029535E+001  +1.6785325995E-003 +8.9020419354E+001  +1.0493568170E+000 -2.2555424581E+000 
730373853.927 +1.0280245648E+000 -3.8331013067E+000  +1.6670964110E-003 +8.7443544468E+001  +1.6579486666E-003 +8.7415495709E+001  +1.0280417452E+000 -3.8321864947E+000 
740378851.926 +9.9526063060E-001 -4.2741466589E+000  +1.6313404644E-003 +8.7299515309E+001  +1.6187962368E-003 +8.7294921818E+001  +9.9527184940E-001 -4.2657912724E+000 
750383849.925 +9.6768150571E-001 -3.5079160762E+000  +1.6062453976E-003 +8.8053325372E+001  +1.6028065672E-003 +8.8218256933E+001  +9.6773694959E-001 -3.4998005017E+000 
760388847.924 +9.5462927654E-001 -2.0497172802E+000  +1.6133736479E-003 +8.9340126463E+001  +1.6131594722E-003 +8.9497295853E+001  +9.5474509488E-001 -2.0448978188E+000 
770393845.923 +9.5713959690E-001 -4.9271593493E-001  +1.6356191930E-003 +9.0442436153E+001  +1.6339051043E-003 +9.1061577597E+001  +9.5717064786E-001 -4.9185610982E-001 
780398843.922 +9.7340981117E-001 +7.4826467064E-001  +1.6719567518E-003 +9.1742612784E+001  +1.6769680793E-003 +9.1900773554E+001  +9.7333599341E-001 +7.3924992244E-001 
790403841.921 +1.0002387466E+000 +1.3067806525E+000  +1.7293215523E-003 +9.2596518767E+001  +1.7340584580E-003 +9.2511136355E+001  +1.0000473589E+000 +1.2953324780E+000 
800408839.920 +1.0306180171E+000 +8.3702977163E-001  +1.7954104882E-003 +9.2335300245E+001  +1.8024708685E-003 +9.2144796260E+001  +1.0305264244E+000 +8.2641230022E-001 
810413837.919 +1.0522056227E+000 -7.0833317730E-001  +1.8582113380E-003 +9.0953414374E+001  +1.8589890057E-003 +9.0712870070E+001  +1.0521056496E+000 -7.1638941701E-001 
820418835.918 +1.0508670143E+000 -2.7661562156E+000  +1.8747707221E-003 +8.8869099389E+001  +1.8740309700E-003 +8.8641687638E+001  +1.0507800333E+000 -2.7649707596E+000 
830423833.917 +1.0254452382E+000 -4.3160034905E+000  +1.8472749282E-003 +8.7316116129E+001  +1.8445474547E-003 +8.7106813208E+001  +1.0254764746E+000 -4.3138157604E+000 
840428831.916 +9.9048858554E-001 -4.5885717004E+000  +1.8037192262E-003 +8.7119794255E+001  +1.7962318840E-003 +8.6949356373E+001  +9.9051356204E-001 -4.5807943533E+000 
850433829.915 +9.6305814291E-001 -3.6383949360E+000  +1.7685860730E-003 +8.8245931640E+001  +1.7607137290E-003 +8.8319533798E+001  +9.6323292482E-001 -3.6273407522E+000 
860438827.914 +9.5183399787E-001 -2.0557285546E+000  +1.7633359522E-003 +8.9728150300E+001  +1.7668523044E-003 +8.9804081418E+001  +9.5191661408E-001 -2.0551461981E+000 
870443825.913 +9.5650351450E-001 -4.4502911699E-001  +1.7807575202E-003 +9.1141488119E+001  +1.7864463935E-003 +9.1369547379E+001  +9.5666442978E-001 -4.4623585425E-001 
880448823.912 +9.7503662745E-001 +7.8341067329E-001  +1.8216613593E-003 +9.2551312201E+001  +1.8301220966E-003 +9.2708515890E+001  +9.7506102483E-001 +7.7627782733E-001 
890453821.911 +1.0039942112E+000 +1.2483264285E+000  +1.8856567304E-003 +9.3634848070E+001  +1.8863954332E-003 +9.3504609339E+001  +1.0039091041E+000 +1.2374231697E+000 
900458819.910 +1.0358675452E+000 +6.2245325537E-001  +1.9679188561E-003 +9.3676355138E+001  +1.9712113896E-003 +9.3437036083E+001  +1.0356964660E+000 +6.2304082290E-001 
910463817.909 +1.0562668147E+000 -1.0940384437E+000  +2.0414072125E-003 +9.2181130775E+001  +2.0243407945E-003 +9.1993582385E+001  +1.0562818324E+000 -1.0947003512E+000 
920468815.908 +1.0518313264E+000 -3.2532907089E+000  +2.0369066760E-003 +9.0198606436E+001  +2.0330746236E-003 +9.0072646724E+001  +1.0518937970E+000 -3.2574295859E+000 
930473813.907 +1.0227991169E+000 -4.7583266670E+000  +1.9965318706E-003 +8.9264200083E+001  +1.9864870976E-003 +8.9299791430E+001  +1.0229729333E+000 -4.7623536375E+000 
940478811.906 +9.8610098332E-001 -4.8758841634E+000  +1.9501016144E-003 +8.9902376913E+001  +1.9462064534E-003 +9.0074513248E+001  +9.8616948716E-001 -4.8787004630E+000 
950483809.905 +9.5925195437E-001 -3.7535720498E+000  +1.9341722002E-003 +9.1986181400E+001  +1.9326116498E-003 +9.1953653446E+001  +9.5935502983E-001 -3.7605046355E+000 
960488807.904 +9.4959877195E-001 -2.0725298096E+000  +1.9619890638E-003 +9.3868888648E+001  +1.9609233802E-003 +9.4020910577E+001  +9.4969867559E-001 -2.0753129297E+000 
970493805.903 +9.5643035929E-001 -4.2705754569E-001  +2.0367692296E-003 +9.5556215753E+001  +2.0378739569E-003 +9.5542912849E+001  +9.5643558849E-001 -4.3546789517E-001 
980498803.902 +9.7703944413E-001 +7.6649539151E-001  +2.1179242142E-003 +9.5855336552E+001  +2.1233708516E-003 +9.5854540801E+001  +9.7680872232E-001 +7.5077794484E-001 
990503801.901 +1.0074373860E+000 +1.1378092553E+000  +2.2026417803E-003 +9.5702606044E+001  +2.2015356494E-003 +9.5491221687E+001  +1.0072226863E+000 +1.1303824662E+000 
1000508799.900 +1.0395552328E+000 +3.7254763786E-001  +2.2872519282E-003 +9.4871348503E+001  +2.2893612585E-003 +9.4836349525E+001  +1.0394308610E+000 +3.7226036838E-001 
1010513797.899 +1.0588294541E+000 -1.4692647848E+000  +2.3587832925E-003 +9.3116506590E+001  +2.3505604799E-003 +9.2971315653E+001  +1.0585957738E+000 -1.4746380284E+000 
1020518795.898 +1.0516191079E+000 -3.6851589317E+000  +2.3734782908E-003 +9.0536344391E+001  +2.3615878122E-003 +9.0552995363E+001  +1.0516056831E+000 -3.6818851021E+000 
1030523793.897 +1.0201317984E+000 -5.1251127141E+000  +2.3151367668E-003 +8.9040001935E+001  +2.3053915437E-003 +8.9080772005E+001  +1.0202281977E+000 -5.1222208166E+000 
1040528791.896 +9.8234091055E-001 -5.0996345669E+000  +2.2567867071E-003 +8.9034872058E+001  +2.2499703319E-003 +8.9169158128E+001  +9.8245797283E-001 -5.1022229367E+000 
1050533789.895 +9.5629590797E-001 -3.8475422780E+000  +2.2246486556E-003 +9.0047045925E+001  +2.2234483518E-003 +9.0209692972E+001  +9.5640410453E-001 -3.8537710576E+000 
1060538787.894 +9.4824039103E-001 -2.0882109707E+000  +2.2290521945E-003 +9.1315756632E+001  +2.2299815458E-003 +9.1522630187E+001  +9.4833426922E-001 -2.0925518396E+000 
1070543785.893 +9.5715199007E-001 -4.4008017507E-001  +2.2611627636E-003 +9.2545546159E+001  +2.2673562672E-003 +9.2478241135E+001  +9.5702174131E-001 -4.5147919780E-001 
1080548783.892 +9.7939574291E-001 +6.9099060350E-001  +2.3089841252E-003 +9.3419588843E+001  +2.3154559393E-003 +9.3305821926E+001  +9.7910116262E-001 +6.8638299313E-001 
1090553781.891 +1.0105655912E+000 +9.5866807796E-001  +2.3783990566E-003 +9.3872502859E+001  +2.3811012359E-003 +9.3548214073E+001  +1.0104361748E+000 +9.5766861753E-001 
1100558779.890 +1.0424691862E+000 +7.9203077814E-002  +2.4676895432E-003 +9.3195551466E+001  +2.4635587415E-003 +9.2945860945E+001  +1.0423894360E+000 +8.3841713751E-002 
1110563777.889 +1.0600900124E+000 -1.8550655435E+000  +2.5260456223E-003 +9.1402529736E+001  +2.5129101642E-003 +9.1277098584E+001  +1.0600956300E+000 -1.8522966648E+000 
1120568775.888 +1.0503988494E+000 -4.0780180292E+000  +2.5196301344E-003 +8.9285673666E+001  +2.5149810595E-003 +8.9371726264E+001  +1.0505639819E+000 -4.0783585243E+000 
1130573773.887 +1.0169374622E+000 -5.4396947748E+000  +2.4596646381E-003 +8.7969039122E+001  +2.4536760758E-003 +8.8152945131E+001  +1.0170761816E+000 -5.4409288499E+000 
