!  2-Port S-parameters saved by WinCal
! VAR MeasName=S-Parameters (CALIBRATED_DATA) read from VNA (P5004A)
! VAR MeasDate=26/04/2024 15:49:39
! VAR NAME=ISS_thru_LRM+
! VAR FILENAME=ISS_thru_LRM+_1.S2P
! VAR DATE=26/04/2024 15:49:39
! VAR PHYS_PORTS=1,2
! VAR ObjTypeName=DATASET
! VAR IndexType=Frequency
!
# Hz S MA R 50
9000.000 +3.3340574247E-004 -3.4538520377E+001  +9.9997500602E-001 +5.4789740191E-002  +9.9968419467E-001 +3.2304191716E-002  +3.5793828819E-004 -1.3165848658E+002 
10013997.999 +3.0314421074E-005 +9.8266374765E+001  +9.9992354475E-001 -1.0720801627E-002  +9.9997496734E-001 +2.9165637862E-003  +1.2419566894E-004 -4.1802666247E+001 
20018995.998 +1.5780735017E-005 +1.1010289995E+002  +9.9988885328E-001 -1.0231053032E-002  +1.0000160957E+000 -3.9716910786E-003  +5.3632589404E-005 +1.1841590954E+001 
30023993.997 +9.6209659998E-006 +8.5032100231E+001  +9.9980345344E-001 -1.3932909415E-002  +1.0000112335E+000 -1.3527037820E-002  +1.9816944764E-005 +2.8218106023E+001 
40028991.996 +3.2630559366E-005 +1.7950935997E+002  +9.9973750562E-001 -2.0514735971E-002  +9.9997081637E-001 -1.2194804970E-002  +8.1338398699E-005 +1.3644656765E+002 
50033989.995 +3.2295484372E-005 -3.5935514449E+001  +9.9974531925E-001 -2.1365150869E-002  +9.9997998431E-001 -2.1601759910E-002  +4.4205525923E-005 -1.2670220933E+002 
60038987.994 +2.9849478357E-005 -1.1684949271E+002  +9.9986407415E-001 -3.1546103112E-002  +9.9988804994E-001 -2.6466531810E-002  +7.2478376408E-006 -9.3802980379E+001 
70043985.993 +3.5525338783E-005 -9.8242072063E+001  +9.9999673416E-001 -2.9397231484E-002  +9.9995900997E-001 -3.0011375205E-002  +3.6567607904E-005 -1.6359953271E+001 
80048983.992 +3.0368263124E-005 -5.0697917828E+001  +9.9984002496E-001 -3.4631186231E-002  +9.9992995863E-001 -3.3693977543E-002  +1.6677051833E-005 -1.7707737520E+002 
90053981.991 +2.8827620399E-005 -3.3323672325E+001  +9.9987808245E-001 -4.2259587708E-002  +9.9994625842E-001 -4.1336182037E-002  +3.0281732854E-005 -1.1660236070E+002 
100058979.990 +4.0325070181E-005 +6.8646569736E+001  +9.9983513157E-001 -4.4091022019E-002  +9.9994286337E-001 -4.5998834577E-002  +4.8567255228E-005 -1.1831421566E-001 
110063977.989 +1.1067482787E-004 +6.7736587193E+001  +9.9975351048E-001 -4.6786380534E-002  +9.9987170269E-001 -4.6516146159E-002  +4.3857689288E-005 +1.0147311323E+001 
120068975.988 +4.7148346399E-005 +8.4556408368E+001  +9.9982275545E-001 -4.9775294500E-002  +9.9988765643E-001 -5.3038969972E-002  +5.8000502674E-005 +7.6705952835E+001 
130073973.987 +4.0187670453E-005 +5.2054122284E+001  +9.9978808640E-001 -5.8287535972E-002  +9.9986649765E-001 -5.3093460363E-002  +8.6171381398E-005 -1.4879351590E+002 
140078971.986 +4.5348314522E-005 +1.5086725894E+002  +9.9972343649E-001 -5.6080272737E-002  +9.9978554295E-001 -5.9379041599E-002  +8.4982940727E-005 +1.4551905622E+002 
150083969.985 +6.6924934361E-005 -1.7530126888E+002  +9.9974842272E-001 -6.6312221080E-002  +9.9994307862E-001 -6.2614213124E-002  +4.4513245023E-005 -1.0693579196E+002 
160088967.984 +6.4264117703E-005 -8.6405855031E+001  +9.9974238612E-001 -6.8411739319E-002  +9.9987068111E-001 -6.6765210511E-002  +1.3692018949E-004 -1.6460737564E+002 
170093965.983 +2.1699643627E-005 +1.6306697710E+002  +9.9973953076E-001 -6.8683505659E-002  +9.9978993775E-001 -7.5958290275E-002  +1.5555899778E-004 -1.4755200910E+002 
180098963.982 +5.6005889518E-005 -5.8470856245E+001  +9.9976280122E-001 -7.7804088303E-002  +9.9987393490E-001 -7.6566704261E-002  +7.8939247315E-005 -1.3795856087E+002 
190103961.981 +4.1935656713E-005 -4.8520853638E+001  +9.9979216531E-001 -8.1842703836E-002  +9.9982090899E-001 -8.0000991271E-002  +4.0102628172E-005 -1.0336998033E+001 
200108959.980 +8.5878363393E-005 +4.9455709142E+001  +9.9965568059E-001 -8.2245041386E-002  +9.9982845719E-001 -8.3911345502E-002  +4.1652850943E-005 -2.4632545432E+001 
210113957.979 +3.1466302410E-005 -3.3175022162E+001  +9.9978418124E-001 -9.1013168286E-002  +9.9986153011E-001 -8.3609707443E-002  +3.5942814897E-005 +1.6171032299E+002 
220118955.978 +1.3774739202E-005 -4.5986790855E+001  +9.9970677533E-001 -9.5925415828E-002  +9.9991411154E-001 -9.0724401612E-002  +1.4384007819E-004 -8.6665998538E+001 
230123953.977 +4.5787479768E-005 +1.4118893946E+002  +9.9974291250E-001 -9.8503039865E-002  +9.9988316812E-001 -9.6689254881E-002  +1.4591841072E-004 -9.5788933417E+001 
240128951.976 +4.0190230471E-005 +1.3213889449E+002  +9.9974929211E-001 -9.6560440343E-002  +9.9979816551E-001 -1.0045142757E-001  +9.1435530643E-005 -5.3745150451E+001 
250133949.975 +4.3202339856E-005 +1.7961381139E+002  +9.9975923821E-001 -1.0779957252E-001  +9.9981517772E-001 -1.0317547191E-001  +7.4276358638E-005 -7.8371768369E+001 
260138947.974 +2.2370484698E-005 -2.2122350576E+001  +9.9967331481E-001 -1.0679080551E-001  +9.9976561472E-001 -1.1133605094E-001  +1.5356404183E-004 -1.4705544992E+002 
270143945.973 +1.8328161811E-005 +5.8937309698E+001  +9.9970590849E-001 -1.1009411376E-001  +9.9975455029E-001 -1.1198460365E-001  +1.1978415050E-004 -1.6662780552E+002 
280148943.972 +4.9355082115E-005 -4.3618318156E+001  +9.9968365149E-001 -1.1630205942E-001  +9.9985192076E-001 -1.1475058656E-001  +2.0818388563E-005 -1.7912383584E+002 
290153941.971 +8.2224705680E-005 -1.6295285054E+001  +9.9978321875E-001 -1.2357646920E-001  +9.9984866769E-001 -1.2206038408E-001  +3.0246044801E-005 -1.3567105125E+002 
300158939.970 +4.5457992538E-005 +1.6422506710E+001  +9.9974528973E-001 -1.2303374793E-001  +9.9985352470E-001 -1.2283854856E-001  +2.9158352416E-005 +1.1283433469E+002 
310163937.969 +3.2255475078E-005 +6.3357019130E+001  +9.9974442990E-001 -1.2551342506E-001  +9.9968217727E-001 -1.2167589417E-001  +1.1395558591E-004 +1.7051303229E+002 
320168935.968 +4.7009312954E-005 +5.2720899732E+001  +9.9975335368E-001 -1.3558208650E-001  +9.9982642172E-001 -1.3099343659E-001  +6.4012797541E-005 -8.6824714549E+001 
330173933.967 +2.9947361999E-005 +4.5901074951E+001  +9.9968143124E-001 -1.3751003315E-001  +9.9986665462E-001 -1.3247051827E-001  +8.6566168688E-005 -1.0043212795E+002 
340178931.966 +2.2910810706E-005 +1.6984583910E+002  +9.9968267170E-001 -1.4283228476E-001  +9.9980039381E-001 -1.3872164649E-001  +4.9403800990E-005 -8.9647907550E+001 
350183929.965 +4.9359136836E-005 +1.6903727268E+002  +9.9971122286E-001 -1.4420617158E-001  +9.9981254807E-001 -1.4413775909E-001  +1.1675202786E-004 -8.9515151518E+001 
360188927.964 +8.4304799724E-005 -1.6338833824E+002  +9.9971795027E-001 -1.5066712344E-001  +9.9971841390E-001 -1.4372389581E-001  +6.7253475915E-005 -9.8785578701E+001 
370193925.963 +5.1668418828E-005 +1.2474110419E+002  +9.9977265965E-001 -1.4787151832E-001  +9.9977535820E-001 -1.4954831305E-001  +4.7212380900E-005 +6.8687621453E+001 
380198923.962 +1.6746145520E-005 -1.1831192541E+002  +9.9971094846E-001 -1.5892317099E-001  +9.9981962904E-001 -1.5309062698E-001  +1.3611350792E-004 -5.5807973463E+001 
390203921.961 +3.1339080490E-005 +8.2178875632E+000  +9.9979887088E-001 -1.5903130990E-001  +9.9973793835E-001 -1.6235110977E-001  +5.7236441945E-005 -8.1985971932E+001 
400208919.960 +6.1948719089E-005 +6.1001570585E+001  +9.9965780276E-001 -1.6421318455E-001  +9.9974037114E-001 -1.6452499575E-001  +1.2805779998E-004 -1.0615119736E+002 
410213917.959 +1.6199740828E-005 +6.9432540737E+001  +9.9970707866E-001 -1.6623767552E-001  +9.9974434032E-001 -1.6522718086E-001  +7.7003846690E-005 -9.8311471447E+001 
420218915.958 +2.9940100955E-005 +9.0504697584E+001  +9.9969267413E-001 -1.6662951295E-001  +9.9966434450E-001 -1.6862591228E-001  +1.9786565911E-004 -7.9965644920E+001 
430223913.957 +5.4974149340E-005 +1.4326568155E+002  +9.9961837451E-001 -1.7292980703E-001  +9.9978778083E-001 -1.7756824448E-001  +1.8851183666E-004 -1.1943433094E+002 
440228911.956 +7.6608125582E-005 -1.5011944385E+002  +9.9981531095E-001 -1.7632557568E-001  +9.9981778399E-001 -1.7797237693E-001  +9.6145936463E-005 -7.3781425388E+001 
450233909.955 +5.3830917548E-005 -1.7223278278E+002  +9.9966912070E-001 -1.8216366954E-001  +9.9973654825E-001 -1.8349216809E-001  +3.7984318349E-005 -1.7593491608E+002 
460238907.954 +3.1201157405E-005 -1.7718912595E+002  +9.9967298258E-001 -1.8724119096E-001  +9.9968750279E-001 -1.8577976236E-001  +1.4508116434E-004 -1.3598256257E+002 
470243905.953 +1.8453259171E-005 -1.1817568502E+002  +9.9961374000E-001 -1.8940293230E-001  +9.9964394564E-001 -1.8707752153E-001  +7.7654127655E-005 -1.5355428027E+002 
480248903.952 +4.5799836360E-005 +2.3562027274E+001  +9.9960446108E-001 -1.9179215878E-001  +9.9979340092E-001 -1.9368777345E-001  +1.5622492633E-004 -7.9143623046E+001 
490253901.951 +4.2188803592E-005 -4.6803367979E+000  +9.9973143188E-001 -1.9900872022E-001  +9.9979775589E-001 -1.9273947091E-001  +1.2407325200E-004 -3.2743484201E+001 
500258899.950 +5.7777291701E-005 +4.3352191039E+001  +9.9971283726E-001 -2.0197246938E-001  +9.9973382465E-001 -2.0013040798E-001  +5.9334760960E-005 -6.7013087067E+001 
510263897.949 +7.7538102989E-005 +3.5328562425E+001  +9.9974674665E-001 -2.0476501546E-001  +9.9973762895E-001 -2.0093582520E-001  +1.1335586536E-005 -1.4217575570E+002 
520268895.948 +7.0816499347E-005 +9.3221818785E+001  +9.9978367421E-001 -2.0905716079E-001  +9.9962697054E-001 -2.0332904366E-001  +1.0468588318E-004 -7.9313723399E+001 
530273893.947 +6.4850736855E-005 +1.7826579720E+002  +9.9965287549E-001 -2.1145542942E-001  +9.9972547293E-001 -2.1327535002E-001  +1.0838380277E-004 -1.4397584928E+002 
540278891.946 +2.9961177437E-005 -1.5460811043E+002  +9.9964742944E-001 -2.1929960544E-001  +9.9966595524E-001 -2.1643271510E-001  +1.2557180905E-004 -1.4491528828E+002 
550283889.945 +4.2401814142E-005 +1.3933936862E+002  +9.9954413350E-001 -2.2195652696E-001  +9.9961997488E-001 -2.2230695199E-001  +1.8374190495E-004 -1.3414778545E+002 
560288887.944 +2.6754079894E-005 -1.3030567732E+002  +9.9965931063E-001 -2.2400805468E-001  +9.9969324739E-001 -2.2080462482E-001  +1.3019702966E-004 -1.2664758202E+002 
570293885.943 +9.7856333491E-006 -2.0651179120E+001  +9.9967876179E-001 -2.2862114257E-001  +9.9968138457E-001 -2.3032928851E-001  +8.6020751494E-005 -1.1869909217E+002 
580298883.942 +4.8162397604E-005 -1.1257797646E+001  +9.9969869705E-001 -2.3071367344E-001  +9.9964625717E-001 -2.3004421841E-001  +8.8525672593E-005 -1.4493113321E+002 
590303881.941 +2.6581815445E-005 +5.5020227464E+001  +9.9972619646E-001 -2.3769999882E-001  +9.9976388424E-001 -2.2956624987E-001  +1.0645055958E-004 -8.1879150832E+001 
600308879.940 +5.3885726153E-005 +5.5879402838E+001  +9.9969545186E-001 -2.3786103648E-001  +9.9966862350E-001 -2.3941840040E-001  +5.5948147282E-005 -9.4563728894E+001 
610313877.939 +1.7428548434E-005 +6.5996217219E+001  +9.9967707049E-001 -2.4564522929E-001  +9.9967389352E-001 -2.4380551076E-001  +1.2877219456E-004 -9.5644895288E+001 
620318875.938 +3.7529779864E-005 +8.6181019828E+001  +9.9966531558E-001 -2.5099522096E-001  +9.9969248497E-001 -2.4131207913E-001  +1.1095240258E-004 -8.2460172628E+001 
630323873.937 +4.8315323187E-005 +1.6480790920E+002  +9.9964942298E-001 -2.5128276633E-001  +9.9967641519E-001 -2.5194385496E-001  +1.3837063187E-004 -9.5482557180E+001 
640328871.936 +5.2606405887E-005 -1.7091945834E+002  +9.9960287326E-001 -2.5593917931E-001  +9.9971404901E-001 -2.5068578447E-001  +8.9600768231E-005 -1.0824814092E+002 
650333869.935 +3.6298030429E-005 -1.6491764755E+002  +9.9954550674E-001 -2.6015638739E-001  +9.9969393635E-001 -2.5728916752E-001  +2.5026567039E-004 -1.1870381652E+002 
660338867.934 +3.0485577699E-005 -9.8048029063E+001  +9.9955945041E-001 -2.6309960625E-001  +9.9971766366E-001 -2.6186916733E-001  +1.1094808134E-004 -1.2476216571E+002 
670343865.933 +5.6418226221E-005 -5.7130914032E+001  +9.9965443892E-001 -2.6871322880E-001  +9.9971547536E-001 -2.6872073544E-001  +1.5041828381E-004 -1.3591238692E+002 
680348863.932 +1.6290330959E-005 +7.8329550808E+000  +9.9956758684E-001 -2.7007930499E-001  +9.9962479191E-001 -2.6769969064E-001  +1.5541234036E-004 -1.6165879673E+002 
690353861.931 +6.0598924357E-005 +1.1314226491E+001  +9.9964259932E-001 -2.7545175352E-001  +9.9974115866E-001 -2.7369267682E-001  +1.3170375836E-004 -6.2679799811E+001 
700358859.930 +6.3155847919E-005 +4.2176532820E+001  +9.9972386525E-001 -2.7715213295E-001  +9.9969113381E-001 -2.7563950852E-001  +5.6130978544E-005 -1.4495463612E+002 
710363857.929 +6.2145492523E-005 +5.5495209142E+001  +9.9969006557E-001 -2.8408677006E-001  +9.9966374148E-001 -2.8156790824E-001  +2.2331905620E-004 -9.7728218783E+001 
720368855.928 +3.3241413705E-005 +3.1947215634E+001  +9.9963197554E-001 -2.8915612655E-001  +9.9961976631E-001 -2.8311256619E-001  +5.1846286277E-005 -7.6958632889E+001 
730373853.927 +8.2806722781E-005 +1.5301998055E+002  +9.9955704853E-001 -2.8708339477E-001  +9.9958787944E-001 -2.9064141404E-001  +4.8142998048E-005 -7.6688757915E+001 
740378851.926 +6.1163811158E-005 +1.4620447724E+002  +9.9961982456E-001 -2.9461697369E-001  +9.9955854024E-001 -2.9049064391E-001  +2.0921131398E-004 -1.3504981680E+002 
750383849.925 +4.0956447046E-005 -1.5126030238E+002  +9.9963165627E-001 -3.0021168337E-001  +9.9963335495E-001 -2.9594238966E-001  +1.6642797574E-004 -1.1774003539E+002 
760388847.924 +2.6122810249E-005 -7.9205258944E+001  +9.9953186235E-001 -3.0394369646E-001  +9.9972102099E-001 -3.0103887096E-001  +1.6132968114E-004 -1.1986244035E+002 
770393845.923 +5.8295197355E-005 -5.4056128856E+001  +9.9961992077E-001 -3.0737265201E-001  +9.9965476016E-001 -3.0255859022E-001  +7.3537190925E-005 -1.4950873749E+002 
780398843.922 +4.0870328405E-005 -2.2251902634E+001  +9.9963428690E-001 -3.1055316758E-001  +9.9963235562E-001 -3.1406241175E-001  +2.6775357697E-004 -1.0528916610E+002 
790403841.921 +5.5444950591E-005 +8.0300514499E+000  +9.9972478322E-001 -3.1008267267E-001  +9.9967534514E-001 -3.1170620924E-001  +1.4713426676E-004 -7.2511642522E+001 
800408839.920 +1.3652756970E-005 +3.7646311296E+001  +9.9967139498E-001 -3.1959902238E-001  +9.9966653576E-001 -3.1371260707E-001  +1.2136837890E-004 -8.0846082650E+001 
810413837.919 +9.8394369878E-005 +8.6637568216E+001  +9.9963569808E-001 -3.2332234628E-001  +9.9964851782E-001 -3.1725759721E-001  +1.4938635433E-005 -4.4590816455E+001 
820418835.918 +6.4898143844E-005 +1.3458555540E+002  +9.9964175182E-001 -3.2786928974E-001  +9.9970625824E-001 -3.2258554982E-001  +7.8109188553E-005 -8.5166686037E+001 
830423833.917 +5.8780285680E-005 +1.7176431621E+002  +9.9955085440E-001 -3.2728324846E-001  +9.9968371104E-001 -3.3199087660E-001  +1.9586769444E-004 -1.0581125991E+002 
840428831.916 +3.3017316379E-005 -1.6259471544E+002  +9.9961831896E-001 -3.3370886522E-001  +9.9967045274E-001 -3.2936645436E-001  +1.6164967722E-004 -9.0081481020E+001 
850433829.915 +9.3475172570E-005 -1.0802294182E+002  +9.9959292348E-001 -3.3249934585E-001  +9.9962045392E-001 -3.3006280185E-001  +1.2198714240E-005 +1.2629954084E+002 
860438827.914 +5.7295245755E-005 -8.4589003910E+001  +9.9961693602E-001 -3.4055933407E-001  +9.9959605731E-001 -3.3866856246E-001  +1.3260253490E-004 -1.1897399010E+002 
870443825.913 +3.9709438689E-005 -7.9925451293E+001  +9.9966803735E-001 -3.4417429500E-001  +9.9967652304E-001 -3.4267163488E-001  +1.9055607824E-004 -7.4624562559E+001 
880448823.912 +6.1359375011E-005 +6.3981163947E+000  +9.9972192555E-001 -3.4873759614E-001  +9.9968692923E-001 -3.4128876700E-001  +2.0930209609E-004 -6.6798770888E+001 
890453821.911 +3.5341782700E-005 +1.6085818448E+001  +9.9965888617E-001 -3.5341774596E-001  +9.9970304611E-001 -3.5389747946E-001  +3.9854549925E-005 -1.5183428989E+002 
900458819.910 +1.3702632630E-004 +3.1971402951E+001  +9.9962219670E-001 -3.5916693958E-001  +9.9978812877E-001 -3.5578538092E-001  +5.4251361477E-005 +4.6689750232E+001 
910463817.909 +5.0497149398E-005 +4.9668863276E+001  +9.9959333908E-001 -3.6288597558E-001  +9.9967491227E-001 -3.5829563960E-001  +1.8222840909E-004 -1.1698057055E+002 
920468815.908 +5.3890850094E-005 +1.2301748022E+002  +9.9958259549E-001 -3.6490651794E-001  +9.9960365152E-001 -3.6235181752E-001  +2.1635579824E-004 -7.6345705703E+001 
930473813.907 +1.1671103503E-004 -1.7395013825E+002  +9.9958832473E-001 -3.6604129028E-001  +9.9952142973E-001 -3.5995313649E-001  +1.1274670214E-004 -7.5086380147E+001 
940478811.906 +5.8421616744E-005 -1.5634007188E+002  +9.9959172091E-001 -3.7239143241E-001  +9.9967251168E-001 -3.6891430494E-001  +5.4830009879E-005 -6.2073264571E+001 
950483809.905 +4.9807210146E-005 -1.1944487532E+002  +9.9958746981E-001 -3.7796374535E-001  +9.9958548587E-001 -3.7417208688E-001  +2.2487430471E-004 -1.0888715770E+002 
960488807.904 +4.6747194349E-005 -8.6728811962E+001  +9.9968855110E-001 -3.8352900560E-001  +9.9971054981E-001 -3.7790931157E-001  +2.3615452954E-004 -7.0926962792E+001 
970493805.903 +5.7809736234E-005 -1.0012280146E+002  +9.9959720299E-001 -3.8478632477E-001  +9.9962220323E-001 -3.8142686058E-001  +2.3506333249E-004 -1.0168621514E+002 
980498803.902 +1.0108624616E-004 -1.1718501863E+001  +9.9963911271E-001 -3.8939429721E-001  +9.9951994685E-001 -3.8877786088E-001  +5.8879929466E-005 +1.6646376363E+002 
990503801.901 +8.7122844090E-005 +1.9081255808E+001  +9.9967137292E-001 -3.8799642297E-001  +9.9968298967E-001 -3.8844627626E-001  +5.4117745898E-005 -1.0981655421E+002 
1000508799.900 +5.9879567305E-005 +9.2028464237E+001  +9.9959267691E-001 -3.9436683463E-001  +9.9951749425E-001 -3.8970989887E-001  +2.0529404615E-004 -8.6896081241E+001 
1010513797.899 +3.4124399221E-005 +7.6831939503E+001  +9.9961990024E-001 -3.9916264776E-001  +9.9954346529E-001 -3.9554922261E-001  +2.3146708798E-004 -1.0185687528E+002 
1020518795.898 +3.4963860324E-005 +1.1526658339E+002  +9.9965702334E-001 -3.9857729399E-001  +9.9963808459E-001 -3.9476187938E-001  +4.2223846281E-005 -3.9004657867E+001 
1030523793.897 +4.4338776352E-005 -1.4271358631E+002  +9.9961126390E-001 -4.0842654010E-001  +9.9957708621E-001 -4.0292948898E-001  +2.8427805863E-004 -1.0497990080E+002 
1040528791.896 +3.4653830174E-005 -1.6903843932E+002  +9.9969553400E-001 -4.1071172560E-001  +9.9956932694E-001 -4.0623139354E-001  +2.3079894251E-004 -8.8319993931E+001 
1050533789.895 +4.4193199007E-005 -1.3993204104E+002  +9.9957275217E-001 -4.1597597351E-001  +9.9970040682E-001 -4.1154498600E-001  +3.0123273040E-004 -9.2622710350E+001 
1060538787.894 +6.2573139742E-005 -7.7514851010E+001  +9.9960076591E-001 -4.2111134774E-001  +9.9966267135E-001 -4.1387850507E-001  +1.3657688998E-004 -9.0591664471E+001 
1070543785.893 +5.2916353892E-005 +3.6658524440E+000  +9.9960358352E-001 -4.2493839608E-001  +9.9964073807E-001 -4.1859540206E-001  +1.3915298084E-004 -1.1556987277E+002 
1080548783.892 +3.5009247365E-005 -2.7083474663E+001  +9.9961377915E-001 -4.2908682845E-001  +9.9958206689E-001 -4.2217495957E-001  +1.7272815232E-004 -9.1758525217E+001 
1090553781.891 +7.6761294521E-005 +3.5928995124E+000  +9.9969255022E-001 -4.3023578446E-001  +9.9965214502E-001 -4.2892911422E-001  +2.8705331130E-004 -7.7516856301E+001 
1100558779.890 +6.8033987815E-005 +1.2185200626E+002  +9.9957391974E-001 -4.2876227460E-001  +9.9964138242E-001 -4.3276300124E-001  +9.4050273479E-005 -9.3038985004E+001 
1110563777.889 +6.0505469403E-005 +1.0097551161E+002  +9.9957140882E-001 -4.3774232515E-001  +9.9970734571E-001 -4.3441008811E-001  +7.0947626912E-005 -1.6838327623E+001 
1120568775.888 +4.4499877569E-005 +8.7431040522E+001  +9.9953398109E-001 -4.4222958335E-001  +9.9969083170E-001 -4.3797699656E-001  +1.9593041266E-004 -6.8221543713E+001 
1130573773.887 +4.5008296996E-005 +1.5958113359E+002  +9.9949817411E-001 -4.4279426788E-001  +9.9965163097E-001 -4.4433968182E-001  +2.4834243362E-004 -9.2617839829E+001 
