!  2-Port S-parameters saved by WinCal
! VAR MeasName=S-Parameters (CALIBRATED_DATA) read from VNA (P5004A)
! VAR MeasDate=26/04/2024 19:10:55
! VAR NAME=Wafer2_r1_c6_fullform_log
! VAR FILENAME=Wafer2_r1_c6_fullform_log_1.S2P
! VAR DATE=26/04/2024 19:10:55
! VAR PHYS_PORTS=1,2
! VAR ObjTypeName=DATASET
! VAR IndexType=Frequency
!
# Hz S MA R 50
9000.000 +7.8504695095E-001 +1.6795898748E+001  +1.4372788167E-002 +2.3690102552E+000  +1.4621759879E-002 +1.3659042586E+000  +7.8480006356E-001 +1.6767060748E+001 
9066.037 +7.8759802468E-001 +1.6845976388E+001  +1.4364653226E-002 +2.3077034625E+000  +1.4609321284E-002 +1.2822807083E+000  +7.8713935703E-001 +1.6818318558E+001 
9132.559 +7.8972080552E-001 +1.6907317947E+001  +1.4388734109E-002 +2.4258550673E+000  +1.4668183987E-002 +1.6219980680E+000  +7.8933547838E-001 +1.6885594816E+001 
9199.568 +7.9229167363E-001 +1.6970722129E+001  +1.4375190039E-002 +2.6513939017E+000  +1.4642739523E-002 +1.8723037041E+000  +7.9205470837E-001 +1.6953674408E+001 
9267.070 +7.9501897128E-001 +1.7001702499E+001  +1.4331601066E-002 +2.6343400848E+000  +1.4683712706E-002 +1.9172705565E+000  +7.9459833389E-001 +1.6982117351E+001 
9335.066 +7.9736271346E-001 +1.7072804119E+001  +1.4457644719E-002 +2.8372691572E+000  +1.4688428010E-002 +1.9722076743E+000  +7.9681416138E-001 +1.7052067585E+001 
9403.562 +7.9997224255E-001 +1.7121511709E+001  +1.4450297100E-002 +3.1991688036E+000  +1.4735699844E-002 +2.3083472498E+000  +7.9962057088E-001 +1.7096271589E+001 
9472.560 +8.0240551629E-001 +1.7152557325E+001  +1.4506717610E-002 +3.2640059911E+000  +1.4713761931E-002 +2.4037520837E+000  +8.0209132702E-001 +1.7110947315E+001 
9542.065 +8.0525457352E-001 +1.7164651045E+001  +1.4516289122E-002 +3.5155208198E+000  +1.4764404848E-002 +2.9213350556E+000  +8.0479785570E-001 +1.7143139348E+001 
9612.079 +8.0738118599E-001 +1.7212679658E+001  +1.4489907673E-002 +3.3480901398E+000  +1.4806117452E-002 +2.6576543103E+000  +8.0707931083E-001 +1.7181010114E+001 
9682.607 +8.1014638439E-001 +1.7233857374E+001  +1.4468913066E-002 +3.7025370416E+000  +1.4805625653E-002 +2.6158583897E+000  +8.0968947268E-001 +1.7201632471E+001 
9753.653 +8.1255087311E-001 +1.7268600070E+001  +1.4582027047E-002 +3.7588727518E+000  +1.4878164725E-002 +2.8857207669E+000  +8.1209415897E-001 +1.7224743833E+001 
9825.220 +8.1477339656E-001 +1.7281429711E+001  +1.4523426190E-002 +3.9106177476E+000  +1.4892716571E-002 +3.0082477879E+000  +8.1432547944E-001 +1.7258635939E+001 
9897.312 +8.1760394635E-001 +1.7291170669E+001  +1.4625497321E-002 +4.1143756333E+000  +1.4941442701E-002 +3.0179083794E+000  +8.1726859956E-001 +1.7267340260E+001 
9969.933 +8.1999467109E-001 +1.7327593061E+001  +1.4646809931E-002 +4.2757492173E+000  +1.4916285868E-002 +3.4958064654E+000  +8.1957129173E-001 +1.7315378198E+001 
10043.087 +8.2269523649E-001 +1.7350266045E+001  +1.4636167242E-002 +4.4266051747E+000  +1.4933663435E-002 +3.5991921518E+000  +8.2225046341E-001 +1.7324390575E+001 
10116.778 +8.2515862687E-001 +1.7358554417E+001  +1.4655047492E-002 +4.4179182675E+000  +1.4993855928E-002 +3.6742470200E+000  +8.2471164349E-001 +1.7333740119E+001 
10191.009 +8.2758029452E-001 +1.7384517280E+001  +1.4708163756E-002 +4.3844319502E+000  +1.5065305139E-002 +3.8671339519E+000  +8.2716069893E-001 +1.7356636619E+001 
10265.785 +8.3046640543E-001 +1.7386816887E+001  +1.4764166840E-002 +4.8047086112E+000  +1.5016703722E-002 +3.8830365213E+000  +8.2998684595E-001 +1.7358455902E+001 
10341.110 +8.3322870759E-001 +1.7403367925E+001  +1.4734563657E-002 +4.8434449657E+000  +1.5044708642E-002 +3.8274372509E+000  +8.3270073842E-001 +1.7368981355E+001 
10416.987 +8.3582051068E-001 +1.7397871282E+001  +1.4785502893E-002 +5.0456966418E+000  +1.5064854957E-002 +4.1560718447E+000  +8.3547423193E-001 +1.7388807878E+001 
10493.421 +8.3857442963E-001 +1.7391446429E+001  +1.4816736231E-002 +4.9472655686E+000  +1.5111613459E-002 +4.3195216154E+000  +8.3818360712E-001 +1.7372609359E+001 
10570.416 +8.4120152413E-001 +1.7387132470E+001  +1.4836002376E-002 +5.1452082869E+000  +1.5084414085E-002 +4.6258871936E+000  +8.4104092088E-001 +1.7361209495E+001 
10647.976 +8.4392858534E-001 +1.7390679373E+001  +1.4855158817E-002 +5.4216360599E+000  +1.5134600304E-002 +4.6628776192E+000  +8.4361451633E-001 +1.7371567211E+001 
10726.105 +8.4684543496E-001 +1.7378784086E+001  +1.4889046469E-002 +5.6461010268E+000  +1.5155951990E-002 +4.5533325625E+000  +8.4636742973E-001 +1.7351170320E+001 
10804.808 +8.4998283485E-001 +1.7360197943E+001  +1.4863927473E-002 +5.6667722603E+000  +1.5133268090E-002 +4.8314827792E+000  +8.4935971255E-001 +1.7342778558E+001 
10884.087 +8.5272760194E-001 +1.7353376705E+001  +1.4955683777E-002 +5.5332477859E+000  +1.5211654919E-002 +4.8637426924E+000  +8.5235440567E-001 +1.7330173098E+001 
10963.949 +8.5552854582E-001 +1.7319311871E+001  +1.4979512802E-002 +5.8482359206E+000  +1.5160744526E-002 +5.0919985833E+000  +8.5508381026E-001 +1.7305459572E+001 
11044.396 +8.5839430493E-001 +1.7305869965E+001  +1.5048742561E-002 +5.9261568552E+000  +1.5267782765E-002 +5.3099449033E+000  +8.5806890297E-001 +1.7295227618E+001 
11125.434 +8.6082237721E-001 +1.7309539454E+001  +1.5095952110E-002 +6.1095065470E+000  +1.5298450442E-002 +5.3480961919E+000  +8.6026084890E-001 +1.7282083265E+001 
11207.066 +8.6334013371E-001 +1.7282302811E+001  +1.5026772596E-002 +6.3163207096E+000  +1.5265654477E-002 +5.3439278983E+000  +8.6288101843E-001 +1.7257013572E+001 
11289.298 +8.6552281472E-001 +1.7282675280E+001  +1.5110215389E-002 +6.4777820137E+000  +1.5267065212E-002 +5.4854982660E+000  +8.6495950198E-001 +1.7269192522E+001 
11372.132 +8.6800449430E-001 +1.7251696656E+001  +1.5158689529E-002 +6.6709390570E+000  +1.5360352208E-002 +5.6440725085E+000  +8.6772103704E-001 +1.7233152078E+001 
11455.575 +8.7081890621E-001 +1.7233130550E+001  +1.5118143944E-002 +6.6300165314E+000  +1.5359743683E-002 +5.7804339247E+000  +8.7033556770E-001 +1.7220887752E+001 
11539.630 +8.7308731516E-001 +1.7220069020E+001  +1.5171379707E-002 +6.5935495148E+000  +1.5402907830E-002 +6.0795262167E+000  +8.7268163535E-001 +1.7201313654E+001 
11624.301 +8.7559275632E-001 +1.7188805559E+001  +1.5113762765E-002 +6.9565277650E+000  +1.5431075498E-002 +5.8770521136E+000  +8.7519821747E-001 +1.7168543953E+001 
11709.594 +8.7816544969E-001 +1.7147341946E+001  +1.5218119012E-002 +6.6384089572E+000  +1.5441991694E-002 +6.0711336612E+000  +8.7758071984E-001 +1.7140027138E+001 
11795.512 +8.8088011057E-001 +1.7115846622E+001  +1.5295237879E-002 +7.1085750432E+000  +1.5477609761E-002 +6.2842814387E+000  +8.8048653221E-001 +1.7113768082E+001 
11882.062 +8.8326314084E-001 +1.7089458949E+001  +1.5271269701E-002 +6.9729462345E+000  +1.5520856489E-002 +6.3643294957E+000  +8.8284658617E-001 +1.7076698141E+001 
11969.246 +8.8607758085E-001 +1.7050812940E+001  +1.5261708382E-002 +7.3982573067E+000  +1.5564658506E-002 +6.4881762643E+000  +8.8577861273E-001 +1.7038746379E+001 
12057.069 +8.8850565124E-001 +1.7005645012E+001  +1.5266907229E-002 +7.4111597854E+000  +1.5535727451E-002 +6.6976289509E+000  +8.8812119579E-001 +1.6991728152E+001 
12145.538 +8.9134918547E-001 +1.6956458716E+001  +1.5311574603E-002 +7.3223240811E+000  +1.5559403178E-002 +6.5638328507E+000  +8.9068892623E-001 +1.6953424888E+001 
12234.655 +8.9399693093E-001 +1.6925081695E+001  +1.5411151107E-002 +7.5508800718E+000  +1.5630177527E-002 +6.8305534029E+000  +8.9327089927E-001 +1.6906052964E+001 
12324.426 +8.9650350362E-001 +1.6866726845E+001  +1.5397810642E-002 +7.6250980193E+000  +1.5721326270E-002 +6.8730172114E+000  +8.9628520878E-001 +1.6849872191E+001 
12414.856 +8.9910462882E-001 +1.6811097061E+001  +1.5468376994E-002 +7.7183843771E+000  +1.5666867586E-002 +6.8271455301E+000  +8.9858092607E-001 +1.6792101095E+001 
12505.949 +9.0201195163E-001 +1.6761296515E+001  +1.5481293142E-002 +7.8127923876E+000  +1.5792211638E-002 +7.0044631418E+000  +9.0150915320E-001 +1.6752162426E+001 
12597.711 +9.0383464782E-001 +1.6735276713E+001  +1.5570340678E-002 +8.1726264257E+000  +1.5782963958E-002 +7.0880413439E+000  +9.0325425408E-001 +1.6726543259E+001 
12690.146 +9.0644986687E-001 +1.6685324558E+001  +1.5566482591E-002 +8.1096527577E+000  +1.5832919791E-002 +6.9899615029E+000  +9.0578154942E-001 +1.6669987482E+001 
12783.260 +9.0881137958E-001 +1.6639671447E+001  +1.5609628378E-002 +8.0381966749E+000  +1.5780776071E-002 +7.1929010638E+000  +9.0819870933E-001 +1.6627369593E+001 
12877.056 +9.1106862611E-001 +1.6590728311E+001  +1.5642645576E-002 +7.9742148085E+000  +1.5862248684E-002 +7.3807359678E+000  +9.1062951793E-001 +1.6580016422E+001 
12971.541 +9.1343210750E-001 +1.6546988992E+001  +1.5697976459E-002 +8.2547142733E+000  +1.5902784470E-002 +7.4018719859E+000  +9.1281486303E-001 +1.6523421933E+001 
13066.719 +9.1544684282E-001 +1.6488518332E+001  +1.5675243734E-002 +8.4345497140E+000  +1.5907185153E-002 +7.4787531640E+000  +9.1487384004E-001 +1.6479111262E+001 
13162.595 +9.1785750961E-001 +1.6450906311E+001  +1.5671141025E-002 +8.4603802083E+000  +1.5916521393E-002 +7.5542920749E+000  +9.1719045072E-001 +1.6430169119E+001 
13259.175 +9.2009984927E-001 +1.6392825728E+001  +1.5783284578E-002 +8.5843680048E+000  +1.5993762831E-002 +7.7451135778E+000  +9.1968181604E-001 +1.6378486669E+001 
13356.464 +9.2232356234E-001 +1.6326335972E+001  +1.5820430396E-002 +8.4755398869E+000  +1.5992907142E-002 +7.7542585302E+000  +9.2192158337E-001 +1.6312729337E+001 
13454.466 +9.2491271366E-001 +1.6271053549E+001  +1.5817705200E-002 +8.7015675438E+000  +1.6074151295E-002 +7.9106375003E+000  +9.2422745657E-001 +1.6246370476E+001 
13553.188 +9.2691702427E-001 +1.6208671137E+001  +1.5877184132E-002 +8.6589426371E+000  +1.6105422231E-002 +7.9102858080E+000  +9.2632872989E-001 +1.6189038140E+001 
13652.634 +9.2918507747E-001 +1.6150782548E+001  +1.5933580483E-002 +8.6621211325E+000  +1.6119489299E-002 +8.1590757878E+000  +9.2878629370E-001 +1.6133557439E+001 
13752.809 +9.3174733466E-001 +1.6072539779E+001  +1.5928085872E-002 +8.8684541243E+000  +1.6158908994E-002 +8.0062279849E+000  +9.3128293786E-001 +1.6056481812E+001 
13853.720 +9.3409791116E-001 +1.5996599712E+001  +1.5950146946E-002 +8.6755544057E+000  +1.6178510803E-002 +8.2022901307E+000  +9.3353023285E-001 +1.5979622210E+001 
13955.371 +9.3651993154E-001 +1.5943389561E+001  +1.5977111606E-002 +8.7840795190E+000  +1.6204691435E-002 +8.3922700239E+000  +9.3593080201E-001 +1.5922909796E+001 
14057.768 +9.3858169038E-001 +1.5853252482E+001  +1.6045618177E-002 +9.1120547192E+000  +1.6247933176E-002 +8.3367617736E+000  +9.3805730399E-001 +1.5841132137E+001 
14160.916 +9.4090496750E-001 +1.5790999087E+001  +1.6100602941E-002 +8.8470220129E+000  +1.6307624511E-002 +8.2464971850E+000  +9.4034796733E-001 +1.5772608479E+001 
14264.821 +9.4330515930E-001 +1.5719985205E+001  +1.6147037704E-002 +9.3351359801E+000  +1.6280191225E-002 +8.2783439575E+000  +9.4281162556E-001 +1.5706684915E+001 
14369.488 +9.4534428479E-001 +1.5646192121E+001  +1.6170302934E-002 +9.1927526495E+000  +1.6364277853E-002 +8.4762997990E+000  +9.4481773462E-001 +1.5634987836E+001 
14474.924 +9.4705072687E-001 +1.5592009411E+001  +1.6169341938E-002 +9.2254036574E+000  +1.6438859385E-002 +8.4802314669E+000  +9.4647619037E-001 +1.5578721973E+001 
14581.133 +9.4913726881E-001 +1.5539543625E+001  +1.6194360863E-002 +9.2629478388E+000  +1.6470837493E-002 +8.5394920015E+000  +9.4852655097E-001 +1.5523871053E+001 
14688.121 +9.5042861233E-001 +1.5492035925E+001  +1.6245377764E-002 +9.5003704642E+000  +1.6451772971E-002 +8.7198278457E+000  +9.5000706807E-001 +1.5474754171E+001 
14795.895 +9.5239496169E-001 +1.5434477475E+001  +1.6297567314E-002 +9.4194017354E+000  +1.6499697377E-002 +8.9080055621E+000  +9.5195881091E-001 +1.5420162322E+001 
14904.459 +9.5433456682E-001 +1.5360898271E+001  +1.6339339279E-002 +9.5312790982E+000  +1.6516688453E-002 +8.8387203401E+000  +9.5377977427E-001 +1.5361082590E+001 
15013.820 +9.5612756570E-001 +1.5313768482E+001  +1.6395504814E-002 +9.5004255018E+000  +1.6609366394E-002 +8.8750785404E+000  +9.5553769622E-001 +1.5300907494E+001 
15123.983 +9.5790217377E-001 +1.5273622898E+001  +1.6411640042E-002 +9.7434152241E+000  +1.6608745539E-002 +9.0364981005E+000  +9.5738499227E-001 +1.5253577575E+001 
15234.954 +9.5982751243E-001 +1.5194135648E+001  +1.6453366344E-002 +9.7094566126E+000  +1.6640515795E-002 +8.9534257458E+000  +9.5936472471E-001 +1.5192534562E+001 
15346.740 +9.6148511952E-001 +1.5135899834E+001  +1.6504383567E-002 +9.6206914755E+000  +1.6670925370E-002 +9.0954161098E+000  +9.6108493898E-001 +1.5115704829E+001 
15459.346 +9.6319734009E-001 +1.5079318542E+001  +1.6499371282E-002 +9.8305895292E+000  +1.6684464965E-002 +9.2288906593E+000  +9.6300538154E-001 +1.5059504373E+001 
15572.778 +9.6507210757E-001 +1.5008346850E+001  +1.6542708903E-002 +9.8215577830E+000  +1.6738854244E-002 +9.2614336770E+000  +9.6447903847E-001 +1.5002676340E+001 
15687.043 +9.6696712887E-001 +1.4942217939E+001  +1.6649490872E-002 +9.9068637173E+000  +1.6795494152E-002 +9.3337578762E+000  +9.6635765047E-001 +1.4928415464E+001 
15802.146 +9.6884548752E-001 +1.4864412072E+001  +1.6641499447E-002 +9.9066628473E+000  +1.6770907674E-002 +9.2270986862E+000  +9.6822221097E-001 +1.4847161672E+001 
15918.093 +9.7042306501E-001 +1.4793951542E+001  +1.6659308161E-002 +9.9641168516E+000  +1.6874528423E-002 +9.3865040911E+000  +9.7004486252E-001 +1.4776737088E+001 
16034.892 +9.7223638759E-001 +1.4714201811E+001  +1.6712384359E-002 +9.9353728920E+000  +1.6903706092E-002 +9.3905640661E+000  +9.7194120167E-001 +1.4706536317E+001 
16152.547 +9.7408077630E-001 +1.4651333842E+001  +1.6744496507E-002 +9.8499186435E+000  +1.6901627605E-002 +9.2641448435E+000  +9.7343203077E-001 +1.4642340082E+001 
16271.065 +9.7579045908E-001 +1.4576525359E+001  +1.6781232491E-002 +1.0034631679E+001  +1.6997505589E-002 +9.4105673535E+000  +9.7528439144E-001 +1.4564177336E+001 
16390.454 +9.7746720699E-001 +1.4495672695E+001  +1.6864782287E-002 +9.9505451410E+000  +1.6977448564E-002 +9.3776737195E+000  +9.7680461233E-001 +1.4488692587E+001 
16510.718 +9.7926238190E-001 +1.4425163226E+001  +1.6865310430E-002 +1.0050616102E+001  +1.7025292928E-002 +9.4349355673E+000  +9.7874429285E-001 +1.4399928823E+001 
16631.864 +9.8115306023E-001 +1.4333279011E+001  +1.6900708018E-002 +1.0047659505E+001  +1.6990062729E-002 +9.6651957115E+000  +9.8049122472E-001 +1.4324706541E+001 
16753.900 +9.8275459995E-001 +1.4257818032E+001  +1.6958352502E-002 +1.0130786947E+001  +1.7120317416E-002 +9.6868677232E+000  +9.8238972610E-001 +1.4249727812E+001 
16876.831 +9.8446689371E-001 +1.4171213103E+001  +1.6962815397E-002 +1.0102764901E+001  +1.7175847177E-002 +9.7100029262E+000  +9.8402901181E-001 +1.4154832544E+001 
17000.664 +9.8638116767E-001 +1.4091413794E+001  +1.7019873802E-002 +1.0311149645E+001  +1.7157598427E-002 +1.0013188044E+001  +9.8586525814E-001 +1.4093233882E+001 
17125.405 +9.8798188393E-001 +1.4018030988E+001  +1.7016010806E-002 +1.0410870228E+001  +1.7249765129E-002 +9.5736568658E+000  +9.8742206706E-001 +1.4003653131E+001 
17251.062 +9.8981004588E-001 +1.3912609005E+001  +1.7042842674E-002 +1.0202735221E+001  +1.7289989017E-002 +9.6713003959E+000  +9.8898276146E-001 +1.3907246014E+001 
17377.641 +9.9126381113E-001 +1.3826715826E+001  +1.7123960044E-002 +1.0339502568E+001  +1.7242482074E-002 +9.7916029804E+000  +9.9092156654E-001 +1.3809291497E+001 
17505.149 +9.9317976547E-001 +1.3740265375E+001  +1.7192471984E-002 +1.0061426589E+001  +1.7356884513E-002 +9.5476811611E+000  +9.9268174336E-001 +1.3737986661E+001 
17633.592 +9.9477217983E-001 +1.3643579736E+001  +1.7183169943E-002 +1.0164878919E+001  +1.7407704929E-002 +9.8703164343E+000  +9.9440560862E-001 +1.3640063156E+001 
17762.977 +9.9634248333E-001 +1.3546037264E+001  +1.7274373779E-002 +1.0334181580E+001  +1.7439437159E-002 +9.9234721955E+000  +9.9601502888E-001 +1.3544032382E+001 
17893.312 +9.9801421746E-001 +1.3457187188E+001  +1.7310199096E-002 +1.0362961844E+001  +1.7396093076E-002 +9.6773091081E+000  +9.9752456714E-001 +1.3448498657E+001 
18024.604 +9.9984107114E-001 +1.3361555284E+001  +1.7286636853E-002 +1.0385364945E+001  +1.7445560546E-002 +9.8151615133E+000  +9.9937728662E-001 +1.3352985097E+001 
18156.858 +1.0015912154E+000 +1.3264415861E+001  +1.7386776455E-002 +1.0337390979E+001  +1.7596199151E-002 +9.7232178869E+000  +1.0011259520E+000 +1.3260392470E+001 
18290.084 +1.0031597856E+000 +1.3164176752E+001  +1.7450498430E-002 +1.0204210808E+001  +1.7554933493E-002 +9.9015743267E+000  +1.0026480351E+000 +1.3154869061E+001 
18424.286 +1.0047868453E+000 +1.3067661735E+001  +1.7484048730E-002 +1.0284121933E+001  +1.7546434522E-002 +9.9535798910E+000  +1.0043044752E+000 +1.3057171236E+001 
18559.473 +1.0063008731E+000 +1.2950617111E+001  +1.7454136939E-002 +1.0498004967E+001  +1.7665340842E-002 +9.7751962055E+000  +1.0060143092E+000 +1.2935075094E+001 
18695.653 +1.0080526056E+000 +1.2857389859E+001  +1.7516332884E-002 +1.0317954088E+001  +1.7697499004E-002 +9.8952315828E+000  +1.0077336929E+000 +1.2847528049E+001 
18832.831 +1.0097030067E+000 +1.2737675798E+001  +1.7551791273E-002 +1.0147423523E+001  +1.7754055478E-002 +9.8887872296E+000  +1.0093306768E+000 +1.2732995647E+001 
18971.016 +1.0112098695E+000 +1.2621167269E+001  +1.7634974324E-002 +1.0163074772E+001  +1.7741566961E-002 +9.8252883914E+000  +1.0108750282E+000 +1.2624599840E+001 
19110.215 +1.0125477876E+000 +1.2539252758E+001  +1.7631944486E-002 +1.0407084970E+001  +1.7828259883E-002 +9.9392817587E+000  +1.0119915758E+000 +1.2534229616E+001 
19250.435 +1.0136123855E+000 +1.2478569324E+001  +1.7702141600E-002 +1.0219240247E+001  +1.7848004152E-002 +9.8035357824E+000  +1.0130510151E+000 +1.2478682533E+001 
19391.685 +1.0148400449E+000 +1.2426134405E+001  +1.7717494332E-002 +1.0367250259E+001  +1.7872584890E-002 +9.8527899624E+000  +1.0142653107E+000 +1.2419379738E+001 
19533.970 +1.0156065932E+000 +1.2361292339E+001  +1.7734816491E-002 +1.0383320257E+001  +1.7875832909E-002 +9.8425638041E+000  +1.0154066364E+000 +1.2366790726E+001 
19677.300 +1.0170239112E+000 +1.2302212528E+001  +1.7766226127E-002 +1.0239073022E+001  +1.7927043078E-002 +1.0192987392E+001  +1.0164549553E+000 +1.2292111641E+001 
19821.681 +1.0178437482E+000 +1.2254924639E+001  +1.7844591804E-002 +1.0191227916E+001  +1.7950047873E-002 +9.9473074661E+000  +1.0173380530E+000 +1.2242063199E+001 
19967.122 +1.0189540678E+000 +1.2193835399E+001  +1.7863415168E-002 +1.0292609711E+001  +1.7975960849E-002 +9.9511142960E+000  +1.0184707749E+000 +1.2181504149E+001 
20113.629 +1.0198970232E+000 +1.2127204060E+001  +1.7880724293E-002 +1.0209543103E+001  +1.8062702229E-002 +1.0080152972E+001  +1.0195732407E+000 +1.2127380346E+001 
20261.212 +1.0211271081E+000 +1.2074634264E+001  +1.7872938440E-002 +1.0250265121E+001  +1.8012854431E-002 +1.0055047645E+001  +1.0203988475E+000 +1.2067210422E+001 
20409.878 +1.0221584205E+000 +1.2002914839E+001  +1.7999875611E-002 +1.0333501468E+001  +1.8081272434E-002 +9.8267752589E+000  +1.0215312255E+000 +1.1991245885E+001 
20559.634 +1.0232119982E+000 +1.1940010336E+001  +1.7993030026E-002 +1.0233140949E+001  +1.8121267528E-002 +9.9053871931E+000  +1.0225557203E+000 +1.1938358790E+001 
20710.490 +1.0241478906E+000 +1.1877666775E+001  +1.8032622723E-002 +1.0305016256E+001  +1.8149471275E-002 +9.8254584498E+000  +1.0235816048E+000 +1.1872717067E+001 
20862.452 +1.0249636112E+000 +1.1809719191E+001  +1.8022152961E-002 +1.0496242539E+001  +1.8181873675E-002 +9.8926053465E+000  +1.0244011270E+000 +1.1801618111E+001 
21015.529 +1.0260482510E+000 +1.1737686531E+001  +1.8075348758E-002 +1.0258187198E+001  +1.8280021638E-002 +9.9296897843E+000  +1.0255541892E+000 +1.1747117107E+001 
