!  2-Port S-parameters saved by WinCal
! VAR NAME=Wafer2_r10_c13_thru
! VAR DATE=26/04/2024 16:51:10
! VAR FILENAME=Wafer2_r10_c13_thru_1.S2P
! VAR MeasName=S-Parameters (CALIBRATED_DATA) read from VNA (P5004A)
! VAR MeasDate=26/04/2024 16:24:18
! VAR PHYS_PORTS=1,2
! VAR ObjTypeName=DATASET
! VAR IndexType=Frequency
!
# Hz S MA R 50
9000.000 +5.4207889599E-003 -9.7319621495E+000  +9.9402117439E-001 +6.8594199986E-002  +9.9371192994E-001 +9.6590353229E-002  +5.3367246010E-003 -7.0225578940E+000 
10013997.999 +6.4817587571E-003 -6.1234447087E-001  +9.9330382393E-001 -1.7838669412E-002  +9.9348856547E-001 -1.0047746769E-002  +6.4238070907E-003 -3.7892582789E-001 
20018995.998 +6.3507942668E-003 -1.2527530156E+000  +9.9348414048E-001 -2.0018239759E-002  +9.9350235032E-001 -2.4532937229E-002  +6.4686609037E-003 -8.4383239562E-001 
30023993.997 +6.0768600065E-003 -2.4048667459E+000  +9.9374368425E-001 -3.0992933596E-002  +9.9364082589E-001 -3.2984418201E-002  +6.3842077406E-003 -1.9078239293E+000 
40028991.996 +6.1863175939E-003 -3.8566076870E+000  +9.9370711828E-001 -5.2369628182E-002  +9.9371288025E-001 -5.1113209595E-002  +6.3418048123E-003 -2.6843636348E+000 
50033989.995 +6.4237572848E-003 -4.5354667026E+000  +9.9345111150E-001 -6.2395159234E-002  +9.9360914181E-001 -6.0168330287E-002  +6.3231615369E-003 -4.8776306645E+000 
60038987.994 +6.3178804413E-003 -6.5254592816E+000  +9.9363510167E-001 -7.8699776475E-002  +9.9356662594E-001 -7.3975598780E-002  +6.4419347695E-003 -6.3903057672E+000 
70043985.993 +6.1589584963E-003 -8.1972175555E+000  +9.9362285817E-001 -9.1622210531E-002  +9.9358289825E-001 -8.6274244631E-002  +6.4304460060E-003 -8.3863648903E+000 
80048983.992 +6.3395371961E-003 -8.3679446912E+000  +9.9344793258E-001 -9.2135079772E-002  +9.9367675442E-001 -9.4224077327E-002  +6.3516106691E-003 -8.9743270665E+000 
90053981.991 +6.4707701775E-003 -8.8677732318E+000  +9.9326320017E-001 -1.0917870762E-001  +9.9360818960E-001 -1.0541931259E-001  +6.3714235399E-003 -8.9623991939E+000 
100058979.990 +6.3529606622E-003 -9.2389716222E+000  +9.9354018738E-001 -1.1457556032E-001  +9.9364734561E-001 -1.1425387994E-001  +6.3964290285E-003 -9.5210201787E+000 
110063977.989 +6.2834574653E-003 -9.8395325349E+000  +9.9359943886E-001 -1.2298618890E-001  +9.9363245164E-001 -1.2902089073E-001  +6.3226171999E-003 -9.6364748073E+000 
120068975.988 +6.2894390015E-003 -1.0461903730E+001  +9.9369197018E-001 -1.4007445001E-001  +9.9387763406E-001 -1.4273878241E-001  +6.2412476585E-003 -1.0517138462E+001 
130073973.987 +6.3304789390E-003 -1.1559807410E+001  +9.9362897326E-001 -1.5360621936E-001  +9.9376480850E-001 -1.5351520387E-001  +6.2367775249E-003 -1.1636310324E+001 
140078971.986 +6.3140588412E-003 -1.3510286892E+001  +9.9364526681E-001 -1.7444708077E-001  +9.9365503550E-001 -1.7090104489E-001  +6.3855102932E-003 -1.2769232739E+001 
150083969.985 +6.1878696687E-003 -1.6034297384E+001  +9.9376016434E-001 -1.8713701046E-001  +9.9364831975E-001 -1.8456146422E-001  +6.4796195266E-003 -1.4895647859E+001 
160088967.984 +6.1584433793E-003 -1.6793165581E+001  +9.9370677158E-001 -1.9559801372E-001  +9.9357572609E-001 -1.9401520415E-001  +6.4399485652E-003 -1.6044950603E+001 
170093965.983 +6.2983983251E-003 -1.7937332658E+001  +9.9350056350E-001 -2.0582551569E-001  +9.9360084949E-001 -2.0148257449E-001  +6.4248033698E-003 -1.7713640756E+001 
180098963.982 +6.3652002306E-003 -1.8264805027E+001  +9.9357341797E-001 -2.1360772731E-001  +9.9371166355E-001 -2.0644464969E-001  +6.4874591168E-003 -1.8117594809E+001 
190103961.981 +6.3671615003E-003 -1.8621810027E+001  +9.9367506786E-001 -2.2209553413E-001  +9.9370798366E-001 -2.1872876018E-001  +6.5180040462E-003 -1.8415437898E+001 
200108959.980 +6.3178250328E-003 -1.8338344207E+001  +9.9386512296E-001 -2.2784649884E-001  +9.9384704006E-001 -2.3349814679E-001  +6.4741678061E-003 -1.8937738301E+001 
210113957.979 +6.3289399882E-003 -1.9080853389E+001  +9.9395166635E-001 -2.3959291509E-001  +9.9383691829E-001 -2.4516849035E-001  +6.4444887748E-003 -1.8909138073E+001 
220118955.978 +6.3977819964E-003 -1.9710837955E+001  +9.9382371611E-001 -2.6111749351E-001  +9.9376741610E-001 -2.6145846353E-001  +6.5305853457E-003 -1.9107513321E+001 
230123953.977 +6.3978689004E-003 -2.1616256943E+001  +9.9382041177E-001 -2.7618747739E-001  +9.9380777200E-001 -2.8109303473E-001  +6.5891949908E-003 -2.0342652428E+001 
240128951.976 +6.4141397050E-003 -2.3045620093E+001  +9.9397836805E-001 -2.9011708980E-001  +9.9375794043E-001 -2.9071754988E-001  +6.5845478850E-003 -2.1897191236E+001 
250133949.975 +6.3819972363E-003 -2.4474177435E+001  +9.9364452930E-001 -3.0415840728E-001  +9.9363463587E-001 -3.0287255311E-001  +6.6210608101E-003 -2.3815828861E+001 
260138947.974 +6.4631469042E-003 -2.5650842664E+001  +9.9369687325E-001 -3.1694964802E-001  +9.9347591958E-001 -3.1071735003E-001  +6.7341728846E-003 -2.4801999980E+001 
270143945.973 +6.5691873125E-003 -2.6113389199E+001  +9.9355766631E-001 -3.1727935131E-001  +9.9346898726E-001 -3.1115867108E-001  +6.8255723425E-003 -2.6099627576E+001 
280148943.972 +6.6471819417E-003 -2.6706694850E+001  +9.9359245226E-001 -3.1950756017E-001  +9.9369441471E-001 -3.2050410262E-001  +6.7817005090E-003 -2.6525249608E+001 
290153941.971 +6.7723715455E-003 -2.6838706821E+001  +9.9372023839E-001 -3.3270820055E-001  +9.9371803598E-001 -3.3095791824E-001  +6.7868833232E-003 -2.7013180256E+001 
300158939.970 +6.6823567191E-003 -2.7384216995E+001  +9.9381333217E-001 -3.4878780669E-001  +9.9377785333E-001 -3.4978826436E-001  +6.8557318320E-003 -2.6609273501E+001 
310163937.969 +6.7648923146E-003 -2.8012214834E+001  +9.9387327498E-001 -3.6298023661E-001  +9.9377931484E-001 -3.6602797342E-001  +6.8682077091E-003 -2.7301988583E+001 
320168935.968 +6.8561486497E-003 -2.8612813027E+001  +9.9377053955E-001 -3.8171058047E-001  +9.9387473132E-001 -3.8683863727E-001  +6.8060037987E-003 -2.7916932026E+001 
330173933.967 +6.8262590471E-003 -2.9160694336E+001  +9.9380189062E-001 -3.9736541975E-001  +9.9384262274E-001 -3.9902434742E-001  +6.8782578311E-003 -2.8995980504E+001 
340178931.966 +6.7520823798E-003 -3.1264762839E+001  +9.9380456928E-001 -4.1336455526E-001  +9.9361495763E-001 -4.1380605623E-001  +7.0714702097E-003 -2.9610448120E+001 
350183929.965 +6.7847080775E-003 -3.2801300482E+001  +9.9368143696E-001 -4.2521659730E-001  +9.9342260634E-001 -4.2133674640E-001  +7.1796807060E-003 -3.0808619112E+001 
360188927.964 +6.9327087544E-003 -3.3529043778E+001  +9.9338102620E-001 -4.3260247954E-001  +9.9340342263E-001 -4.2000669416E-001  +7.1866432465E-003 -3.2420037203E+001 
370193925.963 +7.0672421926E-003 -3.4141554576E+001  +9.9352921401E-001 -4.3492181579E-001  +9.9351887452E-001 -4.2786234110E-001  +7.3490757086E-003 -3.2972217321E+001 
380198923.962 +7.1894320069E-003 -3.4116643488E+001  +9.9363162067E-001 -4.3494401368E-001  +9.9350999196E-001 -4.3106304144E-001  +7.5303202345E-003 -3.2814719294E+001 
390203921.961 +7.2783055302E-003 -3.4068968218E+001  +9.9373133919E-001 -4.4210634840E-001  +9.9354277154E-001 -4.4717963548E-001  +7.5933777171E-003 -3.3384184100E+001 
400208919.960 +7.3586060886E-003 -3.3212470078E+001  +9.9372553425E-001 -4.6452523316E-001  +9.9380482426E-001 -4.6292112830E-001  +7.5213211020E-003 -3.3913399082E+001 
410213917.959 +7.5168109591E-003 -3.4135521403E+001  +9.9366671688E-001 -4.8087236173E-001  +9.9387430575E-001 -4.8195227726E-001  +7.4681362190E-003 -3.4343218717E+001 
420218915.958 +7.4512684346E-003 -3.5635821640E+001  +9.9370905734E-001 -5.0223589829E-001  +9.9376894255E-001 -5.0523331268E-001  +7.5255951816E-003 -3.4954828572E+001 
430223913.957 +7.4948634617E-003 -3.7090895889E+001  +9.9359627900E-001 -5.2108258915E-001  +9.9356255384E-001 -5.2679942865E-001  +7.7197789128E-003 -3.4981796731E+001 
440228911.956 +7.5777182383E-003 -3.8261070687E+001  +9.9338545814E-001 -5.3824857389E-001  +9.9340488006E-001 -5.3340777640E-001  +7.7418918379E-003 -3.6299546339E+001 
450233909.955 +7.7046786513E-003 -3.8618396114E+001  +9.9315645661E-001 -5.4268190782E-001  +9.9331474064E-001 -5.3956806566E-001  +7.7952414418E-003 -3.7817024484E+001 
460238907.954 +7.7078517716E-003 -4.0258627098E+001  +9.9319760545E-001 -5.4025581547E-001  +9.9321217633E-001 -5.4223883159E-001  +7.9959421063E-003 -3.8514769560E+001 
470243905.953 +7.8310214030E-003 -4.0315210322E+001  +9.9335225613E-001 -5.4695680098E-001  +9.9312362183E-001 -5.3945869298E-001  +8.2428081615E-003 -3.8393447494E+001 
480248903.952 +8.0459219805E-003 -3.9694670095E+001  +9.9346474047E-001 -5.5057752527E-001  +9.9347125287E-001 -5.4779991075E-001  +8.2523579525E-003 -3.8986287410E+001 
490253901.951 +8.2706843908E-003 -3.8836666010E+001  +9.9334730743E-001 -5.5870760370E-001  +9.9368151668E-001 -5.6635083410E-001  +8.2401891493E-003 -3.9850367959E+001 
500258899.950 +8.2001481143E-003 -3.9647766745E+001  +9.9346596306E-001 -5.8442038476E-001  +9.9372284184E-001 -5.8626611373E-001  +8.2130102526E-003 -3.9686520006E+001 
510263897.949 +8.1025229940E-003 -4.0981614454E+001  +9.9368864509E-001 -6.0488202212E-001  +9.9347898867E-001 -6.0934118325E-001  +8.3807877545E-003 -3.9826034252E+001 
520268895.948 +8.1613306375E-003 -4.1573688016E+001  +9.9362083626E-001 -6.2738982384E-001  +9.9348101278E-001 -6.2779525558E-001  +8.3532308991E-003 -4.0238192642E+001 
530273893.947 +8.4024060167E-003 -4.1690163255E+001  +9.9313560993E-001 -6.3789788956E-001  +9.9332421921E-001 -6.4622543196E-001  +8.3254286483E-003 -4.1611091372E+001 
540278891.946 +8.3547478057E-003 -4.2490418725E+001  +9.9312452450E-001 -6.5467422098E-001  +9.9323721789E-001 -6.5182673057E-001  +8.3586904260E-003 -4.2752656431E+001 
550283889.945 +8.3523045639E-003 -4.4304811239E+001  +9.9314971082E-001 -6.5543480348E-001  +9.9295065811E-001 -6.4746947246E-001  +8.5797084727E-003 -4.3112213908E+001 
560288887.944 +8.4937696070E-003 -4.4376460656E+001  +9.9312969869E-001 -6.5159811437E-001  +9.9282162532E-001 -6.4756910492E-001  +8.7840004367E-003 -4.2918469529E+001 
570293885.943 +8.7740931258E-003 -4.3653396707E+001  +9.9300526744E-001 -6.4994030559E-001  +9.9313920836E-001 -6.4507514631E-001  +8.8228150887E-003 -4.3836677496E+001 
580298883.942 +8.8810791052E-003 -4.4087344659E+001  +9.9315818479E-001 -6.6236020972E-001  +9.9358197488E-001 -6.5774829923E-001  +8.8204291656E-003 -4.4959217818E+001 
590303881.941 +8.8624239460E-003 -4.4774230272E+001  +9.9352110447E-001 -6.7308934270E-001  +9.9355055893E-001 -6.7953361105E-001  +8.9447404659E-003 -4.4869681069E+001 
600308879.940 +8.7963352374E-003 -4.5549037806E+001  +9.9371217118E-001 -6.9930242483E-001  +9.9348294598E-001 -7.0394145768E-001  +9.0227693606E-003 -4.4119442373E+001 
610313877.939 +8.9342090031E-003 -4.4933620310E+001  +9.9350713335E-001 -7.2347010789E-001  +9.9358623360E-001 -7.2237398031E-001  +8.9045118221E-003 -4.5210700073E+001 
620318875.938 +9.1393387266E-003 -4.4848304038E+001  +9.9328362137E-001 -7.4609557635E-001  +9.9362899016E-001 -7.4473114507E-001  +8.8407968934E-003 -4.6209140495E+001 
630323873.937 +9.0472031606E-003 -4.7176030462E+001  +9.9320055799E-001 -7.6681297362E-001  +9.9323567811E-001 -7.6247549909E-001  +9.0525370931E-003 -4.6765619159E+001 
640328871.936 +8.9885956592E-003 -4.8857432797E+001  +9.9312462592E-001 -7.6711749764E-001  +9.9281730086E-001 -7.7004169878E-001  +9.2037152150E-003 -4.6962845734E+001 
650333869.935 +9.1674798656E-003 -4.8589753847E+001  +9.9279536592E-001 -7.6491219450E-001  +9.9280595367E-001 -7.6455572174E-001  +9.2604574363E-003 -4.7887896416E+001 
660338867.934 +9.5224042729E-003 -4.7389292264E+001  +9.9256636114E-001 -7.5799425477E-001  +9.9299097236E-001 -7.6141056989E-001  +9.3641165156E-003 -4.8335015025E+001 
670343865.933 +9.5666832130E-003 -4.8222903349E+001  +9.9288526353E-001 -7.5924798459E-001  +9.9313209600E-001 -7.5971440256E-001  +9.4904574834E-003 -4.8488823218E+001 
680348863.932 +9.4408902205E-003 -4.9188060579E+001  +9.9351082748E-001 -7.6886300089E-001  +9.9321848640E-001 -7.7314873267E-001  +9.6628644378E-003 -4.8234565710E+001 
690353861.931 +9.5196883854E-003 -4.8976261801E+001  +9.9370594081E-001 -7.9657787851E-001  +9.9348417077E-001 -7.9625034543E-001  +9.6425200707E-003 -4.8513086153E+001 
700358859.930 +9.7853266452E-003 -4.7773058356E+001  +9.9340822602E-001 -8.2013079140E-001  +9.9366815436E-001 -8.1951280079E-001  +9.6566420467E-003 -4.9332926569E+001 
710363857.929 +9.8121404628E-003 -4.8728730013E+001  +9.9349387843E-001 -8.4400579707E-001  +9.9354206106E-001 -8.4593636494E-001  +9.6617907604E-003 -4.9938820510E+001 
720368855.928 +9.7027667530E-003 -5.0755029362E+001  +9.9347494042E-001 -8.6459604034E-001  +9.9338121250E-001 -8.6770843345E-001  +9.7808591655E-003 -5.0032574928E+001 
730373853.927 +9.7313794453E-003 -5.2008802366E+001  +9.9327936665E-001 -8.7842784488E-001  +9.9296764988E-001 -8.8041659010E-001  +9.8310279589E-003 -5.0738087169E+001 
740378851.926 +9.9472690658E-003 -5.1589006012E+001  +9.9276535601E-001 -8.8498809284E-001  +9.9283338879E-001 -8.8504699067E-001  +9.8577051848E-003 -5.1810433219E+001 
750383849.925 +1.0158261578E-002 -5.1030507985E+001  +9.9240554616E-001 -8.8278238972E-001  +9.9286041100E-001 -8.7661238713E-001  +1.0007269701E-002 -5.2665857035E+001 
760388847.924 +1.0233472523E-002 -5.2089282773E+001  +9.9277770576E-001 -8.6861610820E-001  +9.9282685005E-001 -8.6734669081E-001  +1.0221631017E-002 -5.2248630573E+001 
770393845.923 +1.0306831736E-002 -5.2638892012E+001  +9.9315856074E-001 -8.6928545996E-001  +9.9294449378E-001 -8.6791639218E-001  +1.0418016699E-002 -5.1982529423E+001 
780398843.922 +1.0421804934E-002 -5.2124223302E+001  +9.9337590253E-001 -8.8655565267E-001  +9.9346858705E-001 -8.8806557026E-001  +1.0454005800E-002 -5.2815180033E+001 
790403841.921 +1.0631874122E-002 -5.1231065519E+001  +9.9343030391E-001 -9.1381853410E-001  +9.9383512156E-001 -9.1184476884E-001  +1.0392183227E-002 -5.2697694004E+001 
800408839.920 +1.0559734372E-002 -5.2780684938E+001  +9.9358690103E-001 -9.4557876779E-001  +9.9365749911E-001 -9.4062537413E-001  +1.0449537303E-002 -5.3022343319E+001 
810413837.919 +1.0526351554E-002 -5.4363636718E+001  +9.9368783078E-001 -9.6762387250E-001  +9.9344095629E-001 -9.7081943058E-001  +1.0519823646E-002 -5.3095753010E+001 
820418835.918 +1.0583464273E-002 -5.5045571411E+001  +9.9333661731E-001 -9.8566744086E-001  +9.9327843837E-001 -9.9680989146E-001  +1.0537387117E-002 -5.4326086712E+001 
830423833.917 +1.0871006768E-002 -5.4529203932E+001  +9.9272357693E-001 -1.0055472432E+000  +9.9316893642E-001 -1.0003890042E+000  +1.0617239586E-002 -5.5256391139E+001 
840428831.916 +1.0936847779E-002 -5.5275256604E+001  +9.9242390646E-001 -1.0040044384E+000  +9.9265523715E-001 -1.0031183901E+000  +1.0762065968E-002 -5.5498811267E+001 
850433829.915 +1.0918029632E-002 -5.6411637401E+001  +9.9245931326E-001 -9.9491729747E-001  +9.9250779024E-001 -9.9356613088E-001  +1.0979181559E-002 -5.5599756403E+001 
860438827.914 +1.1161489305E-002 -5.6108904616E+001  +9.9264787578E-001 -9.7875219069E-001  +9.9269454392E-001 -9.8113532910E-001  +1.1124918027E-002 -5.5908371148E+001 
870443825.913 +1.1345860661E-002 -5.5561343713E+001  +9.9275049057E-001 -9.8404233572E-001  +9.9320166802E-001 -9.8591959461E-001  +1.1179131046E-002 -5.6341938187E+001 
880448823.912 +1.1365965252E-002 -5.5485468186E+001  +9.9321569879E-001 -1.0073410217E+000  +9.9354439831E-001 -1.0010276492E+000  +1.1240608425E-002 -5.6966614948E+001 
890453821.911 +1.1305386874E-002 -5.6448232814E+001  +9.9353681386E-001 -1.0327477579E+000  +9.9370163263E-001 -1.0342246293E+000  +1.1229482734E-002 -5.7322205740E+001 
900458819.910 +1.1301861470E-002 -5.6779299677E+001  +9.9356678065E-001 -1.0677545052E+000  +9.9375199626E-001 -1.0662527895E+000  +1.1187291532E-002 -5.7237502591E+001 
910463817.909 +1.1476573806E-002 -5.6768968865E+001  +9.9334259401E-001 -1.0902879091E+000  +9.9350347133E-001 -1.0885857048E+000  +1.1331642174E-002 -5.7519668433E+001 
920468815.908 +1.1621679915E-002 -5.7424474707E+001  +9.9290341428E-001 -1.1169178796E+000  +9.9328285237E-001 -1.1131554833E+000  +1.1399099951E-002 -5.8146283629E+001 
930473813.907 +1.1641362975E-002 -5.8526871077E+001  +9.9268267649E-001 -1.1289144666E+000  +9.9281379199E-001 -1.1193281325E+000  +1.1594356709E-002 -5.8918600487E+001 
940478811.906 +1.1724640945E-002 -5.9909706319E+001  +9.9230726823E-001 -1.1246997566E+000  +9.9250838845E-001 -1.1214673615E+000  +1.1641040305E-002 -5.9506282600E+001 
950483809.905 +1.1905731665E-002 -5.9414800501E+001  +9.9214021383E-001 -1.1094860520E+000  +9.9240941355E-001 -1.1070975691E+000  +1.1783033457E-002 -5.9700797906E+001 
960488807.904 +1.2041020968E-002 -5.9509645769E+001  +9.9236123320E-001 -1.0916396659E+000  +9.9262834224E-001 -1.0953412980E+000  +1.1913323653E-002 -5.9897157830E+001 
970493805.903 +1.2142189450E-002 -6.0235216883E+001  +9.9293479648E-001 -1.0858560821E+000  +9.9304731474E-001 -1.0937043689E+000  +1.1908459143E-002 -6.0173844990E+001 
980498803.902 +1.2071605669E-002 -5.9953931334E+001  +9.9339169561E-001 -1.1127558467E+000  +9.9345979622E-001 -1.1149350356E+000  +1.1898108453E-002 -6.0172517663E+001 
990503801.901 +1.2052043782E-002 -5.9822953826E+001  +9.9362585543E-001 -1.1465437065E+000  +9.9359997454E-001 -1.1489250179E+000  +1.1884243298E-002 -5.9665664607E+001 
1000508799.900 +1.2150503464E-002 -5.9127633069E+001  +9.9349825998E-001 -1.1831904269E+000  +9.9353361431E-001 -1.1831938720E+000  +1.1985274252E-002 -5.9497119206E+001 
1010513797.899 +1.2218667375E-002 -6.0068649066E+001  +9.9324752805E-001 -1.2056745205E+000  +9.9322238629E-001 -1.2094735070E+000  +1.2103060838E-002 -5.9799103279E+001 
1020518795.898 +1.2266254015E-002 -6.1464486144E+001  +9.9303169943E-001 -1.2283110116E+000  +9.9295446346E-001 -1.2259812878E+000  +1.2278951841E-002 -6.0498846981E+001 
1030523793.897 +1.2302207608E-002 -6.2519231986E+001  +9.9268840857E-001 -1.2326139049E+000  +9.9270100097E-001 -1.2331281809E+000  +1.2375408173E-002 -6.1312021495E+001 
1040528791.896 +1.2498478694E-002 -6.2449679234E+001  +9.9223342424E-001 -1.2320371119E+000  +9.9231970239E-001 -1.2266107317E+000  +1.2521121396E-002 -6.1772418520E+001 
1050533789.895 +1.2635928152E-002 -6.2240401446E+001  +9.9213874335E-001 -1.2103764108E+000  +9.9226540670E-001 -1.2124250723E+000  +1.2739887122E-002 -6.1464236704E+001 
1060538787.894 +1.2756621942E-002 -6.2607835190E+001  +9.9257567410E-001 -1.1969202152E+000  +9.9255319612E-001 -1.1987248441E+000  +1.2867592233E-002 -6.2015226396E+001 
1070543785.893 +1.2873878536E-002 -6.2625418807E+001  +9.9306703812E-001 -1.2039657339E+000  +9.9311712379E-001 -1.2064364953E+000  +1.2926629094E-002 -6.2543065696E+001 
1080548783.892 +1.2946261567E-002 -6.2632640372E+001  +9.9361966981E-001 -1.2288302599E+000  +9.9354405244E-001 -1.2252416217E+000  +1.2953407724E-002 -6.2191559045E+001 
1090553781.891 +1.2858330193E-002 -6.2356493761E+001  +9.9367516347E-001 -1.2632549518E+000  +9.9356388902E-001 -1.2714260378E+000  +1.2972411063E-002 -6.1729340888E+001 
1100558779.890 +1.2923386706E-002 -6.2491684025E+001  +9.9355695619E-001 -1.3021475295E+000  +9.9356401859E-001 -1.3035771190E+000  +1.2944375208E-002 -6.1987100722E+001 
1110563777.889 +1.3025077016E-002 -6.3085056508E+001  +9.9337651978E-001 -1.3299235011E+000  +9.9325018212E-001 -1.3266569052E+000  +1.3108465963E-002 -6.2360950243E+001 
1120568775.888 +1.3127953434E-002 -6.3852937751E+001  +9.9301718409E-001 -1.3453879621E+000  +9.9288740209E-001 -1.3460059576E+000  +1.3277658139E-002 -6.2732222615E+001 
1130573773.887 +1.3205423224E-002 -6.4787290448E+001  +9.9266912326E-001 -1.3470160490E+000  +9.9238245689E-001 -1.3547329526E+000  +1.3406229120E-002 -6.3274974139E+001 
