!  2-Port S-parameters saved by WinCal
! VAR MeasName=S-Parameters (CALIBRATED_DATA) read from VNA (P5004A)
! VAR MeasDate=26/04/2024 17:46:14
! VAR NAME=Wafer2_r1_c5_pristine
! VAR FILENAME=Wafer2_r1_c5_pristine_1.S2P
! VAR DATE=26/04/2024 17:46:15
! VAR PHYS_PORTS=1,2
! VAR ObjTypeName=DATASET
! VAR IndexType=Frequency
!
# Hz S MA R 50
9000.000 +7.9700465584E-001 +1.7519733057E+001  +1.8280845372E-005 +1.6933870917E+002  +2.8450441752E-005 +1.2348220744E+002  +7.9704665563E-001 +1.7506846744E+001 
10013997.999 +9.8059631206E-001 -1.8860788491E-001  +4.6533140717E-003 +8.8789568719E+001  +4.6896034232E-003 +8.8508360574E+001  +9.8067429880E-001 -1.8690043336E-001 
20018995.998 +9.9482045798E-001 +2.0391665659E-001  +9.4329826463E-003 +8.8951469215E+001  +9.4425108460E-003 +8.8416510134E+001  +9.9469247414E-001 +2.1037525545E-001 
30023993.997 +1.0051377730E+000 -1.0722103294E-001  +1.4179171308E-002 +8.8552365191E+001  +1.4090228822E-002 +8.7985656482E+001  +1.0050509463E+000 -9.0029939426E-002 
40028991.996 +1.0129424501E+000 -8.2700899349E-001  +1.8978797607E-002 +8.7801888381E+001  +1.8792636278E-002 +8.7526560209E+001  +1.0127166747E+000 -7.9812030809E-001 
50033989.995 +1.0136476500E+000 -1.7253044155E+000  +2.3682394939E-002 +8.6945022483E+001  +2.3440570832E-002 +8.6869648341E+001  +1.0136196555E+000 -1.6987512646E+000 
60038987.994 +1.0065731948E+000 -2.5669875587E+000  +2.8128105488E-002 +8.5973437742E+001  +2.7910096224E-002 +8.6330093220E+001  +1.0066875448E+000 -2.5270281838E+000 
70043985.993 +9.9441868654E-001 -2.9567627488E+000  +3.2346212385E-002 +8.5552970225E+001  +3.2205871839E-002 +8.6036974548E+001  +9.9473694077E-001 -2.9260747423E+000 
80048983.992 +9.8444227075E-001 -2.8283014699E+000  +3.6528558604E-002 +8.5737575351E+001  +3.6602420928E-002 +8.6268623431E+001  +9.8474690221E-001 -2.7993827836E+000 
90053981.991 +9.8149356551E-001 -2.4796456856E+000  +4.0964913487E-002 +8.6028600234E+001  +4.1290684599E-002 +8.6374140649E+001  +9.8154066904E-001 -2.4679190049E+000 
100058979.990 +9.8542505545E-001 -2.1766778010E+000  +4.5596908980E-002 +8.6209235359E+001  +4.6032761722E-002 +8.6177432836E+001  +9.8528833384E-001 -2.1709984174E+000 
110063977.989 +9.9442258823E-001 -2.1156603373E+000  +5.0489585111E-002 +8.6211839974E+001  +5.0854834148E-002 +8.5788446766E+001  +9.9401991661E-001 -2.1056692437E+000 
120068975.988 +1.0059183960E+000 -2.4604212163E+000  +5.5631064605E-002 +8.5897022234E+001  +5.5690867197E-002 +8.5311085997E+001  +1.0053174420E+000 -2.4304026029E+000 
130073973.987 +1.0148043194E+000 -3.2680254468E+000  +6.0769041880E-002 +8.5130694661E+001  +6.0472935042E-002 +8.4559610621E+001  +1.0142724929E+000 -3.2062486941E+000 
140078971.986 +1.0155090146E+000 -4.3730297608E+000  +6.5474383688E-002 +8.3939587295E+001  +6.4857022174E-002 +8.3686967166E+001  +1.0151636497E+000 -4.2828306314E+000 
150083969.985 +1.0058145393E+000 -5.3510344109E+000  +6.9381716887E-002 +8.2902815804E+001  +6.8607908172E-002 +8.2964475357E+001  +1.0059007310E+000 -5.2522591061E+000 
160088967.984 +9.9004473399E-001 -5.7629812663E+000  +7.2647220713E-002 +8.2493850827E+001  +7.2086291861E-002 +8.2851495183E+001  +9.9064911810E-001 -5.6686113362E+000 
170093965.983 +9.7732403886E-001 -5.5802074565E+000  +7.6098793793E-002 +8.2726864367E+001  +7.6006702839E-002 +8.3295778975E+001  +9.7809536469E-001 -5.5096859819E+000 
180098963.982 +9.7259099410E-001 -5.0843256423E+000  +8.0276126778E-002 +8.3206319261E+001  +8.0646409250E-002 +8.3734190139E+001  +9.7333624492E-001 -5.0414676183E+000 
190103961.981 +9.7631135098E-001 -4.6093303014E+000  +8.5015880708E-002 +8.3560421155E+001  +8.5804723168E-002 +8.3786632911E+001  +9.7654689629E-001 -4.5982206008E+000 
200108959.980 +9.8653059661E-001 -4.4053353370E+000  +9.0260367848E-002 +8.3693140313E+001  +9.1098085319E-002 +8.3519349356E+001  +9.8606406594E-001 -4.3860872486E+000 
210113957.979 +9.9987089967E-001 -4.6396740725E+000  +9.5899348051E-002 +8.3453941428E+001  +9.6417729958E-002 +8.2981944223E+001  +9.9903025601E-001 -4.5928912127E+000 
220118955.978 +1.0119301444E+000 -5.4046756322E+000  +1.0165122781E-001 +8.2740183204E+001  +1.0160794283E-001 +8.2130926711E+001  +1.0107571252E+000 -5.3273401775E+000 
230123953.977 +1.0162655726E+000 -6.6120922711E+000  +1.0678552817E-001 +8.1477643034E+001  +1.0609063198E-001 +8.0995503157E+001  +1.0151800456E+000 -6.4821284445E+000 
240128951.976 +1.0080410083E+000 -7.8340773585E+000  +1.1043478954E-001 +8.0107907933E+001  +1.0932817020E-001 +7.9934487406E+001  +1.0076622389E+000 -7.6781427668E+000 
250133949.975 +9.9005276407E-001 -8.5477761177E+000  +1.1270239840E-001 +7.9407895746E+001  +1.1156288129E-001 +7.9587346409E+001  +9.9060207504E-001 -8.3820934887E+000 
260138947.974 +9.7233969305E-001 -8.4999323600E+000  +1.1494600721E-001 +7.9513333717E+001  +1.1418849036E-001 +8.0009530050E+001  +9.7347691901E-001 -8.3602050179E+000 
270143945.973 +9.6262036266E-001 -7.9298787034E+000  +1.1822206776E-001 +8.0132930921E+001  +1.1824837617E-001 +8.0708647195E+001  +9.6387868193E-001 -7.8374341575E+000 
280148943.972 +9.6317721364E-001 -7.2442573888E+000  +1.2283380255E-001 +8.0734082869E+001  +1.2360465292E-001 +8.1180352436E+001  +9.6411834357E-001 -7.1864566623E+000 
290153941.971 +9.7228262086E-001 -6.7721631053E+000  +1.2825839091E-001 +8.1043632844E+001  +1.2951696797E-001 +8.1170198921E+001  +9.7260063795E-001 -6.7474696926E+000 
300158939.970 +9.8721050008E-001 -6.7595620937E+000  +1.3444040107E-001 +8.1058768150E+001  +1.3557926182E-001 +8.0785727432E+001  +9.8657440963E-001 -6.7211435201E+000 
310163937.969 +1.0030080628E+000 -7.3306490368E+000  +1.4101340053E-001 +8.0518714136E+001  +1.4156800665E-001 +7.9992825641E+001  +1.0016950918E+000 -7.2525893670E+000 
320168935.968 +1.0128722855E+000 -8.4910016727E+000  +1.4714504515E-001 +7.9354050174E+001  +1.4685063192E-001 +7.8825274888E+001  +1.0113155232E+000 -8.3642798147E+000 
330173933.967 +1.0103223215E+000 -9.9366781517E+000  +1.5147032821E-001 +7.7811256035E+001  +1.5039021514E-001 +7.7433615187E+001  +1.0092819131E+000 -9.7484667029E+000 
340178931.966 +9.9396667356E-001 -1.1080426229E+001  +1.5322648177E-001 +7.6592418234E+001  +1.5177963500E-001 +7.6493385938E+001  +9.9399616371E-001 -1.0862398701E+001 
350183929.965 +9.7175349690E-001 -1.1426053929E+001  +1.5384489751E-001 +7.6282524110E+001  +1.5248826093E-001 +7.6502957899E+001  +9.7259814904E-001 -1.1214781190E+001 
360188927.964 +9.5481764537E-001 -1.0974146756E+001  +1.5546821947E-001 +7.6825576957E+001  +1.5470072002E-001 +7.7305841266E+001  +9.5627050000E-001 -1.0803777472E+001 
370193925.963 +9.4914633339E-001 -1.0128749048E+001  +1.5903005331E-001 +7.7651930334E+001  +1.5917029969E-001 +7.8189277368E+001  +9.5063663725E-001 -1.0017042931E+001 
380198923.962 +9.5461622434E-001 -9.3543738904E+000  +1.6435753271E-001 +7.8290344530E+001  +1.6532498347E-001 +7.8668341245E+001  +9.5557632261E-001 -9.2833634977E+000 
390203921.961 +9.6855285790E-001 -8.9693554594E+000  +1.7076343049E-001 +7.8568963559E+001  +1.7228157847E-001 +7.8610263647E+001  +9.6866738068E-001 -8.9321223421E+000 
400208919.960 +9.8673954384E-001 -9.1904192581E+000  +1.7806534670E-001 +7.8362071029E+001  +1.7935853518E-001 +7.8110648525E+001  +9.8598722623E-001 -9.1284331442E+000 
410213917.959 +1.0029853801E+000 -1.0110899988E+001  +1.8565652829E-001 +7.7503167243E+001  +1.8607746466E-001 +7.7044953222E+001  +1.0012716771E+000 -1.0003013829E+001 
420218915.958 +1.0090766507E+000 -1.1598942622E+001  +1.9153320250E-001 +7.5962102417E+001  +1.9099742517E-001 +7.5523016688E+001  +1.0073307506E+000 -1.1418276239E+001 
430223913.957 +9.9953084707E-001 -1.3150989702E+001  +1.9413720584E-001 +7.4298274073E+001  +1.9279869231E-001 +7.4012284809E+001  +9.9842235729E-001 -1.2913930168E+001 
440228911.956 +9.7687906214E-001 -1.4094777289E+001  +1.9361681758E-001 +7.3305397964E+001  +1.9202862085E-001 +7.3294220994E+001  +9.7704539483E-001 -1.3840616523E+001 
450233909.955 +9.5280699039E-001 -1.4073114272E+001  +1.9285195627E-001 +7.3425008942E+001  +1.9158837472E-001 +7.3677855323E+001  +9.5403432949E-001 -1.3838412323E+001 
460238907.954 +9.3792389134E-001 -1.3293225985E+001  +1.9426556916E-001 +7.4289249712E+001  +1.9368066428E-001 +7.4720516283E+001  +9.3957044383E-001 -1.3109517004E+001 
470243905.953 +9.3601676840E-001 -1.2278192463E+001  +1.9837180847E-001 +7.5228790419E+001  +1.9883839032E-001 +7.5662480920E+001  +9.3769332134E-001 -1.2147771497E+001 
480248903.952 +9.4594001192E-001 -1.1481299673E+001  +2.0462305348E-001 +7.5881983994E+001  +2.0593627531E-001 +7.6126413720E+001  +9.4688697191E-001 -1.1403003520E+001 
490253901.951 +9.6366280438E-001 -1.1213748450E+001  +2.1233174250E-001 +7.6062803999E+001  +2.1393894087E-001 +7.6038336768E+001  +9.6345598755E-001 -1.1146627921E+001 
500258899.950 +9.8414845317E-001 -1.1693382077E+001  +2.2096420372E-001 +7.5649721465E+001  +2.2218321822E-001 +7.5345947442E+001  +9.8286961072E-001 -1.1587454767E+001 
510263897.949 +9.9936600048E-001 -1.2938865000E+001  +2.2910864047E-001 +7.4430391135E+001  +2.2937239743E-001 +7.4018235577E+001  +9.9755474660E-001 -1.2772284217E+001 
520268895.948 +1.0007062424E+000 -1.4660219734E+001  +2.3412317608E-001 +7.2630899631E+001  +2.3337677956E-001 +7.2249733496E+001  +9.9902475920E-001 -1.4422843087E+001 
530273893.947 +9.8417856366E-001 -1.6206087909E+001  +2.3438975252E-001 +7.0970268640E+001  +2.3289387003E-001 +7.0756586380E+001  +9.8358198771E-001 -1.5918245731E+001 
540278891.946 +9.5740675903E-001 -1.6885711511E+001  +2.3170833696E-001 +7.0305402861E+001  +2.3003858831E-001 +7.0329127279E+001  +9.5793889063E-001 -1.6587715846E+001 
550283889.945 +9.3330747977E-001 -1.6510846925E+001  +2.2997001050E-001 +7.0805405570E+001  +2.2863491948E-001 +7.1055663666E+001  +9.3471101593E-001 -1.6243685593E+001 
560288887.944 +9.2136076176E-001 -1.5474359361E+001  +2.3153908065E-001 +7.1872626059E+001  +2.3102877905E-001 +7.2240951621E+001  +9.2308978907E-001 -1.5262322064E+001 
570293885.943 +9.2343708495E-001 -1.4351540214E+001  +2.3643590591E-001 +7.2850072992E+001  +2.3692096370E-001 +7.3216562543E+001  +9.2509857759E-001 -1.4197333202E+001 
580298883.942 +9.3692891355E-001 -1.3592915373E+001  +2.4367648980E-001 +7.3459404954E+001  +2.4504461343E-001 +7.3656358786E+001  +9.3776691723E-001 -1.3483591910E+001 
590303881.941 +9.5752909552E-001 -1.3494717131E+001  +2.5267016773E-001 +7.3552183703E+001  +2.5423653751E-001 +7.3507023852E+001  +9.5724522003E-001 -1.3375576131E+001 
600308879.940 +9.7898737803E-001 -1.4207680870E+001  +2.6262467051E-001 +7.2925803915E+001  +2.6362166676E-001 +7.2671314783E+001  +9.7782516689E-001 -1.4064256777E+001 
610313877.939 +9.9230537407E-001 -1.5739090020E+001  +2.7110531480E-001 +7.1391307119E+001  +2.7121497609E-001 +7.1057979956E+001  +9.9059969359E-001 -1.5530778632E+001 
620318875.938 +9.8836285132E-001 -1.7618431876E+001  +2.7455105735E-001 +6.9389743820E+001  +2.7366541690E-001 +6.9086870937E+001  +9.8701600414E-001 -1.7333391527E+001 
630323873.937 +9.6634364038E-001 -1.9067725705E+001  +2.7215646822E-001 +6.7851470521E+001  +2.7066895984E-001 +6.7709492384E+001  +9.6609706642E-001 -1.8734140544E+001 
640328871.936 +9.3703717006E-001 -1.9453282446E+001  +2.6752299744E-001 +6.7546035695E+001  +2.6587155239E-001 +6.7601013852E+001  +9.3798456631E-001 -1.9123190084E+001 
650333869.935 +9.1437248288E-001 -1.8774648532E+001  +2.6523617081E-001 +6.8349587123E+001  +2.6407031679E-001 +6.8577350207E+001  +9.1601734671E-001 -1.8485723686E+001 
660338867.934 +9.0581803533E-001 -1.7558725262E+001  +2.6730943865E-001 +6.9527855091E+001  +2.6696173884E-001 +6.9856677119E+001  +9.0758953832E-001 -1.7329070427E+001 
670343865.933 +9.1122195551E-001 -1.6401660118E+001  +2.7301985753E-001 +7.0515248837E+001  +2.7371978480E-001 +7.0809562406E+001  +9.1261275925E-001 -1.6227031826E+001 
680348863.932 +9.2751870629E-001 -1.5726649286E+001  +2.8135793026E-001 +7.1087565123E+001  +2.8271427258E-001 +7.1205458129E+001  +9.2824304612E-001 -1.5573250836E+001 
690353861.931 +9.4984523707E-001 -1.5780137897E+001  +2.9175320670E-001 +7.1062585838E+001  +2.9303050800E-001 +7.0983412137E+001  +9.4947985330E-001 -1.5630038256E+001 
700358859.930 +9.7121071490E-001 -1.6733004027E+001  +3.0276619972E-001 +7.0210527660E+001  +3.0354088342E-001 +6.9984664669E+001  +9.7026482594E-001 -1.6536829955E+001 
710363857.929 +9.8179411956E-001 -1.8473277410E+001  +3.1110568820E-001 +6.8417806605E+001  +3.1087126172E-001 +6.8163562492E+001  +9.8047777949E-001 -1.8212155668E+001 
720368855.928 +9.7297288760E-001 -2.0426803593E+001  +3.1261654061E-001 +6.6308754937E+001  +3.1170078386E-001 +6.6118128352E+001  +9.7221418315E-001 -2.0105057072E+001 
730373853.927 +9.4691345276E-001 -2.1739519284E+001  +3.0759719626E-001 +6.4940556002E+001  +3.0629691138E-001 +6.4871838548E+001  +9.4708532996E-001 -2.1388806542E+001 
740378851.926 +9.1659171366E-001 -2.1854988315E+001  +3.0123180560E-001 +6.4940139369E+001  +2.9994361824E-001 +6.5019710652E+001  +9.1763043126E-001 -2.1517009060E+001 
750383849.925 +8.9558370088E-001 -2.0917854723E+001  +2.9858198356E-001 +6.5991431440E+001  +2.9775892948E-001 +6.6180842861E+001  +8.9714363030E-001 -2.0626252239E+001 
760388847.924 +8.9006199686E-001 -1.9565955764E+001  +3.0136151610E-001 +6.7276511445E+001  +3.0128706007E-001 +6.7497496178E+001  +8.9154293646E-001 -1.9329196929E+001 
770393845.923 +8.9869345880E-001 -1.8407926499E+001  +3.0824609709E-001 +6.8244480010E+001  +3.0884704319E-001 +6.8416471170E+001  +8.9966843166E-001 -1.8213900533E+001 
780398843.922 +9.1736771427E-001 -1.7830172655E+001  +3.1774982946E-001 +6.8717275250E+001  +3.1878429829E-001 +6.8768264417E+001  +9.1749044480E-001 -1.7654161987E+001 
790403841.921 +9.4075853058E-001 -1.8066020188E+001  +3.2934983925E-001 +6.8558824214E+001  +3.3026988237E-001 +6.8459443798E+001  +9.3998216331E-001 -1.7866183408E+001 
800408839.920 +9.6108599994E-001 -1.9229526143E+001  +3.4108333510E-001 +6.7486102335E+001  +3.4137335525E-001 +6.7313086008E+001  +9.5986083260E-001 -1.8977463509E+001 
810413837.919 +9.6821879231E-001 -2.1121818572E+001  +3.4865812754E-001 +6.5523263456E+001  +3.4833027915E-001 +6.5351339076E+001  +9.6736331160E-001 -2.0807970725E+001 
820418835.918 +9.5531087264E-001 -2.3075672132E+001  +3.4799476591E-001 +6.3411865970E+001  +3.4720066537E-001 +6.3302825446E+001  +9.5506574305E-001 -2.2720130115E+001 
830423833.917 +9.2648325320E-001 -2.4217056678E+001  +3.4061219437E-001 +6.2245652469E+001  +3.3965053768E-001 +6.2230267137E+001  +9.2714670765E-001 -2.3856348868E+001 
840428831.916 +8.9615614073E-001 -2.4080613776E+001  +3.3294314680E-001 +6.2528769363E+001  +3.3203197220E-001 +6.2582167214E+001  +8.9726934280E-001 -2.3738274567E+001 
850433829.915 +8.7734100788E-001 -2.2943773325E+001  +3.3040430327E-001 +6.3738044155E+001  +3.2984917806E-001 +6.3863980450E+001  +8.7871528397E-001 -2.2645433093E+001 
860438827.914 +8.7486251244E-001 -2.1516346337E+001  +3.3393935020E-001 +6.5044800195E+001  +3.3395176609E-001 +6.5209001951E+001  +8.7598635814E-001 -2.1256091184E+001 
870443825.913 +8.8613635850E-001 -2.0393825636E+001  +3.4163122181E-001 +6.5970385786E+001  +3.4233111040E-001 +6.6076831909E+001  +8.8675893399E-001 -2.0158128937E+001 
880448823.912 +9.0628416366E-001 -1.9941336757E+001  +3.5217719058E-001 +6.6389209948E+001  +3.5314531339E-001 +6.6384641925E+001  +9.0624412607E-001 -1.9695245902E+001 
890453821.911 +9.2963647979E-001 -2.0347591507E+001  +3.6478623078E-001 +6.6110868901E+001  +3.6538113394E-001 +6.5988521941E+001  +9.2894709224E-001 -2.0068419004E+001 
900458819.910 +9.4851456008E-001 -2.1677353892E+001  +3.7725147413E-001 +6.4876445716E+001  +3.7707724305E-001 +6.4723381534E+001  +9.4762574638E-001 -2.1342494459E+001 
910463817.909 +9.5265625477E-001 -2.3663869366E+001  +3.8406922209E-001 +6.2788130668E+001  +3.8318185286E-001 +6.2682010230E+001  +9.5235596970E-001 -2.3275489560E+001 
920468815.908 +9.3633740426E-001 -2.5575102550E+001  +3.8115138865E-001 +6.0691235458E+001  +3.8016122552E-001 +6.0675993288E+001  +9.3688100902E-001 -2.5174153308E+001 
930473813.907 +9.0575617978E-001 -2.6548239866E+001  +3.7145869283E-001 +5.9715693961E+001  +3.7065919083E-001 +5.9785677500E+001  +9.0715408541E-001 -2.6160482509E+001 
940478811.906 +8.7592610182E-001 -2.6198563751E+001  +3.6261999104E-001 +6.0226437399E+001  +3.6220242392E-001 +6.0332413507E+001  +8.7753289381E-001 -2.5852885610E+001 
950483809.905 +8.5949268935E-001 -2.4901009688E+001  +3.6041968006E-001 +6.1604410201E+001  +3.6038504629E-001 +6.1715454155E+001  +8.6079448878E-001 -2.4599228042E+001 
960488807.904 +8.5955740842E-001 -2.3415285292E+001  +3.6487137880E-001 +6.2942360513E+001  +3.6528758473E-001 +6.3019595834E+001  +8.6029761543E-001 -2.3146282494E+001 
970493805.903 +8.7305581235E-001 -2.2351047694E+001  +3.7371862336E-001 +6.3818388564E+001  +3.7436849974E-001 +6.3823724170E+001  +8.7300249808E-001 -2.2083443851E+001 
980498803.902 +8.9421988109E-001 -2.2030222541E+001  +3.8534897250E-001 +6.4121044645E+001  +3.8598208617E-001 +6.4049878294E+001  +8.9356987878E-001 -2.1729952546E+001 
990503801.901 +9.1697828210E-001 -2.2593810089E+001  +3.9881862870E-001 +6.3697881437E+001  +3.9880961988E-001 +6.3566732738E+001  +9.1610271020E-001 -2.2238344661E+001 
1000508799.900 +9.3360880829E-001 -2.4055028062E+001  +4.1116762496E-001 +6.2324080513E+001  +4.1054507986E-001 +6.2217449978E+001  +9.3307679513E-001 -2.3641781731E+001 
1010513797.899 +9.3458403823E-001 -2.6071283068E+001  +4.1675967636E-001 +6.0176746373E+001  +4.1579376320E-001 +6.0146985596E+001  +9.3491189347E-001 -2.5623918431E+001 
1020518795.898 +9.1591310081E-001 -2.7899559722E+001  +4.1190011461E-001 +5.8153763499E+001  +4.1118239194E-001 +5.8212545475E+001  +9.1723267555E-001 -2.7455306754E+001 
1030523793.897 +8.8481570668E-001 -2.8689521344E+001  +4.0035487507E-001 +5.7376106190E+001  +3.9998457404E-001 +5.7476030237E+001  +8.8674767546E-001 -2.8291274748E+001 
1040528791.896 +8.5638520871E-001 -2.8152242296E+001  +3.9089409055E-001 +5.8087790694E+001  +3.9089054702E-001 +5.8190333045E+001  +8.5811249196E-001 -2.7809317658E+001 
1050533789.895 +8.4216852709E-001 -2.6744213056E+001  +3.8905743660E-001 +5.9551932189E+001  +3.8947585307E-001 +5.9628832574E+001  +8.4330311483E-001 -2.6441532828E+001 
1060538787.894 +8.4473507373E-001 -2.5247385847E+001  +3.9455200668E-001 +6.0870194695E+001  +3.9516933392E-001 +6.0900050709E+001  +8.4504854360E-001 -2.4955619707E+001 
1070543785.893 +8.5997587986E-001 -2.4270487366E+001  +4.0431577856E-001 +6.1643671037E+001  +4.0510569943E-001 +6.1600100446E+001  +8.5944675251E-001 -2.3962957187E+001 
1080548783.892 +8.8145394289E-001 -2.4098644002E+001  +4.1671523494E-001 +6.1827347992E+001  +4.1704876354E-001 +6.1699704144E+001  +8.8035294225E-001 -2.3736867278E+001 
1090553781.891 +9.0299609013E-001 -2.4810063512E+001  +4.3056918550E-001 +6.1311488387E+001  +4.3002493599E-001 +6.1160785875E+001  +9.0201825887E-001 -2.4377988347E+001 
1100558779.890 +9.1695192316E-001 -2.6345859118E+001  +4.4260042566E-001 +5.9851917756E+001  +4.4137691129E-001 +5.9765418025E+001  +9.1686300665E-001 -2.5855634443E+001 
1110563777.889 +9.1524015350E-001 -2.8347531696E+001  +4.4701876628E-001 +5.7695512907E+001  +4.4566243371E-001 +5.7731857116E+001  +9.1639229937E-001 -2.7834518660E+001 
1120568775.888 +8.9493686335E-001 -3.0048937922E+001  +4.4024745231E-001 +5.5793640673E+001  +4.3938137595E-001 +5.5916765365E+001  +8.9714523251E-001 -2.9574352385E+001 
1130573773.887 +8.6418723042E-001 -3.0682348500E+001  +4.2734577166E-001 +5.5195284892E+001  +4.2711552088E-001 +5.5354112021E+001  +8.6663979504E-001 -3.0275593017E+001 
