!  2-Port S-parameters saved by WinCal
! VAR MeasName=S-Parameters (CALIBRATED_DATA) read from VNA (P5004A)
! VAR MeasDate=26/04/2024 19:07:24
! VAR NAME=Wafer2_r1_c9_fullform_log
! VAR FILENAME=Wafer2_r1_c9_fullform_log_1.S2P
! VAR DATE=26/04/2024 19:07:24
! VAR PHYS_PORTS=1,2
! VAR ObjTypeName=DATASET
! VAR IndexType=Frequency
!
# Hz S MA R 50
9000.000 +7.9767005654E-001 +1.7315484039E+001  +2.1425979466E-005 +1.4043425105E+002  +1.1195714839E-005 +2.7322976604E+001  +7.9777891119E-001 +1.7300815063E+001 
9066.037 +8.0045386635E-001 +1.7371443893E+001  +2.5362942348E-006 -1.1522817229E+002  +1.3450828160E-005 -1.0274299600E+002  +8.0029308595E-001 +1.7362888881E+001 
9132.559 +8.0271101699E-001 +1.7422676338E+001  +1.1879938540E-005 -2.5567822646E+001  +1.5189147496E-005 +7.2556705646E+001  +8.0233531549E-001 +1.7416348593E+001 
9199.568 +8.0531836286E-001 +1.7493072110E+001  +3.3521970338E-005 -1.4658612477E+002  +1.7391202411E-005 +1.0740389377E+002  +8.0536890661E-001 +1.7494239659E+001 
9267.070 +8.0800095716E-001 +1.7519067111E+001  +1.5317449645E-005 -1.7948588726E+002  +5.4890585914E-005 -3.7596894356E+001  +8.0797503901E-001 +1.7516052695E+001 
9335.066 +8.1052994136E-001 +1.7586425358E+001  +3.3804736939E-005 +8.7966570185E+001  +2.3586599686E-005 -1.7082224886E+002  +8.1028471157E-001 +1.7580286905E+001 
9403.562 +8.1328960950E-001 +1.7635981121E+001  +1.9528896395E-005 -2.4915019866E+001  +2.1536326570E-005 +1.3178590315E+002  +8.1321014403E-001 +1.7623771508E+001 
9472.560 +8.1574788815E-001 +1.7674819415E+001  +2.8416529093E-005 +5.3788198401E+001  +1.2297235327E-005 -1.0956987175E+002  +8.1573811882E-001 +1.7652907211E+001 
9542.065 +8.1872679386E-001 +1.7680623661E+001  +3.0214028757E-005 +1.1218373816E+002  +2.3535927029E-005 +1.3448184398E+002  +8.1845634365E-001 +1.7674686545E+001 
9612.079 +8.2103047846E-001 +1.7734788865E+001  +4.0630352079E-005 +1.4056181840E+002  +1.2801817188E-005 -5.8472960879E+001  +8.2098194016E-001 +1.7706558810E+001 
9682.607 +8.2371024246E-001 +1.7743570874E+001  +2.3304961497E-005 +1.1201702735E+002  +1.7916764331E-005 +3.3149006337E+001  +8.2368497486E-001 +1.7726288170E+001 
9753.653 +8.2636511740E-001 +1.7784756412E+001  +1.7807563656E-005 +2.1420314571E+001  +2.0349331446E-005 +1.7759259381E+001  +8.2622874114E-001 +1.7751278360E+001 
9825.220 +8.2868028780E-001 +1.7795801641E+001  +3.4439050899E-005 +2.4031428312E+001  +1.0461629870E-005 -1.5679910135E+002  +8.2846052820E-001 +1.7783354388E+001 
9897.312 +8.3135823141E-001 +1.7804908119E+001  +2.2662372542E-005 +1.4997394189E+002  +1.8965259556E-005 -1.6491744871E+002  +8.3155489968E-001 +1.7801556901E+001 
9969.933 +8.3408225611E-001 +1.7844508638E+001  +1.2557774033E-005 +6.5358827739E+001  +1.8616217399E-005 +3.2648563367E+001  +8.3398596199E-001 +1.7835100972E+001 
10043.087 +8.3688766485E-001 +1.7850695010E+001  +3.3609993685E-005 +1.6597690878E+002  +2.2980503244E-005 +1.7348414497E+002  +8.3681178835E-001 +1.7844320584E+001 
10116.778 +8.3956949203E-001 +1.7853117065E+001  +2.6740178771E-005 +1.2433284399E+002  +5.5868068375E-006 +7.2117300908E+001  +8.3923411159E-001 +1.7862368926E+001 
10191.009 +8.4207196602E-001 +1.7880147109E+001  +1.3061088811E-005 +2.2561231877E+001  +1.2008717674E-005 -1.3429399676E+002  +8.4187617751E-001 +1.7882127080E+001 
10265.785 +8.4506951460E-001 +1.7878943115E+001  +1.6136101605E-005 -6.3527422512E+000  +3.8949313774E-005 +1.2743119657E+002  +8.4480694418E-001 +1.7874196194E+001 
10341.110 +8.4793532425E-001 +1.7896597477E+001  +5.6837887323E-005 +6.6354841234E+001  +3.0555980169E-005 -6.9203284212E+001  +8.4758944155E-001 +1.7892372980E+001 
10416.987 +8.5058028043E-001 +1.7892910201E+001  +1.2440656879E-005 +1.6573273198E+002  +2.0960685997E-005 +1.0702206679E+002  +8.5053210171E-001 +1.7893443282E+001 
10493.421 +8.5343777393E-001 +1.7892871210E+001  +2.4660009259E-005 -5.3384335823E+001  +1.2012624098E-006 -1.4165034154E+002  +8.5337904435E-001 +1.7881318629E+001 
10570.416 +8.5621277241E-001 +1.7878168586E+001  +8.5388511579E-006 +1.5201505840E+002  +4.9703242502E-005 -1.3521247723E+002  +8.5631454662E-001 +1.7872192267E+001 
10647.976 +8.5889066736E-001 +1.7889422110E+001  +2.1155273988E-005 -1.6063342756E+002  +1.6103608156E-005 -5.7716067929E+001  +8.5892340038E-001 +1.7873023327E+001 
10726.105 +8.6213227734E-001 +1.7868981010E+001  +1.6941449296E-005 +1.2167462851E+002  +2.2125082000E-005 +2.9765127312E+001  +8.6191266610E-001 +1.7867680255E+001 
10804.808 +8.6515803274E-001 +1.7848836318E+001  +1.9352492522E-005 -3.3707732737E+001  +8.0893994939E-006 +1.3413173649E+002  +8.6486046798E-001 +1.7847341560E+001 
10884.087 +8.6812118661E-001 +1.7841515135E+001  +1.1379697396E-005 +9.5913023832E+001  +2.7354741186E-005 +5.2565167864E+001  +8.6808446601E-001 +1.7838170705E+001 
10963.949 +8.7117851670E-001 +1.7804202295E+001  +2.9082063642E-005 +1.3038521247E+002  +2.4783406838E-005 -6.8739440368E+001  +8.7098121138E-001 +1.7802205611E+001 
11044.396 +8.7410055703E-001 +1.7794383935E+001  +3.7887797005E-005 +1.3519815392E+002  +5.1850826979E-005 +8.5119353376E+001  +8.7401181263E-001 +1.7798594407E+001 
11125.434 +8.7637346396E-001 +1.7792429563E+001  +4.5211194648E-005 +1.3444120216E+002  +3.1950506856E-005 -1.7588150445E+002  +8.7633904954E-001 +1.7780529973E+001 
11207.066 +8.7914122073E-001 +1.7768033737E+001  +3.2450676472E-005 +1.6458114533E+002  +2.8946125266E-005 -7.4815901861E+001  +8.7916821602E-001 +1.7762346798E+001 
11289.298 +8.8141756743E-001 +1.7762205746E+001  +1.6931599784E-006 +7.0388223551E+001  +1.6557393818E-005 +2.3354233648E+001  +8.8133579504E-001 +1.7761170327E+001 
11372.132 +8.8404951533E-001 +1.7735947590E+001  +4.7708027063E-005 -3.2509532429E+001  +1.7252999482E-005 +1.3986625324E+001  +8.8402415723E-001 +1.7725733513E+001 
11455.575 +8.8699579522E-001 +1.7716270666E+001  +4.2621579440E-005 -1.1102643185E+000  +2.1145059344E-005 +2.2594744972E+001  +8.8693697346E-001 +1.7705144254E+001 
11539.630 +8.8948375306E-001 +1.7698224988E+001  +8.5233779380E-006 -3.7019979322E+001  +1.2004234565E-005 -1.6367987822E+002  +8.8944910807E-001 +1.7672508199E+001 
11624.301 +8.9203285358E-001 +1.7652841149E+001  +1.0779518267E-005 -1.3653138464E+001  +3.9967165709E-005 +9.6938932990E+001  +8.9178005765E-001 +1.7655297203E+001 
11709.594 +8.9462682649E-001 +1.7617438686E+001  +1.6384623839E-005 -9.6124234772E+000  +1.4266433446E-005 -8.8482627394E+001  +8.9434579458E-001 +1.7616204791E+001 
11795.512 +8.9745191708E-001 +1.7588865158E+001  +1.6500391961E-005 -1.0214484538E+002  +7.4241827982E-006 +6.2846258053E+001  +8.9732602573E-001 +1.7591341513E+001 
11882.062 +9.0011174687E-001 +1.7562558856E+001  +1.4998317590E-005 +1.1896562753E+001  +2.6433717497E-005 +9.3559784871E+001  +8.9989219054E-001 +1.7554597934E+001 
11969.246 +9.0287743187E-001 +1.7520877525E+001  +1.7218118997E-005 +1.2686592086E+002  +2.5412332141E-005 +1.2479367961E+002  +9.0279666044E-001 +1.7505538309E+001 
12057.069 +9.0534874637E-001 +1.7462548233E+001  +3.9294076142E-005 -1.7212545845E+002  +8.5493554832E-006 +1.6112843656E+002  +9.0538139745E-001 +1.7455891864E+001 
12145.538 +9.0818702576E-001 +1.7413910430E+001  +5.0674474207E-005 +1.1717206010E+002  +2.9811675441E-005 +6.9230336675E+001  +9.0813720234E-001 +1.7422483339E+001 
12234.655 +9.1086812513E-001 +1.7385396500E+001  +1.8614357337E-005 +8.4365595009E+001  +2.2349008174E-005 +6.1003111236E+001  +9.1055663429E-001 +1.7373653748E+001 
12324.426 +9.1367002909E-001 +1.7323049553E+001  +3.1472008152E-005 +9.5432099688E+001  +2.7013656581E-005 +3.1761555939E+001  +9.1370128863E-001 +1.7312372381E+001 
12414.856 +9.1629376766E-001 +1.7265809543E+001  +2.7423992298E-005 -1.1736893319E+002  +7.2874434831E-006 +1.7666165938E+002  +9.1621302971E-001 +1.7254031890E+001 
12505.949 +9.1932402324E-001 +1.7205208693E+001  +4.4774023319E-005 -5.4012044322E+001  +3.6052458443E-005 +7.7587351171E+001  +9.1927313021E-001 +1.7215182603E+001 
12597.711 +9.2131637567E-001 +1.7178952767E+001  +1.5860929012E-005 -1.7840890096E+002  +2.0092767499E-005 +9.7173997542E+001  +9.2114221378E-001 +1.7174563956E+001 
12690.146 +9.2396870836E-001 +1.7124765760E+001  +4.4431656798E-005 -1.5457564752E+002  +5.9198732109E-006 +5.2690100643E+001  +9.2391425421E-001 +1.7123936153E+001 
12783.260 +9.2632461594E-001 +1.7080804468E+001  +1.2259789499E-005 -9.4740177390E+001  +4.2290316988E-005 +1.2444066168E+002  +9.2612603846E-001 +1.7075924788E+001 
12877.056 +9.2884357314E-001 +1.7028176441E+001  +2.0167235368E-005 -1.3626806268E+002  +9.4979128769E-006 -1.1321787161E+002  +9.2881642634E-001 +1.7026889674E+001 
12971.541 +9.3117989067E-001 +1.6986002550E+001  +2.1768453218E-005 -1.4177005100E+002  +4.5765664622E-005 -1.2244736562E+002  +9.3113762577E-001 +1.6975200377E+001 
13066.719 +9.3335255774E-001 +1.6921596507E+001  +1.7479194964E-005 -1.7702748488E+002  +1.8156026885E-005 +1.1668160386E+002  +9.3319829348E-001 +1.6919407781E+001 
13162.595 +9.3583036640E-001 +1.6879115589E+001  +1.3587527861E-005 +1.5999562677E+002  +2.1753959893E-005 -1.3549895921E+001  +9.3576983563E-001 +1.6867437568E+001 
13259.175 +9.3816711267E-001 +1.6822873184E+001  +1.1177774901E-005 -1.2930597269E+002  +1.3645176529E-005 +7.5040151492E+001  +9.3826139186E-001 +1.6819238829E+001 
13356.464 +9.4069886597E-001 +1.6748188605E+001  +1.4967510792E-005 -4.6816756541E+001  +2.4379614127E-005 -5.1163059276E+001  +9.4055040387E-001 +1.6745465196E+001 
13454.466 +9.4315521469E-001 +1.6688532298E+001  +4.4256071252E-005 +4.2381586224E+001  +4.1199701281E-005 +1.1381172506E+002  +9.4285153834E-001 +1.6680164629E+001 
13553.188 +9.4539036204E-001 +1.6631227191E+001  +3.7905514737E-005 +6.0492025697E+001  +3.0236282886E-005 +4.5542575310E+000  +9.4516515486E-001 +1.6618215511E+001 
13652.634 +9.4774271212E-001 +1.6569271563E+001  +1.0714423290E-005 +1.6330825656E+002  +2.9167662619E-005 +6.8468973269E+000  +9.4759549774E-001 +1.6556562253E+001 
13752.809 +9.5025447936E-001 +1.6487469946E+001  +3.6895791233E-005 +1.6344879146E+002  +4.3021150260E-005 -1.7830296921E+002  +9.5033983651E-001 +1.6487889962E+001 
13853.720 +9.5288976634E-001 +1.6406276578E+001  +3.1150430106E-005 -1.5195350365E+002  +1.7968297662E-005 +1.6976574583E+002  +9.5270306460E-001 +1.6405479588E+001 
13955.371 +9.5547818931E-001 +1.6352870121E+001  +2.3864095539E-005 +1.2472553266E+002  +6.6512953805E-006 -5.5082510351E+001  +9.5503914283E-001 +1.6340330083E+001 
14057.768 +9.5743147247E-001 +1.6267174497E+001  +3.4545826643E-005 -1.1831211725E+002  +2.1523591505E-005 +1.1177273828E+002  +9.5724385450E-001 +1.6248917432E+001 
14160.916 +9.5992568510E-001 +1.6193841138E+001  +3.7497463489E-005 +5.1038538691E+000  +1.0648591506E-005 +9.6270835996E+001  +9.5979581167E-001 +1.6179616353E+001 
14264.821 +9.6232714301E-001 +1.6115542347E+001  +3.7195597762E-005 -1.3630923997E+002  +3.7400777150E-005 -1.4521979488E+002  +9.6210944175E-001 +1.6111233620E+001 
14369.488 +9.6453749252E-001 +1.6053398419E+001  +3.1113425865E-005 +1.7696758155E+002  +5.6579385493E-005 -1.1422658761E+002  +9.6447100909E-001 +1.6050979311E+001 
14474.924 +9.6623450361E-001 +1.5985696127E+001  +3.2828191111E-005 -1.3911149735E+002  +3.3493436508E-005 +4.0373937078E+001  +9.6605980238E-001 +1.5988370220E+001 
14581.133 +9.6837064544E-001 +1.5931446991E+001  +1.1596497650E-005 -6.4921995248E+001  +7.8301480976E-006 -1.5642045859E+002  +9.6824697456E-001 +1.5925198768E+001 
14688.121 +9.6997067560E-001 +1.5885307529E+001  +4.2702007025E-005 -1.7177944466E+002  +2.3880801353E-005 +1.1299218758E+002  +9.6976134998E-001 +1.5872400576E+001 
14795.895 +9.7173647585E-001 +1.5824331021E+001  +3.0409709121E-005 +1.6703415109E+002  +2.0377354543E-005 -7.0292766142E+001  +9.7176981437E-001 +1.5812574955E+001 
14904.459 +9.7379476002E-001 +1.5753694845E+001  +2.1568210617E-005 -1.2904024247E+002  +7.4571854799E-006 -1.0811817997E+002  +9.7346574160E-001 +1.5747469830E+001 
15013.820 +9.7560468280E-001 +1.5698351772E+001  +2.1227725729E-005 -4.6620010602E+001  +2.2338963899E-005 +5.1513676231E+001  +9.7550998863E-001 +1.5692056627E+001 
15123.983 +9.7759965466E-001 +1.5644690043E+001  +3.8240890311E-005 -5.3205445659E+001  +2.4253785958E-005 +4.1551638351E+001  +9.7731723485E-001 +1.5641078554E+001 
15234.954 +9.7946235525E-001 +1.5578057499E+001  +2.2604110281E-005 -1.7901480038E+002  +2.2578830275E-005 -7.5193439585E+001  +9.7937206497E-001 +1.5572042249E+001 
15346.740 +9.8134185817E-001 +1.5509222262E+001  +2.6384341279E-005 +2.3428214868E+001  +2.9138081470E-005 -8.9019673875E+001  +9.8130554316E-001 +1.5498024289E+001 
15459.346 +9.8305037378E-001 +1.5448947230E+001  +3.2461755210E-005 +2.1941268313E+001  +1.1201435453E-005 +3.7774777260E+001  +9.8317017137E-001 +1.5436518621E+001 
15572.778 +9.8508053227E-001 +1.5381227395E+001  +7.0058955509E-006 +2.7919050919E+001  +4.9801568303E-005 +1.4553259690E+002  +9.8490505055E-001 +1.5376185135E+001 
15687.043 +9.8708421940E-001 +1.5311565295E+001  +4.0695991836E-006 +6.9251988884E+001  +1.9211498932E-005 +1.2538210742E+002  +9.8673155332E-001 +1.5302391505E+001 
15802.146 +9.8904087214E-001 +1.5222513164E+001  +5.1427600422E-005 +3.2283736178E+001  +6.9100418802E-005 +1.6146059972E+002  +9.8865831278E-001 +1.5217867384E+001 
15918.093 +9.9065239653E-001 +1.5156336119E+001  +1.1041285595E-005 -5.6206417334E+001  +7.4470780053E-007 +3.7971903534E+001  +9.9037479715E-001 +1.5146449953E+001 
16034.892 +9.9252521343E-001 +1.5072326419E+001  +5.2559907898E-005 +1.6450279971E+002  +2.4538872540E-005 -1.3613306734E+002  +9.9238521656E-001 +1.5079154136E+001 
16152.547 +9.9443349019E-001 +1.5009429815E+001  +5.8276713272E-005 -1.7579640568E+002  +1.3183780863E-005 -1.0416187721E+000  +9.9439658364E-001 +1.5001125255E+001 
16271.065 +9.9625199238E-001 +1.4928228415E+001  +1.2421627723E-005 -4.8236098810E+001  +1.4538595391E-005 -1.7856867840E+002  +9.9616326894E-001 +1.4919984661E+001 
16390.454 +9.9796898266E-001 +1.4845726352E+001  +4.7782552052E-006 -7.5454773878E+001  +2.0325639053E-005 +1.4222505180E+002  +9.9783056419E-001 +1.4852540584E+001 
16510.718 +9.9992895030E-001 +1.4779534654E+001  +2.2225187207E-005 +1.6693316162E+002  +9.9764105327E-006 +1.7336437302E+002  +9.9976264049E-001 +1.4752945983E+001 
16631.864 +1.0017146408E+000 +1.4681976987E+001  +4.1872931036E-005 +4.4634112763E+001  +4.8972214417E-005 -3.3903293566E+001  +1.0014692869E+000 +1.4665015505E+001 
16753.900 +1.0035175400E+000 +1.4595539753E+001  +3.7174448475E-005 +1.4716480494E+002  +4.1424059375E-005 +1.3313377083E+002  +1.0034357297E+000 +1.4600222107E+001 
16876.831 +1.0051653716E+000 +1.4504020038E+001  +1.3301573842E-005 +3.0175233628E+001  +2.4475873682E-005 +1.3740385502E+002  +1.0051271181E+000 +1.4504164750E+001 
17000.664 +1.0072420134E+000 +1.4429766939E+001  +2.6808927614E-005 +1.5382390474E+002  +1.8503620795E-005 +1.4239325158E+002  +1.0071356217E+000 +1.4429839764E+001 
17125.405 +1.0089234869E+000 +1.4345219260E+001  +1.5031852434E-005 +1.5581705052E+002  +2.4607058275E-005 -1.3230561182E+002  +1.0086600213E+000 +1.4340266118E+001 
17251.062 +1.0108530582E+000 +1.4241376359E+001  +2.3619812026E-005 +1.4196331826E+002  +6.5722611390E-006 -1.4801296849E+002  +1.0104125241E+000 +1.4244181634E+001 
17377.641 +1.0125439911E+000 +1.4160002757E+001  +3.1131847211E-005 +1.3489914350E+002  +3.6924238374E-005 -1.4278843547E+002  +1.0122959446E+000 +1.4141524061E+001 
17505.149 +1.0142363550E+000 +1.4066633685E+001  +1.1009414085E-005 +7.5560168368E+001  +5.2471166696E-005 -1.8336879011E+001  +1.0139546349E+000 +1.4055824149E+001 
17633.592 +1.0159326576E+000 +1.3966341102E+001  +5.5059472838E-006 -1.6242566138E+002  +1.7474036277E-005 +1.2244951119E+002  +1.0158151485E+000 +1.3961713031E+001 
17762.977 +1.0174565190E+000 +1.3860523471E+001  +3.0756518117E-005 +7.1881789649E-001  +3.5138433120E-005 -1.5213007402E+002  +1.0176391751E+000 +1.3864812673E+001 
17893.312 +1.0192656819E+000 +1.3776241166E+001  +5.0646443002E-005 +1.3912506947E+002  +3.4203907889E-005 +1.6162710518E+002  +1.0191823769E+000 +1.3770704110E+001 
18024.604 +1.0212409529E+000 +1.3676776876E+001  +4.6542697484E-005 +8.4655736234E+000  +5.3123027944E-006 +2.9876225333E+001  +1.0212594676E+000 +1.3665611093E+001 
18156.858 +1.0231392021E+000 +1.3570428259E+001  +1.8723221648E-005 -1.1499174401E+002  +1.7609220626E-005 +1.0952947842E+002  +1.0227900118E+000 +1.3565491088E+001 
18290.084 +1.0246774675E+000 +1.3472675725E+001  +3.4488673001E-005 +9.0238666768E+001  +6.5315348618E-006 -1.3423653935E+002  +1.0243783524E+000 +1.3464012667E+001 
18424.286 +1.0264165949E+000 +1.3370886006E+001  +3.0702546170E-005 -1.7838566656E+002  +5.4978133081E-005 +1.1288831881E+002  +1.0261109408E+000 +1.3366466640E+001 
18559.473 +1.0279806936E+000 +1.3246657433E+001  +6.8857786547E-005 +1.1818184797E+002  +2.9932788535E-005 +1.0338018190E+002  +1.0278068506E+000 +1.3237388423E+001 
18695.653 +1.0297086618E+000 +1.3151156431E+001  +2.5510171903E-006 -2.7236534133E+001  +1.3834398306E-005 -1.5126086061E+002  +1.0297656475E+000 +1.3145164092E+001 
18832.831 +1.0313964790E+000 +1.3032021456E+001  +4.5196520499E-005 +1.0402721905E+002  +2.9673523245E-005 +6.5097955588E+001  +1.0312281892E+000 +1.3024489469E+001 
18971.016 +1.0330493239E+000 +1.2914273530E+001  +1.5976843281E-005 +1.4178818786E+002  +2.3946091120E-005 +5.2136307286E+001  +1.0329285010E+000 +1.2918210977E+001 
19110.215 +1.0344954046E+000 +1.2827540346E+001  +3.4881752629E-005 +3.6945527771E+001  +3.6502542768E-005 +1.2251351223E+002  +1.0340717328E+000 +1.2822591348E+001 
19250.435 +1.0354817515E+000 +1.2762687821E+001  +1.0663109805E-005 +9.9610771134E+001  +5.5638259580E-005 +1.5610342511E+002  +1.0351392372E+000 +1.2761934198E+001 
19391.685 +1.0366708807E+000 +1.2708643681E+001  +7.0210944604E-005 +5.4280187489E+001  +6.7946991935E-006 +3.4813848154E+001  +1.0366009323E+000 +1.2697245449E+001 
19533.970 +1.0375667221E+000 +1.2641072869E+001  +3.3184234303E-005 +1.7669394272E+002  +2.9076617851E-005 -3.2314874688E+001  +1.0375694553E+000 +1.2651728079E+001 
19677.300 +1.0389381825E+000 +1.2585339733E+001  +5.5472494963E-005 +1.4507234907E+002  +4.1431762656E-006 -6.9210228693E+001  +1.0388183992E+000 +1.2582422317E+001 
19821.681 +1.0397890240E+000 +1.2518840080E+001  +1.2708034592E-005 -2.0655244603E+001  +6.5490939878E-006 -2.0355116549E+001  +1.0398916573E+000 +1.2522217660E+001 
19967.122 +1.0410360128E+000 +1.2466726497E+001  +1.4744388310E-005 +1.6570493727E+002  +3.3379105830E-005 +3.0500013041E+001  +1.0407190376E+000 +1.2460818432E+001 
20113.629 +1.0421145224E+000 +1.2403657152E+001  +3.1125720119E-005 -2.4710696029E+001  +3.3957629897E-005 -1.1904985506E+002  +1.0420195830E+000 +1.2394932068E+001 
20261.212 +1.0431266094E+000 +1.2344650078E+001  +1.6424372920E-005 -9.7879785322E+001  +5.4430616999E-005 +1.4212744568E+002  +1.0429813738E+000 +1.2335452532E+001 
20409.878 +1.0443467232E+000 +1.2270073647E+001  +1.9353951726E-005 +1.7256899593E+002  +3.3043282910E-005 +4.9073795003E+001  +1.0441972854E+000 +1.2270352518E+001 
20559.634 +1.0453478484E+000 +1.2210075411E+001  +2.2880219974E-005 +1.7757248057E+002  +3.0449554757E-005 +5.7868966123E+001  +1.0451346717E+000 +1.2210668570E+001 
20710.490 +1.0463520004E+000 +1.2137483488E+001  +2.9797123082E-005 -6.5136964207E+001  +4.6107206460E-005 -1.5647005109E+001  +1.0461828513E+000 +1.2132849632E+001 
20862.452 +1.0472097287E+000 +1.2072769749E+001  +8.0169915372E-006 -4.8902649357E+001  +3.1571806068E-005 +5.2621979423E+001  +1.0470836779E+000 +1.2065875160E+001 
21015.529 +1.0484856796E+000 +1.2001133539E+001  +3.3745806577E-005 +1.5622769601E+002  +4.8487849847E-005 -1.6933825041E+002  +1.0481312314E+000 +1.1995260897E+001 
