!  2-Port S-parameters saved by WinCal
! VAR NAME=Wafer2_r10_c5_open
! VAR DATE=26/04/2024 16:52:19
! VAR FILENAME=Wafer2_r10_c5_open_1.S2P
! VAR MeasName=S-Parameters (CALIBRATED_DATA) read from VNA (P5004A)
! VAR MeasDate=26/04/2024 16:26:55
! VAR PHYS_PORTS=1,2
! VAR ObjTypeName=DATASET
! VAR IndexType=Frequency
!
# Hz S MA R 50
9000.000 +7.9695785350E-001 +1.7517529522E+001  +2.0107790876E-005 -2.5962072580E+001  +2.3608193183E-005 -2.7830196686E+001  +7.9704720588E-001 +1.7521522894E+001 
10013997.999 +9.8059104417E-001 +7.4092508219E-002  +3.0372119269E-005 +8.3889340389E+001  +2.7088301980E-005 +8.5037347056E+001  +9.8083001290E-001 +7.9863022981E-002 
20018995.998 +9.9497279590E-001 +7.4351929969E-001  +5.4719868393E-005 +9.0408821985E+001  +6.0649663117E-005 +9.0080500220E+001  +9.9504859785E-001 +7.3864703325E-001 
30023993.997 +1.0054662584E+000 +7.0819927488E-001  +8.7908069746E-005 +8.9878629245E+001  +8.5327489609E-005 +8.9908745481E+001  +1.0054785457E+000 +7.0437777392E-001 
40028991.996 +1.0135970608E+000 +2.6568401926E-001  +1.1742787029E-004 +9.1123484257E+001  +1.1408873595E-004 +8.8249872447E+001  +1.0135517585E+000 +2.6998017520E-001 
50033989.995 +1.0147276596E+000 -3.6483161525E-001  +1.4381055565E-004 +8.9062418660E+001  +1.4441988278E-004 +8.8926846409E+001  +1.0146969762E+000 -3.6863326598E-001 
60038987.994 +1.0081793760E+000 -9.4141607730E-001  +1.7631911541E-004 +8.8701113324E+001  +1.7092487074E-004 +8.9544194473E+001  +1.0082111751E+000 -9.4294643609E-001 
70043985.993 +9.9631579730E-001 -1.0915558673E+000  +2.0293685051E-004 +8.8369832516E+001  +1.9730894560E-004 +8.9169171638E+001  +9.9641190812E-001 -1.0859966006E+000 
80048983.992 +9.8641965114E-001 -7.1748418612E-001  +2.3059151705E-004 +8.9188743038E+001  +2.3013428670E-004 +8.9526182535E+001  +9.8642670752E-001 -7.1454124356E-001 
90053981.991 +9.8335740522E-001 -1.2552454501E-001  +2.5583505711E-004 +8.8896048779E+001  +2.6139679300E-004 +8.9142686063E+001  +9.8325509703E-001 -1.2640548733E-001 
100058979.990 +9.8713045333E-001 +4.4067322613E-001  +2.8541104953E-004 +8.9697154697E+001  +2.9484121823E-004 +8.9194098860E+001  +9.8710184225E-001 +4.3569693916E-001 
110063977.989 +9.9623937524E-001 +7.8512076728E-001  +3.2677529810E-004 +8.8491597696E+001  +3.3189372834E-004 +8.7725843874E+001  +9.9611782206E-001 +7.7830255839E-001 
120068975.988 +1.0081831557E+000 +7.4100897483E-001  +3.5206319514E-004 +8.4306035983E+001  +3.5099145388E-004 +8.4386622951E+001  +1.0082114194E+000 +7.3102708130E-001 
130073973.987 +1.0182583664E+000 +2.2740520672E-001  +3.5733188660E-004 +8.6082058029E+001  +3.5618125383E-004 +8.5559035514E+001  +1.0182160602E+000 +2.2419353449E-001 
140078971.986 +1.0202679827E+000 -6.1258147726E-001  +3.8872092337E-004 +8.8242752445E+001  +3.8717033105E-004 +8.7700723491E+001  +1.0202716071E+000 -6.0843601877E-001 
150083969.985 +1.0116312361E+000 -1.3561112452E+000  +4.1216715931E-004 +8.8132772814E+001  +4.0715448401E-004 +8.8444299867E+001  +1.0117750913E+000 -1.3562273270E+000 
160088967.984 +9.9652127248E-001 -1.5622687040E+000  +4.5329887491E-004 +8.8432987866E+001  +4.5046242759E-004 +8.8352756049E+001  +9.9664784549E-001 -1.5636196397E+000 
170093965.983 +9.8369207950E-001 -1.1782489543E+000  +4.8410662647E-004 +8.7016829302E+001  +4.8082133415E-004 +8.8114667501E+001  +9.8376786246E-001 -1.1794567717E+000 
180098963.982 +9.7856349504E-001 -4.6519343617E-001  +5.0540370475E-004 +8.8989055279E+001  +5.0850029949E-004 +8.9506059497E+001  +9.7855140686E-001 -4.5791542282E-001 
190103961.981 +9.8147782210E-001 +2.8056539681E-001  +5.4637795168E-004 +8.8976119430E+001  +5.5497005272E-004 +8.9230029210E+001  +9.8153920983E-001 +2.6814217149E-001 
200108959.980 +9.9148610406E-001 +7.9133760252E-001  +5.8188492377E-004 +8.7665768150E+001  +5.8241707101E-004 +8.7619185083E+001  +9.9136899043E-001 +7.8516435845E-001 
210113957.979 +1.0054841952E+000 +9.0095358041E-001  +6.0129602429E-004 +8.9504022675E+001  +6.0436368701E-004 +8.8681734211E+001  +1.0054788529E+000 +8.9322701855E-001 
220118955.978 +1.0193607904E+000 +4.5453941144E-001  +6.4774196729E-004 +8.9216567354E+001  +6.4857488442E-004 +8.9065609834E+001  +1.0193981735E+000 +4.5334100677E-001 
230123953.977 +1.0261647523E+000 -4.6856350819E-001  +6.9715108243E-004 +8.7466123382E+001  +6.9039850075E-004 +8.6798624318E+001  +1.0261382873E+000 -4.7181061878E-001 
240128951.976 +1.0201993864E+000 -1.4838265082E+000  +7.3303538397E-004 +8.6278177474E+001  +7.2067617894E-004 +8.6222397268E+001  +1.0202229484E+000 -1.4798359552E+000 
250133949.975 +1.0034974089E+000 -2.0444421122E+000  +7.5650221937E-004 +8.3104398654E+001  +7.4184710129E-004 +8.3264136996E+001  +1.0036037931E+000 -2.0315911075E+000 
260138947.974 +9.8557939739E-001 -1.8508296049E+000  +7.5308158090E-004 +8.1597782057E+001  +7.5046610726E-004 +8.2137532711E+001  +9.8589691954E-001 -1.8434530103E+000 
270143945.973 +9.7490170786E-001 -1.0910762302E+000  +7.2493873517E-004 +8.1945748859E+001  +7.2027961947E-004 +8.2649306385E+001  +9.7511244328E-001 -1.0978444457E+000 
280148943.972 +9.7417908374E-001 -1.6638011902E-001  +7.7461208850E-004 +8.6491143259E+001  +7.7442166449E-004 +8.6918844957E+001  +9.7426058021E-001 -1.7146646335E-001 
290153941.971 +9.8226233867E-001 +6.1308344689E-001  +8.3922871405E-004 +8.5611847932E+001  +8.4595380834E-004 +8.6134435818E+001  +9.8249676533E-001 +6.0517148090E-001 
300158939.970 +9.9730273319E-001 +1.0184719079E+000  +8.4671827465E-004 +8.1468417952E+001  +8.5914570215E-004 +8.1211055733E+001  +9.9743836156E-001 +1.0023774238E+000 
310163937.969 +1.0151768957E+000 +8.3763221560E-001  +8.2867528745E-004 +8.4801015235E+001  +8.3595396405E-004 +8.4296308913E+001  +1.0152362137E+000 +8.2021267380E-001 
320168935.968 +1.0286687667E+000 +5.8895321801E-003  +8.9792967914E-004 +8.4740473034E+001  +8.9231405509E-004 +8.4398370568E+001  +1.0284794858E+000 -1.3580958275E-002 
330173933.967 +1.0300116759E+000 -1.2139177185E+000  +9.1428972113E-004 +8.3803858778E+001  +9.1528247334E-004 +8.3028923178E+001  +1.0300323484E+000 -1.2165364170E+000 
340178931.966 +1.0164501578E+000 -2.2381974881E+000  +9.3522351977E-004 +8.4507171866E+001  +9.2410077822E-004 +8.3883581640E+001  +1.0165732806E+000 -2.2452470045E+000 
350183929.965 +9.9476203092E-001 -2.5159194474E+000  +9.4082797256E-004 +8.3212739223E+001  +9.3419738124E-004 +8.3621149485E+001  +9.9492121934E-001 -2.5174956833E+000 
360188927.964 +9.7646980712E-001 -1.9652375952E+000  +9.5100560428E-004 +8.4156882046E+001  +9.5019375012E-004 +8.5057075095E+001  +9.7668022247E-001 -1.9679996021E+000 
370193925.963 +9.6855900724E-001 -9.3845877281E-001  +9.6312230493E-004 +8.6764859024E+001  +9.7876512668E-004 +8.7129599054E+001  +9.6882387809E-001 -9.5026457231E-001 
380198923.962 +9.7200270793E-001 +1.1593378496E-001  +1.0162685832E-003 +8.7862761281E+001  +1.0172894750E-003 +8.8110352992E+001  +9.7207882284E-001 +1.1417337999E-001 
390203921.961 +9.8493776699E-001 +9.0661463286E-001  +1.0606317118E-003 +8.8283120052E+001  +1.0698087190E-003 +8.8358547796E+001  +9.8503624454E-001 +8.8935342625E-001 
400208919.960 +1.0045703457E+000 +1.1416596790E+000  +1.1235905123E-003 +8.8284072493E+001  +1.1358509436E-003 +8.8173852333E+001  +1.0045202435E+000 +1.1261275276E+000 
410213917.959 +1.0245666814E+000 +6.4893794510E-001  +1.1686532789E-003 +8.7069554281E+001  +1.1748573868E-003 +8.6718514206E+001  +1.0245173012E+000 +6.3392811909E-001 
420218915.958 +1.0363428498E+000 -5.2569698840E-001  +1.2069381936E-003 +8.6615642570E+001  +1.1994444422E-003 +8.5926506289E+001  +1.0363032141E+000 -5.4093947925E-001 
430223913.957 +1.0318739545E+000 -1.9528080189E+000  +1.2353427322E-003 +8.5143408110E+001  +1.2312243172E-003 +8.4835495504E+001  +1.0317672949E+000 -1.9593621491E+000 
440228911.956 +1.0116463860E+000 -2.8881042389E+000  +1.2596455940E-003 +8.3590864623E+001  +1.2488692248E-003 +8.3351527844E+001  +1.0116929238E+000 -2.8929093423E+000 
450233909.955 +9.8679831293E-001 -2.8831557678E+000  +1.2479621874E-003 +8.2593979206E+001  +1.2390623232E-003 +8.2687762233E+001  +9.8698827317E-001 -2.8777830163E+000 
460238907.954 +9.6904678000E-001 -2.0305919645E+000  +1.2144241378E-003 +8.2985922351E+001  +1.2139576210E-003 +8.3361059149E+001  +9.6924337024E-001 -2.0323975827E+000 
470243905.953 +9.6377370960E-001 -8.0847455033E-001  +1.2277553067E-003 +8.5631403829E+001  +1.2283847655E-003 +8.6144490539E+001  +9.6405912715E-001 -8.1448639167E-001 
480248903.952 +9.7091078400E-001 +3.5116140483E-001  +1.2678326339E-003 +8.7463008941E+001  +1.2765422403E-003 +8.7731653466E+001  +9.7118367685E-001 +3.3728732673E-001 
490253901.951 +9.8807401969E-001 +1.1102662224E+000  +1.3205878736E-003 +8.8705873109E+001  +1.3276987471E-003 +8.8774571619E+001  +9.8818700147E-001 +1.0959345342E+000 
500258899.950 +1.0115943077E+000 +1.1788612188E+000  +1.3806222693E-003 +8.9318874442E+001  +1.3957117506E-003 +8.9053846399E+001  +1.0116188959E+000 +1.1637392658E+000 
510263897.949 +1.0331272382E+000 +3.7781178806E-001  +1.4521478207E-003 +8.8821003599E+001  +1.4543050359E-003 +8.8386661306E+001  +1.0331772143E+000 +3.6477480457E-001 
520268895.948 +1.0422623565E+000 -1.1068363489E+000  +1.5133168636E-003 +8.7979261691E+001  +1.5030875200E-003 +8.7777494064E+001  +1.0422799401E+000 -1.1184705055E+000 
530273893.947 +1.0314959206E+000 -2.6416279646E+000  +1.5602791430E-003 +8.6526425339E+001  +1.5442281199E-003 +8.6450330576E+001  +1.0314854781E+000 -2.6444272029E+000 
540278891.946 +1.0059738703E+000 -3.4348373568E+000  +1.5642669329E-003 +8.5166010845E+001  +1.5573515030E-003 +8.4911638643E+001  +1.0060680724E+000 -3.4322080466E+000 
550283889.945 +9.7935985926E-001 -3.1389619299E+000  +1.5537758487E-003 +8.5256887047E+001  +1.5498625860E-003 +8.5379399570E+001  +9.7942460222E-001 -3.1389986725E+000 
560288887.944 +9.6287220818E-001 -2.0436553446E+000  +1.5764373765E-003 +8.5824220612E+001  +1.5683786706E-003 +8.6240386505E+001  +9.6309886622E-001 -2.0428867776E+000 
570293885.943 +9.6044323711E-001 -6.6602013534E-001  +1.6003028789E-003 +8.6550056295E+001  +1.6005906199E-003 +8.6902508604E+001  +9.6066144810E-001 -6.7081221473E-001 
580298883.942 +9.7096048188E-001 +5.5007384906E-001  +1.6436536432E-003 +8.7202220014E+001  +1.6518387129E-003 +8.7530968678E+001  +9.7109601488E-001 +5.3588375335E-001 
590303881.941 +9.9191279501E-001 +1.2479434661E+000  +1.6936603335E-003 +8.7834945716E+001  +1.7075772232E-003 +8.7818071440E+001  +9.9198250213E-001 +1.2381381826E+000 
600308879.940 +1.0183881796E+000 +1.1367284223E+000  +1.7690579092E-003 +8.8232538641E+001  +1.7772532646E-003 +8.7917667153E+001  +1.0184213034E+000 +1.1206611329E+000 
610313877.939 +1.0407853122E+000 +4.7469275998E-002  +1.8643241045E-003 +8.7369468376E+001  +1.8606464732E-003 +8.6961438268E+001  +1.0407777986E+000 +3.8473957500E-002 
620318875.938 +1.0464481011E+000 -1.6885776344E+000  +1.9216299031E-003 +8.5231131067E+001  +1.9212396571E-003 +8.4908152850E+001  +1.0463922683E+000 -1.6971603097E+000 
630323873.937 +1.0298563352E+000 -3.2712958729E+000  +1.9528092248E-003 +8.2941417610E+001  +1.9410337712E-003 +8.2801514536E+001  +1.0299583003E+000 -3.2648922801E+000 
640328871.936 +1.0000536915E+000 -3.8766514695E+000  +1.9099143493E-003 +8.1526902903E+001  +1.8971668328E-003 +8.1358649262E+001  +1.0002777299E+000 -3.8726165463E+000 
650333869.935 +9.7292265774E-001 -3.3224346432E+000  +1.8745721746E-003 +8.1973775223E+001  +1.8596694207E-003 +8.2203895657E+001  +9.7317389820E-001 -3.3215886835E+000 
660338867.934 +9.5826508725E-001 -2.0365976980E+000  +1.8843274143E-003 +8.2968573269E+001  +1.8748591296E-003 +8.3657896659E+001  +9.5855957626E-001 -2.0387604633E+000 
670343865.933 +9.5831884625E-001 -5.6520458001E-001  +1.9095320839E-003 +8.3944161578E+001  +1.9157191845E-003 +8.4147285412E+001  +9.5853465730E-001 -5.6322634273E-001 
680348863.932 +9.7165011575E-001 +6.7637763352E-001  +1.9542485246E-003 +8.4423342967E+001  +1.9618327708E-003 +8.4476925313E+001  +9.7189708967E-001 +6.7137212122E-001 
690353861.931 +9.9559429006E-001 +1.3123661972E+000  +1.9964470169E-003 +8.4547152064E+001  +1.9987458604E-003 +8.4602300104E+001  +9.9591055102E-001 +1.3040431932E+000 
700358859.930 +1.0246022186E+000 +1.0335502086E+000  +2.0240881613E-003 +8.5134481512E+001  +2.0338485655E-003 +8.5001086049E+001  +1.0247998172E+000 +1.0202770565E+000 
710363857.929 +1.0469002519E+000 -3.0303267422E-001  +2.1307735528E-003 +8.5469906562E+001  +2.1317601862E-003 +8.4993431213E+001  +1.0470699924E+000 -3.1138711118E-001 
720368855.928 +1.0489790566E+000 -2.2323557195E+000  +2.1900274578E-003 +8.3389096643E+001  +2.1839208295E-003 +8.3170455214E+001  +1.0492945189E+000 -2.2374102818E+000 
730373853.927 +1.0276118297E+000 -3.8131115449E+000  +2.1808058217E-003 +8.1635663992E+001  +2.1702619803E-003 +8.1387670338E+001  +1.0279237051E+000 -3.8114534709E+000 
740378851.926 +9.9483551074E-001 -4.2474640300E+000  +2.1234681448E-003 +8.1543188444E+001  +2.1111785847E-003 +8.1733128554E+001  +9.9524232177E-001 -4.2442850994E+000 
750383849.925 +9.6729733294E-001 -3.4803260076E+000  +2.1147618757E-003 +8.3010928370E+001  +2.1067713978E-003 +8.2960312245E+001  +9.6766646404E-001 -3.4841359362E+000 
760388847.924 +9.5424940668E-001 -2.0211937263E+000  +2.1249600384E-003 +8.4483998175E+001  +2.1240644841E-003 +8.4788251063E+001  +9.5464296041E-001 -2.0332914159E+000 
770393845.923 +9.5685154847E-001 -4.6518853042E-001  +2.1746622729E-003 +8.6078838288E+001  +2.1836329310E-003 +8.6442925427E+001  +9.5714350939E-001 -4.7781874200E-001 
780398843.922 +9.7309530629E-001 +7.7101240353E-001  +2.2536810921E-003 +8.7612467030E+001  +2.2588580423E-003 +8.7708010005E+001  +9.7327268161E-001 +7.5109234836E-001 
790403841.921 +9.9997846794E-001 +1.3232075374E+000  +2.3584614189E-003 +8.8526700636E+001  +2.3693629221E-003 +8.8429374732E+001  +9.9999434841E-001 +1.3020918025E+000 
800408839.920 +1.0304593589E+000 +8.5375108709E-001  +2.4918290030E-003 +8.8215727810E+001  +2.4985980654E-003 +8.7996224854E+001  +1.0304176487E+000 +8.3764996640E-001 
810413837.919 +1.0519054953E+000 -6.9161285319E-001  +2.6104569454E-003 +8.6811250265E+001  +2.6122581232E-003 +8.6564122918E+001  +1.0520252789E+000 -7.0585095131E-001 
820418835.918 +1.0506781405E+000 -2.7500064796E+000  +2.6762319074E-003 +8.4651395722E+001  +2.6706655088E-003 +8.4450530527E+001  +1.0507469112E+000 -2.7604495917E+000 
830423833.917 +1.0252653839E+000 -4.3113581143E+000  +2.6763300349E-003 +8.2922436450E+001  +2.6713048071E-003 +8.2821251135E+001  +1.0253603241E+000 -4.3070285694E+000 
840428831.916 +9.9023552493E-001 -4.5798101884E+000  +2.6616838189E-003 +8.2369200831E+001  +2.6549025084E-003 +8.2224932084E+001  +9.9040519742E-001 -4.5763343789E+000 
850433829.915 +9.6285438554E-001 -3.6349508761E+000  +2.6459525953E-003 +8.2844016255E+001  +2.6370550334E-003 +8.2879803808E+001  +9.6305717963E-001 -3.6313400581E+000 
860438827.914 +9.5157360785E-001 -2.0594462049E+000  +2.6768813708E-003 +8.3810211399E+001  +2.6678789724E-003 +8.3936788592E+001  +9.5186619702E-001 -2.0524117437E+000 
870443825.913 +9.5632301480E-001 -4.4769195081E-001  +2.7405095929E-003 +8.4978256465E+001  +2.7475734023E-003 +8.5255849197E+001  +9.5650313111E-001 -4.4758131307E-001 
880448823.912 +9.7476032169E-001 +7.7381760434E-001  +2.8677890524E-003 +8.5839023938E+001  +2.8718149241E-003 +8.5882696035E+001  +9.7491649023E-001 +7.7325573159E-001 
890453821.911 +1.0035947817E+000 +1.2294837545E+000  +3.0116933763E-003 +8.5579462555E+001  +3.0186752809E-003 +8.5602926468E+001  +1.0036198692E+000 +1.2340427218E+000 
900458819.910 +1.0352481662E+000 +6.0432155032E-001  +3.1783203189E-003 +8.4551284914E+001  +3.1885236165E-003 +8.4391612069E+001  +1.0353066302E+000 +6.1756516766E-001 
910463817.909 +1.0556450476E+000 -1.1185654716E+000  +3.3704034266E-003 +8.2040106954E+001  +3.3653368316E-003 +8.1911276148E+001  +1.0558285005E+000 -1.1010712721E+000 
920468815.908 +1.0510106654E+000 -3.2894925032E+000  +3.4573109216E-003 +7.7872790850E+001  +3.4536697962E-003 +7.7907378208E+001  +1.0512705189E+000 -3.2714647205E+000 
930473813.907 +1.0219758552E+000 -4.7912283718E+000  +3.4268774921E-003 +7.3939780701E+001  +3.4197952231E-003 +7.3879132079E+001  +1.0222010795E+000 -4.7685125770E+000 
940478811.906 +9.8501163484E-001 -4.9065803951E+000  +3.2616067530E-003 +7.0241905615E+001  +3.2484748909E-003 +7.0381503495E+001  +9.8526482441E-001 -4.8711248258E+000 
950483809.905 +9.5822697622E-001 -3.7812678714E+000  +3.0340500005E-003 +7.1064604078E+001  +3.0222103080E-003 +7.1076432196E+001  +9.5855756303E-001 -3.7410361646E+000 
960488807.904 +9.4850340724E-001 -2.0964700502E+000  +2.9797203454E-003 +7.3534421171E+001  +2.9850093180E-003 +7.3856836720E+001  +9.4896717412E-001 -2.0570958791E+000 
970493805.903 +9.5528417753E-001 -4.6331161119E-001  +3.0605149601E-003 +7.5072976683E+001  +3.0735892641E-003 +7.5041688899E+001  +9.5577169819E-001 -4.0983948624E-001 
980498803.902 +9.7545383650E-001 +7.2155015005E-001  +3.1501751034E-003 +7.4655856772E+001  +3.1634334035E-003 +7.4500636128E+001  +9.7620457086E-001 +7.7827843499E-001 
990503801.901 +1.0054139873E+000 +1.1093482027E+000  +3.1560121753E-003 +7.3433428309E+001  +3.1606895996E-003 +7.3079448455E+001  +1.0065559528E+000 +1.1606329708E+000 
1000508799.900 +1.0372607954E+000 +3.6875237356E-001  +3.1265226344E-003 +7.3115348049E+001  +3.1080147861E-003 +7.2848463760E+001  +1.0388649705E+000 +4.0433950133E-001 
1010513797.899 +1.0563946761E+000 -1.4533725626E+000  +3.1433206772E-003 +7.2859043935E+001  +3.1207687134E-003 +7.3019104823E+001  +1.0580625636E+000 -1.4387287835E+000 
1020518795.898 +1.0494353899E+000 -3.6498035512E+000  +3.0883188454E-003 +7.1829130335E+001  +3.0847830423E-003 +7.2127252760E+001  +1.0511871112E+000 -3.6520177283E+000 
1030523793.897 +1.0182945601E+000 -5.0776453878E+000  +2.9939849606E-003 +7.1966089905E+001  +2.9995746714E-003 +7.2252412633E+001  +1.0198376721E+000 -5.0962087108E+000 
1040528791.896 +9.8093523974E-001 -5.0592944029E+000  +2.9347066626E-003 +7.4537971976E+001  +2.9377690058E-003 +7.4441271495E+001  +9.8213237019E-001 -5.0799244205E+000 
1050533789.895 +9.5511043159E-001 -3.8134391922E+000  +2.9595397636E-003 +7.6863621200E+001  +2.9566790479E-003 +7.6574401806E+001  +9.5606466530E-001 -3.8367280351E+000 
1060538787.894 +9.4720838199E-001 -2.0617492162E+000  +3.0190770763E-003 +7.8502522053E+001  +3.0122952691E-003 +7.8645396194E+001  +9.4804076034E-001 -2.0759138681E+000 
1070543785.893 +9.5602788952E-001 -4.1582215256E-001  +3.0936366757E-003 +7.9913655199E+001  +3.1035878061E-003 +8.0051508971E+001  +9.5664249663E-001 -4.3417062519E-001 
1080548783.892 +9.7821448625E-001 +7.1018988890E-001  +3.1970861653E-003 +8.1487160522E+001  +3.1997795437E-003 +8.1202896038E+001  +9.7880927963E-001 +6.9918574650E-001 
1090553781.891 +1.0094742249E+000 +9.7837702909E-001  +3.3355720865E-003 +8.2307711375E+001  +3.3324530360E-003 +8.2256193883E+001  +1.0100792792E+000 +9.6795495882E-001 
1100558779.890 +1.0413919469E+000 +1.0552644574E-001  +3.5116944625E-003 +8.2268791511E+001  +3.4958074933E-003 +8.2084513070E+001  +1.0420062804E+000 +9.1800636961E-002 
1110563777.889 +1.0590177370E+000 -1.8351982152E+000  +3.6558459408E-003 +8.0905177957E+001  +3.6381515666E-003 +8.0822443233E+001  +1.0597229247E+000 -1.8455356596E+000 
1120568775.888 +1.0494480922E+000 -4.0657051982E+000  +3.7351683303E-003 +7.9181044779E+001  +3.7157018314E-003 +7.9264427487E+001  +1.0501671982E+000 -4.0734142536E+000 
1130573773.887 +1.0159793606E+000 -5.4411169434E+000  +3.7243202904E-003 +7.7528700480E+001  +3.7097454321E-003 +7.7707631435E+001  +1.0166682572E+000 -5.4369950244E+000 
