!  2-Port S-parameters saved by WinCal
! VAR MeasName=S-Parameters (CALIBRATED_DATA) read from VNA (P5004A)
! VAR MeasDate=26/04/2024 17:45:01
! VAR NAME=Wafer2_r1_c4_pristine
! VAR FILENAME=Wafer2_r1_c4_pristine_1.S2P
! VAR DATE=26/04/2024 17:45:01
! VAR PHYS_PORTS=1,2
! VAR ObjTypeName=DATASET
! VAR IndexType=Frequency
!
# Hz S MA R 50
9000.000 +7.9698085665E-001 +1.7519095875E+001  +2.4072722968E-005 +1.3328177566E+002  +3.3325742714E-005 +5.0522515558E+000  +7.9703252650E-001 +1.7507956748E+001 
10013997.999 +9.8057283330E-001 -1.8976171623E-001  +4.6319505487E-003 +8.8776976390E+001  +4.6713721217E-003 +8.8477771306E+001  +9.8060485690E-001 -1.8471436954E-001 
20018995.998 +9.9482595579E-001 +2.0414553250E-001  +9.3622313891E-003 +8.8839091372E+001  +9.4125654045E-003 +8.8247717271E+001  +9.9469837726E-001 +2.1041005681E-001 
30023993.997 +1.0051640384E+000 -1.0475840115E-001  +1.4104479849E-002 +8.8557577903E+001  +1.4054710042E-002 +8.8156830549E+001  +1.0049098662E+000 -8.3459853309E-002 
40028991.996 +1.0129386516E+000 -8.2050785276E-001  +1.8921671595E-002 +8.7917841544E+001  +1.8764211721E-002 +8.7553606064E+001  +1.0127180066E+000 -7.9529307585E-001 
50033989.995 +1.0136550709E+000 -1.7287079048E+000  +2.3612057859E-002 +8.6904436756E+001  +2.3353799246E-002 +8.6927559558E+001  +1.0135730067E+000 -1.6914279550E+000 
60038987.994 +1.0065243394E+000 -2.5626782920E+000  +2.8053518207E-002 +8.6000339309E+001  +2.7832793828E-002 +8.6294876506E+001  +1.0066965777E+000 -2.5211275868E+000 
70043985.993 +9.9442267588E-001 -2.9524214026E+000  +3.2234335482E-002 +8.5609635399E+001  +3.2094950147E-002 +8.6133223214E+001  +9.9471727628E-001 -2.9154637446E+000 
80048983.992 +9.8436920540E-001 -2.8177818120E+000  +3.6382707157E-002 +8.5817927377E+001  +3.6455154981E-002 +8.6321867535E+001  +9.8478836844E-001 -2.7900554020E+000 
90053981.991 +9.8146027356E-001 -2.4754581204E+000  +4.0793238652E-002 +8.6086816803E+001  +4.1112321430E-002 +8.6429413319E+001  +9.8161483865E-001 -2.4564359255E+000 
100058979.990 +9.8546269868E-001 -2.1694662086E+000  +4.5416488883E-002 +8.6291243423E+001  +4.5862895397E-002 +8.6220587756E+001  +9.8538610682E-001 -2.1613874912E+000 
110063977.989 +9.9453123758E-001 -2.1066736508E+000  +5.0346284696E-002 +8.6293761625E+001  +5.0661650747E-002 +8.5892196900E+001  +9.9400544161E-001 -2.0936016050E+000 
120068975.988 +1.0060097595E+000 -2.4546744758E+000  +5.5393577791E-002 +8.5963887072E+001  +5.5504115117E-002 +8.5381906373E+001  +1.0053604509E+000 -2.4216491394E+000 
130073973.987 +1.0150452444E+000 -3.2619690664E+000  +6.0584778164E-002 +8.5206042849E+001  +6.0275513029E-002 +8.4615372766E+001  +1.0143314499E+000 -3.1983884861E+000 
140078971.986 +1.0156811474E+000 -4.3662999120E+000  +6.5238861955E-002 +8.4017089894E+001  +6.4598680887E-002 +8.3710913968E+001  +1.0153026937E+000 -4.2742759350E+000 
150083969.985 +1.0058613936E+000 -5.3419490408E+000  +6.9127622860E-002 +8.2965448584E+001  +6.8370970090E-002 +8.3004699109E+001  +1.0060461716E+000 -5.2347210990E+000 
160088967.984 +9.9007978142E-001 -5.7500517049E+000  +7.2423260005E-002 +8.2587924735E+001  +7.1805466467E-002 +8.2950775060E+001  +9.9076068690E-001 -5.6580158107E+000 
170093965.983 +9.7736940562E-001 -5.5724591161E+000  +7.5856973603E-002 +8.2804327050E+001  +7.5674674314E-002 +8.3366132687E+001  +9.7822928221E-001 -5.4958657211E+000 
180098963.982 +9.7279599103E-001 -5.0738468955E+000  +7.9967467607E-002 +8.3300226779E+001  +8.0348374353E-002 +8.3790649356E+001  +9.7343769785E-001 -5.0261745315E+000 
190103961.981 +9.7641596296E-001 -4.6004613887E+000  +8.4727264270E-002 +8.3647850090E+001  +8.5515815962E-002 +8.3872536711E+001  +9.7666131097E-001 -4.5759824151E+000 
200108959.980 +9.8663638712E-001 -4.3951225249E+000  +8.9932600060E-002 +8.3771401546E+001  +9.0817728961E-002 +8.3622039913E+001  +9.8626916086E-001 -4.3690684113E+000 
210113957.979 +9.9999153431E-001 -4.6236570466E+000  +9.5554025702E-002 +8.3568514674E+001  +9.6095469158E-002 +8.3085601326E+001  +9.9925575905E-001 -4.5748089237E+000 
220118955.978 +1.0121817407E+000 -5.3921351132E+000  +1.0135150304E-001 +8.2841811604E+001  +1.0126596826E-001 +8.2259186323E+001  +1.0110403195E+000 -5.3011797911E+000 
230123953.977 +1.0164627407E+000 -6.5954377020E+000  +1.0646364677E-001 +8.1604232520E+001  +1.0576010220E-001 +8.1135962258E+001  +1.0155021098E+000 -6.4615056551E+000 
240128951.976 +1.0082095402E+000 -7.8173376384E+000  +1.1004595826E-001 +8.0254495844E+001  +1.0895566048E-001 +8.0083122453E+001  +1.0079659967E+000 -7.6557064165E+000 
250133949.975 +9.9031261215E-001 -8.5331492731E+000  +1.1232530548E-001 +7.9534455726E+001  +1.1122402310E-001 +7.9730531636E+001  +9.9092383759E-001 -8.3587648610E+000 
260138947.974 +9.7251752095E-001 -8.4879901693E+000  +1.1456541750E-001 +7.9662661274E+001  +1.1383418451E-001 +8.0151686194E+001  +9.7382799790E-001 -8.3402474497E+000 
270143945.973 +9.6292155726E-001 -7.9132258307E+000  +1.1787629960E-001 +8.0264782753E+001  +1.1787903411E-001 +8.0855065641E+001  +9.6414020558E-001 -7.8171380341E+000 
280148943.972 +9.6350255566E-001 -7.2319851105E+000  +1.2245336003E-001 +8.0879908677E+001  +1.2318288703E-001 +8.1328664643E+001  +9.6442299361E-001 -7.1649125696E+000 
290153941.971 +9.7262070104E-001 -6.7620457426E+000  +1.2787093112E-001 +8.1215574564E+001  +1.2913896899E-001 +8.1333049521E+001  +9.7299547685E-001 -6.7265986584E+000 
300158939.970 +9.8753974268E-001 -6.7397122949E+000  +1.3401491514E-001 +8.1193938130E+001  +1.3517927119E-001 +8.0944401543E+001  +9.8696775323E-001 -6.6992850700E+000 
310163937.969 +1.0033846600E+000 -7.3144291505E+000  +1.4055762024E-001 +8.0671528503E+001  +1.4113449318E-001 +8.0168906836E+001  +1.0020799765E+000 -7.2324940962E+000 
320168935.968 +1.0132832512E+000 -8.4766844003E+000  +1.4669348672E-001 +7.9518146173E+001  +1.4641541556E-001 +7.8991473889E+001  +1.0116833897E+000 -8.3374140911E+000 
330173933.967 +1.0107758203E+000 -9.9234984022E+000  +1.5098983862E-001 +7.7985010142E+001  +1.4992479786E-001 +7.7603605495E+001  +1.0096797937E+000 -9.7212809573E+000 
340178931.966 +9.9446462263E-001 -1.1066255776E+001  +1.5275021399E-001 +7.6764592003E+001  +1.5130513520E-001 +7.6676760383E+001  +9.9449125155E-001 -1.0839640452E+001 
350183929.965 +9.7226129003E-001 -1.1413005772E+001  +1.5340535463E-001 +7.6457122655E+001  +1.5206064413E-001 +7.6684955610E+001  +9.7311114376E-001 -1.1191755960E+001 
360188927.964 +9.5531191846E-001 -1.0955406269E+001  +1.5500489809E-001 +7.7000762850E+001  +1.5428948284E-001 +7.7478281269E+001  +9.5682435045E-001 -1.0781025577E+001 
370193925.963 +9.4963696795E-001 -1.0113855179E+001  +1.5860358661E-001 +7.7827313410E+001  +1.5873978978E-001 +7.8376532619E+001  +9.5121127291E-001 -9.9919917964E+000 
380198923.962 +9.5512906147E-001 -9.3370801381E+000  +1.6388444318E-001 +7.8476539324E+001  +1.6486531900E-001 +7.8844812074E+001  +9.5607917226E-001 -9.2577520841E+000 
390203921.961 +9.6910685339E-001 -8.9500283271E+000  +1.7031072057E-001 +7.8757607094E+001  +1.7180156565E-001 +7.8812233227E+001  +9.6919718561E-001 -8.9039794677E+000 
400208919.960 +9.8734576731E-001 -9.1751211750E+000  +1.7763551568E-001 +7.8561184180E+001  +1.7887447374E-001 +7.8292422370E+001  +9.8654315256E-001 -9.1014848614E+000 
410213917.959 +1.0036542464E+000 -1.0092459167E+001  +1.8512794910E-001 +7.7703315768E+001  +1.8560663616E-001 +7.7243037648E+001  +1.0019156047E+000 -9.9742854535E+000 
420218915.958 +1.0097052721E+000 -1.1582178226E+001  +1.9102577112E-001 +7.6168299869E+001  +1.9050988776E-001 +7.5727544677E+001  +1.0080245131E+000 -1.1395253782E+001 
430223913.957 +1.0002486883E+000 -1.3132061039E+001  +1.9365106249E-001 +7.4491027867E+001  +1.9228798126E-001 +7.4215574837E+001  +9.9924031748E-001 -1.2888305345E+001 
440228911.956 +9.7761847914E-001 -1.4080438299E+001  +1.9317397184E-001 +7.3512503848E+001  +1.9159945400E-001 +7.3509526807E+001  +9.7785267687E-001 -1.3817365638E+001 
450233909.955 +9.5359571294E-001 -1.4056630105E+001  +1.9239682940E-001 +7.3650137782E+001  +1.9105624833E-001 +7.3909477022E+001  +9.5479796623E-001 -1.3811661548E+001 
460238907.954 +9.3867772609E-001 -1.3280504517E+001  +1.9384990027E-001 +7.4513660801E+001  +1.9321704887E-001 +7.4942006676E+001  +9.4035058396E-001 -1.3081377819E+001 
470243905.953 +9.3678412885E-001 -1.2263109647E+001  +1.9794453636E-001 +7.5447542322E+001  +1.9837125230E-001 +7.5892925835E+001  +9.3847932349E-001 -1.2122006968E+001 
480248903.952 +9.4675735220E-001 -1.1468903055E+001  +2.0418495435E-001 +7.6103161302E+001  +2.0549839876E-001 +7.6358067318E+001  +9.4776485782E-001 -1.1373363012E+001 
490253901.951 +9.6448737734E-001 -1.1201614328E+001  +2.1183661621E-001 +7.6310014944E+001  +2.1345156765E-001 +7.6261314428E+001  +9.6436038309E-001 -1.1117060191E+001 
500258899.950 +9.8505269623E-001 -1.1679292718E+001  +2.2048172138E-001 +7.5877608020E+001  +2.2170054163E-001 +7.5574417067E+001  +9.8377795473E-001 -1.1562279988E+001 
510263897.949 +1.0003716176E+000 -1.2923046293E+001  +2.2861439540E-001 +7.4677959297E+001  +2.2888230754E-001 +7.4250757313E+001  +9.9848269778E-001 -1.2745650120E+001 
520268895.948 +1.0017540404E+000 -1.4653642455E+001  +2.3364755358E-001 +7.2859592640E+001  +2.3290290095E-001 +7.2476426163E+001  +1.0000877933E+000 -1.4401367017E+001 
530273893.947 +9.8527183418E-001 -1.6200016207E+001  +2.3391527321E-001 +7.1205463900E+001  +2.3244984567E-001 +7.0999491296E+001  +9.8468226100E-001 -1.5895919722E+001 
540278891.946 +9.5840946817E-001 -1.6878206729E+001  +2.3130560383E-001 +7.0551196218E+001  +2.2960510748E-001 +7.0569639279E+001  +9.5897929951E-001 -1.6562820938E+001 
550283889.945 +9.3433379042E-001 -1.6504371895E+001  +2.2955385486E-001 +7.1057469395E+001  +2.2822886659E-001 +7.1293804398E+001  +9.3574611651E-001 -1.6218705887E+001 
560288887.944 +9.2233983585E-001 -1.5462443590E+001  +2.3111978803E-001 +7.2121615279E+001  +2.3060769897E-001 +7.2498897675E+001  +9.2407539192E-001 -1.5238921681E+001 
570293885.943 +9.2456671062E-001 -1.4340278192E+001  +2.3601934840E-001 +7.3118449634E+001  +2.3647960141E-001 +7.3463687520E+001  +9.2607948222E-001 -1.4173289267E+001 
580298883.942 +9.3808725950E-001 -1.3584013207E+001  +2.4323741528E-001 +7.3718934126E+001  +2.4463638425E-001 +7.3922534340E+001  +9.3877734348E-001 -1.3456541225E+001 
590303881.941 +9.5869882802E-001 -1.3478129757E+001  +2.5229897738E-001 +7.3823202746E+001  +2.5377349069E-001 +7.3770298449E+001  +9.5836375577E-001 -1.3352032020E+001 
600308879.940 +9.8024210402E-001 -1.4203917577E+001  +2.6222894036E-001 +7.3191287141E+001  +2.6320599516E-001 +7.2937357146E+001  +9.7905388912E-001 -1.4036779834E+001 
610313877.939 +9.9359856297E-001 -1.5737387649E+001  +2.7069356850E-001 +7.1659780286E+001  +2.7082573707E-001 +7.1329810866E+001  +9.9200823707E-001 -1.5502655262E+001 
620318875.938 +9.8979693555E-001 -1.7619313812E+001  +2.7416117900E-001 +6.9656010536E+001  +2.7328239590E-001 +6.9376712561E+001  +9.8842562251E-001 -1.7315946888E+001 
630323873.937 +9.6779334579E-001 -1.9069470598E+001  +2.7178487319E-001 +6.8117887468E+001  +2.7029001672E-001 +6.7991212033E+001  +9.6742138752E-001 -1.8716032675E+001 
640328871.936 +9.3844380386E-001 -1.9456551412E+001  +2.6714921954E-001 +6.7825765235E+001  +2.6553358526E-001 +6.7875240584E+001  +9.3921922786E-001 -1.9107579596E+001 
650333869.935 +9.1569847314E-001 -1.8777843397E+001  +2.6490025235E-001 +6.8620744802E+001  +2.6368104300E-001 +6.8855634699E+001  +9.1724193116E-001 -1.8468713309E+001 
660338867.934 +9.0702351896E-001 -1.7561063424E+001  +2.6698575599E-001 +6.9816940985E+001  +2.6661382666E-001 +7.0139898285E+001  +9.0889222763E-001 -1.7314071159E+001 
670343865.933 +9.1258013720E-001 -1.6403014901E+001  +2.7268728875E-001 +7.0795539813E+001  +2.7335206580E-001 +7.1100716031E+001  +9.1390542381E-001 -1.6210031397E+001 
680348863.932 +9.2895330968E-001 -1.5721014957E+001  +2.8110786159E-001 +7.1379564645E+001  +2.8243310416E-001 +7.1492594356E+001  +9.2958002122E-001 -1.5554482077E+001 
690353861.931 +9.5136024594E-001 -1.5782483363E+001  +2.9144526423E-001 +7.1355856306E+001  +2.9276896103E-001 +7.1279236496E+001  +9.5104969456E-001 -1.5609935704E+001 
700358859.930 +9.7290035006E-001 -1.6735333218E+001  +3.0251154260E-001 +7.0508193829E+001  +3.0320235505E-001 +7.0270736908E+001  +9.7184232576E-001 -1.6521889004E+001 
710363857.929 +9.8344797446E-001 -1.8479296561E+001  +3.1081786886E-001 +6.8726297537E+001  +3.1063131295E-001 +6.8457974015E+001  +9.8209945304E-001 -1.8198980380E+001 
720368855.928 +9.7469404259E-001 -2.0437988468E+001  +3.1236634496E-001 +6.6605755930E+001  +3.1145606465E-001 +6.6422198599E+001  +9.7393068289E-001 -2.0097233963E+001 
730373853.927 +9.4857986183E-001 -2.1746917814E+001  +3.0739021000E-001 +6.5244432086E+001  +3.0608913572E-001 +6.5167673239E+001  +9.4875416441E-001 -2.1383634680E+001 
740378851.926 +9.1815091171E-001 -2.1871318393E+001  +3.0099975054E-001 +6.5242018265E+001  +2.9978662165E-001 +6.5315543293E+001  +9.1925121750E-001 -2.1509585484E+001 
750383849.925 +8.9713732943E-001 -2.0932943404E+001  +2.9840764745E-001 +6.6302232754E+001  +2.9758782841E-001 +6.6482623017E+001  +8.9867737305E-001 -2.0619611166E+001 
760388847.924 +8.9164785163E-001 -1.9577548178E+001  +3.0119226136E-001 +6.7584351718E+001  +3.0105352702E-001 +6.7814994222E+001  +8.9311863903E-001 -1.9319418621E+001 
770393845.923 +9.0030740273E-001 -1.8419082610E+001  +3.0803670879E-001 +6.8562583140E+001  +3.0868809711E-001 +6.8727831646E+001  +9.0132739557E-001 -1.8208266149E+001 
780398843.922 +9.1906571368E-001 -1.7840331950E+001  +3.1761289402E-001 +6.9049267495E+001  +3.1868872795E-001 +6.9083663183E+001  +9.1926926115E-001 -1.7644740488E+001 
790403841.921 +9.4257943828E-001 -1.8078081082E+001  +3.2922581408E-001 +6.8881481750E+001  +3.3018736051E-001 +6.8789136271E+001  +9.4192911668E-001 -1.7858041928E+001 
800408839.920 +9.6299440024E-001 -1.9252676716E+001  +3.4102703679E-001 +6.7802518615E+001  +3.4129323108E-001 +6.7642403562E+001  +9.6187777300E-001 -1.8969507130E+001 
810413837.919 +9.7027146920E-001 -2.1151487139E+001  +3.4859962200E-001 +6.5842481039E+001  +3.4824752682E-001 +6.5674213237E+001  +9.6933163419E-001 -2.0808596442E+001 
820418835.918 +9.5733134399E-001 -2.3106067255E+001  +3.4795366950E-001 +6.3737364949E+001  +3.4716502275E-001 +6.3620436061E+001  +9.5710928081E-001 -2.2724457456E+001 
830423833.917 +9.2844552855E-001 -2.4250808243E+001  +3.4062676285E-001 +6.2564332858E+001  +3.3961029707E-001 +6.2547203876E+001  +9.2907746837E-001 -2.3862911955E+001 
840428831.916 +8.9805950348E-001 -2.4110709481E+001  +3.3295339133E-001 +6.2854164503E+001  +3.3206708989E-001 +6.2907493455E+001  +8.9916020632E-001 -2.3747211854E+001 
850433829.915 +8.7910776150E-001 -2.2975713107E+001  +3.3036880806E-001 +6.4066677769E+001  +3.2984742687E-001 +6.4187099310E+001  +8.8050143069E-001 -2.2651882323E+001 
860438827.914 +8.7670296366E-001 -2.1542372419E+001  +3.3395364896E-001 +6.5378085699E+001  +3.3395662268E-001 +6.5532675062E+001  +8.7785286708E-001 -2.1260752712E+001 
870443825.913 +8.8807903521E-001 -2.0424831940E+001  +3.4171546703E-001 +6.6313828998E+001  +3.4240804938E-001 +6.6413689738E+001  +8.8865441661E-001 -2.0166167288E+001 
880448823.912 +9.0844744883E-001 -1.9968839256E+001  +3.5232580525E-001 +6.6730272095E+001  +3.5323314954E-001 +6.6718799046E+001  +9.0824379830E-001 -1.9703403080E+001 
890453821.911 +9.3192850602E-001 -2.0383533887E+001  +3.6496237836E-001 +6.6450870772E+001  +3.6561909720E-001 +6.6327402106E+001  +9.3123137959E-001 -2.0076690314E+001 
900458819.910 +9.5087062171E-001 -2.1718704744E+001  +3.7744437467E-001 +6.5215387980E+001  +3.7725191915E-001 +6.5055713726E+001  +9.4995939233E-001 -2.1356231350E+001 
910463817.909 +9.5512796022E-001 -2.3711710553E+001  +3.8436135777E-001 +6.3122181682E+001  +3.8342892730E-001 +6.3015766336E+001  +9.5466015734E-001 -2.3298524873E+001 
920468815.908 +9.3864932766E-001 -2.5626854056E+001  +3.8139589082E-001 +6.1020670729E+001  +3.8045068769E-001 +6.1011711827E+001  +9.3918738232E-001 -2.5196910353E+001 
930473813.907 +9.0800082878E-001 -2.6605431466E+001  +3.7167492749E-001 +6.0043276277E+001  +3.7090025292E-001 +6.0112275113E+001  +9.0939345438E-001 -2.6188489918E+001 
940478811.906 +8.7815052185E-001 -2.6248014822E+001  +3.6286431446E-001 +6.0572258902E+001  +3.6243952644E-001 +6.0676066827E+001  +8.7960871503E-001 -2.5879591973E+001 
950483809.905 +8.6159629658E-001 -2.4950862951E+001  +3.6064865211E-001 +6.1956007617E+001  +3.6064529047E-001 +6.2055077688E+001  +8.6281665936E-001 -2.4626059502E+001 
960488807.904 +8.6173552490E-001 -2.3470635247E+001  +3.6514324830E-001 +6.3282406366E+001  +3.6561189055E-001 +6.3369640636E+001  +8.6241285148E-001 -2.3170621113E+001 
970493805.903 +8.7529723932E-001 -2.2402165526E+001  +3.7399349793E-001 +6.4167543478E+001  +3.7476802546E-001 +6.4177522534E+001  +8.7526434582E-001 -2.2099489138E+001 
980498803.902 +8.9660405962E-001 -2.2086697590E+001  +3.8573195378E-001 +6.4474117282E+001  +3.8635437813E-001 +6.4396724684E+001  +8.9587346005E-001 -2.1756453705E+001 
990503801.901 +9.1968668821E-001 -2.2659858593E+001  +3.9929933780E-001 +6.4046702152E+001  +3.9931275863E-001 +6.3919217414E+001  +9.1861239729E-001 -2.2270460465E+001 
1000508799.900 +9.3632560226E-001 -2.4118085737E+001  +4.1169486304E-001 +6.2672378352E+001  +4.1107743499E-001 +6.2567877608E+001  +9.3567661681E-001 -2.3682086874E+001 
1010513797.899 +9.3728355795E-001 -2.6140473859E+001  +4.1732763943E-001 +6.0527782505E+001  +4.1634851513E-001 +6.0495867569E+001  +9.3750892649E-001 -2.5666068584E+001 
1020518795.898 +9.1858366688E-001 -2.7976182538E+001  +4.1245311038E-001 +5.8500188055E+001  +4.1165879039E-001 +5.8559106779E+001  +9.1977868267E-001 -2.7501953958E+001 
1030523793.897 +8.8736663349E-001 -2.8774291744E+001  +4.0089692478E-001 +5.7718504484E+001  +4.0049372533E-001 +5.7816581917E+001  +8.8916082468E-001 -2.8342527804E+001 
1040528791.896 +8.5876855628E-001 -2.8232617028E+001  +3.9138830605E-001 +5.8445749047E+001  +3.9143458267E-001 +5.8535657774E+001  +8.6040278411E-001 -2.7860031937E+001 
1050533789.895 +8.4452566191E-001 -2.6819272112E+001  +3.8960653427E-001 +5.9904553542E+001  +3.9003767459E-001 +5.9982789781E+001  +8.4561109684E-001 -2.6491063373E+001 
1060538787.894 +8.4717984461E-001 -2.5322571515E+001  +3.9510692137E-001 +6.1227712247E+001  +3.9577804523E-001 +6.1252623177E+001  +8.4740833665E-001 -2.5001632547E+001 
1070543785.893 +8.6252845584E-001 -2.4350948040E+001  +4.0498455443E-001 +6.2006005223E+001  +4.0579446671E-001 +6.1964513234E+001  +8.6186171585E-001 -2.4006434765E+001 
1080548783.892 +8.8411275832E-001 -2.4173250281E+001  +4.1746004177E-001 +6.2198578718E+001  +4.1782764695E-001 +6.2058647696E+001  +8.8303473040E-001 -2.3784138019E+001 
1090553781.891 +9.0591085226E-001 -2.4890170998E+001  +4.3138556602E-001 +6.1677435467E+001  +4.3088560541E-001 +6.1527379137E+001  +9.0487113830E-001 -2.4427518372E+001 
1100558779.890 +9.1994567696E-001 -2.6444110191E+001  +4.4346633261E-001 +6.0212140357E+001  +4.4231454781E-001 +6.0119789599E+001  +9.1972412911E-001 -2.5918539930E+001 
1110563777.889 +9.1823146107E-001 -2.8448596821E+001  +4.4787902023E-001 +5.8052015655E+001  +4.4654102053E-001 +5.8083431865E+001  +9.1928791798E-001 -2.7904537557E+001 
1120568775.888 +8.9774685188E-001 -3.0156976598E+001  +4.4119899634E-001 +5.6139811410E+001  +4.4026357230E-001 +5.6263347435E+001  +8.9994538396E-001 -2.9651050298E+001 
1130573773.887 +8.6677812330E-001 -3.0793852653E+001  +4.2819589364E-001 +5.5540842316E+001  +4.2794049276E-001 +5.5699947773E+001  +8.6922801333E-001 -3.0348094996E+001 
