!  2-Port S-parameters saved by WinCal
! VAR MeasName=S-Parameters (CALIBRATED_DATA) read from VNA (P5004A)
! VAR MeasDate=26/04/2024 18:43:05
! VAR NAME=Wafer2_r1_c8_smallform_log
! VAR FILENAME=Wafer2_r1_c8_smallform_log_1.S2P
! VAR DATE=26/04/2024 18:43:05
! VAR PHYS_PORTS=1,2
! VAR ObjTypeName=DATASET
! VAR IndexType=Frequency
!
# Hz S MA R 50
9000.000 +7.9781023597E-001 +1.7322159494E+001  +1.0590921175E-005 +5.4301913546E-001  +2.2144132878E-005 -1.0891297355E+002  +7.9779448522E-001 +1.7307254836E+001 
9066.037 +8.0046552012E-001 +1.7374324452E+001  +2.1544801956E-005 -3.1455275138E+001  +1.5642285131E-005 -8.0655095791E+001  +8.0022059736E-001 +1.7366910665E+001 
9132.559 +8.0262716954E-001 +1.7425117700E+001  +3.1488566056E-005 +3.0096313901E+001  +2.2596311150E-005 -7.4421485422E+001  +8.0252380838E-001 +1.7430679761E+001 
9199.568 +8.0540596339E-001 +1.7494055636E+001  +5.1939217627E-006 +1.0515600314E+002  +1.0272239159E-005 -1.4566790353E+002  +8.0543001016E-001 +1.7486321258E+001 
9267.070 +8.0804693029E-001 +1.7516603290E+001  +8.3481784588E-006 +1.2126935549E+002  +3.7130798499E-005 +1.6974064803E+002  +8.0795343517E-001 +1.7512602525E+001 
9335.066 +8.1061707997E-001 +1.7592763197E+001  +1.1602234280E-005 +1.6175179657E+002  +2.8894618882E-005 -6.3390565441E+001  +8.1033339666E-001 +1.7584369850E+001 
9403.562 +8.1320303438E-001 +1.7633649163E+001  +2.0799390270E-005 +1.0349324164E+002  +2.1837798170E-005 -1.5951034271E+002  +8.1312210095E-001 +1.7623053068E+001 
9472.560 +8.1591099265E-001 +1.7670231773E+001  +1.2180641629E-005 -1.1932304712E+001  +1.0223078813E-005 +8.1522272141E+001  +8.1573728837E-001 +1.7653980191E+001 
9542.065 +8.1871417284E-001 +1.7679226221E+001  +1.9886809246E-005 +6.1664512283E+001  +1.3495849592E-005 +1.0514929835E+002  +8.1856611666E-001 +1.7672759217E+001 
9612.079 +8.2095787643E-001 +1.7725730073E+001  +2.3880070842E-005 -9.4893457820E+000  +2.0958931470E-005 -6.7047746137E+001  +8.2097780197E-001 +1.7704108549E+001 
9682.607 +8.2371625312E-001 +1.7743693924E+001  +2.8283787908E-005 +1.0689304762E+002  +3.6096145314E-005 +1.5059354179E+002  +8.2375034091E-001 +1.7732123136E+001 
9753.653 +8.2636126573E-001 +1.7773434482E+001  +1.1697369245E-005 +4.9898657360E+001  +3.4410083228E-005 -1.6300524139E+002  +8.2619685201E-001 +1.7765920967E+001 
9825.220 +8.2876020731E-001 +1.7798223969E+001  +1.7003748395E-005 -5.7497370388E+000  +1.7714613353E-005 +6.3275964853E+001  +8.2859843561E-001 +1.7792112375E+001 
9897.312 +8.3154900313E-001 +1.7801124455E+001  +2.1756429474E-005 +3.3695668230E+001  +1.0826851952E-005 +2.9563543005E+001  +8.3149913037E-001 +1.7793630887E+001 
9969.933 +8.3406920762E-001 +1.7838289236E+001  +3.7961132697E-005 +1.1823842091E+002  +2.9759715301E-005 +1.6245793490E+002  +8.3401653156E-001 +1.7838045006E+001 
10043.087 +8.3689123630E-001 +1.7850762028E+001  +1.6751766042E-005 -1.2500006603E+002  +3.5851871981E-005 +5.8923061462E+001  +8.3679386911E-001 +1.7851708498E+001 
10116.778 +8.3940123143E-001 +1.7849891919E+001  +3.3642142293E-005 -9.3684449740E+001  +2.9949442754E-005 -1.2777877001E+002  +8.3932923480E-001 +1.7850651738E+001 
10191.009 +8.4200667546E-001 +1.7887048341E+001  +9.1980256254E-006 -1.6355990277E+002  +2.8063597548E-005 +1.3382359085E+002  +8.4185818833E-001 +1.7879257022E+001 
10265.785 +8.4503641758E-001 +1.7878463157E+001  +3.9656004296E-005 +4.6133392157E+001  +9.9091802107E-006 +9.7385164641E+001  +8.4478740956E-001 +1.7879622933E+001 
10341.110 +8.4784233581E-001 +1.7897100820E+001  +2.8775826767E-005 +7.7364005877E+001  +3.6775454955E-005 +1.5085911037E+002  +8.4776291249E-001 +1.7891908824E+001 
10416.987 +8.5061097478E-001 +1.7896830824E+001  +1.9392348578E-005 +1.5907531363E+002  +3.3278603378E-005 +8.3952633067E+001  +8.5063502265E-001 +1.7891747184E+001 
10493.421 +8.5343800851E-001 +1.7886628184E+001  +1.3719269644E-005 -9.2330683649E+001  +1.8618908813E-005 -8.5751611707E+001  +8.5343867931E-001 +1.7879522389E+001 
10570.416 +8.5613282362E-001 +1.7874470897E+001  +2.0520066433E-005 +3.1497430890E+001  +2.9522541540E-005 +7.9706893293E+001  +8.5630686852E-001 +1.7869481251E+001 
10647.976 +8.5892798191E-001 +1.7888616570E+001  +9.2687056898E-006 +4.2703317271E+001  +1.6800304864E-005 +1.7159291798E+002  +8.5894727419E-001 +1.7869566765E+001 
10726.105 +8.6213805941E-001 +1.7872702818E+001  +3.1239632695E-005 -1.2361407853E+002  +2.7812745231E-005 -4.1121100975E+000  +8.6190387696E-001 +1.7864937828E+001 
10804.808 +8.6511789629E-001 +1.7845101406E+001  +1.2899759760E-005 +1.6093994937E+002  +2.6403136784E-005 -1.0246921290E+002  +8.6484939388E-001 +1.7846428672E+001 
10884.087 +8.6806630946E-001 +1.7841792388E+001  +1.6688960242E-005 +2.8208140186E+001  +1.7377140143E-005 -1.4909650499E+002  +8.6795469059E-001 +1.7842157214E+001 
10963.949 +8.7101054946E-001 +1.7795736378E+001  +5.1652747685E-005 +9.3048572134E+001  +2.1973815727E-005 -5.4696723524E+001  +8.7108922818E-001 +1.7807006634E+001 
11044.396 +8.7405283986E-001 +1.7791235148E+001  +2.6062577170E-005 -9.8583955645E+000  +2.7439907395E-005 +1.2669358652E+002  +8.7410069860E-001 +1.7800880678E+001 
11125.434 +8.7634987865E-001 +1.7788618934E+001  +7.2087603391E-006 +1.2962034849E+002  +2.5446412841E-005 +1.1079917375E+002  +8.7646640199E-001 +1.7775892024E+001 
11207.066 +8.7905135736E-001 +1.7767960642E+001  +2.5992529665E-005 -1.4333847765E+002  +3.3236383636E-005 -3.7440388418E+001  +8.7924714295E-001 +1.7755101568E+001 
11289.298 +8.8130407473E-001 +1.7767586592E+001  +3.1145337697E-005 +1.1802894244E+002  +8.5121258436E-006 -1.7240694680E+002  +8.8135830509E-001 +1.7765281006E+001 
11372.132 +8.8415461923E-001 +1.7733519817E+001  +1.2501182390E-005 +4.9466247096E+001  +2.6090147478E-005 +2.3329003148E+001  +8.8412593575E-001 +1.7737940547E+001 
11455.575 +8.8691277998E-001 +1.7717919195E+001  +3.3112609775E-005 +4.1779809289E+001  +2.1113501615E-005 +5.5564478855E+001  +8.8678669390E-001 +1.7712767754E+001 
11539.630 +8.8943105559E-001 +1.7690250121E+001  +4.0998728677E-005 +1.2492735293E+002  +3.9166632899E-005 -4.1418745535E+000  +8.8938717708E-001 +1.7687149540E+001 
11624.301 +8.9201216370E-001 +1.7650899650E+001  +3.7016672787E-005 +1.3140578378E+002  +2.1353188014E-005 +1.7596228606E+002  +8.9201404834E-001 +1.7653249649E+001 
11709.594 +8.9451420866E-001 +1.7620001747E+001  +3.0205649156E-005 -2.0494847331E-001  +8.8157622678E-006 +8.0730366400E+001  +8.9446949849E-001 +1.7624114146E+001 
11795.512 +8.9740495287E-001 +1.7587755741E+001  +2.6010983967E-005 -1.4910085935E+002  +6.6080050335E-006 +1.0234206261E+002  +8.9734657632E-001 +1.7588226605E+001 
11882.062 +9.0000859611E-001 +1.7562082041E+001  +2.0687709889E-006 -1.7592155931E+002  +5.9026711434E-006 -1.5929357647E+002  +8.9986573967E-001 +1.7561000056E+001 
11969.246 +9.0290429311E-001 +1.7515911037E+001  +3.0116559834E-005 -2.9110989670E+000  +3.4574305944E-005 +6.2406112145E+001  +9.0294758451E-001 +1.7509483771E+001 
12057.069 +9.0536142684E-001 +1.7465388088E+001  +1.6237318172E-005 -1.2872241395E+002  +1.6874351659E-005 +1.2474245306E+002  +9.0530520850E-001 +1.7468508626E+001 
12145.538 +9.0831304659E-001 +1.7409856786E+001  +1.1962049258E-005 +9.5484486371E+001  +1.1883704741E-005 +1.5874992861E+002  +9.0809249514E-001 +1.7417852379E+001 
12234.655 +9.1095884821E-001 +1.7382266431E+001  +1.0668052425E-005 +1.2357306601E+002  +2.2277351479E-005 +4.0140275501E+001  +9.1081714180E-001 +1.7380322611E+001 
12324.426 +9.1369666896E-001 +1.7311229446E+001  +1.9050012194E-005 +1.3211624759E+002  +8.8889406908E-006 +3.9076068780E+001  +9.1375177401E-001 +1.7311953293E+001 
12414.856 +9.1636973818E-001 +1.7268862201E+001  +2.6720272936E-005 -1.7245341943E+002  +6.4577641643E-005 +1.4990044222E+002  +9.1635483001E-001 +1.7258729954E+001 
12505.949 +9.1930818532E-001 +1.7206856018E+001  +1.4888382945E-005 +2.7552855088E+001  +8.3135386458E-006 +4.6243556394E+001  +9.1927372143E-001 +1.7219807205E+001 
12597.711 +9.2137133172E-001 +1.7172687983E+001  +1.9038503055E-005 -1.6536620578E+002  +2.7281913196E-005 +2.1507023267E+001  +9.2124357813E-001 +1.7177712020E+001 
12690.146 +9.2390686024E-001 +1.7134383533E+001  +4.1782658440E-005 -3.8531172420E+001  +3.9230662404E-005 +1.7950136469E+002  +9.2398397206E-001 +1.7128113496E+001 
12783.260 +9.2644425782E-001 +1.7081779846E+001  +1.0273917840E-005 +4.9748014452E+001  +6.9247692977E-006 -6.8152803611E+000  +9.2624663483E-001 +1.7079353317E+001 
12877.056 +9.2880239540E-001 +1.7031044443E+001  +2.6605699170E-005 +9.3519527247E+001  +4.7927020843E-005 +1.6059478980E+002  +9.2876261260E-001 +1.7029171557E+001 
12971.541 +9.3136497980E-001 +1.6983866360E+001  +3.1208965218E-005 -6.8085998692E+001  +2.3567895289E-005 +1.6599990064E+002  +9.3120154874E-001 +1.6978035567E+001 
13066.719 +9.3365093893E-001 +1.6926625914E+001  +4.0182018900E-005 +1.5905633475E+002  +7.3227377678E-006 -1.2568601848E+001  +9.3321854141E-001 +1.6918364071E+001 
13162.595 +9.3588423636E-001 +1.6872627620E+001  +3.6115248935E-005 -8.6898170551E+001  +1.9209913971E-005 -1.7247961456E+002  +9.3569565963E-001 +1.6879057233E+001 
13259.175 +9.3834544890E-001 +1.6812972798E+001  +4.0287795875E-005 +4.7701643871E+001  +2.5235548291E-005 -2.1283999869E+001  +9.3816635800E-001 +1.6817726613E+001 
13356.464 +9.4072131099E-001 +1.6759152763E+001  +1.7753133621E-005 +1.4682468474E+002  +4.4625594662E-005 +4.6130556366E+001  +9.4046746024E-001 +1.6743328135E+001 
13454.466 +9.4324902077E-001 +1.6693291284E+001  +3.1840608219E-005 +1.6725617613E+002  +1.9508808593E-005 -4.6548201992E+001  +9.4297829380E-001 +1.6685792657E+001 
13553.188 +9.4541232392E-001 +1.6630697670E+001  +4.6723187948E-005 +1.7089392443E+002  +3.8914548776E-005 -1.6538135884E+002  +9.4537782833E-001 +1.6627371083E+001 
13652.634 +9.4781192126E-001 +1.6568348198E+001  +2.7901704057E-005 +3.3754695971E+001  +4.4836616043E-005 +1.0588329876E+002  +9.4777396962E-001 +1.6562303482E+001 
13752.809 +9.5037661719E-001 +1.6491329704E+001  +1.7437346351E-005 -1.4798237385E+002  +1.9562542076E-005 -1.7374865883E+002  +9.5031461865E-001 +1.6480066970E+001 
13853.720 +9.5279952968E-001 +1.6408404854E+001  +3.2286580443E-005 -1.7909680624E+002  +3.9378212943E-005 +4.3439461565E+001  +9.5281298157E-001 +1.6410529934E+001 
13955.371 +9.5539269490E-001 +1.6351900988E+001  +2.9493522702E-005 +4.6665906751E+001  +2.0152312429E-005 +1.1965069564E+002  +9.5518190909E-001 +1.6343385747E+001 
14057.768 +9.5744913405E-001 +1.6268058809E+001  +3.7589999258E-005 +1.6386750603E+002  +2.6086061916E-005 +6.8553510993E+001  +9.5745937896E-001 +1.6250465694E+001 
14160.916 +9.5998812967E-001 +1.6196520647E+001  +1.5287221017E-005 +8.6586722772E+001  +1.4952893719E-005 -1.5993539678E+002  +9.5982708048E-001 +1.6189239049E+001 
14264.821 +9.6246995133E-001 +1.6114146064E+001  +6.7572945086E-006 +3.7638037297E+001  +3.5129488422E-005 +1.3021066615E-002  +9.6234347559E-001 +1.6115353738E+001 
14369.488 +9.6449682082E-001 +1.6053235177E+001  +5.0588452597E-005 +8.7003642752E+001  +3.2682864219E-005 -1.7285601893E+002  +9.6447173231E-001 +1.6039932076E+001 
14474.924 +9.6640173886E-001 +1.5992152365E+001  +1.2662981814E-005 +6.0506053608E+001  +3.6650102458E-005 -5.8089998687E+001  +9.6619020494E-001 +1.5977525308E+001 
14581.133 +9.6848173613E-001 +1.5937512123E+001  +3.6854946665E-005 +1.1362671844E+001  +9.2371153944E-006 -1.1712731046E+002  +9.6833397549E-001 +1.5918907227E+001 
14688.121 +9.6992071257E-001 +1.5887890012E+001  +5.0515695489E-005 +9.1909996609E+001  +5.6946557985E-006 -7.1366032831E+001  +9.6991536954E-001 +1.5875136085E+001 
14795.895 +9.7192393868E-001 +1.5829547699E+001  +2.2716331976E-005 -3.4186598962E+001  +1.9723317625E-005 +7.3827948219E+001  +9.7186942100E-001 +1.5811554670E+001 
14904.459 +9.7387173933E-001 +1.5749677309E+001  +1.7021409623E-005 +1.8782912091E+001  +1.0713606281E-005 +1.8363053742E+001  +9.7358016680E-001 +1.5745139101E+001 
15013.820 +9.7575399019E-001 +1.5687204443E+001  +3.3543872358E-005 +1.4124282253E+002  +2.0255125462E-005 +4.6410446804E+000  +9.7563801008E-001 +1.5696401842E+001 
15123.983 +9.7763599112E-001 +1.5651994737E+001  +2.1026659265E-005 -1.3868371414E+002  +3.3964465744E-005 -2.3340400610E+001  +9.7754794622E-001 +1.5640655620E+001 
15234.954 +9.7953566440E-001 +1.5569288616E+001  +3.1524053153E-005 +6.8629247754E+001  +5.0894992837E-005 +1.4039054173E+002  +9.7957733366E-001 +1.5572852947E+001 
15346.740 +9.8146436628E-001 +1.5508174742E+001  +1.3340799144E-005 +9.1863162544E+001  +4.4713611921E-006 -6.7390738147E+001  +9.8136008017E-001 +1.5498762841E+001 
15459.346 +9.8327392083E-001 +1.5452427926E+001  +1.2181850001E-005 -4.1692378249E+001  +3.8220872425E-005 +2.9489896236E+001  +9.8337121901E-001 +1.5441702056E+001 
15572.778 +9.8511407487E-001 +1.5377915033E+001  +5.4069129508E-005 +4.4529527874E+001  +4.4766537319E-005 -8.9175495653E+001  +9.8494186208E-001 +1.5374321473E+001 
15687.043 +9.8701278525E-001 +1.5302666934E+001  +2.3464965961E-005 -2.9268772166E+001  +2.4136085289E-005 -1.1011240654E+002  +9.8687222800E-001 +1.5303879089E+001 
15802.146 +9.8895724817E-001 +1.5232127379E+001  +3.5748037313E-005 -1.0863433763E+002  +1.4930019288E-005 +2.9548947804E+001  +9.8881411057E-001 +1.5217172618E+001 
15918.093 +9.9066167526E-001 +1.5154783582E+001  +2.3563580877E-005 -1.0128754894E+002  +1.0740830755E-006 -5.3316406525E+001  +9.9066575087E-001 +1.5144969835E+001 
16034.892 +9.9263944794E-001 +1.5077334714E+001  +1.3855990147E-005 +1.3874968143E+002  +8.2212655801E-006 +1.7749671571E+002  +9.9247946606E-001 +1.5083343760E+001 
16152.547 +9.9438601263E-001 +1.5002700031E+001  +3.0328096347E-005 +1.6121181983E+002  +1.6232755901E-005 +1.3735097776E+002  +9.9434995112E-001 +1.5003530702E+001 
16271.065 +9.9624779462E-001 +1.4926178363E+001  +3.9653899414E-005 +4.8248199254E+001  +7.9555282115E-006 -2.2601951694E+001  +9.9618782132E-001 +1.4920291341E+001 
16390.454 +9.9807644139E-001 +1.4843852286E+001  +2.4675516372E-005 +6.0685027741E+001  +5.5914117399E-006 -1.7306605460E+002  +9.9786487136E-001 +1.4850582446E+001 
16510.718 +9.9975336132E-001 +1.4774104770E+001  +3.5023146038E-005 +1.7952053577E+002  +3.6569524178E-005 -3.1346377847E+001  +9.9965395263E-001 +1.4759486430E+001 
16631.864 +1.0016388693E+000 +1.4677957927E+001  +3.0451576045E-005 +2.9231288803E+001  +5.3718995509E-006 +1.8880720008E+001  +1.0016437005E+000 +1.4667437378E+001 
16753.900 +1.0034508909E+000 +1.4603626095E+001  +3.2426693945E-005 +9.1613377170E+000  +2.9598139322E-005 +1.1673872549E+001  +1.0034140109E+000 +1.4608893032E+001 
16876.831 +1.0051907613E+000 +1.4506561899E+001  +4.0606683430E-005 +1.9038717097E+001  +1.7589521272E-005 +1.1757817180E+002  +1.0051749203E+000 +1.4502149132E+001 
17000.664 +1.0071161363E+000 +1.4423216798E+001  +2.6458078471E-005 +1.3700769713E+002  +5.1344251123E-005 +6.4035823900E+001  +1.0071365556E+000 +1.4433842178E+001 
17125.405 +1.0088851826E+000 +1.4345921452E+001  +2.4094719051E-005 -1.2671376441E+002  +2.3324925058E-005 +3.9277319140E+000  +1.0086781333E+000 +1.4338849893E+001 
17251.062 +1.0107902834E+000 +1.4232517786E+001  +6.4562748318E-005 +1.7886448483E+002  +4.3218384757E-005 +8.9911587750E+001  +1.0105400816E+000 +1.4238662923E+001 
17377.641 +1.0124053020E+000 +1.4156374102E+001  +1.3944959466E-005 +1.5198698019E+002  +2.3408270908E-005 -9.2295983756E+001  +1.0123413638E+000 +1.4145816451E+001 
17505.149 +1.0142098002E+000 +1.4065606284E+001  +5.5573074816E-005 -1.2259202913E+002  +6.6596069729E-005 -8.1147016140E+001  +1.0141736488E+000 +1.4058339460E+001 
17633.592 +1.0158664183E+000 +1.3966209350E+001  +1.2231120040E-005 +2.6609727500E+001  +7.4005714396E-005 +8.7902637945E+001  +1.0158343077E+000 +1.3963412041E+001 
17762.977 +1.0175985483E+000 +1.3852108029E+001  +1.0786796548E-005 +5.4859306623E+001  +4.6212009094E-006 -8.3601261433E+001  +1.0175675463E+000 +1.3867029299E+001 
17893.312 +1.0192777517E+000 +1.3774562111E+001  +1.9402252175E-005 +5.6074363341E+001  +2.6813826846E-005 -1.6872512478E+002  +1.0192462082E+000 +1.3767707431E+001 
18024.604 +1.0211377973E+000 +1.3672864064E+001  +9.6554187823E-006 -3.3014528258E+001  +4.4417934938E-005 +5.6765688640E+001  +1.0213001364E+000 +1.3669021611E+001 
18156.858 +1.0228989933E+000 +1.3572270406E+001  +2.2248680027E-005 +1.3109620866E+002  +3.6305803916E-005 +1.5835706819E+002  +1.0227179597E+000 +1.3564037339E+001 
18290.084 +1.0246585459E+000 +1.3464623464E+001  +8.6181501801E-006 +1.2689791501E+002  +2.3117230074E-005 -1.6765971354E+002  +1.0244927643E+000 +1.3462076293E+001 
18424.286 +1.0262786253E+000 +1.3368928859E+001  +6.2009505133E-006 +1.8224437786E+000  +4.9842212408E-005 +1.2752026581E+002  +1.0261943011E+000 +1.3364158391E+001 
18559.473 +1.0278834690E+000 +1.3249560506E+001  +2.9873605569E-005 +1.5200339166E+002  +4.8960435001E-005 +5.8250000762E+001  +1.0280524862E+000 +1.3241704792E+001 
18695.653 +1.0297296465E+000 +1.3150847857E+001  +4.5809540418E-005 +5.3086848510E+001  +3.8396060931E-005 +4.6698589092E+001  +1.0297127690E+000 +1.3144990417E+001 
18832.831 +1.0314526080E+000 +1.3035448527E+001  +3.8671425991E-005 -1.1277499403E+002  +3.6796721931E-005 +7.0520098989E+001  +1.0314986639E+000 +1.3034109455E+001 
18971.016 +1.0330114237E+000 +1.2916495510E+001  +2.8540660933E-005 -1.1892421962E+002  +1.7667295462E-005 -3.7234575741E+000  +1.0331029107E+000 +1.2919542448E+001 
19110.215 +1.0343097919E+000 +1.2829944227E+001  +3.3578429677E-005 +4.1658167387E+001  +4.0399446193E-005 +1.1602183132E+001  +1.0341957210E+000 +1.2822208965E+001 
19250.435 +1.0354944136E+000 +1.2761988918E+001  +5.5184608481E-005 +1.2362590760E+002  +2.7933409056E-005 +7.4420435830E+001  +1.0353222315E+000 +1.2763162948E+001 
19391.685 +1.0367220427E+000 +1.2707285909E+001  +6.2732867109E-005 +1.0684129882E+002  +1.9298110695E-005 +2.2504326329E+001  +1.0365831206E+000 +1.2708699108E+001 
19533.970 +1.0376752428E+000 +1.2646283343E+001  +2.3366921180E-005 -9.5753064239E+001  +1.2611207832E-005 -1.2016046508E+002  +1.0375820954E+000 +1.2645609158E+001 
19677.300 +1.0388436810E+000 +1.2577863707E+001  +2.3850634238E-005 +1.3165949032E+002  +5.0448879643E-005 +7.2364858715E+001  +1.0388921064E+000 +1.2573439194E+001 
19821.681 +1.0399724991E+000 +1.2522309088E+001  +3.9801338574E-005 +4.3758990040E+001  +1.7545437441E-005 +1.3265724994E+002  +1.0399211201E+000 +1.2525163970E+001 
19967.122 +1.0409298197E+000 +1.2468647114E+001  +2.0356440879E-005 +1.5364590467E+002  +2.9750457895E-005 -5.7735523522E+001  +1.0408424688E+000 +1.2457564639E+001 
20113.629 +1.0419817546E+000 +1.2403695597E+001  +3.8160074669E-005 +9.5563380390E+001  +3.3412035573E-005 +7.0282585199E+001  +1.0421233839E+000 +1.2397357735E+001 
20261.212 +1.0430845118E+000 +1.2341587631E+001  +9.8461534158E-006 -1.6504286819E+002  +3.1981098029E-005 -1.4160040200E+002  +1.0429318775E+000 +1.2333042209E+001 
20409.878 +1.0444996461E+000 +1.2276426182E+001  +3.7326968867E-005 -4.1197050839E+001  +3.2743564398E-005 -8.3227009159E+001  +1.0441415527E+000 +1.2269218558E+001 
20559.634 +1.0453902538E+000 +1.2214883637E+001  +4.9715092674E-006 -5.0591873009E+001  +7.7606172973E-006 -1.7733321955E+002  +1.0453402171E+000 +1.2209718017E+001 
20710.490 +1.0464135024E+000 +1.2139885527E+001  +2.1292403670E-005 -7.7592771733E+001  +2.1473123935E-005 +8.6057790950E+001  +1.0462492388E+000 +1.2137956747E+001 
20862.452 +1.0472694193E+000 +1.2076874118E+001  +2.6508277298E-005 +9.3561025530E+001  +4.4657968035E-005 -4.3730265183E+001  +1.0471482000E+000 +1.2068317956E+001 
21015.529 +1.0484688523E+000 +1.2007082496E+001  +3.6183264218E-005 +1.4696819093E+002  +2.7099737644E-005 +1.6985756562E+002  +1.0482730516E+000 +1.2002710607E+001 
