!  2-Port S-parameters saved by WinCal
! VAR MeasName=S-Parameters (CALIBRATED_DATA) read from VNA (P5004A)
! VAR MeasDate=26/04/2024 17:49:59
! VAR NAME=Wafer2_r1_c8_pristine
! VAR FILENAME=Wafer2_r1_c8_pristine_1.S2P
! VAR DATE=26/04/2024 17:49:59
! VAR PHYS_PORTS=1,2
! VAR ObjTypeName=DATASET
! VAR IndexType=Frequency
!
# Hz S MA R 50
9000.000 +7.9707405288E-001 +1.7516719475E+001  +9.7599919210E-006 +1.7926182666E+002  +6.5848879091E-006 -1.0027256340E+002  +7.9708720885E-001 +1.7513921903E+001 
10013997.999 +9.8065175476E-001 -1.8666095550E-001  +4.6432263202E-003 +8.8815260102E+001  +4.6804155293E-003 +8.8452083904E+001  +9.8070804370E-001 -1.8273614499E-001 
20018995.998 +9.9491325446E-001 +2.0569973997E-001  +9.4029859080E-003 +8.9026523313E+001  +9.4162837988E-003 +8.8347337151E+001  +9.9480722764E-001 +2.1152333848E-001 
30023993.997 +1.0052662276E+000 -9.7934648489E-002  +1.4130811161E-002 +8.8639871693E+001  +1.4082674333E-002 +8.8037590581E+001  +1.0050363624E+000 -8.8554821243E-002 
40028991.996 +1.0130110192E+000 -8.2426670317E-001  +1.8935400926E-002 +8.7932472871E+001  +1.8827688348E-002 +8.7476897379E+001  +1.0128246159E+000 -7.9879229762E-001 
50033989.995 +1.0136511894E+000 -1.7214230112E+000  +2.3681769811E-002 +8.6995423641E+001  +2.3436559915E-002 +8.6818296037E+001  +1.0137260566E+000 -1.6969694749E+000 
60038987.994 +1.0066512082E+000 -2.5622515252E+000  +2.8142539055E-002 +8.6044275476E+001  +2.7903687261E-002 +8.6259412364E+001  +1.0067400686E+000 -2.5230508232E+000 
70043985.993 +9.9449262808E-001 -2.9534909762E+000  +3.2278305910E-002 +8.5592342457E+001  +3.2148423011E-002 +8.6134667152E+001  +9.9474885263E-001 -2.9224130063E+000 
80048983.992 +9.8452064526E-001 -2.8210728131E+000  +3.6477440781E-002 +8.5784588899E+001  +3.6556944576E-002 +8.6315442674E+001  +9.8480628617E-001 -2.8022292174E+000 
90053981.991 +9.8153197795E-001 -2.4724658403E+000  +4.0902966763E-002 +8.6068261249E+001  +4.1226013837E-002 +8.6422450983E+001  +9.8165478373E-001 -2.4663633502E+000 
100058979.990 +9.8549093714E-001 -2.1695964808E+000  +4.5562401283E-002 +8.6278588584E+001  +4.5988804192E-002 +8.6234704781E+001  +9.8537266258E-001 -2.1677743239E+000 
110063977.989 +9.9450503712E-001 -2.1088888844E+000  +5.0449700950E-002 +8.6287514307E+001  +5.0812041268E-002 +8.5852312676E+001  +9.9404682109E-001 -2.1007149911E+000 
120068975.988 +1.0060007729E+000 -2.4543073640E+000  +5.5582821690E-002 +8.5995172734E+001  +5.5651608542E-002 +8.5400955767E+001  +1.0053838098E+000 -2.4325216810E+000 
130073973.987 +1.0149652677E+000 -3.2593890950E+000  +6.0720664386E-002 +8.5163243840E+001  +6.0405471437E-002 +8.4640073860E+001  +1.0143272928E+000 -3.2072087520E+000 
140078971.986 +1.0156396410E+000 -4.3635456497E+000  +6.5469585254E-002 +8.3987543319E+001  +6.4778919309E-002 +8.3768833835E+001  +1.0152449891E+000 -4.2813365884E+000 
150083969.985 +1.0058336575E+000 -5.3435784647E+000  +6.9328754786E-002 +8.2960560185E+001  +6.8574485417E-002 +8.3013904088E+001  +1.0060026432E+000 -5.2474591515E+000 
160088967.984 +9.9016008829E-001 -5.7502770703E+000  +7.2610664732E-002 +8.2592033913E+001  +7.2040611501E-002 +8.2948792370E+001  +9.9078250185E-001 -5.6624266124E+000 
170093965.983 +9.7745021076E-001 -5.5722892334E+000  +7.6100784357E-002 +8.2808448353E+001  +7.5922958714E-002 +8.3379430518E+001  +9.7814880033E-001 -5.5062798521E+000 
180098963.982 +9.7282496641E-001 -5.0763954368E+000  +8.0244844548E-002 +8.3289853377E+001  +8.0583713525E-002 +8.3829196881E+001  +9.7344623212E-001 -5.0347218258E+000 
190103961.981 +9.7642468277E-001 -4.5947376486E+000  +8.4966124591E-002 +8.3652008036E+001  +8.5739243351E-002 +8.3914586484E+001  +9.7666156080E-001 -4.5928333147E+000 
200108959.980 +9.8671776079E-001 -4.3958996644E+000  +9.0206959341E-002 +8.3798612404E+001  +9.1103056991E-002 +8.3623092208E+001  +9.8622716823E-001 -4.3825716800E+000 
210113957.979 +9.9998768336E-001 -4.6263508262E+000  +9.5846618052E-002 +8.3562158849E+001  +9.6359196888E-002 +8.3100724035E+001  +9.9918675679E-001 -4.5920039915E+000 
220118955.978 +1.0121745384E+000 -5.3973638935E+000  +1.0160156931E-001 +8.2827067291E+001  +1.0158238988E-001 +8.2262388447E+001  +1.0110771957E+000 -5.3192831982E+000 
230123953.977 +1.0164626867E+000 -6.5997976863E+000  +1.0676772834E-001 +8.1584382249E+001  +1.0607263156E-001 +8.1130479267E+001  +1.0155332002E+000 -6.4786445003E+000 
240128951.976 +1.0081232833E+000 -7.8239672514E+000  +1.1038590578E-001 +8.0231298745E+001  +1.0925137890E-001 +8.0091892580E+001  +1.0079957783E+000 -7.6710315000E+000 
250133949.975 +9.9030322407E-001 -8.5350371120E+000  +1.1264191755E-001 +7.9527113848E+001  +1.1151867924E-001 +7.9720025998E+001  +9.9088289686E-001 -8.3774364655E+000 
260138947.974 +9.7253864102E-001 -8.4908791496E+000  +1.1491738419E-001 +7.9661473467E+001  +1.1419060170E-001 +8.0156636348E+001  +9.7382439063E-001 -8.3581222396E+000 
270143945.973 +9.6288890257E-001 -7.9170212430E+000  +1.1825966498E-001 +8.0262638172E+001  +1.1825398839E-001 +8.0855273523E+001  +9.6416649186E-001 -7.8340448618E+000 
280148943.972 +9.6348306874E-001 -7.2252149740E+000  +1.2276768522E-001 +8.0870750281E+001  +1.2356524309E-001 +8.1337758315E+001  +9.6441314284E-001 -7.1822960266E+000 
290153941.971 +9.7257608231E-001 -6.7623627165E+000  +1.2826778952E-001 +8.1206674071E+001  +1.2948408975E-001 +8.1330153770E+001  +9.7293526840E-001 -6.7442209742E+000 
300158939.970 +9.8751911735E-001 -6.7456431085E+000  +1.3438850064E-001 +8.1208999643E+001  +1.3557840691E-001 +8.0947054914E+001  +9.8698851891E-001 -6.7171172596E+000 
310163937.969 +1.0034020696E+000 -7.3181096017E+000  +1.4100909814E-001 +8.0686725427E+001  +1.4153855186E-001 +8.0170117530E+001  +1.0020789277E+000 -7.2535118950E+000 
320168935.968 +1.0132926403E+000 -8.4769085463E+000  +1.4715970685E-001 +7.9525215645E+001  +1.4684652887E-001 +7.8980179143E+001  +1.0116679316E+000 -8.3658934912E+000 
330173933.967 +1.0107200887E+000 -9.9230272141E+000  +1.5141925087E-001 +7.7976262503E+001  +1.5037670921E-001 +7.7615771840E+001  +1.0097136254E+000 -9.7452171678E+000 
340178931.966 +9.9448921382E-001 -1.1065198388E+001  +1.5323542109E-001 +7.6766398284E+001  +1.5179593529E-001 +7.6691716709E+001  +9.9440291211E-001 -1.0864673459E+001 
350183929.965 +9.7219338882E-001 -1.1413384467E+001  +1.5384960746E-001 +7.6450764980E+001  +1.5255350058E-001 +7.6700591655E+001  +9.7312899752E-001 -1.1218643764E+001 
360188927.964 +9.5531818458E-001 -1.0957817729E+001  +1.5545007993E-001 +7.7009213114E+001  +1.5474978440E-001 +7.7483917608E+001  +9.5680821037E-001 -1.0806526336E+001 
370193925.963 +9.4957944026E-001 -1.0112479702E+001  +1.5905010078E-001 +7.7827533875E+001  +1.5922264197E-001 +7.8363601295E+001  +9.5111506884E-001 -1.0019569098E+001 
380198923.962 +9.5511352107E-001 -9.3393659144E+000  +1.6434553128E-001 +7.8468392774E+001  +1.6536660868E-001 +7.8853878529E+001  +9.5604123318E-001 -9.2850184964E+000 
390203921.961 +9.6904418162E-001 -8.9554032762E+000  +1.7085434845E-001 +7.8754475442E+001  +1.7234028674E-001 +7.8800623500E+001  +9.6919722680E-001 -8.9289114537E+000 
400208919.960 +9.8729749895E-001 -9.1709888347E+000  +1.7814627367E-001 +7.8585506736E+001  +1.7946080079E-001 +7.8295889229E+001  +9.8650023036E-001 -9.1296938163E+000 
410213917.959 +1.0035114706E+000 -1.0097442837E+001  +1.8564434827E-001 +7.7689526833E+001  +1.8615094810E-001 +7.7244128633E+001  +1.0018842550E+000 -1.0002800352E+001 
420218915.958 +1.0096789340E+000 -1.1581320993E+001  +1.9162018684E-001 +7.6155151592E+001  +1.9111076601E-001 +7.5707559617E+001  +1.0079975486E+000 -1.1422649689E+001 
430223913.957 +1.0000991019E+000 -1.3138552208E+001  +1.9421818435E-001 +7.4483185727E+001  +1.9288125222E-001 +7.4209791936E+001  +9.9909048678E-001 -1.2920319318E+001 
440228911.956 +9.7752520670E-001 -1.4082005832E+001  +1.9379178072E-001 +7.3514930804E+001  +1.9215767511E-001 +7.3518315286E+001  +9.7771729938E-001 -1.3846738716E+001 
450233909.955 +9.5353898771E-001 -1.4062642307E+001  +1.9299336713E-001 +7.3647763961E+001  +1.9165646867E-001 +7.3894838928E+001  +9.5470268775E-001 -1.3841413854E+001 
460238907.954 +9.3857842983E-001 -1.3282557713E+001  +1.9436408455E-001 +7.4509177757E+001  +1.9381366531E-001 +7.4939930159E+001  +9.4024144472E-001 -1.3112113181E+001 
470243905.953 +9.3675447594E-001 -1.2263759434E+001  +1.9853552321E-001 +7.5458824034E+001  +1.9898725754E-001 +7.5887158402E+001  +9.3839965902E-001 -1.2154255583E+001 
480248903.952 +9.4665156076E-001 -1.1466554227E+001  +2.0479848242E-001 +7.6103403924E+001  +2.0612359817E-001 +7.6355454793E+001  +9.4769586136E-001 -1.1405264032E+001 
490253901.951 +9.6434871130E-001 -1.1202997683E+001  +2.1251839096E-001 +7.6297250495E+001  +2.1411902001E-001 +7.6255063018E+001  +9.6428132989E-001 -1.1151623239E+001 
500258899.950 +9.8499371791E-001 -1.1675386971E+001  +2.2116518919E-001 +7.5877774064E+001  +2.2241339139E-001 +7.5585495768E+001  +9.8374220649E-001 -1.1597584480E+001 
510263897.949 +1.0002381176E+000 -1.2929502086E+001  +2.2932566841E-001 +7.4675647382E+001  +2.2955000884E-001 +7.4252860767E+001  +9.9840823523E-001 -1.2781871196E+001 
520268895.948 +1.0015728729E+000 -1.4653957586E+001  +2.3437753207E-001 +7.2858761511E+001  +2.3363423755E-001 +7.2481954530E+001  +1.0000009700E+000 -1.4437491884E+001 
530273893.947 +9.8515211496E-001 -1.6200726888E+001  +2.3465927118E-001 +7.1214786862E+001  +2.3316803917E-001 +7.0983716828E+001  +9.8448065608E-001 -1.5932986801E+001 
540278891.946 +9.5831011246E-001 -1.6878426333E+001  +2.3194751309E-001 +7.0551055203E+001  +2.3032722079E-001 +7.0576579931E+001  +9.5876544442E-001 -1.6600589359E+001 
550283889.945 +9.3418735886E-001 -1.6506514400E+001  +2.3023647617E-001 +7.1053767574E+001  +2.2890589310E-001 +7.1291613139E+001  +9.3561785396E-001 -1.6258227233E+001 
560288887.944 +9.2222549653E-001 -1.5466528547E+001  +2.3185146142E-001 +7.2116570176E+001  +2.3130288077E-001 +7.2495432335E+001  +9.2400282022E-001 -1.5273997385E+001 
570293885.943 +9.2435753358E-001 -1.4342514600E+001  +2.3674431220E-001 +7.3105353294E+001  +2.3725366968E-001 +7.3475812997E+001  +9.2595858579E-001 -1.4211189037E+001 
580298883.942 +9.3798145878E-001 -1.3586673236E+001  +2.4403202760E-001 +7.3719257733E+001  +2.4534798354E-001 +7.3921304875E+001  +9.3873327084E-001 -1.3498294804E+001 
590303881.941 +9.5851319596E-001 -1.3480917509E+001  +2.5303984232E-001 +7.3824243387E+001  +2.5458678187E-001 +7.3757979938E+001  +9.5825976140E-001 -1.3395211539E+001 
600308879.940 +9.8007291978E-001 -1.4205171955E+001  +2.6303558524E-001 +7.3187401494E+001  +2.6402402243E-001 +7.2933846610E+001  +9.7886842329E-001 -1.4081951498E+001 
610313877.939 +9.9350142953E-001 -1.5737621576E+001  +2.7154706935E-001 +7.1644058653E+001  +2.7168297794E-001 +7.1331527511E+001  +9.9182913986E-001 -1.5548162214E+001 
620318875.938 +9.8964091030E-001 -1.7625003262E+001  +2.7506916725E-001 +6.9649305519E+001  +2.7409982973E-001 +6.9346616422E+001  +9.8819451063E-001 -1.7359091256E+001 
630323873.937 +9.6762431464E-001 -1.9075462443E+001  +2.7261421353E-001 +6.8116289140E+001  +2.7114418051E-001 +6.7978790737E+001  +9.6722341402E-001 -1.8761865818E+001 
640328871.936 +9.3818408077E-001 -1.9460500535E+001  +2.6795834031E-001 +6.7813525595E+001  +2.6632170063E-001 +6.7863096746E+001  +9.3904225587E-001 -1.9151277001E+001 
650333869.935 +9.1548660897E-001 -1.8779694018E+001  +2.6569576837E-001 +6.8617619643E+001  +2.6452167376E-001 +6.8854510091E+001  +9.1711308296E-001 -1.8513313122E+001 
660338867.934 +9.0692810855E-001 -1.7562809062E+001  +2.6782577190E-001 +6.9805755338E+001  +2.6744283779E-001 +7.0131713705E+001  +9.0867708466E-001 -1.7358833775E+001 
670343865.933 +9.1245662627E-001 -1.6410159398E+001  +2.7356394118E-001 +7.0790803668E+001  +2.7422147306E-001 +7.1101528050E+001  +9.1379951613E-001 -1.6252386537E+001 
680348863.932 +9.2884534829E-001 -1.5730137399E+001  +2.8196953492E-001 +7.1359461720E+001  +2.8331645408E-001 +7.1491030147E+001  +9.2942066237E-001 -1.5604819160E+001 
690353861.931 +9.5116086669E-001 -1.5786892837E+001  +2.9230087514E-001 +7.1342887970E+001  +2.9371348643E-001 +7.1268258027E+001  +9.5087544420E-001 -1.5661364761E+001 
700358859.930 +9.7274174395E-001 -1.6736476041E+001  +3.0338848651E-001 +7.0493406914E+001  +3.0416031754E-001 +7.0268874656E+001  +9.7157729774E-001 -1.6571358431E+001 
710363857.929 +9.8332981010E-001 -1.8483216076E+001  +3.1180115816E-001 +6.8715425808E+001  +3.1157196655E-001 +6.8452461665E+001  +9.8184857857E-001 -1.8252212315E+001 
720368855.928 +9.7449623939E-001 -2.0441825008E+001  +3.1335268414E-001 +6.6594444617E+001  +3.1243755088E-001 +6.6399829800E+001  +9.7360587863E-001 -2.0149358408E+001 
730373853.927 +9.4833931556E-001 -2.1754376532E+001  +3.0831372233E-001 +6.5221346767E+001  +3.0697483406E-001 +6.5163682818E+001  +9.4848123083E-001 -2.1433085948E+001 
740378851.926 +9.1794205467E-001 -2.1873097714E+001  +3.0188947967E-001 +6.5236126345E+001  +3.0068982168E-001 +6.5307562340E+001  +9.1894259358E-001 -2.1559881236E+001 
750383849.925 +8.9692041767E-001 -2.0938761642E+001  +2.9932221378E-001 +6.6281091138E+001  +2.9848704598E-001 +6.6469572135E+001  +8.9842146207E-001 -2.0674413286E+001 
760388847.924 +8.9138138917E-001 -1.9582692091E+001  +3.0212918029E-001 +6.7580699960E+001  +3.0202621560E-001 +6.7802019520E+001  +8.9292764574E-001 -1.9371789913E+001 
770393845.923 +9.0014330546E-001 -1.8428745511E+001  +3.0900413494E-001 +6.8544044122E+001  +3.0962193552E-001 +6.8719540561E+001  +9.0116553921E-001 -1.8257967317E+001 
780398843.922 +9.1895311996E-001 -1.7847194279E+001  +3.1860862647E-001 +6.9030264814E+001  +3.1963746205E-001 +6.9077776554E+001  +9.1903798263E-001 -1.7695366225E+001 
790403841.921 +9.4246263836E-001 -1.8086290202E+001  +3.3027133138E-001 +6.8869538233E+001  +3.3117493070E-001 +6.8776093685E+001  +9.4166713123E-001 -1.7915044021E+001 
800408839.920 +9.6277567943E-001 -1.9253942807E+001  +3.4206046058E-001 +6.7789427788E+001  +3.4234781933E-001 +6.7619585240E+001  +9.6157407608E-001 -1.9033488246E+001 
810413837.919 +9.6993660967E-001 -2.1155706745E+001  +3.4970928714E-001 +6.5825850232E+001  +3.4933192785E-001 +6.5664033954E+001  +9.6907037042E-001 -2.0870950653E+001 
820418835.918 +9.5702272426E-001 -2.3108045675E+001  +3.4907368030E-001 +6.3718423150E+001  +3.4818114077E-001 +6.3604083731E+001  +9.5672155487E-001 -2.2779836180E+001 
830423833.917 +9.2811829263E-001 -2.4254672344E+001  +3.4160748816E-001 +6.2558860058E+001  +3.4063214076E-001 +6.2525939474E+001  +9.2872353113E-001 -2.3922420107E+001 
840428831.916 +8.9776562139E-001 -2.4120835540E+001  +3.3396183766E-001 +6.2836536049E+001  +3.3304687492E-001 +6.2891267695E+001  +8.9875169091E-001 -2.3804286240E+001 
850433829.915 +8.7886052576E-001 -2.2981417872E+001  +3.3142007296E-001 +6.4057330109E+001  +3.3086127066E-001 +6.4176320894E+001  +8.8019668747E-001 -2.2710901688E+001 
860438827.914 +8.7642955881E-001 -2.1549899772E+001  +3.3498578704E-001 +6.5362749162E+001  +3.3499857832E-001 +6.5524190404E+001  +8.7750207609E-001 -2.1320489111E+001 
870443825.913 +8.8774863122E-001 -2.0428218502E+001  +3.4274466553E-001 +6.6292805012E+001  +3.4341830171E-001 +6.6396193018E+001  +8.8829898012E-001 -2.0223458111E+001 
880448823.912 +9.0810371070E-001 -1.9971137878E+001  +3.5338064493E-001 +6.6711279750E+001  +3.5432322245E-001 +6.6695989893E+001  +9.0791813028E-001 -1.9766842904E+001 
890453821.911 +9.3158990146E-001 -2.0384521954E+001  +3.6607695535E-001 +6.6429219786E+001  +3.6666991432E-001 +6.6312147245E+001  +9.3082014430E-001 -2.0137393546E+001 
900458819.910 +9.5048471296E-001 -2.1724987257E+001  +3.7858932529E-001 +6.5193679989E+001  +3.7838460707E-001 +6.5037888949E+001  +9.4955792447E-001 -2.1426783158E+001 
910463817.909 +9.5453754475E-001 -2.3712641973E+001  +3.8546092118E-001 +6.3107638863E+001  +3.8457803211E-001 +6.2994326185E+001  +9.5419114731E-001 -2.3360025764E+001 
920468815.908 +9.3820251304E-001 -2.5631188912E+001  +3.8259698645E-001 +6.1002887413E+001  +3.8157490497E-001 +6.0975881189E+001  +9.3877564397E-001 -2.5262101262E+001 
930473813.907 +9.0755934779E-001 -2.6606250458E+001  +3.7278765613E-001 +6.0033913266E+001  +3.7197851786E-001 +6.0094199522E+001  +9.0886989639E-001 -2.6250743485E+001 
940478811.906 +8.7765174314E-001 -2.6251777964E+001  +3.6395143722E-001 +6.0554833937E+001  +3.6353337156E-001 +6.0652900229E+001  +8.7916819065E-001 -2.5940543823E+001 
950483809.905 +8.6118388395E-001 -2.4955719150E+001  +3.6173962026E-001 +6.1934000528E+001  +3.6174656486E-001 +6.2040285493E+001  +8.6245183280E-001 -2.4688029348E+001 
960488807.904 +8.6129756018E-001 -2.3470825386E+001  +3.6628214760E-001 +6.3267261020E+001  +3.6670319298E-001 +6.3352146710E+001  +8.6201556324E-001 -2.3236435353E+001 
970493805.903 +8.7491866220E-001 -2.2408298380E+001  +3.7520154156E-001 +6.4144266428E+001  +3.7591563788E-001 +6.4150480414E+001  +8.7483304447E-001 -2.2167443369E+001 
980498803.902 +8.9615249291E-001 -2.2090274226E+001  +3.8692479460E-001 +6.4451910320E+001  +3.8753030133E-001 +6.4377164587E+001  +8.9557273098E-001 -2.1824591353E+001 
990503801.901 +9.1916043887E-001 -2.2658417031E+001  +4.0047841168E-001 +6.4026705150E+001  +4.0049212639E-001 +6.3897594324E+001  +9.1817493617E-001 -2.2337955888E+001 
1000508799.900 +9.3587009473E-001 -2.4123166354E+001  +4.1294855091E-001 +6.2649401187E+001  +4.1228445978E-001 +6.2541333125E+001  +9.3510291650E-001 -2.3752341445E+001 
1010513797.899 +9.3677708922E-001 -2.6142823595E+001  +4.1855733881E-001 +6.0503758763E+001  +4.1756089589E-001 +6.0474623703E+001  +9.3692905861E-001 -2.5739743362E+001 
1020518795.898 +9.1795104486E-001 -2.7976647631E+001  +4.1365035783E-001 +5.8476690665E+001  +4.1281202250E-001 +5.8533798589E+001  +9.1915051589E-001 -2.7573173394E+001 
1030523793.897 +8.8678642453E-001 -2.8773449067E+001  +4.0210195378E-001 +5.7701490231E+001  +4.0171674188E-001 +5.7804070094E+001  +8.8859207203E-001 -2.8410574568E+001 
1040528791.896 +8.5824656260E-001 -2.8237514352E+001  +3.9260008761E-001 +5.8425984063E+001  +3.9252975684E-001 +5.8517554884E+001  +8.5985885685E-001 -2.7925218302E+001 
1050533789.895 +8.4405435382E-001 -2.6821122207E+001  +3.9078852566E-001 +5.9885611592E+001  +3.9116373523E-001 +5.9955710716E+001  +8.4512448686E-001 -2.6557455676E+001 
1060538787.894 +8.4665976956E-001 -2.5321326431E+001  +3.9633265143E-001 +6.1199413834E+001  +3.9697315476E-001 +6.1234636490E+001  +8.4688640025E-001 -2.5068165346E+001 
1070543785.893 +8.6198218094E-001 -2.4351278303E+001  +4.0619534268E-001 +6.1984368171E+001  +4.0700753686E-001 +6.1939668532E+001  +8.6134717418E-001 -2.4077926069E+001 
1080548783.892 +8.8360165861E-001 -2.4177818828E+001  +4.1869453980E-001 +6.2173822318E+001  +4.1906375243E-001 +6.2040054615E+001  +8.8239875540E-001 -2.3855821778E+001 
1090553781.891 +9.0528266203E-001 -2.4898618714E+001  +4.3264431705E-001 +6.1649733132E+001  +4.3219378844E-001 +6.1498114015E+001  +9.0424266232E-001 -2.4509508261E+001 
1100558779.890 +9.1938152773E-001 -2.6441778403E+001  +4.4484684328E-001 +6.0177761591E+001  +4.4359950008E-001 +6.0094622831E+001  +9.1905730339E-001 -2.5997327535E+001 
1110563777.889 +9.1753043933E-001 -2.8450792543E+001  +4.4922409195E-001 +5.8029346556E+001  +4.4784643062E-001 +5.8058579686E+001  +9.1852385081E-001 -2.7980206392E+001 
1120568775.888 +8.9719073591E-001 -3.0157989824E+001  +4.4253874869E-001 +5.6119890514E+001  +4.4151027747E-001 +5.6234925947E+001  +8.9925002462E-001 -2.9723623821E+001 
1130573773.887 +8.6614299013E-001 -3.0792940290E+001  +4.2947605670E-001 +5.5511496818E+001  +4.2923362555E-001 +5.5673451309E+001  +8.6861200258E-001 -3.0421397204E+001 
