!  2-Port S-parameters saved by WinCal
! VAR MeasName=S-Parameters (CALIBRATED_DATA) read from VNA (P5004A)
! VAR MeasDate=26/04/2024 17:47:01
! VAR NAME=Wafer2_r1_c6_pristine
! VAR FILENAME=Wafer2_r1_c6_pristine_1.S2P
! VAR DATE=26/04/2024 17:47:02
! VAR PHYS_PORTS=1,2
! VAR ObjTypeName=DATASET
! VAR IndexType=Frequency
!
# Hz S MA R 50
9000.000 +7.9702634926E-001 +1.7518310675E+001  +2.2290562238E-005 +1.1977616675E+002  +1.6138033811E-005 +1.7687392284E+002  +7.9695793907E-001 +1.7508933866E+001 
10013997.999 +9.8061883122E-001 -1.8193783911E-001  +4.5455069142E-003 +8.8846025377E+001  +4.5827704888E-003 +8.8527773776E+001  +9.8061845700E-001 -1.7942172287E-001 
20018995.998 +9.9488185647E-001 +2.1798495289E-001  +9.2198397536E-003 +8.8954039435E+001  +9.2303402547E-003 +8.8321542047E+001  +9.9472391186E-001 +2.2258233304E-001 
30023993.997 +1.0051936137E+000 -8.9070970588E-002  +1.3885134944E-002 +8.8638658820E+001  +1.3809954130E-002 +8.8104555271E+001  +1.0049901969E+000 -7.2801711204E-002 
40028991.996 +1.0129561687E+000 -7.9851996458E-001  +1.8560535689E-002 +8.7875906273E+001  +1.8434286039E-002 +8.7594786102E+001  +1.0127222287E+000 -7.7182469131E-001 
50033989.995 +1.0136408355E+000 -1.6995676828E+000  +2.3163698569E-002 +8.6952054030E+001  +2.2916702616E-002 +8.7009645698E+001  +1.0136129055E+000 -1.6718063491E+000 
60038987.994 +1.0066647807E+000 -2.5289089045E+000  +2.7559591679E-002 +8.6007949291E+001  +2.7293892574E-002 +8.6397132662E+001  +1.0066932118E+000 -2.4936449229E+000 
70043985.993 +9.9449849762E-001 -2.9141302872E+000  +3.1643192586E-002 +8.5693355102E+001  +3.1488860228E-002 +8.6164068786E+001  +9.9473276443E-001 -2.8848960315E+000 
80048983.992 +9.8447288119E-001 -2.7788639732E+000  +3.5716886932E-002 +8.5934844921E+001  +3.5820726003E-002 +8.6403434866E+001  +9.8477589029E-001 -2.7581626481E+000 
90053981.991 +9.8151437984E-001 -2.4277026634E+000  +4.0067082335E-002 +8.6166438418E+001  +4.0396839434E-002 +8.6526421378E+001  +9.8166870211E-001 -2.4192924311E+000 
100058979.990 +9.8550731234E-001 -2.1166409370E+000  +4.4637224476E-002 +8.6362759346E+001  +4.5060430790E-002 +8.6355691568E+001  +9.8535075977E-001 -2.1146952858E+000 
110063977.989 +9.9456860491E-001 -2.0502938002E+000  +4.9481720984E-002 +8.6432568200E+001  +4.9777345843E-002 +8.5985068473E+001  +9.9412900079E-001 -2.0436951396E+000 
120068975.988 +1.0061263513E+000 -2.3899678758E+000  +5.4466613054E-002 +8.6083987527E+001  +5.4509211621E-002 +8.5481130725E+001  +1.0055487638E+000 -2.3659122177E+000 
130073973.987 +1.0150188686E+000 -3.1899957044E+000  +5.9467868950E-002 +8.5316799478E+001  +5.9199836300E-002 +8.4762239093E+001  +1.0144621696E+000 -3.1358537029E+000 
140078971.986 +1.0158215348E+000 -4.2859203566E+000  +6.4079403116E-002 +8.4128324977E+001  +6.3501729338E-002 +8.3879360471E+001  +1.0154094966E+000 -4.2085591407E+000 
150083969.985 +1.0061198906E+000 -5.2609082819E+000  +6.7932912789E-002 +8.3115180588E+001  +6.7155708545E-002 +8.3145067563E+001  +1.0062482633E+000 -5.1680235031E+000 
160088967.984 +9.9037464145E-001 -5.6670947885E+000  +7.1118737302E-002 +8.2677520659E+001  +7.0568174880E-002 +8.3095406038E+001  +9.9097115134E-001 -5.5887959656E+000 
170093965.983 +9.7769772851E-001 -5.4847308763E+000  +7.4552922219E-002 +8.2968954708E+001  +7.4360913998E-002 +8.3549198682E+001  +9.7839873019E-001 -5.4197086049E+000 
180098963.982 +9.7300387374E-001 -4.9830285945E+000  +7.8601477006E-002 +8.3441225791E+001  +7.8953559759E-002 +8.3968523773E+001  +9.7370021149E-001 -4.9481183498E+000 
190103961.981 +9.7668308448E-001 -4.4997963835E+000  +8.3281555383E-002 +8.3834961842E+001  +8.4054209179E-002 +8.4071242028E+001  +9.7693867064E-001 -4.4910462014E+000 
200108959.980 +9.8697211252E-001 -4.2928846806E+000  +8.8402412342E-002 +8.3959423879E+001  +8.9268036218E-002 +8.3790193830E+001  +9.8649614529E-001 -4.2794055006E+000 
210113957.979 +1.0003042019E+000 -4.5135286318E+000  +9.3910687568E-002 +8.3772405335E+001  +9.4454563325E-002 +8.3283210711E+001  +9.9956242696E-001 -4.4828894206E+000 
220118955.978 +1.0125855789E+000 -5.2809275841E+000  +9.9589667844E-002 +8.3050810769E+001  +9.9503369662E-002 +8.2436002957E+001  +1.0114688503E+000 -5.2091243558E+000 
230123953.977 +1.0168501439E+000 -6.4783335225E+000  +1.0460790810E-001 +8.1792374908E+001  +1.0395071043E-001 +8.1314929581E+001  +1.0159031018E+000 -6.3617679352E+000 
240128951.976 +1.0086688069E+000 -7.6979845256E+000  +1.0819433248E-001 +8.0469747084E+001  +1.0709649617E-001 +8.0287646702E+001  +1.0084439980E+000 -7.5485525914E+000 
250133949.975 +9.9087516793E-001 -8.4090224818E+000  +1.1045426970E-001 +7.9740540558E+001  +1.0929267563E-001 +7.9934681296E+001  +9.9139397057E-001 -8.2511295068E+000 
260138947.974 +9.7312444421E-001 -8.3563734724E+000  +1.1264273263E-001 +7.9867428399E+001  +1.1192713617E-001 +8.0371274597E+001  +9.7429876062E-001 -8.2359449114E+000 
270143945.973 +9.6342236622E-001 -7.7814974153E+000  +1.1590930898E-001 +8.0504596654E+001  +1.1589195114E-001 +8.1097856392E+001  +9.6469835775E-001 -7.7030969006E+000 
280148943.972 +9.6395424650E-001 -7.0896483890E+000  +1.2034122622E-001 +8.1107372031E+001  +1.2110531860E-001 +8.1578021070E+001  +9.6494036377E-001 -7.0483742188E+000 
290153941.971 +9.7312976007E-001 -6.6134589919E+000  +1.2572019872E-001 +8.1468621226E+001  +1.2693441624E-001 +8.1581297067E+001  +9.7348375378E-001 -6.6018895469E+000 
300158939.970 +9.8817806538E-001 -6.5875023008E+000  +1.3177417662E-001 +8.1455527073E+001  +1.3290517704E-001 +8.1192695605E+001  +9.8759105533E-001 -6.5710124866E+000 
310163937.969 +1.0040734207E+000 -7.1585074944E+000  +1.3823687015E-001 +8.0950466398E+001  +1.3875636694E-001 +8.0444142663E+001  +1.0027478514E+000 -7.0961428637E+000 
320168935.968 +1.0140387949E+000 -8.3135386833E+000  +1.4425140132E-001 +7.9796040084E+001  +1.4395977079E-001 +7.9268731603E+001  +1.0124738500E+000 -8.2022345092E+000 
330173933.967 +1.0116275149E+000 -9.7577020704E+000  +1.4847843139E-001 +7.8252277199E+001  +1.4745562030E-001 +7.7885274564E+001  +1.0104923407E+000 -9.5816953272E+000 
340178931.966 +9.9537402468E-001 -1.0896963002E+001  +1.5026353643E-001 +7.7055087167E+001  +1.4883500704E-001 +7.6935801216E+001  +9.9533767018E-001 -1.0702203693E+001 
350183929.965 +9.7312100790E-001 -1.1242780820E+001  +1.5087401448E-001 +7.6738570029E+001  +1.4955947115E-001 +7.6967315641E+001  +9.7413236063E-001 -1.1053793335E+001 
360188927.964 +9.5610450620E-001 -1.0782537536E+001  +1.5246792369E-001 +7.7305990815E+001  +1.5172791149E-001 +7.7762859665E+001  +9.5770909590E-001 -1.0639179335E+001 
370193925.963 +9.5045957848E-001 -9.9342775310E+000  +1.5594271102E-001 +7.8134998550E+001  +1.5610554563E-001 +7.8668316005E+001  +9.5204476034E-001 -9.8452892169E+000 
380198923.962 +9.5597152910E-001 -9.1593184334E+000  +1.6116223276E-001 +7.8777780280E+001  +1.6215368320E-001 +7.9153392490E+001  +9.5700516178E-001 -9.1047567379E+000 
390203921.961 +9.7000221578E-001 -8.7615100479E+000  +1.6749714365E-001 +7.9080873353E+001  +1.6899480935E-001 +7.9120175328E+001  +9.7013567523E-001 -8.7439969401E+000 
400208919.960 +9.8831166873E-001 -8.9776462174E+000  +1.7472429218E-001 +7.8893251156E+001  +1.7596502058E-001 +7.8625861717E+001  +9.8759377824E-001 -8.9345616041E+000 
410213917.959 +1.0047152203E+000 -9.8930037218E+000  +1.8212241835E-001 +7.8028715416E+001  +1.8255378789E-001 +7.7575892774E+001  +1.0030862696E+000 -9.8034919471E+000 
420218915.958 +1.0109229202E+000 -1.1369451823E+001  +1.8795871287E-001 +7.6522077421E+001  +1.8747414601E-001 +7.6054483640E+001  +1.0093363142E+000 -1.1222201520E+001 
430223913.957 +1.0016033842E+000 -1.2927271485E+001  +1.9057712877E-001 +7.4841472306E+001  +1.8922620051E-001 +7.4568977410E+001  +1.0005331402E+000 -1.2718982305E+001 
440228911.956 +9.7899918637E-001 -1.3875358420E+001  +1.9008470567E-001 +7.3852868884E+001  +1.8857239508E-001 +7.3848974492E+001  +9.7917712812E-001 -1.3644991494E+001 
450233909.955 +9.5496256707E-001 -1.3850730171E+001  +1.8935855499E-001 +7.3997756082E+001  +1.8803919737E-001 +7.4239684151E+001  +9.5611783369E-001 -1.3642315151E+001 
460238907.954 +9.3996251723E-001 -1.3073819396E+001  +1.9070798874E-001 +7.4857448723E+001  +1.9016476071E-001 +7.5296663521E+001  +9.4159112071E-001 -1.2909406261E+001 
470243905.953 +9.3810256846E-001 -1.2052781537E+001  +1.9482102810E-001 +7.5819740983E+001  +1.9523602298E-001 +7.6254203331E+001  +9.3970329762E-001 -1.1944548880E+001 
480248903.952 +9.4804020878E-001 -1.1245532724E+001  +2.0094593845E-001 +7.6478630847E+001  +2.0222593281E-001 +7.6733018648E+001  +9.4895755901E-001 -1.1189406708E+001 
490253901.951 +9.6592115789E-001 -1.0976160748E+001  +2.0854411045E-001 +7.6672614267E+001  +2.1011497569E-001 +7.6646675338E+001  +9.6564254621E-001 -1.0926496250E+001 
500258899.950 +9.8656550439E-001 -1.1439032980E+001  +2.1701787392E-001 +7.6271468093E+001  +2.1824548961E-001 +7.5978445797E+001  +9.8529942306E-001 -1.1362400178E+001 
510263897.949 +1.0020847627E+000 -1.2682728189E+001  +2.2506249505E-001 +7.5073450606E+001  +2.2540050986E-001 +7.4662772585E+001  +1.0002328339E+000 -1.2546210388E+001 
520268895.948 +1.0036035825E+000 -1.4408051473E+001  +2.3011218134E-001 +7.3269090211E+001  +2.2936034932E-001 +7.2895600095E+001  +1.0018922201E+000 -1.4198905368E+001 
530273893.947 +9.8717583596E-001 -1.5961939993E+001  +2.3035249807E-001 +7.1609427129E+001  +2.2888948785E-001 +7.1396884051E+001  +9.8652022603E-001 -1.5695850328E+001 
540278891.946 +9.6031984861E-001 -1.6639724154E+001  +2.2774052257E-001 +7.0955901902E+001  +2.2613115088E-001 +7.0974955207E+001  +9.6080893891E-001 -1.6368177912E+001 
550283889.945 +9.3615323685E-001 -1.6265366640E+001  +2.2603858781E-001 +7.1463283426E+001  +2.2478572287E-001 +7.1705637206E+001  +9.3755319200E-001 -1.6026765157E+001 
560288887.944 +9.2413700086E-001 -1.5222889683E+001  +2.2760779494E-001 +7.2533823182E+001  +2.2709960759E-001 +7.2902868163E+001  +9.2585575739E-001 -1.5043182523E+001 
570293885.943 +9.2621366791E-001 -1.4097144835E+001  +2.3245137224E-001 +7.3534654293E+001  +2.3290316083E-001 +7.3898189654E+001  +9.2783928070E-001 -1.3968801755E+001 
580298883.942 +9.3974770074E-001 -1.3326652672E+001  +2.3957241086E-001 +7.4158697064E+001  +2.4094701896E-001 +7.4349440257E+001  +9.4064928256E-001 -1.3248884725E+001 
590303881.941 +9.6051893156E-001 -1.3218111562E+001  +2.4847384814E-001 +7.4270211470E+001  +2.5002124874E-001 +7.4210196704E+001  +9.6028140596E-001 -1.3132054218E+001 
600308879.940 +9.8229276477E-001 -1.3930033975E+001  +2.5829610157E-001 +7.3650626227E+001  +2.5929976625E-001 +7.3391579096E+001  +9.8119313162E-001 -1.3812187306E+001 
610313877.939 +9.9589162716E-001 -1.5455321153E+001  +2.6672271785E-001 +7.2129177116E+001  +2.6684953983E-001 +7.1784881254E+001  +9.9435096323E-001 -1.5278862783E+001 
620318875.938 +9.9223423356E-001 -1.7342949776E+001  +2.7022521052E-001 +7.0132666500E+001  +2.6930013010E-001 +6.9823522044E+001  +9.9087175564E-001 -1.7092408538E+001 
630323873.937 +9.7029549416E-001 -1.8799170153E+001  +2.6788477637E-001 +6.8583140631E+001  +2.6643892805E-001 +6.8434337051E+001  +9.6989489057E-001 -1.8504943718E+001 
640328871.936 +9.4081260214E-001 -1.9190161205E+001  +2.6328490536E-001 +6.8278943859E+001  +2.6168937882E-001 +6.8328093986E+001  +9.4164228444E-001 -1.8896799409E+001 
650333869.935 +9.1803878458E-001 -1.8513594071E+001  +2.6112733893E-001 +6.9080377204E+001  +2.5987095119E-001 +6.9319255819E+001  +9.1954984697E-001 -1.8256501984E+001 
660338867.934 +9.0928287086E-001 -1.7291630597E+001  +2.6308842257E-001 +7.0280374665E+001  +2.6276399628E-001 +7.0607725579E+001  +9.1102903770E-001 -1.7097321492E+001 
670343865.933 +9.1479708778E-001 -1.6128321940E+001  +2.6876015387E-001 +7.1283764931E+001  +2.6937296642E-001 +7.1572533192E+001  +9.1614036457E-001 -1.5983885341E+001 
680348863.932 +9.3122333465E-001 -1.5438117821E+001  +2.7700942531E-001 +7.1865608937E+001  +2.7839608904E-001 +7.1987482358E+001  +9.3194677193E-001 -1.5323019168E+001 
690353861.931 +9.5375929257E-001 -1.5486569609E+001  +2.8724238391E-001 +7.1849494998E+001  +2.8861231253E-001 +7.1770729199E+001  +9.5351068420E-001 -1.5369877915E+001 
700358859.930 +9.7561237136E-001 -1.6430486361E+001  +2.9823444139E-001 +7.1024215038E+001  +2.9901705977E-001 +7.0785325857E+001  +9.7460777612E-001 -1.6275402564E+001 
710363857.929 +9.8638265504E-001 -1.8174227490E+001  +3.0655799127E-001 +6.9242542310E+001  +3.0638064076E-001 +6.8972836661E+001  +9.8515635075E-001 -1.7954940422E+001 
720368855.928 +9.7788686052E-001 -2.0139899679E+001  +3.0815774082E-001 +6.7126052177E+001  +3.0720156565E-001 +6.6935896496E+001  +9.7695684961E-001 -1.9861140523E+001 
730373853.927 +9.5171369062E-001 -2.1460263839E+001  +3.0322395446E-001 +6.5741407385E+001  +3.0192543237E-001 +6.5671586123E+001  +9.5176708840E-001 -2.1150465498E+001 
740378851.926 +9.2108226598E-001 -2.1587501347E+001  +2.9692163303E-001 +6.5750143622E+001  +2.9569697586E-001 +6.5819676339E+001  +9.2209256882E-001 -2.1282481883E+001 
750383849.925 +8.9998317841E-001 -2.0653056756E+001  +2.9433470857E-001 +6.6800476332E+001  +2.9354923320E-001 +6.6985767421E+001  +9.0141885980E-001 -2.0395605238E+001 
760388847.924 +8.9430978936E-001 -1.9290955766E+001  +2.9704668995E-001 +6.8097132194E+001  +2.9697622556E-001 +6.8323494172E+001  +8.9584737919E-001 -1.9090908097E+001 
770393845.923 +9.0305751036E-001 -1.8119065886E+001  +3.0383553351E-001 +6.9083441596E+001  +3.0449133504E-001 +6.9259672668E+001  +9.0409606190E-001 -1.7967304875E+001 
780398843.922 +9.2190580524E-001 -1.7532595043E+001  +3.1332175991E-001 +6.9579913960E+001  +3.1437163998E-001 +6.9623277285E+001  +9.2219088441E-001 -1.7392882580E+001 
790403841.921 +9.4566883102E-001 -1.7760903542E+001  +3.2481218770E-001 +6.9430375357E+001  +3.2573149677E-001 +6.9337201535E+001  +9.4501910915E-001 -1.7600915456E+001 
800408839.920 +9.6634857544E-001 -1.8921483379E+001  +3.3651671542E-001 +6.8371423362E+001  +3.3680561158E-001 +6.8195763358E+001  +9.6527251214E-001 -1.8709683737E+001 
810413837.919 +9.7398818095E-001 -2.0826040215E+001  +3.4418529985E-001 +6.6404000038E+001  +3.4378969934E-001 +6.6228114281E+001  +9.7302170521E-001 -2.0554314976E+001 
820418835.918 +9.6104557069E-001 -2.2789125909E+001  +3.4356980935E-001 +6.4286674042E+001  +3.4275386102E-001 +6.4172220007E+001  +9.6078933576E-001 -2.2474296765E+001 
830423833.917 +9.3204585428E-001 -2.3946111036E+001  +3.3627507050E-001 +6.3114960554E+001  +3.3532674518E-001 +6.3092022386E+001  +9.3263293599E-001 -2.3621596144E+001 
840428831.916 +9.0153642076E-001 -2.3814950684E+001  +3.2871431340E-001 +6.3398675835E+001  +3.2786767616E-001 +6.3449177328E+001  +9.0252113082E-001 -2.3514285819E+001 
850433829.915 +8.8249757568E-001 -2.2676130153E+001  +3.2617567389E-001 +6.4618006765E+001  +3.2558430075E-001 +6.4737730048E+001  +8.8377729235E-001 -2.2416859824E+001 
860438827.914 +8.7995574088E-001 -2.1238149508E+001  +3.2968398563E-001 +6.5934368511E+001  +3.2967374655E-001 +6.6092838522E+001  +8.8099601024E-001 -2.1018383096E+001 
870443825.913 +8.9135339450E-001 -2.0103921565E+001  +3.3732879959E-001 +6.6885557589E+001  +3.3797341901E-001 +6.6985730166E+001  +8.9185950477E-001 -1.9909847957E+001 
880448823.912 +9.1176180640E-001 -1.9638070995E+001  +3.4780379605E-001 +6.7310605755E+001  +3.4879654385E-001 +6.7307025420E+001  +9.1165984069E-001 -1.9438196910E+001 
890453821.911 +9.3567706143E-001 -2.0043063449E+001  +3.6038200710E-001 +6.7047565441E+001  +3.6104273647E-001 +6.6925572279E+001  +9.3490854003E-001 -1.9807092003E+001 
900458819.910 +9.5495526011E-001 -2.1370794069E+001  +3.7281896330E-001 +6.5821248093E+001  +3.7272382810E-001 +6.5660395620E+001  +9.5404087717E-001 -2.1086861786E+001 
910463817.909 +9.5936966611E-001 -2.3369429124E+001  +3.7971327189E-001 +6.3726693182E+001  +3.7889625321E-001 +6.3609503353E+001  +9.5900009518E-001 -2.3035849380E+001 
920468815.908 +9.4305932584E-001 -2.5297497969E+001  +3.7698061074E-001 +6.1608481666E+001  +3.7598564911E-001 +6.1592590167E+001  +9.4349433102E-001 -2.4947323112E+001 
930473813.907 +9.1221962721E-001 -2.6288317932E+001  +3.6730920204E-001 +6.0628564606E+001  +3.6649320920E-001 +6.0687920843E+001  +9.1348783094E-001 -2.5946683652E+001 
940478811.906 +8.8208371961E-001 -2.5938156271E+001  +3.5855277665E-001 +6.1155980089E+001  +3.5813934141E-001 +6.1245850787E+001  +8.8354841868E-001 -2.5642581547E+001 
950483809.905 +8.6540224205E-001 -2.4637984034E+001  +3.5633879468E-001 +6.2534109412E+001  +3.5633891816E-001 +6.2641861411E+001  +8.6662235934E-001 -2.4387440107E+001 
960488807.904 +8.6542565474E-001 -2.3146652290E+001  +3.6078081267E-001 +6.3881352064E+001  +3.6120350901E-001 +6.3967348056E+001  +8.6609245476E-001 -2.2924583570E+001 
970493805.903 +8.7902646698E-001 -2.2066893379E+001  +3.6951939339E-001 +6.4777568411E+001  +3.7026489402E-001 +6.4784377050E+001  +8.7898553981E-001 -2.1846746334E+001 
980498803.902 +9.0049037889E-001 -2.1736856483E+001  +3.8115298850E-001 +6.5097091629E+001  +3.8182185753E-001 +6.5019295623E+001  +8.9988559986E-001 -2.1484836494E+001 
990503801.901 +9.2388542580E-001 -2.2300205826E+001  +3.9464521838E-001 +6.4682348144E+001  +3.9469436773E-001 +6.4544215284E+001  +9.2286134074E-001 -2.1992337605E+001 
1000508799.900 +9.4095646274E-001 -2.3764499912E+001  +4.0706233411E-001 +6.3307783943E+001  +4.0642725883E-001 +6.3203160786E+001  +9.4020770061E-001 -2.3400563174E+001 
1010513797.899 +9.4228167751E-001 -2.5794306287E+001  +4.1273476055E-001 +6.1149667215E+001  +4.1178065386E-001 +6.1122376025E+001  +9.4237163027E-001 -2.5399884897E+001 
1020518795.898 +9.2346339481E-001 -2.7642255393E+001  +4.0801047135E-001 +5.9118383912E+001  +4.0714430752E-001 +5.9165713319E+001  +9.2451464831E-001 -2.7247926812E+001 
1030523793.897 +8.9204385730E-001 -2.8448647505E+001  +3.9657259092E-001 +5.8333791564E+001  +3.9616557130E-001 +5.8428831250E+001  +8.9376892558E-001 -2.8099059434E+001 
1040528791.896 +8.6320797668E-001 -2.7915892543E+001  +3.8710997395E-001 +5.9050328039E+001  +3.8710716329E-001 +5.9143161769E+001  +8.6470103233E-001 -2.7622325592E+001 
1050533789.895 +8.4875397376E-001 -2.6496992970E+001  +3.8525218269E-001 +6.0520169707E+001  +3.8564756422E-001 +6.0593417612E+001  +8.4974558996E-001 -2.6247877603E+001 
1060538787.894 +8.5132198817E-001 -2.4990986097E+001  +3.9073546033E-001 +6.1852627518E+001  +3.9137538217E-001 +6.1879924419E+001  +8.5155108745E-001 -2.4750590111E+001 
1070543785.893 +8.6672200357E-001 -2.3999205691E+001  +4.0047922628E-001 +6.2651404145E+001  +4.0134491686E-001 +6.2597377758E+001  +8.6617246625E-001 -2.3748004254E+001 
1080548783.892 +8.8866686486E-001 -2.3817738478E+001  +4.1290894262E-001 +6.2848159274E+001  +4.1331596105E-001 +6.2719848330E+001  +8.8750286716E-001 -2.3508781367E+001 
1090553781.891 +9.1078149747E-001 -2.4527184945E+001  +4.2679708738E-001 +6.2338570292E+001  +4.2631315659E-001 +6.2177140370E+001  +9.0968810914E-001 -2.4154224716E+001 
1100558779.890 +9.2518339546E-001 -2.6075317420E+001  +4.3889274841E-001 +6.0878495423E+001  +4.3776998539E-001 +6.0787450381E+001  +9.2492761707E-001 -2.5648007899E+001 
1110563777.889 +9.2359806586E-001 -2.8092591430E+001  +4.4346884704E-001 +5.8714978868E+001  +4.4208631175E-001 +5.8734559494E+001  +9.2464965793E-001 -2.7649941239E+001 
1120568775.888 +9.0318206030E-001 -2.9818675064E+001  +4.3685152973E-001 +5.6785572543E+001  +4.3589135753E-001 +5.6900819490E+001  +9.0521772375E-001 -2.9403236385E+001 
1130573773.887 +8.7190516458E-001 -3.0468684835E+001  +4.2390806306E-001 +5.6171956395E+001  +4.2362733180E-001 +5.6330219666E+001  +8.7427874042E-001 -3.0112983492E+001 
