!  2-Port S-parameters saved by WinCal
! VAR MeasName=S-Parameters (CALIBRATED_DATA) read from VNA (P5004A)
! VAR MeasDate=26/04/2024 17:42:32
! VAR NAME=Wafer2_r1_c2_pristine 2
! VAR FILENAME=Wafer2_r1_c2_pristine 2_1.S2P
! VAR DATE=26/04/2024 17:42:32
! VAR PHYS_PORTS=1,2
! VAR ObjTypeName=DATASET
! VAR IndexType=Frequency
!
# Hz S MA R 50
9000.000 +7.9715664411E-001 +1.7512838932E+001  +1.0061969862E-005 +1.3453074093E+002  +1.2314051268E-005 -1.5829654297E+002  +7.9704941321E-001 +1.7514424333E+001 
10013997.999 +9.8060052897E-001 -1.9253204916E-001  +4.6886937341E-003 +8.8863681353E+001  +4.7309330487E-003 +8.8535775919E+001  +9.8057529357E-001 -1.9005205100E-001 
20018995.998 +9.9492420205E-001 +2.0248976874E-001  +9.4926187630E-003 +8.8908994428E+001  +9.5250488938E-003 +8.8251431540E+001  +9.9467338395E-001 +2.0345583131E-001 
30023993.997 +1.0052076229E+000 -1.1058890753E-001  +1.4320503854E-002 +8.8697677345E+001  +1.4230294321E-002 +8.7961030377E+001  +1.0049588435E+000 -9.5842397594E-002 
40028991.996 +1.0129212369E+000 -8.3725577318E-001  +1.9143489035E-002 +8.7876410034E+001  +1.9009860162E-002 +8.7517401829E+001  +1.0126633155E+000 -8.0315651792E-001 
50033989.995 +1.0135701261E+000 -1.7451057217E+000  +2.3906916395E-002 +8.6820189814E+001  +2.3648117226E-002 +8.6949815189E+001  +1.0136310446E+000 -1.7072531956E+000 
60038987.994 +1.0065926574E+000 -2.5851192320E+000  +2.8385788615E-002 +8.5995176121E+001  +2.8142227596E-002 +8.6338692588E+001  +1.0067103411E+000 -2.5435994449E+000 
70043985.993 +9.9442538659E-001 -2.9803213098E+000  +3.2674558757E-002 +8.5624356376E+001  +3.2506402676E-002 +8.6150885504E+001  +9.9474126635E-001 -2.9428721465E+000 
80048983.992 +9.8450770679E-001 -2.8513014816E+000  +3.6863379038E-002 +8.5752943489E+001  +3.6942164380E-002 +8.6304229366E+001  +9.8481462495E-001 -2.8196762288E+000 
90053981.991 +9.8150503846E-001 -2.5067054618E+000  +4.1351940168E-002 +8.6098888121E+001  +4.1658267157E-002 +8.6442872671E+001  +9.8164094881E-001 -2.4877032172E+000 
100058979.990 +9.8549520179E-001 -2.2022580084E+000  +4.6022675887E-002 +8.6264289242E+001  +4.6446563201E-002 +8.6190699669E+001  +9.8529402112E-001 -2.1963186928E+000 
110063977.989 +9.9457360885E-001 -2.1430132861E+000  +5.0996544077E-002 +8.6289063048E+001  +5.1318419766E-002 +8.5850016960E+001  +9.9402523767E-001 -2.1303236849E+000 
120068975.988 +1.0059701702E+000 -2.4937121574E+000  +5.6190400283E-002 +8.5915341276E+001  +5.6224852202E-002 +8.5351486708E+001  +1.0053309236E+000 -2.4600204008E+000 
130073973.987 +1.0148781798E+000 -3.3037875665E+000  +6.1362382014E-002 +8.5163601013E+001  +6.1045530670E-002 +8.4609901910E+001  +1.0143191412E+000 -3.2397486494E+000 
140078971.986 +1.0155318296E+000 -4.4126170350E+000  +6.6085852626E-002 +8.3974605985E+001  +6.5466177184E-002 +8.3708493686E+001  +1.0151887396E+000 -4.3188851240E+000 
150083969.985 +1.0057827603E+000 -5.3952413560E+000  +7.0038476816E-002 +8.2925028311E+001  +6.9311352014E-002 +8.3011509708E+001  +1.0059223376E+000 -5.2891789174E+000 
160088967.984 +9.8999992268E-001 -5.8099920584E+000  +7.3358453459E-002 +8.2495542371E+001  +7.2783897377E-002 +8.2921343015E+001  +9.9068409022E-001 -5.7063823460E+000 
170093965.983 +9.7732891774E-001 -5.6333359941E+000  +7.6840520419E-002 +8.2749197252E+001  +7.6665128038E-002 +8.3340616922E+001  +9.7818590545E-001 -5.5530052026E+000 
180098963.982 +9.7276401616E-001 -5.1369947118E+000  +8.1037325244E-002 +8.3253642891E+001  +8.1376059379E-002 +8.3788450839E+001  +9.7331873697E-001 -5.0889344050E+000 
190103961.981 +9.7639925258E-001 -4.6621267405E+000  +8.5841647756E-002 +8.3619651203E+001  +8.6636743088E-002 +8.3854570768E+001  +9.7664865404E-001 -4.6417080675E+000 
200108959.980 +9.8662587146E-001 -4.4591606940E+000  +9.1073279909E-002 +8.3751055921E+001  +9.2000792805E-002 +8.3578440707E+001  +9.8615496307E-001 -4.4378359962E+000 
210113957.979 +9.9995549003E-001 -4.6941389804E+000  +9.6815909566E-002 +8.3519759464E+001  +9.7382070578E-002 +8.3040421148E+001  +9.9915322263E-001 -4.6502188684E+000 
220118955.978 +1.0120797269E+000 -5.4673090954E+000  +1.0265296558E-001 +8.2815166901E+001  +1.0260262821E-001 +8.2205142540E+001  +1.0109557196E+000 -5.3775854151E+000 
230123953.977 +1.0163701429E+000 -6.6735179474E+000  +1.0783866556E-001 +8.1552523956E+001  +1.0718197930E-001 +8.1074916288E+001  +1.0153173470E+000 -6.5427695814E+000 
240128951.976 +1.0080345459E+000 -7.9010654622E+000  +1.1152312036E-001 +8.0194520657E+001  +1.1036573834E-001 +8.0019636089E+001  +1.0077985359E+000 -7.7378739638E+000 
250133949.975 +9.9008697173E-001 -8.6230664493E+000  +1.1380801039E-001 +7.9473349428E+001  +1.1266639573E-001 +7.9640497444E+001  +9.9075329507E-001 -8.4452744668E+000 
260138947.974 +9.7233338085E-001 -8.5772448593E+000  +1.1610003428E-001 +7.9605495570E+001  +1.1533069457E-001 +8.0083571094E+001  +9.7356658924E-001 -8.4288155468E+000 
270143945.973 +9.6267165270E-001 -8.0060978659E+000  +1.1941786622E-001 +8.0220802016E+001  +1.1945259829E-001 +8.0796077925E+001  +9.6400840213E-001 -7.9028130113E+000 
280148943.972 +9.6336094929E-001 -7.3263046449E+000  +1.2404399167E-001 +8.0801578725E+001  +1.2481312678E-001 +8.1247892200E+001  +9.6423447314E-001 -7.2574542268E+000 
290153941.971 +9.7252158427E-001 -6.8592504727E+000  +1.2955206481E-001 +8.1139280975E+001  +1.3084435978E-001 +8.1255925304E+001  +9.7280867638E-001 -6.8240089814E+000 
300158939.970 +9.8744039052E-001 -6.8441044597E+000  +1.3579111668E-001 +8.1127050174E+001  +1.3694312849E-001 +8.0858567483E+001  +9.8678699544E-001 -6.7993501102E+000 
310163937.969 +1.0031563797E+000 -7.4178072048E+000  +1.4239055228E-001 +8.0607593614E+001  +1.4295555608E-001 +8.0080946631E+001  +1.0018702457E+000 -7.3356598178E+000 
320168935.968 +1.0130133607E+000 -8.5831775949E+000  +1.4861549547E-001 +7.9434966398E+001  +1.4831907903E-001 +7.8887300788E+001  +1.0114213407E+000 -8.4462006803E+000 
330173933.967 +1.0103836225E+000 -1.0034162110E+001  +1.5291494881E-001 +7.7888625913E+001  +1.5188220899E-001 +7.7526149659E+001  +1.0093496921E+000 -9.8334981560E+000 
340178931.966 +9.9407454568E-001 -1.1179060294E+001  +1.5477678506E-001 +7.6674822217E+001  +1.5329411678E-001 +7.6570621270E+001  +9.9406508358E-001 -1.0950761728E+001 
350183929.965 +9.7182794439E-001 -1.1533166391E+001  +1.5537610510E-001 +7.6360655272E+001  +1.5408017906E-001 +7.6602166568E+001  +9.7278810181E-001 -1.1304034522E+001 
360188927.964 +9.5492825517E-001 -1.1080341832E+001  +1.5701618956E-001 +7.6930665363E+001  +1.5630546143E-001 +7.7376452837E+001  +9.5647765801E-001 -1.0894563457E+001 
370193925.963 +9.4932935514E-001 -1.0235032774E+001  +1.6067649840E-001 +7.7736997820E+001  +1.6083820520E-001 +7.8260326907E+001  +9.5087393752E-001 -1.0112391115E+001 
380198923.962 +9.5486140163E-001 -9.4659282809E+000  +1.6599058656E-001 +7.8372421045E+001  +1.6705267343E-001 +7.8763751462E+001  +9.5583002112E-001 -9.3819059553E+000 
390203921.961 +9.6889618931E-001 -9.0828523715E+000  +1.7256844127E-001 +7.8661486871E+001  +1.7408532752E-001 +7.8712344726E+001  +9.6891851038E-001 -9.0278017128E+000 
400208919.960 +9.8709585702E-001 -9.3097701663E+000  +1.7992839046E-001 +7.8460607278E+001  +1.8123539821E-001 +7.8177232418E+001  +9.8620734624E-001 -9.2338498248E+000 
410213917.959 +1.0032494567E+000 -1.0232502893E+001  +1.8749535411E-001 +7.7596314515E+001  +1.8802963379E-001 +7.7123830547E+001  +1.0015644078E+000 -1.0111740594E+001 
420218915.958 +1.0092983659E+000 -1.1721155915E+001  +1.9351611744E-001 +7.6055074022E+001  +1.9302537118E-001 +7.5585073711E+001  +1.0075214989E+000 -1.1537038039E+001 
430223913.957 +9.9966959139E-001 -1.3280926639E+001  +1.9613765483E-001 +7.4376033783E+001  +1.9480083015E-001 +7.4092181705E+001  +9.9861545831E-001 -1.3027497724E+001 
440228911.956 +9.7699269836E-001 -1.4228750067E+001  +1.9564792336E-001 +7.3401292676E+001  +1.9404787731E-001 +7.3375079616E+001  +9.7719238200E-001 -1.3959159718E+001 
450233909.955 +9.5297348740E-001 -1.4208001879E+001  +1.9487671770E-001 +7.3525989065E+001  +1.9355895731E-001 +7.3764138118E+001  +9.5417768613E-001 -1.3954165900E+001 
460238907.954 +9.3820569602E-001 -1.3432582346E+001  +1.9630253837E-001 +7.4390634393E+001  +1.9575105840E-001 +7.4821844700E+001  +9.3984546408E-001 -1.3226766383E+001 
470243905.953 +9.3633261792E-001 -1.2420435670E+001  +2.0052745564E-001 +7.5324140924E+001  +2.0095986725E-001 +7.5769902536E+001  +9.3796288402E-001 -1.2273013522E+001 
480248903.952 +9.4630478582E-001 -1.1624958559E+001  +2.0681704593E-001 +7.5970530825E+001  +2.0815943517E-001 +7.6231397084E+001  +9.4723556505E-001 -1.1529052870E+001 
490253901.951 +9.6402037604E-001 -1.1365094407E+001  +2.1459345049E-001 +7.6155488241E+001  +2.1624416732E-001 +7.6127046680E+001  +9.6376967862E-001 -1.1277486408E+001 
500258899.950 +9.8461118270E-001 -1.1845676416E+001  +2.2333336053E-001 +7.5736807907E+001  +2.2457913493E-001 +7.5432545238E+001  +9.8321346135E-001 -1.1728770287E+001 
510263897.949 +9.9978780046E-001 -1.3100538211E+001  +2.3157374497E-001 +7.4523629157E+001  +2.3181313768E-001 +7.4103593420E+001  +9.9785318046E-001 -1.2914409888E+001 
520268895.948 +1.0010488575E+000 -1.4826085868E+001  +2.3665047068E-001 +7.2710352353E+001  +2.3588835672E-001 +7.2329685078E+001  +9.9932123708E-001 -1.4572503865E+001 
530273893.947 +9.8440243625E-001 -1.6370865502E+001  +2.3690284498E-001 +7.1063888273E+001  +2.3541289394E-001 +7.0850366831E+001  +9.8377730233E-001 -1.6061619234E+001 
540278891.946 +9.5760850916E-001 -1.7052941159E+001  +2.3419438175E-001 +7.0410807769E+001  +2.3251104164E-001 +7.0433081177E+001  +9.5811270463E-001 -1.6731452607E+001 
550283889.945 +9.3353737419E-001 -1.6676934940E+001  +2.3244815162E-001 +7.0917066476E+001  +2.3113769277E-001 +7.1147232276E+001  +9.3493444432E-001 -1.6388100052E+001 
560288887.944 +9.2167344006E-001 -1.5645266524E+001  +2.3406438235E-001 +7.1968196759E+001  +2.3356223037E-001 +7.2345607072E+001  +9.2336617517E-001 -1.5414216730E+001 
570293885.943 +9.2390489242E-001 -1.4518852056E+001  +2.3902787795E-001 +7.2969523764E+001  +2.3957210322E-001 +7.3316010805E+001  +9.2534784991E-001 -1.4348590486E+001 
580298883.942 +9.3742224635E-001 -1.3769920879E+001  +2.4639002187E-001 +7.3565133441E+001  +2.4776381506E-001 +7.3753113625E+001  +9.3814143330E-001 -1.3643934024E+001 
590303881.941 +9.5803810369E-001 -1.3677483013E+001  +2.5553654699E-001 +7.3652335901E+001  +2.5705449630E-001 +7.3597242250E+001  +9.5760110971E-001 -1.3543365133E+001 
600308879.940 +9.7956051488E-001 -1.4401775247E+001  +2.6553004680E-001 +7.3016284937E+001  +2.6659191448E-001 +7.2755241542E+001  +9.7823898511E-001 -1.4240771980E+001 
610313877.939 +9.9281399642E-001 -1.5935495484E+001  +2.7414825595E-001 +7.1481105013E+001  +2.7426080882E-001 +7.1146488220E+001  +9.9098435663E-001 -1.5707691837E+001 
620318875.938 +9.8869820301E-001 -1.7820797732E+001  +2.7760728369E-001 +6.9480617829E+001  +2.7671252539E-001 +6.9182412859E+001  +9.8732944011E-001 -1.7516134089E+001 
630323873.937 +9.6660787810E-001 -1.9274326354E+001  +2.7516547092E-001 +6.7951810274E+001  +2.7367224131E-001 +6.7803808715E+001  +9.6632022202E-001 -1.8915095884E+001 
640328871.936 +9.3735934745E-001 -1.9659664215E+001  +2.7049531694E-001 +6.7657027741E+001  +2.6880155221E-001 +6.7695200849E+001  +9.3815334128E-001 -1.9300888082E+001 
650333869.935 +9.1469324058E-001 -1.8980481103E+001  +2.6820766128E-001 +6.8448852301E+001  +2.6700629931E-001 +6.8691081063E+001  +9.1628225136E-001 -1.8663539061E+001 
660338867.934 +9.0611622292E-001 -1.7764192013E+001  +2.7035151355E-001 +6.9633954780E+001  +2.7000110163E-001 +6.9963460652E+001  +9.0791886050E-001 -1.7514931644E+001 
670343865.933 +9.1176358927E-001 -1.6615531241E+001  +2.7614933821E-001 +7.0616381074E+001  +2.7678555190E-001 +7.0918041615E+001  +9.1298598490E-001 -1.6409634803E+001 
680348863.932 +9.2816564538E-001 -1.5938765749E+001  +2.8463775745E-001 +7.1185691675E+001  +2.8600313014E-001 +7.1298940418E+001  +9.2868506334E-001 -1.5768689273E+001 
690353861.931 +9.5043415019E-001 -1.6003845392E+001  +2.9509187551E-001 +7.1164257237E+001  +2.9648196643E-001 +7.1072924627E+001  +9.5001540932E-001 -1.5830968803E+001 
700358859.930 +9.7192200087E-001 -1.6965622652E+001  +3.0629063145E-001 +7.0300958165E+001  +3.0703623874E-001 +7.0071436505E+001  +9.7063177943E-001 -1.6750718897E+001 
710363857.929 +9.8224545919E-001 -1.8710150091E+001  +3.1469670683E-001 +6.8513555002E+001  +3.1447887898E-001 +6.8252371558E+001  +9.8079198226E-001 -1.8426641592E+001 
720368855.928 +9.7332596251E-001 -2.0668494010E+001  +3.1618935589E-001 +6.6393781110E+001  +3.1521006033E-001 +6.6216182135E+001  +9.7245197389E-001 -2.0323294112E+001 
730373853.927 +9.4710347859E-001 -2.1977990953E+001  +3.1107168489E-001 +6.5036081374E+001  +3.0971880391E-001 +6.4974678128E+001  +9.4724224376E-001 -2.1597957736E+001 
740378851.926 +9.1681342685E-001 -2.2096765943E+001  +3.0468509692E-001 +6.5046404242E+001  +3.0339755776E-001 +6.5122575375E+001  +9.1784761911E-001 -2.1727579603E+001 
750383849.925 +8.9592316369E-001 -2.1164089707E+001  +3.0210299068E-001 +6.6100897511E+001  +3.0124179454E-001 +6.6279263729E+001  +8.9732231447E-001 -2.0840120097E+001 
760388847.924 +8.9049969494E-001 -1.9809125031E+001  +3.0489935520E-001 +6.7389690996E+001  +3.0483787816E-001 +6.7605222585E+001  +8.9193035435E-001 -1.9543898597E+001 
770393845.923 +8.9925386618E-001 -1.8656064792E+001  +3.1187428874E-001 +6.8348003090E+001  +3.1252891317E-001 +6.8513823914E+001  +9.0020188295E-001 -1.8437880223E+001 
780398843.922 +9.1813589710E-001 -1.8087020326E+001  +3.2157175265E-001 +6.8829788872E+001  +3.2262608169E-001 +6.8862540765E+001  +9.1810214455E-001 -1.7886210405E+001 
790403841.921 +9.4140053433E-001 -1.8329438825E+001  +3.3328197681E-001 +6.8657875342E+001  +3.3419588415E-001 +6.8559175769E+001  +9.4057257851E-001 -1.8104758219E+001 
800408839.920 +9.6166992376E-001 -1.9501974282E+001  +3.4521249048E-001 +6.7573718299E+001  +3.4543630705E-001 +6.7398187476E+001  +9.6038891379E-001 -1.9228730904E+001 
810413837.919 +9.6871606656E-001 -2.1405536338E+001  +3.5288434834E-001 +6.5608306832E+001  +3.5244292825E-001 +6.5433231856E+001  +9.6771858415E-001 -2.1065511297E+001 
820418835.918 +9.5558137391E-001 -2.3356675182E+001  +3.5209966111E-001 +6.3502513874E+001  +3.5133187918E-001 +6.3385802616E+001  +9.5526742112E-001 -2.2970692633E+001 
830423833.917 +9.2668866181E-001 -2.4495873445E+001  +3.4463752959E-001 +6.2344703014E+001  +3.4364712941E-001 +6.2318365757E+001  +9.2732213206E-001 -2.4107295157E+001 
840428831.916 +8.9636235613E-001 -2.4361357882E+001  +3.3695764020E-001 +6.2632308010E+001  +3.3601778136E-001 +6.2672780591E+001  +8.9747422561E-001 -2.3986773592E+001 
850433829.915 +8.7760556945E-001 -2.3225145257E+001  +3.3437721381E-001 +6.3842699908E+001  +3.3379446476E-001 +6.3964742132E+001  +8.7895723327E-001 -2.2894462289E+001 
860438827.914 +8.7532672521E-001 -2.1800408601E+001  +3.3796652064E-001 +6.5150420922E+001  +3.3800956474E-001 +6.5303138380E+001  +8.7638913510E-001 -2.1505119852E+001 
870443825.913 +8.8669385310E-001 -2.0685004902E+001  +3.4585330155E-001 +6.6075494539E+001  +3.4651784652E-001 +6.6177166293E+001  +8.8720060160E-001 -2.0416699765E+001 
880448823.912 +9.0692216456E-001 -2.0239056127E+001  +3.5659262263E-001 +6.6486603042E+001  +3.5753441682E-001 +6.6469629414E+001  +9.0680191462E-001 -1.9965688608E+001 
890453821.911 +9.3041566601E-001 -2.0657131875E+001  +3.6936459617E-001 +6.6205261943E+001  +3.6995928863E-001 +6.6070991346E+001  +9.2960074529E-001 -2.0350484995E+001 
900458819.910 +9.4915724378E-001 -2.2000384782E+001  +3.8192957770E-001 +6.4957463842E+001  +3.8178822942E-001 +6.4797727777E+001  +9.4822749861E-001 -2.1632013876E+001 
910463817.909 +9.5302198435E-001 -2.3991234023E+001  +3.8876433769E-001 +6.2856170572E+001  +3.8792467082E-001 +6.2760832495E+001  +9.5270976967E-001 -2.3569679721E+001 
920468815.908 +9.3650009832E-001 -2.5902219563E+001  +3.8578959544E-001 +6.0766165665E+001  +3.8481885593E-001 +6.0744584751E+001  +9.3713604488E-001 -2.5464498351E+001 
930473813.907 +9.0585961595E-001 -2.6871276925E+001  +3.7592356493E-001 +5.9801892826E+001  +3.7514249450E-001 +5.9863545598E+001  +9.0728259350E-001 -2.6452761371E+001 
940478811.906 +8.7612152635E-001 -2.6513946794E+001  +3.6702813291E-001 +6.0335444116E+001  +3.6663470041E-001 +6.0431402713E+001  +8.7764681844E-001 -2.6137568275E+001 
950483809.905 +8.5977372529E-001 -2.5220449733E+001  +3.6486744013E-001 +6.1705957523E+001  +3.6484482882E-001 +6.1808233915E+001  +8.6101648292E-001 -2.4885475196E+001 
960488807.904 +8.6002226861E-001 -2.3743051770E+001  +3.6947844605E-001 +6.3041251166E+001  +3.6986224265E-001 +6.3112228968E+001  +8.6068648751E-001 -2.3435245177E+001 
970493805.903 +8.7368250603E-001 -2.2682962232E+001  +3.7846817283E-001 +6.3910978089E+001  +3.7916957022E-001 +6.3915207132E+001  +8.7352736336E-001 -2.2373284068E+001 
980498803.902 +8.9492384781E-001 -2.2374479266E+001  +3.9028743794E-001 +6.4206921345E+001  +3.9092182690E-001 +6.4125149395E+001  +8.9414869406E-001 -2.2038498167E+001 
990503801.901 +9.1777692919E-001 -2.2950562294E+001  +4.0395588233E-001 +6.3778602992E+001  +4.0389588389E-001 +6.3641801142E+001  +9.1662475062E-001 -2.2555891317E+001 
1000508799.900 +9.3422873654E-001 -2.4416901955E+001  +4.1640476369E-001 +6.2390521101E+001  +4.1574329841E-001 +6.2281575650E+001  +9.3343477271E-001 -2.3972153156E+001 
1010513797.899 +9.3491906566E-001 -2.6436343587E+001  +4.2201328042E-001 +6.0239993892E+001  +4.2098821025E-001 +6.0199115413E+001  +9.3503495702E-001 -2.5962123141E+001 
1020518795.898 +9.1608527760E-001 -2.8267396458E+001  +4.1703597306E-001 +5.8225154187E+001  +4.1620469367E-001 +5.8277920519E+001  +9.1728211713E-001 -2.7786825800E+001 
1030523793.897 +8.8487313013E-001 -2.9055266476E+001  +4.0534858682E-001 +5.7459482247E+001  +4.0493962463E-001 +5.7554904584E+001  +8.8680198509E-001 -2.8617450998E+001 
1040528791.896 +8.5648692293E-001 -2.8520230235E+001  +3.9580796656E-001 +5.8185220848E+001  +3.9585182759E-001 +5.8273048798E+001  +8.5816557666E-001 -2.8133359692E+001 
1050533789.895 +8.4242548483E-001 -2.7106611487E+001  +3.9401833587E-001 +5.9649260030E+001  +3.9445059994E-001 +5.9711940128E+001  +8.4356605191E-001 -2.6762859609E+001 
1060538787.894 +8.4526756810E-001 -2.5612577404E+001  +3.9964713681E-001 +6.0964341471E+001  +4.0026883473E-001 +6.0979718847E+001  +8.4536482295E-001 -2.5281831728E+001 
1070543785.893 +8.6060971988E-001 -2.4645321168E+001  +4.0962332450E-001 +6.1735889494E+001  +4.1040170470E-001 +6.1674663984E+001  +8.5990039891E-001 -2.4299568647E+001 
1080548783.892 +8.8210651514E-001 -2.4485517333E+001  +4.2217215153E-001 +6.1905506725E+001  +4.2254614615E-001 +6.1771218815E+001  +8.8089102734E-001 -2.4080948464E+001 
1090553781.891 +9.0363353752E-001 -2.5209432405E+001  +4.3624192189E-001 +6.1379907512E+001  +4.3571792274E-001 +6.1223786789E+001  +9.0251500712E-001 -2.4737087458E+001 
1100558779.890 +9.1750106980E-001 -2.6760106621E+001  +4.4841399429E-001 +5.9907131986E+001  +4.4717269752E-001 +5.9825470316E+001  +9.1712875549E-001 -2.6228774138E+001 
1110563777.889 +9.1544108878E-001 -2.8759493765E+001  +4.5279088362E-001 +5.7754113554E+001  +4.5137509088E-001 +5.7777923597E+001  +9.1645504265E-001 -2.8211422841E+001 
1120568775.888 +8.9496339652E-001 -3.0465915616E+001  +4.4595568716E-001 +5.5851984757E+001  +4.4494987744E-001 +5.5969675282E+001  +8.9711274979E-001 -2.9948701762E+001 
1130573773.887 +8.6408710673E-001 -3.1090513914E+001  +4.3284102898E-001 +5.5261024778E+001  +4.3260470891E-001 +5.5426212540E+001  +8.6659668182E-001 -3.0636729207E+001 
