!  2-Port S-parameters saved by WinCal
! VAR NAME=Wafer2_r10_c1_thrutaper
! VAR DATE=26/04/2024 16:50:54
! VAR FILENAME=Wafer2_r10_c1_thrutaper_1.S2P
! VAR MeasName=S-Parameters (CALIBRATED_DATA) read from VNA (P5004A)
! VAR MeasDate=26/04/2024 16:22:32
! VAR PHYS_PORTS=1,2
! VAR ObjTypeName=DATASET
! VAR IndexType=Frequency
!
# Hz S MA R 50
9000.000 +7.1812585083E-003 -8.1056857892E+000  +9.9173776004E-001 +9.8556056560E-002  +9.9172539315E-001 +8.6892112766E-002  +7.0228374605E-003 -7.7681302860E+000 
10013997.999 +7.8842522339E-003 -7.0473716511E-001  +9.9190620306E-001 -1.5644815951E-002  +9.9199530030E-001 -1.2935764926E-002  +7.8649891797E-003 -3.4356941906E-001 
20018995.998 +7.8867186187E-003 -1.1630523782E+000  +9.9200518940E-001 -2.2953653870E-002  +9.9214358624E-001 -2.2200065981E-002  +7.8379286582E-003 -8.2942912946E-001 
30023993.997 +7.8022612597E-003 -2.0489457393E+000  +9.9211353986E-001 -3.5276095036E-002  +9.9213815588E-001 -3.5209818816E-002  +7.8622840798E-003 -1.8111149605E+000 
40028991.996 +7.7763113394E-003 -3.1573668206E+000  +9.9210318859E-001 -5.4351850349E-002  +9.9214167480E-001 -5.3219857694E-002  +7.8762081385E-003 -2.6403383088E+000 
50033989.995 +7.8050870201E-003 -4.2187633488E+000  +9.9211035730E-001 -6.5148949755E-002  +9.9205046468E-001 -6.5659785608E-002  +7.9368555624E-003 -3.9961698125E+000 
60038987.994 +7.7787172100E-003 -5.8242494061E+000  +9.9213388422E-001 -8.5369317075E-002  +9.9206783930E-001 -8.0497114091E-002  +7.9323935572E-003 -5.4715416246E+000 
70043985.993 +7.8182414972E-003 -6.6947645810E+000  +9.9199332431E-001 -9.7854182378E-002  +9.9208201476E-001 -9.5769693713E-002  +7.8851412064E-003 -7.1267471425E+000 
80048983.992 +7.9038885302E-003 -7.0576453450E+000  +9.9188499155E-001 -1.0079489698E-001  +9.9200679468E-001 -1.0179637176E-001  +7.8949694200E-003 -7.6447184025E+000 
90053981.991 +7.9282208071E-003 -7.6579157918E+000  +9.9178797123E-001 -1.1585952775E-001  +9.9204298054E-001 -1.1123498515E-001  +7.8859607155E-003 -7.6607724701E+000 
100058979.990 +7.9454156040E-003 -7.7053508492E+000  +9.9186146000E-001 -1.1910781579E-001  +9.9206288502E-001 -1.2131260272E-001  +7.8762500168E-003 -8.3103673386E+000 
110063977.989 +7.9671556470E-003 -8.2497798787E+000  +9.9197353609E-001 -1.3217159054E-001  +9.9211439428E-001 -1.3395312079E-001  +7.8629061368E-003 -8.3779218035E+000 
120068975.988 +7.9021924000E-003 -8.7335558341E+000  +9.9197763838E-001 -1.4610030297E-001  +9.9215212254E-001 -1.5185736978E-001  +7.8707054860E-003 -8.6108133679E+000 
130073973.987 +7.8920090360E-003 -9.9451394730E+000  +9.9205240040E-001 -1.6426852781E-001  +9.9208229262E-001 -1.6606694691E-001  +7.8645359674E-003 -9.7944363119E+000 
140078971.986 +7.8278338123E-003 -1.1458768033E+001  +9.9217899835E-001 -1.8563247394E-001  +9.9207541856E-001 -1.8158122726E-001  +7.9403189041E-003 -1.0892859660E+001 
150083969.985 +7.9075429032E-003 -1.2906812303E+001  +9.9214157124E-001 -2.0199578013E-001  +9.9209934717E-001 -1.9765501613E-001  +8.0532781095E-003 -1.2409883029E+001 
160088967.984 +7.9046063894E-003 -1.3798712162E+001  +9.9197580151E-001 -2.1140756529E-001  +9.9187741474E-001 -2.0986709665E-001  +8.0182389900E-003 -1.3650942173E+001 
170093965.983 +7.9895402123E-003 -1.4725869433E+001  +9.9178807478E-001 -2.1828530356E-001  +9.9186607756E-001 -2.1707079015E-001  +8.0675986742E-003 -1.4403488478E+001 
180098963.982 +8.0770019759E-003 -1.4868275185E+001  +9.9183125159E-001 -2.2660544676E-001  +9.9188243978E-001 -2.2554834997E-001  +8.1248363795E-003 -1.5511093554E+001 
190103961.981 +8.1385238832E-003 -1.5106544362E+001  +9.9185053998E-001 -2.3481690346E-001  +9.9198109158E-001 -2.3251551937E-001  +8.1275706151E-003 -1.5554976785E+001 
200108959.980 +8.0858376227E-003 -1.5600311256E+001  +9.9201081121E-001 -2.4700201856E-001  +9.9208384864E-001 -2.4808023112E-001  +8.1159818218E-003 -1.5966628395E+001 
210113957.979 +8.1216609948E-003 -1.5491319380E+001  +9.9212680103E-001 -2.5560969333E-001  +9.9207944114E-001 -2.6128807791E-001  +8.0708659485E-003 -1.5891949710E+001 
220118955.978 +8.1145778192E-003 -1.6728777710E+001  +9.9216406955E-001 -2.7368525116E-001  +9.9219986469E-001 -2.7835504798E-001  +8.1113748637E-003 -1.6589818340E+001 
230123953.977 +8.1270381798E-003 -1.7882914465E+001  +9.9211498970E-001 -2.9289086601E-001  +9.9217583897E-001 -2.9681579558E-001  +8.1325514844E-003 -1.7161697812E+001 
240128951.976 +8.1502896751E-003 -1.8901522540E+001  +9.9214714064E-001 -3.1331927860E-001  +9.9196448645E-001 -3.1118218043E-001  +8.2475633108E-003 -1.8672776481E+001 
250133949.975 +8.1718194537E-003 -2.0369394019E+001  +9.9192876448E-001 -3.2826863072E-001  +9.9189145572E-001 -3.2710861337E-001  +8.3351686435E-003 -2.0020898211E+001 
260138947.974 +8.1984519487E-003 -2.1056535609E+001  +9.9172120377E-001 -3.4110040914E-001  +9.9171088558E-001 -3.3343225776E-001  +8.3508742086E-003 -2.1250176804E+001 
270143945.973 +8.3127651255E-003 -2.1785077819E+001  +9.9167695644E-001 -3.3916642789E-001  +9.9174091526E-001 -3.3567685438E-001  +8.4112023923E-003 -2.2205228984E+001 
280148943.972 +8.4175385119E-003 -2.2243086913E+001  +9.9166134917E-001 -3.4273014698E-001  +9.9183402726E-001 -3.4215742931E-001  +8.4700480601E-003 -2.2462736322E+001 
290153941.971 +8.5188982299E-003 -2.2452517580E+001  +9.9180087525E-001 -3.5171738685E-001  +9.9188651569E-001 -3.5215527970E-001  +8.4208887321E-003 -2.2879226023E+001 
300158939.970 +8.5016436841E-003 -2.2709787435E+001  +9.9201840634E-001 -3.7162220629E-001  +9.9208351968E-001 -3.7077077435E-001  +8.4245205410E-003 -2.3082001488E+001 
310163937.969 +8.4855158005E-003 -2.3053434913E+001  +9.9203139058E-001 -3.8355068999E-001  +9.9223385113E-001 -3.9151357308E-001  +8.4633578722E-003 -2.3434071814E+001 
320168935.968 +8.5242982982E-003 -2.3613441750E+001  +9.9210830201E-001 -4.0570641630E-001  +9.9220099077E-001 -4.1150791245E-001  +8.4950791092E-003 -2.3204997865E+001 
330173933.967 +8.5305832216E-003 -2.4467893295E+001  +9.9202189213E-001 -4.2439231250E-001  +9.9208178956E-001 -4.2340796790E-001  +8.5850402362E-003 -2.4268183566E+001 
340178931.966 +8.5438050531E-003 -2.6053155788E+001  +9.9185123739E-001 -4.4745764672E-001  +9.9188070821E-001 -4.4543527106E-001  +8.6483346081E-003 -2.5779576196E+001 
350183929.965 +8.5322064405E-003 -2.6987240940E+001  +9.9172971293E-001 -4.5542089139E-001  +9.9169308754E-001 -4.5348765433E-001  +8.8086625276E-003 -2.6499558256E+001 
360188927.964 +8.6293536299E-003 -2.7915812110E+001  +9.9154155783E-001 -4.5989712183E-001  +9.9158408324E-001 -4.5186104892E-001  +8.8492174261E-003 -2.7498070268E+001 
370193925.963 +8.8178112876E-003 -2.8129500121E+001  +9.9158256655E-001 -4.6117828559E-001  +9.9164389989E-001 -4.5556878798E-001  +8.9546780626E-003 -2.8385875556E+001 
380198923.962 +8.8968360750E-003 -2.8557307523E+001  +9.9167547011E-001 -4.6527289550E-001  +9.9182264589E-001 -4.5848929438E-001  +9.0121262054E-003 -2.8538453298E+001 
390203921.961 +8.9482418965E-003 -2.8640617378E+001  +9.9183993763E-001 -4.7293371279E-001  +9.9201569436E-001 -4.7651037069E-001  +9.0101238412E-003 -2.9438664013E+001 
400208919.960 +8.9576405302E-003 -2.8507550232E+001  +9.9200057472E-001 -4.9252731336E-001  +9.9214661969E-001 -4.9497884433E-001  +9.0342822441E-003 -2.9818193530E+001 
410213917.959 +9.0379272487E-003 -2.9826321581E+001  +9.9204679973E-001 -5.1119512821E-001  +9.9224060669E-001 -5.1976896680E-001  +8.9967800775E-003 -2.9836646482E+001 
420218915.958 +9.0976978327E-003 -3.0431982545E+001  +9.9206328302E-001 -5.3625191309E-001  +9.9214512009E-001 -5.3843139420E-001  +8.9804232128E-003 -3.0641509363E+001 
430223913.957 +9.1341345310E-003 -3.1449145361E+001  +9.9201358598E-001 -5.5726919668E-001  +9.9207721611E-001 -5.6131973842E-001  +9.1140129224E-003 -3.1084174406E+001 
440228911.956 +9.1255040848E-003 -3.3081355866E+001  +9.9173320468E-001 -5.7579862217E-001  +9.9176654514E-001 -5.7454042261E-001  +9.2409628219E-003 -3.1651155487E+001 
450233909.955 +9.1644998041E-003 -3.3485336476E+001  +9.9147403724E-001 -5.7686412025E-001  +9.9155540798E-001 -5.7724215673E-001  +9.3216369846E-003 -3.3019535203E+001 
460238907.954 +9.3171609373E-003 -3.4189906042E+001  +9.9128266290E-001 -5.7906162234E-001  +9.9151546216E-001 -5.7753408370E-001  +9.4496577058E-003 -3.4007569685E+001 
470243905.953 +9.4603740511E-003 -3.4436536588E+001  +9.9142898456E-001 -5.7829236605E-001  +9.9159907327E-001 -5.7640218308E-001  +9.6177671345E-003 -3.4510452049E+001 
480248903.952 +9.5449663997E-003 -3.5048321734E+001  +9.9161322813E-001 -5.8572998433E-001  +9.9187706976E-001 -5.8448137448E-001  +9.6151610261E-003 -3.5065826489E+001 
490253901.951 +9.5670275374E-003 -3.5147195777E+001  +9.9188175357E-001 -5.9537535686E-001  +9.9208404599E-001 -6.0056061383E-001  +9.6127018846E-003 -3.5459402920E+001 
500258899.950 +9.6095464144E-003 -3.5263765221E+001  +9.9198507094E-001 -6.1981632961E-001  +9.9221282830E-001 -6.2201123385E-001  +9.6318763432E-003 -3.5513187832E+001 
510263897.949 +9.6857761485E-003 -3.5562927753E+001  +9.9193244141E-001 -6.4265272990E-001  +9.9213506561E-001 -6.4548708937E-001  +9.6847639423E-003 -3.6283995783E+001 
520268895.948 +9.7059028879E-003 -3.6091122888E+001  +9.9197986565E-001 -6.6693253639E-001  +9.9200001422E-001 -6.6959323879E-001  +9.6195411698E-003 -3.6533825574E+001 
530273893.947 +9.7190109790E-003 -3.7152094969E+001  +9.9174486755E-001 -6.8636789214E-001  +9.9177405886E-001 -6.9087008685E-001  +9.7308299312E-003 -3.7105292273E+001 
540278891.946 +9.8259986646E-003 -3.7935085434E+001  +9.9156497390E-001 -7.0090636832E-001  +9.9157536731E-001 -6.9790414451E-001  +9.7982807715E-003 -3.8255489731E+001 
550283889.945 +9.8756389844E-003 -3.8543912873E+001  +9.9135391846E-001 -6.9676640220E-001  +9.9138960019E-001 -6.9096232240E-001  +9.9079644929E-003 -3.8890580826E+001 
560288887.944 +9.9897296846E-003 -3.8922969266E+001  +9.9126495633E-001 -6.9692885519E-001  +9.9134440046E-001 -6.9031340832E-001  +1.0052349025E-002 -3.9162767534E+001 
570293885.943 +1.0142233751E-002 -3.9598898276E+001  +9.9144732021E-001 -6.9190730848E-001  +9.9155934678E-001 -6.9086749486E-001  +1.0257810535E-002 -3.9661248446E+001 
580298883.942 +1.0207096321E-002 -3.9707935106E+001  +9.9167012509E-001 -7.0147263561E-001  +9.9189666938E-001 -7.0133135258E-001  +1.0307532100E-002 -4.0513306892E+001 
590303881.941 +1.0276537431E-002 -3.9875533234E+001  +9.9194124988E-001 -7.1715187917E-001  +9.9208385753E-001 -7.2054648382E-001  +1.0320455387E-002 -4.0626937886E+001 
600308879.940 +1.0336819718E-002 -4.0231484193E+001  +9.9205692352E-001 -7.4189885276E-001  +9.9209748159E-001 -7.4940951247E-001  +1.0289229128E-002 -4.0699683366E+001 
610313877.939 +1.0399657398E-002 -4.0436960368E+001  +9.9205934441E-001 -7.7304536277E-001  +9.9211984194E-001 -7.7148436748E-001  +1.0282897832E-002 -4.0882622208E+001 
620318875.938 +1.0370726365E-002 -4.1310143204E+001  +9.9206865724E-001 -7.9746743694E-001  +9.9196976856E-001 -7.9550692005E-001  +1.0318751947E-002 -4.1481152188E+001 
630323873.937 +1.0437009403E-002 -4.2434912749E+001  +9.9170000651E-001 -8.1742408725E-001  +9.9178517165E-001 -8.1250684025E-001  +1.0444779156E-002 -4.1904594930E+001 
640328871.936 +1.0516863229E-002 -4.3218740435E+001  +9.9132825679E-001 -8.2312946248E-001  +9.9140776630E-001 -8.1972002676E-001  +1.0509276191E-002 -4.3033652557E+001 
650333869.935 +1.0614242086E-002 -4.3096145112E+001  +9.9110527249E-001 -8.1839794823E-001  +9.9111696687E-001 -8.1916451502E-001  +1.0652229768E-002 -4.3290638436E+001 
660338867.934 +1.0744775415E-002 -4.3645039501E+001  +9.9113302150E-001 -8.0636919265E-001  +9.9129736966E-001 -8.0833289314E-001  +1.0851039022E-002 -4.3430590223E+001 
670343865.933 +1.0912071554E-002 -4.3961951499E+001  +9.9135093301E-001 -8.1017548071E-001  +9.9149967276E-001 -8.0607012081E-001  +1.0942499151E-002 -4.4143923838E+001 
680348863.932 +1.0971503703E-002 -4.3927329486E+001  +9.9170342391E-001 -8.2015409759E-001  +9.9187709924E-001 -8.2291328057E-001  +1.0972103564E-002 -4.4481011598E+001 
690353861.931 +1.1035470301E-002 -4.3912407032E+001  +9.9200354668E-001 -8.4636186459E-001  +9.9210418057E-001 -8.4453574876E-001  +1.0999967190E-002 -4.4642621390E+001 
700358859.930 +1.1096243823E-002 -4.4121290120E+001  +9.9205653488E-001 -8.6774156798E-001  +9.9214635362E-001 -8.7469952825E-001  +1.1033063300E-002 -4.5105459090E+001 
710363857.929 +1.1167620903E-002 -4.4497519601E+001  +9.9205081573E-001 -8.9769758547E-001  +9.9200342260E-001 -9.0141937359E-001  +1.1094590104E-002 -4.5385762545E+001 
720368855.928 +1.1227530585E-002 -4.5475453671E+001  +9.9179850933E-001 -9.2145380270E-001  +9.9190986272E-001 -9.2422386311E-001  +1.1215840589E-002 -4.6046491907E+001 
730373853.927 +1.1224306616E-002 -4.6424356294E+001  +9.9152260461E-001 -9.3920610426E-001  +9.9148779705E-001 -9.4446668407E-001  +1.1244031147E-002 -4.6594243209E+001 
740378851.926 +1.1295706500E-002 -4.6908690438E+001  +9.9123050132E-001 -9.4276801528E-001  +9.9120188324E-001 -9.4839112624E-001  +1.1320312401E-002 -4.6899997971E+001 
750383849.925 +1.1413470208E-002 -4.7032890464E+001  +9.9094168526E-001 -9.4384117598E-001  +9.9104710651E-001 -9.3952925263E-001  +1.1443618054E-002 -4.7440497744E+001 
760388847.924 +1.1609561414E-002 -4.7473098272E+001  +9.9110200317E-001 -9.2702432063E-001  +9.9114983105E-001 -9.2260828465E-001  +1.1599396300E-002 -4.7613026958E+001 
770393845.923 +1.1756321938E-002 -4.7560678975E+001  +9.9141398780E-001 -9.2330123406E-001  +9.9146110179E-001 -9.2550863343E-001  +1.1755798963E-002 -4.8265311066E+001 
780398843.922 +1.1844214219E-002 -4.7662076512E+001  +9.9180014820E-001 -9.4000049915E-001  +9.9199751485E-001 -9.4143000034E-001  +1.1861722029E-002 -4.8611089869E+001 
790403841.921 +1.1870214264E-002 -4.7704410063E+001  +9.9203270144E-001 -9.7199628750E-001  +9.9224532391E-001 -9.6990419710E-001  +1.1808118217E-002 -4.8500692131E+001 
800408839.920 +1.1983617920E-002 -4.8630605494E+001  +9.9213357456E-001 -1.0012084515E+000  +9.9217399972E-001 -1.0028063118E+000  +1.1840170981E-002 -4.9129297540E+001 
810413837.919 +1.2018606749E-002 -4.8952764400E+001  +9.9192014836E-001 -1.0283947441E+000  +9.9198875710E-001 -1.0341099618E+000  +1.1912877626E-002 -4.8986857893E+001 
820418835.918 +1.2056203640E-002 -4.9587027715E+001  +9.9173566620E-001 -1.0491750120E+000  +9.9173982580E-001 -1.0562551661E+000  +1.2020700753E-002 -4.9853150413E+001 
830423833.917 +1.2153345919E-002 -5.0517183369E+001  +9.9132784924E-001 -1.0741110782E+000  +9.9141509486E-001 -1.0712555906E+000  +1.2118316618E-002 -5.0384744796E+001 
840428831.916 +1.2261414610E-002 -5.1176024276E+001  +9.9090122236E-001 -1.0738621980E+000  +9.9100045731E-001 -1.0695496658E+000  +1.2199651983E-002 -5.0862976282E+001 
850433829.915 +1.2376427094E-002 -5.1251198150E+001  +9.9065146300E-001 -1.0632271914E+000  +9.9075716873E-001 -1.0563582785E+000  +1.2351872017E-002 -5.1212753297E+001 
860438827.914 +1.2584181946E-002 -5.1498211513E+001  +9.9095018370E-001 -1.0425666979E+000  +9.9107069411E-001 -1.0407649453E+000  +1.2547304483E-002 -5.1649168265E+001 
870443825.913 +1.2741369167E-002 -5.1517764229E+001  +9.9127747060E-001 -1.0435231968E+000  +9.9149654610E-001 -1.0470854978E+000  +1.2640117991E-002 -5.1779653016E+001 
880448823.912 +1.2745022245E-002 -5.1439161944E+001  +9.9173301316E-001 -1.0658733319E+000  +9.9187641527E-001 -1.0629952797E+000  +1.2672355481E-002 -5.2242207892E+001 
890453821.911 +1.2750182515E-002 -5.1795936037E+001  +9.9193070015E-001 -1.0950975445E+000  +9.9205416245E-001 -1.0988691360E+000  +1.2672717011E-002 -5.2396884568E+001 
900458819.910 +1.2831919570E-002 -5.1727925476E+001  +9.9200484069E-001 -1.1318827712E+000  +9.9213122046E-001 -1.1343000539E+000  +1.2662727090E-002 -5.2359981563E+001 
910463817.909 +1.2932403258E-002 -5.2224244108E+001  +9.9182920973E-001 -1.1609630641E+000  +9.9185557362E-001 -1.1611706873E+000  +1.2793837335E-002 -5.2664984392E+001 
920468815.908 +1.3029183097E-002 -5.3010611514E+001  +9.9151093699E-001 -1.1889083060E+000  +9.9160905229E-001 -1.1877038385E+000  +1.2904403451E-002 -5.3227448179E+001 
930473813.907 +1.3045870605E-002 -5.3778945799E+001  +9.9112658924E-001 -1.2013155689E+000  +9.9104387117E-001 -1.1981104547E+000  +1.3075119557E-002 -5.3994511842E+001 
940478811.906 +1.3123620810E-002 -5.4509400570E+001  +9.9054615611E-001 -1.1963865775E+000  +9.9068747164E-001 -1.1933058288E+000  +1.3146992993E-002 -5.4255753700E+001 
950483809.905 +1.3366474774E-002 -5.4653239651E+001  +9.9041303387E-001 -1.1784269263E+000  +9.9056925143E-001 -1.1778134627E+000  +1.3239766429E-002 -5.4784130161E+001 
960488807.904 +1.3473581043E-002 -5.5079577303E+001  +9.9070227442E-001 -1.1597789888E+000  +9.9080832712E-001 -1.1648603208E+000  +1.3379110140E-002 -5.5044744270E+001 
970493805.903 +1.3599712578E-002 -5.5124122577E+001  +9.9115092394E-001 -1.1538992690E+000  +9.9124491804E-001 -1.1657525007E+000  +1.3453155086E-002 -5.4915297284E+001 
980498803.902 +1.3556352514E-002 -5.4942136959E+001  +9.9167448113E-001 -1.1767675430E+000  +9.9173213451E-001 -1.1801261957E+000  +1.3406139344E-002 -5.4964765873E+001 
990503801.901 +1.3550710793E-002 -5.4828123847E+001  +9.9200492909E-001 -1.2193831994E+000  +9.9194181009E-001 -1.2179714384E+000  +1.3368101064E-002 -5.4854934432E+001 
1000508799.900 +1.3645908541E-002 -5.4843457461E+001  +9.9189150018E-001 -1.2559513484E+000  +9.9189334167E-001 -1.2548336451E+000  +1.3490656993E-002 -5.4907563803E+001 
1010513797.899 +1.3729183058E-002 -5.5303441146E+001  +9.9171252529E-001 -1.2780694138E+000  +9.9171542272E-001 -1.2849365657E+000  +1.3592536416E-002 -5.5292495234E+001 
1020518795.898 +1.3874727211E-002 -5.6235885877E+001  +9.9138099125E-001 -1.3036312587E+000  +9.9133914498E-001 -1.3075800795E+000  +1.3741328184E-002 -5.5873729021E+001 
1030523793.897 +1.3981300118E-002 -5.7165003111E+001  +9.9092331435E-001 -1.3174106915E+000  +9.9096028549E-001 -1.3174270283E+000  +1.3921001132E-002 -5.6305505658E+001 
1040528791.896 +1.4058425391E-002 -5.7406506963E+001  +9.9042845256E-001 -1.3112158691E+000  +9.9048321204E-001 -1.3093267047E+000  +1.4111001347E-002 -5.6814215277E+001 
1050533789.895 +1.4147713566E-002 -5.7392297192E+001  +9.9030825145E-001 -1.2954310170E+000  +9.9045147108E-001 -1.2939373950E+000  +1.4237619595E-002 -5.6911270484E+001 
1060538787.894 +1.4326243384E-002 -5.7370787088E+001  +9.9070267488E-001 -1.2741590256E+000  +9.9067794612E-001 -1.2758976371E+000  +1.4386855312E-002 -5.7121590124E+001 
1070543785.893 +1.4435241902E-002 -5.7558982511E+001  +9.9121790596E-001 -1.2767911861E+000  +9.9136804544E-001 -1.2814665464E+000  +1.4508786409E-002 -5.7728108275E+001 
1080548783.892 +1.4495393455E-002 -5.7613765299E+001  +9.9187241123E-001 -1.3018935295E+000  +9.9176708405E-001 -1.3031598359E+000  +1.4448362582E-002 -5.7675392893E+001 
1090553781.891 +1.4492263310E-002 -5.7217362074E+001  +9.9196622503E-001 -1.3476871408E+000  +9.9193274785E-001 -1.3439493824E+000  +1.4402790115E-002 -5.7445450370E+001 
1100558779.890 +1.4479093279E-002 -5.7309820648E+001  +9.9182992568E-001 -1.3832197065E+000  +9.9186442012E-001 -1.3830131634E+000  +1.4488469628E-002 -5.7620429035E+001 
1110563777.889 +1.4628366586E-002 -5.7941173082E+001  +9.9158804763E-001 -1.4092472099E+000  +9.9159683669E-001 -1.4105645167E+000  +1.4662460540E-002 -5.7891481762E+001 
1120568775.888 +1.4745820959E-002 -5.8603733517E+001  +9.9119180835E-001 -1.4308274517E+000  +9.9122606495E-001 -1.4313173537E+000  +1.4818585073E-002 -5.8319294371E+001 
1130573773.887 +1.4814301696E-002 -5.9251977381E+001  +9.9076383378E-001 -1.4408716553E+000  +9.9071492909E-001 -1.4418001029E+000  +1.4896867113E-002 -5.9210397553E+001 
