!  2-Port S-parameters saved by WinCal
! VAR MeasName=S-Parameters (CALIBRATED_DATA) read from VNA (P5004A)
! VAR MeasDate=26/04/2024 19:10:06
! VAR NAME=Wafer2_r1_c7_fullform_log 2
! VAR FILENAME=Wafer2_r1_c7_fullform_log 2_1.S2P
! VAR DATE=26/04/2024 19:10:06
! VAR PHYS_PORTS=1,2
! VAR ObjTypeName=DATASET
! VAR IndexType=Frequency
!
# Hz S MA R 50
9000.000 +7.1522908975E-001 +1.3940426246E+001  +9.7872462572E-002 +3.1932024743E+000  +9.9228316471E-002 +2.4050150356E+000  +7.1421579598E-001 +1.3834550035E+001 
9066.037 +7.1725693013E-001 +1.4007513413E+001  +9.7978251494E-002 +3.3119752651E+000  +9.9423612812E-002 +2.5508168539E+000  +7.1599024004E-001 +1.3882990499E+001 
9132.559 +7.1892326367E-001 +1.4049511222E+001  +9.8144620285E-002 +3.4542539018E+000  +9.9553783253E-002 +2.7009321139E+000  +7.1756532856E-001 +1.3949632061E+001 
9199.568 +7.2096023439E-001 +1.4139967166E+001  +9.8191305172E-002 +3.5758321317E+000  +9.9585583611E-002 +2.7844622776E+000  +7.1981623356E-001 +1.4025714696E+001 
9267.070 +7.2308569158E-001 +1.4150149190E+001  +9.8392314460E-002 +3.7495923373E+000  +9.9778004178E-002 +2.8683428123E+000  +7.2165368553E-001 +1.4047260775E+001 
9335.066 +7.2483877103E-001 +1.4233541116E+001  +9.8507664280E-002 +3.8416893968E+000  +9.9903128565E-002 +3.1185511567E+000  +7.2339694515E-001 +1.4128997984E+001 
9403.562 +7.2687048365E-001 +1.4283102604E+001  +9.8741053337E-002 +4.0163709304E+000  +1.0003620553E-001 +3.1679570580E+000  +7.2554234677E-001 +1.4174010097E+001 
9472.560 +7.2898703705E-001 +1.4325730464E+001  +9.8780128523E-002 +4.1739349243E+000  +1.0006899524E-001 +3.2814260110E+000  +7.2750995419E-001 +1.4196690256E+001 
9542.065 +7.3113750867E-001 +1.4349441043E+001  +9.8945469918E-002 +4.1956262091E+000  +1.0036365585E-001 +3.4675574232E+000  +7.2957750313E-001 +1.4220134664E+001 
9612.079 +7.3292107324E-001 +1.4393458019E+001  +9.9011957170E-002 +4.3242395967E+000  +1.0053428150E-001 +3.5709765940E+000  +7.3130564290E-001 +1.4254692230E+001 
9682.607 +7.3507538635E-001 +1.4418609721E+001  +9.9272534878E-002 +4.4421481276E+000  +1.0073369758E-001 +3.6720286999E+000  +7.3344177714E-001 +1.4286802834E+001 
9753.653 +7.3704853912E-001 +1.4463132979E+001  +9.9414204063E-002 +4.5020314405E+000  +1.0084261165E-001 +3.7953592153E+000  +7.3528839996E-001 +1.4333461168E+001 
9825.220 +7.3876080382E-001 +1.4480218563E+001  +9.9624453829E-002 +4.7049188105E+000  +1.0095819394E-001 +3.8905087026E+000  +7.3686588884E-001 +1.4355124317E+001 
9897.312 +7.4075004254E-001 +1.4495564470E+001  +9.9767646210E-002 +4.7698451440E+000  +1.0109087807E-001 +4.0238139499E+000  +7.3932321816E-001 +1.4374654091E+001 
9969.933 +7.4280567649E-001 +1.4544598259E+001  +9.9807612510E-002 +4.8577950209E+000  +1.0125667424E-001 +4.1583083455E+000  +7.4105356336E-001 +1.4427361880E+001 
10043.087 +7.4468477519E-001 +1.4560289224E+001  +1.0012026349E-001 +4.9556265989E+000  +1.0136945508E-001 +4.1447162669E+000  +7.4314806066E-001 +1.4454407295E+001 
10116.778 +7.4680562433E-001 +1.4572038620E+001  +1.0024563064E-001 +5.0722527328E+000  +1.0148986015E-001 +4.3042092048E+000  +7.4509158266E-001 +1.4468828933E+001 
10191.009 +7.4854244928E-001 +1.4598937866E+001  +1.0040140187E-001 +5.1474109819E+000  +1.0168557973E-001 +4.4365887217E+000  +7.4713131068E-001 +1.4513356505E+001 
10265.785 +7.5088559495E-001 +1.4622615657E+001  +1.0063396384E-001 +5.3069791830E+000  +1.0184216687E-001 +4.5116961391E+000  +7.4929719149E-001 +1.4501419209E+001 
10341.110 +7.5311176649E-001 +1.4644158904E+001  +1.0074539390E-001 +5.3885319645E+000  +1.0197979265E-001 +4.6612864253E+000  +7.5140474016E-001 +1.4536359736E+001 
10416.987 +7.5514296110E-001 +1.4650271187E+001  +1.0090083049E-001 +5.5050478041E+000  +1.0217927132E-001 +4.7777694641E+000  +7.5351821360E-001 +1.4545387870E+001 
10493.421 +7.5718610905E-001 +1.4646773136E+001  +1.0123752026E-001 +5.5477517245E+000  +1.0234967989E-001 +4.8811798539E+000  +7.5567461757E-001 +1.4549038495E+001 
10570.416 +7.5933832621E-001 +1.4655642487E+001  +1.0115913515E-001 +5.6694982586E+000  +1.0239428666E-001 +4.9268420376E+000  +7.5793486301E-001 +1.4542214349E+001 
10647.976 +7.6140501346E-001 +1.4669908688E+001  +1.0137762302E-001 +5.7603929227E+000  +1.0255250265E-001 +5.0986273501E+000  +7.5980322039E-001 +1.4565727929E+001 
10726.105 +7.6377765800E-001 +1.4663881879E+001  +1.0157888078E-001 +5.8947834173E+000  +1.0279818837E-001 +5.1496744100E+000  +7.6216035224E-001 +1.4568259320E+001 
10804.808 +7.6618738423E-001 +1.4645499869E+001  +1.0167427555E-001 +5.9372684845E+000  +1.0294516112E-001 +5.2616812546E+000  +7.6444323051E-001 +1.4559766081E+001 
10884.087 +7.6837308805E-001 +1.4653365502E+001  +1.0198964079E-001 +6.0350987288E+000  +1.0302780912E-001 +5.3639355595E+000  +7.6672543283E-001 +1.4559914664E+001 
10963.949 +7.7048479474E-001 +1.4626554962E+001  +1.0216337928E-001 +6.2135217247E+000  +1.0329138960E-001 +5.4235217039E+000  +7.6891592397E-001 +1.4548410811E+001 
11044.396 +7.7283356259E-001 +1.4634597868E+001  +1.0231798819E-001 +6.2355072250E+000  +1.0344123494E-001 +5.5592291886E+000  +7.7135784142E-001 +1.4548533296E+001 
11125.434 +7.7470399108E-001 +1.4642874495E+001  +1.0239760863E-001 +6.3079474522E+000  +1.0362171722E-001 +5.6497541354E+000  +7.7298576997E-001 +1.4533723177E+001 
11207.066 +7.7683720599E-001 +1.4623297217E+001  +1.0251351083E-001 +6.4094258386E+000  +1.0379655694E-001 +5.7083386809E+000  +7.7500445704E-001 +1.4529845154E+001 
11289.298 +7.7841630429E-001 +1.4640485722E+001  +1.0270332141E-001 +6.4857756023E+000  +1.0386125482E-001 +5.7858133687E+000  +7.7653954630E-001 +1.4544086517E+001 
11372.132 +7.8030568486E-001 +1.4620183426E+001  +1.0293908850E-001 +6.5442758255E+000  +1.0408098944E-001 +5.8568643351E+000  +7.7882828187E-001 +1.4522298596E+001 
11455.575 +7.8250786489E-001 +1.4611572629E+001  +1.0305396998E-001 +6.6573441148E+000  +1.0422834600E-001 +5.9364233998E+000  +7.8090897548E-001 +1.4519471841E+001 
11539.630 +7.8439400491E-001 +1.4604904912E+001  +1.0325860375E-001 +6.6842593800E+000  +1.0449710934E-001 +6.0860753433E+000  +7.8271824726E-001 +1.4506310891E+001 
11624.301 +7.8647477215E-001 +1.4572985857E+001  +1.0340536925E-001 +6.8124769611E+000  +1.0468084662E-001 +6.1383849624E+000  +7.8462789589E-001 +1.4486735846E+001 
11709.594 +7.8847947083E-001 +1.4561985739E+001  +1.0352222574E-001 +6.8683042658E+000  +1.0472496973E-001 +6.1695328592E+000  +7.8644888491E-001 +1.4473428987E+001 
11795.512 +7.9057853398E-001 +1.4544212679E+001  +1.0380378779E-001 +6.9225084636E+000  +1.0503198756E-001 +6.2681184380E+000  +7.8863651373E-001 +1.4460454972E+001 
11882.062 +7.9248551410E-001 +1.4530796887E+001  +1.0394246938E-001 +7.0624053913E+000  +1.0519477232E-001 +6.3655252057E+000  +7.9053737410E-001 +1.4432157222E+001 
11969.246 +7.9460656871E-001 +1.4489802394E+001  +1.0422165385E-001 +7.0979357711E+000  +1.0551019193E-001 +6.3919602493E+000  +7.9284666196E-001 +1.4410777269E+001 
12057.069 +7.9644534062E-001 +1.4458033516E+001  +1.0434325262E-001 +7.1783237881E+000  +1.0551716387E-001 +6.5074599410E+000  +7.9463825460E-001 +1.4378124208E+001 
12145.538 +7.9869226405E-001 +1.4416157326E+001  +1.0460908093E-001 +7.2230309872E+000  +1.0585159556E-001 +6.5962261882E+000  +7.9661715410E-001 +1.4346454176E+001 
12234.655 +8.0075339766E-001 +1.4400581960E+001  +1.0470865212E-001 +7.2772436150E+000  +1.0606741087E-001 +6.6533863464E+000  +7.9861407866E-001 +1.4312607513E+001 
12324.426 +8.0291240139E-001 +1.4350763527E+001  +1.0495339127E-001 +7.3839927897E+000  +1.0608599584E-001 +6.7480043862E+000  +8.0094557758E-001 +1.4277223428E+001 
12414.856 +8.0495238342E-001 +1.4322411957E+001  +1.0513492596E-001 +7.4225983267E+000  +1.0625304072E-001 +6.7908844870E+000  +8.0280078704E-001 +1.4247919961E+001 
12505.949 +8.0725651175E-001 +1.4283169320E+001  +1.0522097754E-001 +7.5397558372E+000  +1.0648708551E-001 +6.8767804178E+000  +8.0511805725E-001 +1.4205192600E+001 
12597.711 +8.0869825116E-001 +1.4272615897E+001  +1.0545257684E-001 +7.6137460271E+000  +1.0672184853E-001 +6.9563221458E+000  +8.0634638405E-001 +1.4179640246E+001 
12690.146 +8.1069850896E-001 +1.4234683538E+001  +1.0557457083E-001 +7.6421788378E+000  +1.0689024818E-001 +6.9745283158E+000  +8.0842746294E-001 +1.4155545320E+001 
12783.260 +8.1254865933E-001 +1.4198750547E+001  +1.0595526030E-001 +7.6335530761E+000  +1.0696692652E-001 +7.0482346564E+000  +8.1032403246E-001 +1.4126287764E+001 
12877.056 +8.1424512915E-001 +1.4166063651E+001  +1.0614118055E-001 +7.7538290626E+000  +1.0732269415E-001 +7.1181186737E+000  +8.1211907787E-001 +1.4081612806E+001 
12971.541 +8.1618456487E-001 +1.4139570676E+001  +1.0625101669E-001 +7.7772352266E+000  +1.0744421282E-001 +7.1691177560E+000  +8.1386876713E-001 +1.4048440718E+001 
13066.719 +8.1765489231E-001 +1.4079787156E+001  +1.0643891566E-001 +7.8346814158E+000  +1.0764534209E-001 +7.2214567244E+000  +8.1554707638E-001 +1.4010303636E+001 
13162.595 +8.1970812582E-001 +1.4054687391E+001  +1.0663156338E-001 +7.9278861182E+000  +1.0786774197E-001 +7.3091794398E+000  +8.1722453584E-001 +1.3978453969E+001 
13259.175 +8.2147005856E-001 +1.4018304936E+001  +1.0680219266E-001 +7.9309744487E+000  +1.0791608524E-001 +7.3794180883E+000  +8.1938905871E-001 +1.3933734806E+001 
13356.464 +8.2307262077E-001 +1.3964569657E+001  +1.0716740567E-001 +8.0066913956E+000  +1.0810413140E-001 +7.3931508416E+000  +8.2102374684E-001 +1.3888032511E+001 
13454.466 +8.2521716559E-001 +1.3911499774E+001  +1.0727493083E-001 +8.0315682165E+000  +1.0835497319E-001 +7.4616174007E+000  +8.2275545223E-001 +1.3835187528E+001 
13553.188 +8.2676332283E-001 +1.3881424396E+001  +1.0752008688E-001 +8.1295940699E+000  +1.0853927587E-001 +7.5114909769E+000  +8.2464023700E-001 +1.3799988013E+001 
13652.634 +8.2845453970E-001 +1.3824751018E+001  +1.0764037677E-001 +8.1533355966E+000  +1.0864884189E-001 +7.5677417177E+000  +8.2641404188E-001 +1.3753403421E+001 
13752.809 +8.3058124046E-001 +1.3773129890E+001  +1.0792999301E-001 +8.2270408489E+000  +1.0898040780E-001 +7.6312281255E+000  +8.2836362656E-001 +1.3705178212E+001 
13853.720 +8.3231178667E-001 +1.3711500632E+001  +1.0820492868E-001 +8.2219797257E+000  +1.0908100026E-001 +7.6514094481E+000  +8.3024245054E-001 +1.3640739386E+001 
13955.371 +8.3437880907E-001 +1.3678992740E+001  +1.0823509430E-001 +8.3336709994E+000  +1.0935581511E-001 +7.7089409476E+000  +8.3208297439E-001 +1.3591712879E+001 
14057.768 +8.3592566214E-001 +1.3608706862E+001  +1.0849710115E-001 +8.3006676522E+000  +1.0943222012E-001 +7.7491203600E+000  +8.3371067636E-001 +1.3534658417E+001 
14160.916 +8.3793789772E-001 +1.3557112347E+001  +1.0868249133E-001 +8.3909158150E+000  +1.0966729464E-001 +7.8122620706E+000  +8.3560868935E-001 +1.3479995954E+001 
14264.821 +8.3980694895E-001 +1.3497128731E+001  +1.0887082292E-001 +8.3868804719E+000  +1.0986366911E-001 +7.8664544422E+000  +8.3744556532E-001 +1.3429233471E+001 
14369.488 +8.4129539763E-001 +1.3445696051E+001  +1.0913328720E-001 +8.4244397740E+000  +1.0996578918E-001 +7.8886136793E+000  +8.3914842994E-001 +1.3385744285E+001 
14474.924 +8.4268671900E-001 +1.3398429266E+001  +1.0924916732E-001 +8.4940420919E+000  +1.1026990493E-001 +7.9384241810E+000  +8.4040228140E-001 +1.3341855146E+001 
14581.133 +8.4434645390E-001 +1.3367181285E+001  +1.0947726309E-001 +8.5312549590E+000  +1.1053430612E-001 +7.9780971635E+000  +8.4198608487E-001 +1.3301097997E+001 
14688.121 +8.4523874879E-001 +1.3321642915E+001  +1.0981370605E-001 +8.5735743411E+000  +1.1059348679E-001 +8.0548276248E+000  +8.4310488868E-001 +1.3259852439E+001 
14795.895 +8.4678654790E-001 +1.3282835964E+001  +1.0985283276E-001 +8.5908863971E+000  +1.1093819427E-001 +8.0682567927E+000  +8.4449769832E-001 +1.3203607425E+001 
14904.459 +8.4836850611E-001 +1.3228181095E+001  +1.1006716101E-001 +8.6250106984E+000  +1.1109993819E-001 +8.0957515006E+000  +8.4577618046E-001 +1.3167998666E+001 
15013.820 +8.4983870290E-001 +1.3183895155E+001  +1.1033268352E-001 +8.6674454864E+000  +1.1131908860E-001 +8.1394951192E+000  +8.4736230746E-001 +1.3116987004E+001 
15123.983 +8.5121128444E-001 +1.3147735284E+001  +1.1044672923E-001 +8.7070620895E+000  +1.1153660083E-001 +8.2032032561E+000  +8.4872501486E-001 +1.3083876986E+001 
15234.954 +8.5249356316E-001 +1.3087174963E+001  +1.1063144226E-001 +8.7214782968E+000  +1.1167203838E-001 +8.2447357394E+000  +8.5018637837E-001 +1.3037486121E+001 
15346.740 +8.5392847698E-001 +1.3043151641E+001  +1.1095433566E-001 +8.7566239960E+000  +1.1193328463E-001 +8.2584866674E+000  +8.5163839684E-001 +1.2980550003E+001 
15459.346 +8.5521587632E-001 +1.3000080717E+001  +1.1110342689E-001 +8.7490603184E+000  +1.1224364010E-001 +8.3117280184E+000  +8.5295908357E-001 +1.2942675726E+001 
15572.778 +8.5682327273E-001 +1.2950241941E+001  +1.1133710790E-001 +8.8151622549E+000  +1.1239560788E-001 +8.2929614906E+000  +8.5422444279E-001 +1.2887384108E+001 
15687.043 +8.5817739186E-001 +1.2892038605E+001  +1.1152283660E-001 +8.8133294388E+000  +1.1249319477E-001 +8.3465387100E+000  +8.5563847384E-001 +1.2836461119E+001 
15802.146 +8.5984069579E-001 +1.2835024098E+001  +1.1166480870E-001 +8.8487441755E+000  +1.1264248349E-001 +8.3631517466E+000  +8.5735768744E-001 +1.2777822696E+001 
15918.093 +8.6089763361E-001 +1.2777242264E+001  +1.1203410870E-001 +8.8670717015E+000  +1.1286916873E-001 +8.3791973040E+000  +8.5862533841E-001 +1.2720273691E+001 
16034.892 +8.6238256443E-001 +1.2717300225E+001  +1.1212981258E-001 +8.8893377280E+000  +1.1298021525E-001 +8.4157117036E+000  +8.6017281425E-001 +1.2671301708E+001 
16152.547 +8.6365962497E-001 +1.2662722045E+001  +1.1237193189E-001 +8.9204163371E+000  +1.1323302812E-001 +8.4540988258E+000  +8.6145783286E-001 +1.2620181026E+001 
16271.065 +8.6516445112E-001 +1.2604187373E+001  +1.1263033709E-001 +8.9306535380E+000  +1.1344341554E-001 +8.4522017013E+000  +8.6284167605E-001 +1.2550357667E+001 
16390.454 +8.6660473728E-001 +1.2536823971E+001  +1.1273224128E-001 +8.9418073421E+000  +1.1366058992E-001 +8.4926588832E+000  +8.6398878304E-001 +1.2492059219E+001 
16510.718 +8.6781845246E-001 +1.2486729461E+001  +1.1299067991E-001 +8.9726605452E+000  +1.1387721825E-001 +8.5134869772E+000  +8.6553342729E-001 +1.2418210486E+001 
16631.864 +8.6942481066E-001 +1.2408912172E+001  +1.1317527920E-001 +8.9578790108E+000  +1.1413621793E-001 +8.5576185140E+000  +8.6677659581E-001 +1.2355816390E+001 
16753.900 +8.7063759986E-001 +1.2355495762E+001  +1.1335017164E-001 +8.9934930430E+000  +1.1431162464E-001 +8.5714500606E+000  +8.6844380182E-001 +1.2314955723E+001 
16876.831 +8.7198661715E-001 +1.2279261208E+001  +1.1357269287E-001 +8.9761431907E+000  +1.1454606854E-001 +8.5848689485E+000  +8.6968474311E-001 +1.2234859165E+001 
17000.664 +8.7347721269E-001 +1.2216893664E+001  +1.1383999512E-001 +9.0116520759E+000  +1.1473515198E-001 +8.5906248022E+000  +8.7115668554E-001 +1.2176845713E+001 
17125.405 +8.7495353180E-001 +1.2153847627E+001  +1.1403757034E-001 +9.0101647376E+000  +1.1499400571E-001 +8.6080280401E+000  +8.7219447631E-001 +1.2105291346E+001 
17251.062 +8.7631620602E-001 +1.2066511571E+001  +1.1420968013E-001 +9.0283363448E+000  +1.1526884890E-001 +8.6370105193E+000  +8.7368998581E-001 +1.2024589935E+001 
17377.641 +8.7747523131E-001 +1.1996693637E+001  +1.1441745992E-001 +9.0140888944E+000  +1.1550069820E-001 +8.6298800057E+000  +8.7511819491E-001 +1.1950799642E+001 
17505.149 +8.7902812785E-001 +1.1928245655E+001  +1.1460110202E-001 +9.0356655492E+000  +1.1562031392E-001 +8.6547894336E+000  +8.7641929251E-001 +1.1890861036E+001 
17633.592 +8.8015146975E-001 +1.1851853864E+001  +1.1491232018E-001 +8.9974938282E+000  +1.1587073721E-001 +8.6605290127E+000  +8.7783484182E-001 +1.1805260638E+001 
17762.977 +8.8128724952E-001 +1.1759214163E+001  +1.1520210507E-001 +9.0405783322E+000  +1.1608413578E-001 +8.6793204975E+000  +8.7926008813E-001 +1.1735189076E+001 
17893.312 +8.8271339443E-001 +1.1700172724E+001  +1.1531148774E-001 +9.0315437653E+000  +1.1624869884E-001 +8.6822242726E+000  +8.8041881246E-001 +1.1655274630E+001 
18024.604 +8.8431782334E-001 +1.1613370107E+001  +1.1551350882E-001 +9.0075617151E+000  +1.1641226091E-001 +8.6790502766E+000  +8.8200235409E-001 +1.1578700093E+001 
18156.858 +8.8590302925E-001 +1.1552660588E+001  +1.1555212977E-001 +8.9898873126E+000  +1.1658685307E-001 +8.6674447644E+000  +8.8336268127E-001 +1.1499423571E+001 
18290.084 +8.8698285011E-001 +1.1452420499E+001  +1.1596866521E-001 +9.0104220118E+000  +1.1689159689E-001 +8.6673213804E+000  +8.8461358211E-001 +1.1417870789E+001 
18424.286 +8.8825270977E-001 +1.1368183662E+001  +1.1618204867E-001 +9.0109245972E+000  +1.1702539244E-001 +8.7026795215E+000  +8.8606148300E-001 +1.1343648642E+001 
18559.473 +8.8970220873E-001 +1.1272413253E+001  +1.1633818117E-001 +8.9928230559E+000  +1.1718006055E-001 +8.6363181182E+000  +8.8735331201E-001 +1.1242274873E+001 
18695.653 +8.9103984213E-001 +1.1216057028E+001  +1.1647923787E-001 +8.9923914354E+000  +1.1740367665E-001 +8.6880057876E+000  +8.8873770371E-001 +1.1164560281E+001 
18832.831 +8.9230630010E-001 +1.1099581355E+001  +1.1675394251E-001 +8.9822350078E+000  +1.1765661265E-001 +8.6747117922E+000  +8.9007139438E-001 +1.1079571304E+001 
18971.016 +8.9338682471E-001 +1.1005587347E+001  +1.1703306367E-001 +8.9677757789E+000  +1.1788102009E-001 +8.6229583133E+000  +8.9128657498E-001 +1.0987522934E+001 
19110.215 +8.9441921811E-001 +1.0929266031E+001  +1.1730679543E-001 +8.9438513469E+000  +1.1804310520E-001 +8.6673894253E+000  +8.9230633011E-001 +1.0913844727E+001 
19250.435 +8.9519863613E-001 +1.0887683746E+001  +1.1746770566E-001 +8.9467590499E+000  +1.1818081694E-001 +8.6082308159E+000  +8.9313361099E-001 +1.0862740902E+001 
19391.685 +8.9610643622E-001 +1.0842804464E+001  +1.1769425566E-001 +8.9531955210E+000  +1.1841509294E-001 +8.6507758031E+000  +8.9414388460E-001 +1.0820726089E+001 
19533.970 +8.9684864225E-001 +1.0795494242E+001  +1.1776210988E-001 +8.9491713897E+000  +1.1857056444E-001 +8.6436312352E+000  +8.9487402611E-001 +1.0775972979E+001 
19677.300 +8.9803913561E-001 +1.0748568214E+001  +1.1794553756E-001 +8.9562777942E+000  +1.1876089236E-001 +8.6450958465E+000  +8.9591159336E-001 +1.0716944319E+001 
19821.681 +8.9876769261E-001 +1.0708657653E+001  +1.1808347822E-001 +8.9503159817E+000  +1.1886241522E-001 +8.6506695644E+000  +8.9669685873E-001 +1.0689296502E+001 
19967.122 +8.9963830711E-001 +1.0659292393E+001  +1.1828108972E-001 +8.9319247582E+000  +1.1907393817E-001 +8.6615354143E+000  +8.9740762825E-001 +1.0636229150E+001 
20113.629 +9.0046026146E-001 +1.0612918013E+001  +1.1836255821E-001 +8.9658203296E+000  +1.1937921924E-001 +8.6652110324E+000  +8.9814225935E-001 +1.0578666280E+001 
20261.212 +9.0138143648E-001 +1.0562943956E+001  +1.1857953160E-001 +8.9299872971E+000  +1.1947910538E-001 +8.6804573577E+000  +8.9899248017E-001 +1.0539899361E+001 
20409.878 +9.0232688018E-001 +1.0506619724E+001  +1.1871991136E-001 +8.9300584187E+000  +1.1962758182E-001 +8.6703531472E+000  +8.9985173376E-001 +1.0479532169E+001 
20559.634 +9.0313699651E-001 +1.0464244643E+001  +1.1891281920E-001 +8.9246870007E+000  +1.1981394450E-001 +8.6554109482E+000  +9.0070068407E-001 +1.0427611489E+001 
20710.490 +9.0389367477E-001 +1.0399931855E+001  +1.1908075158E-001 +8.9005212197E+000  +1.1990179444E-001 +8.6635628071E+000  +9.0166014484E-001 +1.0378870260E+001 
20862.452 +9.0456635714E-001 +1.0347879931E+001  +1.1924850821E-001 +8.9411462366E+000  +1.2014289767E-001 +8.6463048804E+000  +9.0222022569E-001 +1.0324349789E+001 
21015.529 +9.0541781511E-001 +1.0293958553E+001  +1.1947842237E-001 +8.9038635213E+000  +1.2026995477E-001 +8.6225090207E+000  +9.0319009579E-001 +1.0267150286E+001 
