!  2-Port S-parameters saved by WinCal
! VAR MeasName=S-Parameters (CALIBRATED_DATA) read from VNA (P5004A)
! VAR MeasDate=26/04/2024 18:42:11
! VAR NAME=Wafer2_r1_c9_smallform_log
! VAR FILENAME=Wafer2_r1_c9_smallform_log_1.S2P
! VAR DATE=26/04/2024 18:42:11
! VAR PHYS_PORTS=1,2
! VAR ObjTypeName=DATASET
! VAR IndexType=Frequency
!
# Hz S MA R 50
9000.000 +7.9783847908E-001 +1.7320913752E+001  +1.7498101756E-005 +1.5306044521E+002  +2.0117125764E-005 -9.2319187556E+001  +7.9780066303E-001 +1.7304836670E+001 
9066.037 +8.0046283295E-001 +1.7371852190E+001  +2.8370478124E-005 -1.5995917109E+002  +7.0670059444E-006 -1.4463014094E+002  +8.0032312662E-001 +1.7365162756E+001 
9132.559 +8.0262139343E-001 +1.7426943995E+001  +3.6179736153E-006 -1.4053252242E+002  +3.4618773666E-006 +1.1287645219E+002  +8.0245224453E-001 +1.7416360076E+001 
9199.568 +8.0543566475E-001 +1.7492662835E+001  +3.3622512411E-005 +6.4066061446E+001  +1.4828004311E-005 +8.9412815247E+001  +8.0543844866E-001 +1.7484247278E+001 
9267.070 +8.0808775712E-001 +1.7524495498E+001  +3.6748337089E-005 -6.5195285137E+000  +2.7137040634E-005 +1.4048977269E+002  +8.0793154063E-001 +1.7518721710E+001 
9335.066 +8.1053111214E-001 +1.7591650142E+001  +3.6287337488E-005 +1.7394815259E+002  +1.2465461962E-005 -7.5292526055E+001  +8.1033307357E-001 +1.7590351083E+001 
9403.562 +8.1325846997E-001 +1.7628108349E+001  +1.2628289064E-005 -1.8566821150E+001  +2.3084430177E-005 +9.4364098149E+000  +8.1319292211E-001 +1.7626859249E+001 
9472.560 +8.1586467502E-001 +1.7675768844E+001  +1.2174750004E-005 +1.4086879812E+001  +1.1903927770E-005 +1.7648238334E+002  +8.1573307941E-001 +1.7648080621E+001 
9542.065 +8.1875308410E-001 +1.7684320999E+001  +2.1020153564E-005 +9.4114982211E+001  +1.5324519058E-005 -1.4195671394E+002  +8.1851344631E-001 +1.7677074802E+001 
9612.079 +8.2104659961E-001 +1.7728815435E+001  +1.2978856918E-005 -2.2788576425E+001  +1.4914388750E-005 -8.8134864548E+001  +8.2097040357E-001 +1.7702381539E+001 
9682.607 +8.2366370160E-001 +1.7747057747E+001  +3.2713828124E-005 -1.3957734023E+002  +2.0685472589E-005 +8.4841448185E+001  +8.2377431407E-001 +1.7736112210E+001 
9753.653 +8.2637488305E-001 +1.7781130166E+001  +5.1721936007E-006 -1.2194068327E+002  +1.9124894108E-005 +1.6764755719E+002  +8.2624780831E-001 +1.7762820517E+001 
9825.220 +8.2876657344E-001 +1.7791316250E+001  +2.8559532619E-005 -9.3781036481E+001  +1.3338687145E-005 +6.2206774057E+001  +8.2856080191E-001 +1.7784662436E+001 
9897.312 +8.3155347205E-001 +1.7798362086E+001  +4.8133292820E-005 +5.9121856270E+001  +4.9313977748E-005 +1.0391209028E+002  +8.3159836775E-001 +1.7800849739E+001 
9969.933 +8.3417612654E-001 +1.7838203230E+001  +2.4574809407E-005 -1.6737724837E+002  +2.6209039196E-005 +1.1390220479E+002  +8.3409392178E-001 +1.7837777332E+001 
10043.087 +8.3688722423E-001 +1.7856018662E+001  +1.4429449105E-005 +6.1367255208E+001  +2.8409632327E-005 +6.3116956636E+001  +8.3675024954E-001 +1.7850768786E+001 
10116.778 +8.3962649986E-001 +1.7854594643E+001  +2.8914680503E-005 +1.5486328379E+002  +3.6330041036E-005 +1.0377388217E+002  +8.3937645603E-001 +1.7847361131E+001 
10191.009 +8.4204060943E-001 +1.7888154856E+001  +3.0578811531E-005 -9.9447452600E+001  +3.8703939160E-005 +1.2294960411E+002  +8.4194149196E-001 +1.7874660119E+001 
10265.785 +8.4507900197E-001 +1.7895001470E+001  +6.0814587871E-006 -2.7153151273E+001  +2.0177815946E-005 -1.2251777063E+002  +8.4482442607E-001 +1.7878530609E+001 
10341.110 +8.4798625410E-001 +1.7907355425E+001  +2.8847145334E-005 +9.2655964281E+001  +2.4132838267E-005 +1.4329379101E+002  +8.4769953392E-001 +1.7885142604E+001 
10416.987 +8.5066935450E-001 +1.7894584409E+001  +2.4972131657E-005 -8.7187764189E+001  +1.2382848804E-005 +1.2903375226E+002  +8.5054790098E-001 +1.7899091095E+001 
10493.421 +8.5360891986E-001 +1.7894531048E+001  +1.1113373865E-005 -1.6940267739E+002  +2.1272613776E-005 +5.7155516255E+001  +8.5334290119E-001 +1.7888497754E+001 
10570.416 +8.5620657692E-001 +1.7876701360E+001  +2.4739768647E-005 -1.2280498342E+002  +1.9826665543E-005 +5.0007110243E+001  +8.5628012041E-001 +1.7869804761E+001 
10647.976 +8.5890355277E-001 +1.7886972051E+001  +4.1239796179E-005 +1.0314534373E+002  +2.2782940828E-005 +1.7887187912E+001  +8.5896725040E-001 +1.7881703022E+001 
10726.105 +8.6201599672E-001 +1.7870998220E+001  +6.4564966707E-006 -1.0593507868E+002  +1.9602904948E-005 +1.4979845520E+002  +8.6195546601E-001 +1.7866213635E+001 
10804.808 +8.6533247991E-001 +1.7844379016E+001  +1.6665265967E-005 +1.0723232658E+002  +1.4871414580E-005 +7.8839841460E+001  +8.6501553712E-001 +1.7845865629E+001 
10884.087 +8.6825243462E-001 +1.7842851216E+001  +2.3163390129E-005 +1.1161890663E+002  +8.4884416218E-006 -9.7053317208E+001  +8.6800481317E-001 +1.7839209626E+001 
10963.949 +8.7104822068E-001 +1.7804634279E+001  +1.7680912058E-005 +1.3014267536E+002  +3.2503851878E-005 +1.7647864034E+002  +8.7111826033E-001 +1.7809592709E+001 
11044.396 +8.7398742982E-001 +1.7796044020E+001  +3.1027094535E-005 -1.0718704655E+002  +1.2479712977E-005 +7.6656335303E+000  +8.7407871925E-001 +1.7803793110E+001 
11125.434 +8.7640273874E-001 +1.7791545265E+001  +3.2254409926E-005 -3.7273336849E+001  +1.4614280801E-005 -6.3379115979E+001  +8.7642452381E-001 +1.7784211214E+001 
11207.066 +8.7906894330E-001 +1.7768864104E+001  +2.0604075451E-005 +1.0274698687E+002  +3.3671024499E-005 +1.0447566968E+002  +8.7912138306E-001 +1.7758955864E+001 
11289.298 +8.8153607735E-001 +1.7763875421E+001  +1.2074252273E-005 -6.9073209723E+001  +3.3217778674E-005 -1.1172599813E+002  +8.8139992791E-001 +1.7763541390E+001 
11372.132 +8.8408596703E-001 +1.7732225388E+001  +4.5483129225E-005 -2.7739323470E+001  +4.3100106085E-005 +4.0749485835E+001  +8.8409000448E-001 +1.7736252027E+001 
11455.575 +8.8691657812E-001 +1.7716801946E+001  +3.2353220438E-006 +9.4720882448E+001  +1.2150679196E-005 +1.4291090446E+001  +8.8687089296E-001 +1.7716180406E+001 
11539.630 +8.8944880270E-001 +1.7688805418E+001  +1.2152019104E-005 -5.9968159468E+001  +3.8076683560E-005 -1.6662978456E+002  +8.8942111730E-001 +1.7689430636E+001 
11624.301 +8.9210897390E-001 +1.7653850392E+001  +9.6592013473E-006 +3.6618790111E+001  +3.4093807668E-005 -1.6951327321E+002  +8.9190774362E-001 +1.7647800476E+001 
11709.594 +8.9462376636E-001 +1.7622219114E+001  +3.3207001153E-005 +1.4797065244E+002  +2.8298453511E-005 +5.8032699025E+001  +8.9453847045E-001 +1.7622334192E+001 
11795.512 +8.9734177499E-001 +1.7591956930E+001  +2.9268218871E-005 +4.7168414425E+001  +2.8608334292E-005 -4.4436015147E+001  +8.9742415543E-001 +1.7592025895E+001 
11882.062 +9.0008875724E-001 +1.7561342609E+001  +2.6837230660E-005 +8.9098165085E+001  +1.7914897902E-005 +1.7986270330E+002  +8.9984143835E-001 +1.7558928151E+001 
11969.246 +9.0293968005E-001 +1.7522069747E+001  +2.7489263134E-005 +1.6395771506E+002  +3.3372591178E-005 +1.4915796831E+002  +9.0305367933E-001 +1.7508333675E+001 
12057.069 +9.0539490117E-001 +1.7466678935E+001  +9.5675609418E-006 -1.6196391248E+002  +1.6474471341E-006 +4.9615055761E+001  +9.0537966365E-001 +1.7466064953E+001 
12145.538 +9.0827208186E-001 +1.7414219518E+001  +2.7184563457E-005 +8.4046087494E+001  +3.1810107875E-005 -1.4340119348E+002  +9.0809732963E-001 +1.7428733921E+001 
12234.655 +9.1086453599E-001 +1.7381287023E+001  +3.2223215218E-005 +7.6701851390E+001  +1.0201482508E-005 +5.8397584827E+001  +9.1077654161E-001 +1.7373429126E+001 
12324.426 +9.1367215332E-001 +1.7318115822E+001  +5.6783085587E-005 -7.3557275490E+001  +1.5183331872E-005 +1.1080532947E+002  +9.1373587493E-001 +1.7314268457E+001 
12414.856 +9.1638566029E-001 +1.7267469756E+001  +3.4666600860E-005 +1.9355686875E+001  +4.8501178592E-006 -6.9197915473E+000  +9.1630755920E-001 +1.7258436446E+001 
12505.949 +9.1930969508E-001 +1.7203731338E+001  +3.0866561470E-005 +8.8877983810E+001  +2.8438930250E-005 -1.6942046922E+002  +9.1933250996E-001 +1.7212667054E+001 
12597.711 +9.2129826247E-001 +1.7179902403E+001  +1.2287637325E-005 +1.2054813417E+002  +1.3156729175E-005 +1.3823511044E+002  +9.2124670610E-001 +1.7175981501E+001 
12690.146 +9.2402894202E-001 +1.7128665766E+001  +5.8197702143E-005 +9.8015741921E+001  +6.2404535015E-006 +7.6368497383E+000  +9.2400345207E-001 +1.7127640687E+001 
12783.260 +9.2640710555E-001 +1.7090050661E+001  +4.1482800664E-005 +2.0907399483E+001  +1.4860004385E-005 +1.0529933861E+001  +9.2632665542E-001 +1.7080524655E+001 
12877.056 +9.2878369523E-001 +1.7027931036E+001  +3.0582342536E-005 +1.4582908055E+002  +4.2322845868E-006 +1.6683114958E+002  +9.2890151743E-001 +1.7027643192E+001 
12971.541 +9.3128471687E-001 +1.6982901428E+001  +1.2738454303E-005 -4.4420433865E+001  +2.4753941903E-005 +1.2300857956E+002  +9.3116332057E-001 +1.6977967620E+001 
13066.719 +9.3339443820E-001 +1.6917236730E+001  +2.4229934315E-005 +1.1608702054E+002  +3.7635056273E-005 -8.4774554386E+001  +9.3329087290E-001 +1.6913773896E+001 
13162.595 +9.3588520978E-001 +1.6872685809E+001  +2.5664491096E-005 -7.6377166406E+001  +2.1330265960E-005 -1.4547106545E+002  +9.3571180554E-001 +1.6879512433E+001 
13259.175 +9.3826998523E-001 +1.6818270286E+001  +4.0182153541E-005 +1.4263264876E+000  +2.2468806667E-005 -1.2138778451E+000  +9.3830862837E-001 +1.6810137104E+001 
13356.464 +9.4043598247E-001 +1.6755050607E+001  +1.9036713712E-005 +1.1714272040E+002  +2.2950810950E-005 -1.7105361879E+002  +9.4057039384E-001 +1.6743223847E+001 
13454.466 +9.4313555606E-001 +1.6685153613E+001  +3.5326817481E-005 -1.0253366534E+002  +2.0511152145E-005 +7.2592094578E+001  +9.4297952274E-001 +1.6679494259E+001 
13553.188 +9.4533562228E-001 +1.6629548851E+001  +5.7346029788E-005 -8.7701108529E+001  +5.3839799699E-006 +8.2916221480E+001  +9.4529862146E-001 +1.6617390237E+001 
13652.634 +9.4772157792E-001 +1.6561348816E+001  +1.0708058335E-005 -4.0778316756E+001  +2.4073648107E-005 -1.2314027061E+002  +9.4770958135E-001 +1.6558201663E+001 
13752.809 +9.5027528938E-001 +1.6488961293E+001  +2.5459431094E-005 -1.6060616444E+002  +7.0026435438E-006 +5.7239343741E+001  +9.5043925540E-001 +1.6484463526E+001 
13853.720 +9.5285668997E-001 +1.6402909326E+001  +2.1277958147E-005 +8.6146609614E+001  +1.9366006750E-005 +4.4877383039E+001  +9.5280110912E-001 +1.6411556625E+001 
13955.371 +9.5530094920E-001 +1.6358591700E+001  +2.1450749816E-005 +5.8272665899E+001  +2.5820263966E-005 +1.5540792985E+002  +9.5525641293E-001 +1.6336516862E+001 
14057.768 +9.5745066809E-001 +1.6265470110E+001  +1.5632042458E-005 -5.5538017478E+001  +1.8845052933E-005 -1.2715649948E+002  +9.5737124218E-001 +1.6254409075E+001 
14160.916 +9.5999062102E-001 +1.6194201085E+001  +3.0575099961E-005 -8.6351859429E-001  +1.0662990075E-005 -1.6880734262E+002  +9.5988011232E-001 +1.6192574955E+001 
14264.821 +9.6241838921E-001 +1.6114349585E+001  +3.4504390174E-005 -1.4089857358E+002  +2.2777873981E-005 +1.4516820857E+002  +9.6226197079E-001 +1.6116508393E+001 
14369.488 +9.6459406835E-001 +1.6042002016E+001  +1.2841681364E-005 -1.3204741003E+002  +1.2675474766E-005 +1.0936017685E+002  +9.6439270346E-001 +1.6049589182E+001 
14474.924 +9.6628960802E-001 +1.5983896153E+001  +9.4816306227E-006 +3.4393917796E+001  +3.3261936191E-005 +8.6747183530E+001  +9.6617930364E-001 +1.5989568024E+001 
14581.133 +9.6842214420E-001 +1.5936081944E+001  +2.5041300255E-005 +1.6674563737E+002  +2.9289926941E-005 +1.2497511717E+002  +9.6828846615E-001 +1.5930254756E+001 
14688.121 +9.6995750105E-001 +1.5882662713E+001  +3.0951854298E-005 -7.1432255644E+001  +2.5434737697E-005 -3.2658904670E+001  +9.6995462778E-001 +1.5877137774E+001 
14795.895 +9.7183749171E-001 +1.5828267909E+001  +3.3175799110E-005 -2.6711415558E+001  +8.9077263387E-006 -1.2135762065E+002  +9.7194162750E-001 +1.5813999305E+001 
14904.459 +9.7385545418E-001 +1.5745775672E+001  +1.9501971223E-005 +1.3799829292E+001  +1.8141213616E-005 +4.0635981021E+000  +9.7365923460E-001 +1.5746622423E+001 
15013.820 +9.7580797339E-001 +1.5693092093E+001  +1.2869608809E-005 -5.0303748843E+001  +3.2628323523E-005 +1.2656585594E+002  +9.7578086325E-001 +1.5693223058E+001 
15123.983 +9.7779663754E-001 +1.5650211467E+001  +5.1690729024E-005 +2.8418861524E+001  +1.6746471298E-005 -3.3116369146E+001  +9.7752510386E-001 +1.5644736454E+001 
15234.954 +9.7966017435E-001 +1.5575888748E+001  +4.1627088928E-005 +3.9841684952E+001  +2.3328957412E-005 +5.3079665096E+001  +9.7949224850E-001 +1.5570435987E+001 
15346.740 +9.8140470977E-001 +1.5505006259E+001  +2.8497659206E-005 +1.5177398968E+001  +2.6754096572E-005 +1.5278292801E+002  +9.8127891764E-001 +1.5494240706E+001 
15459.346 +9.8315952591E-001 +1.5445362152E+001  +1.9560054033E-005 +7.5807353673E+001  +3.7269386738E-006 -1.3397773018E+002  +9.8330258442E-001 +1.5446593737E+001 
15572.778 +9.8513470236E-001 +1.5387646889E+001  +3.2879545645E-005 -1.6870897601E+002  +2.2651346121E-005 +9.9593552300E-001  +9.8496003768E-001 +1.5375093355E+001 
15687.043 +9.8703826996E-001 +1.5307024109E+001  +1.2574597924E-005 +1.7721229497E+002  +3.9700598189E-005 +1.5605019839E+001  +9.8699172476E-001 +1.5304583460E+001 
15802.146 +9.8908673227E-001 +1.5231405417E+001  +1.1479575337E-005 +1.5832701208E+002  +3.2568309054E-005 +9.6575597853E+001  +9.8879453715E-001 +1.5217490082E+001 
15918.093 +9.9061341220E-001 +1.5157268345E+001  +1.9916353342E-005 -5.0547338867E+001  +3.2711636287E-005 +8.4650297952E+001  +9.9062173872E-001 +1.5152637621E+001 
16034.892 +9.9261804973E-001 +1.5085775577E+001  +3.0517975765E-005 +7.7827158728E+001  +2.1940434269E-005 +1.1253332042E+002  +9.9255342793E-001 +1.5085870624E+001 
16152.547 +9.9443947451E-001 +1.4998724490E+001  +9.3593850986E-006 +1.6549273057E+002  +2.0047002177E-005 +1.7678627108E+002  +9.9435611778E-001 +1.4999947364E+001 
16271.065 +9.9628470354E-001 +1.4929802203E+001  +2.7163912122E-005 +3.4333967850E+001  +2.5271355009E-005 +5.9913217393E+001  +9.9619698734E-001 +1.4923946987E+001 
16390.454 +9.9807850766E-001 +1.4847812011E+001  +2.6015120352E-005 +6.3796002364E+001  +2.2278996528E-005 +2.4773752811E+001  +9.9792670627E-001 +1.4852154803E+001 
16510.718 +9.9982013122E-001 +1.4773839253E+001  +1.3698288558E-005 +6.8116225550E+000  +2.6863155080E-005 -1.0611224166E+002  +9.9978288448E-001 +1.4756760923E+001 
16631.864 +1.0017986348E+000 +1.4678508792E+001  +4.1846011010E-005 +1.5263526928E+002  +3.4801393556E-005 +8.9888175601E+001  +1.0015800892E+000 +1.4666987041E+001 
16753.900 +1.0035938693E+000 +1.4598513888E+001  +3.8440455660E-005 +1.4709071511E+002  +3.3756057970E-005 +1.0158877042E+002  +1.0034194493E+000 +1.4601216905E+001 
16876.831 +1.0053303771E+000 +1.4513485883E+001  +4.0018745956E-005 +1.1826911075E+002  +1.4549490307E-005 -8.5758947180E+001  +1.0050944878E+000 +1.4508573280E+001 
17000.664 +1.0071611105E+000 +1.4433964070E+001  +5.2101519316E-005 +1.4645720791E+002  +1.5828275614E-005 -7.6399721140E+001  +1.0070693040E+000 +1.4433846522E+001 
17125.405 +1.0088867423E+000 +1.4345980906E+001  +3.0206724588E-005 +5.8508892450E+001  +2.2602937571E-005 -2.3601584269E+001  +1.0087545775E+000 +1.4341195029E+001 
17251.062 +1.0107456067E+000 +1.4239462551E+001  +3.8715650760E-005 +1.7888329519E+001  +1.6439263224E-005 +9.8220084208E+001  +1.0105107412E+000 +1.4238235194E+001 
17377.641 +1.0124327893E+000 +1.4159230962E+001  +1.9402497664E-005 +1.3854548157E+002  +1.8135878187E-005 +1.9372179966E+001  +1.0124223085E+000 +1.4139325721E+001 
17505.149 +1.0143305375E+000 +1.4065050781E+001  +3.4758240381E-005 +1.7219678768E+002  +2.2447063219E-005 +5.9745090828E+001  +1.0141202388E+000 +1.4063811212E+001 
17633.592 +1.0160172542E+000 +1.3968100471E+001  +2.5435825898E-005 -1.4379461668E+002  +3.7744133299E-005 +6.8040343070E+001  +1.0157975263E+000 +1.3959094299E+001 
17762.977 +1.0176697999E+000 +1.3866196586E+001  +4.6009714769E-005 +1.5650916547E+000  +4.7444152608E-005 +9.5846286104E+001  +1.0176813974E+000 +1.3868197449E+001 
17893.312 +1.0193897212E+000 +1.3777186093E+001  +3.8029387891E-005 +5.9583739136E+001  +3.1893591911E-005 -2.2484087124E+001  +1.0193904535E+000 +1.3775412515E+001 
18024.604 +1.0213658999E+000 +1.3671427891E+001  +2.2868508827E-005 -8.2907006371E+001  +1.0933232848E-005 +1.0553837838E+002  +1.0213072623E+000 +1.3676252778E+001 
18156.858 +1.0231087259E+000 +1.3569517346E+001  +2.1749437396E-005 -1.3962444236E+002  +2.2987216188E-005 +7.2921579216E+001  +1.0229963471E+000 +1.3572479738E+001 
18290.084 +1.0248052591E+000 +1.3462015365E+001  +3.3234007150E-005 +6.7257456805E+001  +3.6576284968E-005 +8.7883992992E+001  +1.0246183560E+000 +1.3463124056E+001 
18424.286 +1.0263937455E+000 +1.3370728348E+001  +3.7864741680E-005 +1.1698833439E+002  +9.2936440117E-006 -2.0350052261E+001  +1.0263069513E+000 +1.3361174843E+001 
18559.473 +1.0281865771E+000 +1.3252776566E+001  +2.6885750744E-005 +1.1219823237E+002  +1.1270273679E-005 +1.3166608248E+002  +1.0279971624E+000 +1.3245395307E+001 
18695.653 +1.0298568283E+000 +1.3152389781E+001  +1.8202082165E-005 +2.6271591861E+000  +2.1589483208E-005 -3.7438090297E+001  +1.0298250000E+000 +1.3147317326E+001 
18832.831 +1.0314888075E+000 +1.3030246508E+001  +1.3069568089E-005 -1.0698713835E+002  +5.8305475493E-005 -1.0963999362E+002  +1.0315326459E+000 +1.3030783164E+001 
18971.016 +1.0330459736E+000 +1.2913729383E+001  +5.1611836179E-005 +5.8871150716E+001  +1.9028652752E-005 +6.8664343414E+001  +1.0330732113E+000 +1.2923036369E+001 
19110.215 +1.0345187046E+000 +1.2830203881E+001  +3.1774128314E-005 +1.0930600447E+002  +5.1710451406E-005 +5.1725522104E+001  +1.0342841120E+000 +1.2819679023E+001 
19250.435 +1.0355121453E+000 +1.2759930547E+001  +1.0084042870E-005 -1.6877663172E+002  +1.3896146020E-005 -7.4129749560E+001  +1.0355436657E+000 +1.2775207926E+001 
19391.685 +1.0368367808E+000 +1.2708930456E+001  +4.9733034866E-005 +1.5520080543E+002  +3.4932252479E-005 +1.6044004345E+002  +1.0365479228E+000 +1.2703934996E+001 
19533.970 +1.0376671474E+000 +1.2646425800E+001  +2.1936680432E-005 -1.2040831291E+002  +3.3855068758E-005 +1.2886895704E+002  +1.0376995937E+000 +1.2634562315E+001 
19677.300 +1.0389358389E+000 +1.2581018809E+001  +1.2538118621E-005 +1.2223064549E+002  +1.8969189786E-005 -5.1118790527E+001  +1.0389674316E+000 +1.2576389867E+001 
19821.681 +1.0399285421E+000 +1.2522946227E+001  +6.9482497290E-006 +7.5506696383E+001  +1.3697591573E-005 +1.8292601256E+001  +1.0399134406E+000 +1.2524379943E+001 
19967.122 +1.0410826251E+000 +1.2468087728E+001  +6.4631588616E-006 +1.0141269973E+002  +3.9765038349E-005 -1.7482871914E+002  +1.0409341504E+000 +1.2457381333E+001 
20113.629 +1.0420030339E+000 +1.2395738589E+001  +3.2339697181E-005 +1.5262678093E+002  +1.0813917884E-005 -1.5658142305E+002  +1.0420058454E+000 +1.2397296872E+001 
20261.212 +1.0431485075E+000 +1.2338016079E+001  +5.6143607469E-006 -2.8676574734E+001  +1.6623185563E-005 +9.9357487831E+001  +1.0429680576E+000 +1.2339678249E+001 
20409.878 +1.0442593670E+000 +1.2277240816E+001  +3.4775923664E-005 +1.3164941689E+002  +4.8720150112E-005 -1.7689455849E+002  +1.0441766180E+000 +1.2267908134E+001 
20559.634 +1.0453577995E+000 +1.2212750082E+001  +2.9124801194E-005 +7.8747987132E+001  +4.8939383358E-005 +6.2611525027E+001  +1.0452565026E+000 +1.2212023881E+001 
20710.490 +1.0464236561E+000 +1.2142842140E+001  +1.9185859185E-005 +7.4070667493E+001  +5.4516675028E-005 -1.3889922582E+002  +1.0462502592E+000 +1.2139551515E+001 
20862.452 +1.0473133352E+000 +1.2070302825E+001  +4.2011952816E-005 +1.0468958508E+002  +2.4052641128E-005 -4.7328410664E+000  +1.0472007110E+000 +1.2069152691E+001 
21015.529 +1.0483501326E+000 +1.1999153157E+001  +1.3767464347E-005 -9.2453101682E+001  +7.1442167296E-006 -4.1240324728E+001  +1.0481995109E+000 +1.2002948200E+001 
