!  2-Port S-parameters saved by WinCal
! VAR MeasName=S-Parameters (CALIBRATED_DATA) read from VNA (P5004A)
! VAR MeasDate=26/04/2024 19:08:17
! VAR NAME=Wafer2_r1_c8_fullform_log
! VAR FILENAME=Wafer2_r1_c8_fullform_log_1.S2P
! VAR DATE=26/04/2024 19:08:17
! VAR PHYS_PORTS=1,2
! VAR ObjTypeName=DATASET
! VAR IndexType=Frequency
!
# Hz S MA R 50
9000.000 +7.9782638425E-001 +1.7322973694E+001  +3.7185075317E-005 +1.0223034768E+002  +4.4326793508E-005 -1.6633997086E+002  +7.9784196395E-001 +1.7305779919E+001 
9066.037 +8.0044045668E-001 +1.7374305744E+001  +1.5138284898E-005 +8.9805130460E+001  +1.7672664613E-005 -2.7226143582E+001  +8.0026949008E-001 +1.7361475496E+001 
9132.559 +8.0270486643E-001 +1.7427926492E+001  +2.9369926553E-005 +1.6483738428E+002  +5.7097936447E-006 -1.2714428086E+001  +8.0255706910E-001 +1.7424377089E+001 
9199.568 +8.0530445774E-001 +1.7492980401E+001  +1.2980757682E-005 -6.4211649421E+001  +1.2829700419E-005 -1.7285739194E+001  +8.0546199567E-001 +1.7491214561E+001 
9267.070 +8.0806693447E-001 +1.7520956371E+001  +1.0542381174E-005 +1.0701646822E+002  +1.5668112629E-005 -1.3637994266E+002  +8.0797233114E-001 +1.7509193564E+001 
9335.066 +8.1039229683E-001 +1.7589948674E+001  +2.5799280004E-005 +5.0515091010E+001  +6.6692303008E-006 +1.4162320412E+002  +8.1038425455E-001 +1.7580524840E+001 
9403.562 +8.1323924205E-001 +1.7631346742E+001  +2.2941247718E-005 +1.5745047076E+002  +4.3489688467E-005 -5.6816299473E+001  +8.1319773532E-001 +1.7622156705E+001 
9472.560 +8.1588033547E-001 +1.7672078498E+001  +2.8340732683E-005 +1.6575538987E+002  +3.7518857186E-005 -1.1191915506E+001  +8.1581207706E-001 +1.7650855580E+001 
9542.065 +8.1874167204E-001 +1.7686731829E+001  +7.3843684788E-006 +1.7566605884E+002  +1.6059044394E-005 -1.3843528416E+002  +8.1854918786E-001 +1.7675224368E+001 
9612.079 +8.2111832034E-001 +1.7722383069E+001  +3.7011044025E-005 -7.1484595410E+000  +2.4994423798E-005 -4.8770969734E+001  +8.2104563287E-001 +1.7712752492E+001 
9682.607 +8.2384883711E-001 +1.7741239641E+001  +2.9073019959E-005 +3.1757602653E+001  +3.6781102629E-005 -1.3761226113E+002  +8.2361273034E-001 +1.7731564438E+001 
9753.653 +8.2634692783E-001 +1.7779362575E+001  +3.8408402303E-006 +5.5457437085E+001  +2.0632018853E-005 -1.3632701073E+002  +8.2622942149E-001 +1.7763202939E+001 
9825.220 +8.2864611345E-001 +1.7799901681E+001  +8.4011114191E-006 -5.8753015888E+001  +2.3743414513E-005 -1.1220720120E+002  +8.2847289535E-001 +1.7788638577E+001 
9897.312 +8.3165319035E-001 +1.7804687449E+001  +6.7901176760E-006 +1.7503741602E+002  +1.2758498079E-005 -7.9660956699E+001  +8.3162427936E-001 +1.7797731885E+001 
9969.933 +8.3404847005E-001 +1.7837190572E+001  +1.4524774577E-005 +6.2533968310E+001  +1.0577011056E-005 -1.0055489629E+002  +8.3405459410E-001 +1.7839567194E+001 
10043.087 +8.3686361595E-001 +1.7854354960E+001  +4.4421449379E-005 -1.6137433823E+002  +2.7770347488E-005 +4.0851150527E+001  +8.3685092249E-001 +1.7849966004E+001 
10116.778 +8.3951967789E-001 +1.7855047598E+001  +2.5060496394E-005 -3.8777175384E+001  +1.7926947905E-005 -3.7647502143E+001  +8.3922383356E-001 +1.7850171045E+001 
10191.009 +8.4203362256E-001 +1.7885295238E+001  +1.6311338916E-005 -1.5015063251E+002  +2.5499376186E-005 +7.8937621991E+001  +8.4192978422E-001 +1.7877898367E+001 
10265.785 +8.4507491111E-001 +1.7879958835E+001  +2.5632758749E-005 +1.7548799531E+002  +2.0610524535E-005 +1.3768417349E+002  +8.4479311695E-001 +1.7879650975E+001 
10341.110 +8.4794183226E-001 +1.7901942728E+001  +4.9187580449E-006 +1.4500488527E+002  +2.4905894474E-005 +9.0070233811E+001  +8.4764852849E-001 +1.7897622541E+001 
10416.987 +8.5053128019E-001 +1.7902600476E+001  +7.3111169825E-006 +1.5869669863E+002  +2.1612769227E-005 +1.0190347846E+002  +8.5056237176E-001 +1.7891983303E+001 
10493.421 +8.5352315999E-001 +1.7893421454E+001  +1.9104495355E-005 -5.4417287386E+001  +2.5744246043E-005 -1.3053991420E+002  +8.5339055706E-001 +1.7878865892E+001 
10570.416 +8.5618952763E-001 +1.7877413027E+001  +1.7943389373E-005 +1.2324110321E+002  +4.5634748037E-005 -1.7464433029E+002  +8.5643233127E-001 +1.7874163755E+001 
10647.976 +8.5899387568E-001 +1.7896213478E+001  +2.0346818573E-005 +1.3643241291E+002  +4.1073681489E-005 +7.5811257698E+001  +8.5902009496E-001 +1.7876455371E+001 
10726.105 +8.6208897836E-001 +1.7864947471E+001  +3.6811911371E-005 +9.9019675191E+001  +1.8197681841E-005 +9.3585031228E+001  +8.6192385091E-001 +1.7862844724E+001 
10804.808 +8.6522688620E-001 +1.7847401309E+001  +4.5952091605E-005 -2.3837493632E+001  +1.9494681899E-005 -5.6071447901E+001  +8.6501683605E-001 +1.7841159530E+001 
10884.087 +8.6818891728E-001 +1.7841010352E+001  +4.0563358126E-005 +7.6532519780E+001  +1.3971548481E-005 -1.6092722869E+002  +8.6808858499E-001 +1.7831694156E+001 
10963.949 +8.7117596383E-001 +1.7807525372E+001  +3.2023762426E-005 -9.3532381847E+001  +9.5990481293E-006 -9.6005640907E+001  +8.7112603410E-001 +1.7811081696E+001 
11044.396 +8.7397819212E-001 +1.7791689293E+001  +4.1520404666E-005 +1.2682357423E+002  +1.1267635649E-005 +1.4281060596E+002  +8.7411445173E-001 +1.7805630230E+001 
11125.434 +8.7634998318E-001 +1.7792339019E+001  +3.1495892851E-005 +1.2751919410E+002  +3.3530903895E-005 +6.1277036861E+001  +8.7645923003E-001 +1.7781537738E+001 
11207.066 +8.7914492935E-001 +1.7767744169E+001  +1.2249973554E-005 +7.9492511744E+001  +2.9382453735E-005 +7.0468086041E+001  +8.7911882174E-001 +1.7763121063E+001 
11289.298 +8.8141242546E-001 +1.7760463689E+001  +2.5894039334E-005 -6.2809073874E+001  +9.0095386374E-006 -2.6153578581E+001  +8.8137915220E-001 +1.7767123269E+001 
11372.132 +8.8402421938E-001 +1.7734093178E+001  +1.6873954424E-005 +1.4968760215E+002  +6.2107245983E-005 +1.3738753108E+002  +8.8404806856E-001 +1.7729097065E+001 
11455.575 +8.8702876227E-001 +1.7714244529E+001  +1.4971427667E-005 -1.2202254296E+002  +4.4452855753E-005 +5.7553534947E+001  +8.8684538573E-001 +1.7708375314E+001 
11539.630 +8.8943253521E-001 +1.7691559770E+001  +2.3116945179E-005 +5.4415414647E+000  +9.9317365523E-006 +9.4536294881E+001  +8.8934168682E-001 +1.7686149462E+001 
11624.301 +8.9205726241E-001 +1.7657299906E+001  +3.7143423869E-005 +6.8176037515E+001  +3.2482859684E-006 -9.0219432095E+001  +8.9197994494E-001 +1.7651933844E+001 
11709.594 +8.9458157434E-001 +1.7624455392E+001  +1.1438947740E-005 -9.5814650878E+001  +5.0419377636E-005 -1.6328109700E+002  +8.9451690536E-001 +1.7614919758E+001 
11795.512 +8.9735870237E-001 +1.7593350960E+001  +1.1110637086E-005 +1.4421146406E+002  +1.7948250234E-005 +1.7065017869E+002  +8.9737427708E-001 +1.7590103255E+001 
11882.062 +8.9991282338E-001 +1.7564887616E+001  +2.7337924936E-006 -1.1983533253E+002  +3.6831837830E-005 +1.6642564554E+002  +8.9979664112E-001 +1.7553988890E+001 
11969.246 +9.0286000166E-001 +1.7518378764E+001  +7.4333969318E-006 +1.1265197474E+002  +2.3856141562E-005 +2.4772325804E+001  +9.0300780827E-001 +1.7511803736E+001 
12057.069 +9.0535458325E-001 +1.7469629085E+001  +3.5450970575E-005 +6.0257938853E+001  +1.5052656025E-005 +5.0057610729E+001  +9.0541021156E-001 +1.7465221429E+001 
12145.538 +9.0826746558E-001 +1.7417286053E+001  +2.2732602201E-005 -2.4859276177E+000  +2.4773485732E-005 +1.8470034792E+001  +9.0808045676E-001 +1.7421448878E+001 
12234.655 +9.1095095395E-001 +1.7381734406E+001  +2.4225179399E-005 -1.3040763512E+002  +4.6118802355E-005 +3.9919423349E+001  +9.1072791383E-001 +1.7374739910E+001 
12324.426 +9.1372217458E-001 +1.7317640867E+001  +3.9203592320E-005 +5.4576975169E+001  +2.0957738122E-005 -1.3467554368E+002  +9.1384616259E-001 +1.7320928285E+001 
12414.856 +9.1624136001E-001 +1.7262197065E+001  +1.3790867183E-005 -1.4277171996E+002  +6.6344262560E-005 +1.2604416337E+002  +9.1616152418E-001 +1.7260110562E+001 
12505.949 +9.1933185613E-001 +1.7211493558E+001  +2.3265816915E-005 +1.0539052936E+002  +1.2340112434E-005 -1.6609941227E+001  +9.1925558827E-001 +1.7211075941E+001 
12597.711 +9.2131384868E-001 +1.7184555452E+001  +4.5111837035E-006 +1.3456176053E+002  +2.3430871808E-005 +1.2086053895E+001  +9.2114980973E-001 +1.7173104403E+001 
12690.146 +9.2393171449E-001 +1.7130512351E+001  +1.9534299850E-005 +7.6322752822E+000  +1.6520984105E-005 +8.3925377683E+001  +9.2396368352E-001 +1.7128273024E+001 
12783.260 +9.2644653843E-001 +1.7080055145E+001  +1.4264604576E-005 +1.6884576932E+002  +6.7710730973E-006 -1.1831155767E+002  +9.2618585279E-001 +1.7080824904E+001 
12877.056 +9.2875359781E-001 +1.7028988090E+001  +2.8119074323E-006 -1.1540442743E+002  +2.8295270010E-005 +8.6077158558E+001  +9.2877913851E-001 +1.7026661574E+001 
12971.541 +9.3126101779E-001 +1.6976619415E+001  +2.4985261289E-005 +1.1709707433E+002  +1.2385527626E-005 +1.4844160664E+002  +9.3106950073E-001 +1.6971114953E+001 
13066.719 +9.3337846017E-001 +1.6921191165E+001  +2.6772522885E-005 -1.2949616119E+002  +2.3249485143E-005 +7.7188449485E+001  +9.3317388163E-001 +1.6925620798E+001 
13162.595 +9.3595103694E-001 +1.6874544446E+001  +1.8846677044E-005 +1.5366420370E+002  +1.8523375037E-005 -1.5410865061E+002  +9.3558136187E-001 +1.6877410411E+001 
13259.175 +9.3830936270E-001 +1.6818992151E+001  +1.5184102049E-005 +1.3569964405E+002  +1.5690812154E-005 -1.4537476400E+002  +9.3830334412E-001 +1.6814190735E+001 
13356.464 +9.4062013093E-001 +1.6744522827E+001  +5.3221286276E-006 -2.6984177936E+001  +1.2706636928E-005 -7.4786192029E+001  +9.4054995015E-001 +1.6747376979E+001 
13454.466 +9.4307739963E-001 +1.6686860982E+001  +3.3045363580E-005 +1.0038674194E+002  +9.2295826188E-006 +8.0981673848E+001  +9.4288272652E-001 +1.6684381750E+001 
13553.188 +9.4541944299E-001 +1.6627181530E+001  +3.7824396408E-005 +1.9310223108E+001  +1.2698832590E-005 +3.7467431145E+001  +9.4523445831E-001 +1.6620920713E+001 
13652.634 +9.4768096970E-001 +1.6562195468E+001  +2.2352280754E-005 +4.4889561082E+001  +3.0135340601E-005 +1.0221660044E+002  +9.4765635083E-001 +1.6564042393E+001 
13752.809 +9.5047736003E-001 +1.6490768403E+001  +1.4735352970E-005 -6.5486084868E+001  +1.9127270983E-005 +3.3580897577E+001  +9.5026373140E-001 +1.6486163590E+001 
13853.720 +9.5275553358E-001 +1.6412438615E+001  +3.1769101505E-005 +2.0835059399E+000  +2.0902556093E-005 -1.0391315259E+002  +9.5269796000E-001 +1.6406492963E+001 
13955.371 +9.5532561528E-001 +1.6353565706E+001  +3.4472014462E-005 +1.2237802901E+002  +7.7749845060E-006 +1.0062963657E+002  +9.5506964479E-001 +1.6337140522E+001 
14057.768 +9.5750700587E-001 +1.6267741187E+001  +2.5975090436E-005 +1.4158456526E+002  +1.6083214951E-005 -1.1474005312E+002  +9.5731466945E-001 +1.6254164439E+001 
14160.916 +9.5996201174E-001 +1.6190196039E+001  +4.9458074731E-005 +1.2719180250E+002  +3.2359903649E-005 -1.7821246468E+002  +9.5972399841E-001 +1.6178874300E+001 
14264.821 +9.6241982278E-001 +1.6112202985E+001  +2.9067408113E-005 -2.1922008955E+001  +8.5986479980E-006 -9.7002706562E+001  +9.6224677753E-001 +1.6113095869E+001 
14369.488 +9.6454008835E-001 +1.6043970314E+001  +6.9811421696E-006 -1.6725440046E+002  +2.5927866528E-005 -1.3443498488E+001  +9.6428591663E-001 +1.6042981026E+001 
14474.924 +9.6628074912E-001 +1.5985296599E+001  +1.9569748071E-005 +7.0032851883E+001  +4.3587006404E-005 -9.0532321477E+001  +9.6604074425E-001 +1.5983012586E+001 
14581.133 +9.6848559790E-001 +1.5938748735E+001  +3.0293682739E-005 +8.9474903135E+000  +2.6029039672E-005 +5.7969173862E+001  +9.6828021997E-001 +1.5927234221E+001 
14688.121 +9.7000437020E-001 +1.5886024143E+001  +3.0725641698E-005 +1.4495481034E+002  +3.9440975093E-005 +1.4024485257E+002  +9.6986659033E-001 +1.5877090466E+001 
14795.895 +9.7190955141E-001 +1.5829132587E+001  +3.1388389849E-005 -2.9290279982E+001  +4.5876298847E-006 +1.4585687487E+001  +9.7175883841E-001 +1.5813746256E+001 
14904.459 +9.7392552420E-001 +1.5744631638E+001  +1.6840073579E-005 +6.8002334542E+001  +1.4498749236E-005 +9.0062131521E+001  +9.7359747808E-001 +1.5751956850E+001 
15013.820 +9.7582455937E-001 +1.5697631546E+001  +2.6092659689E-005 +1.3744173115E+002  +2.2373946243E-005 -1.7491867236E+002  +9.7569188309E-001 +1.5691473540E+001 
15123.983 +9.7765689213E-001 +1.5650889732E+001  +3.0070710151E-005 +1.6001994797E+002  +1.0577949938E-005 -7.5013146797E+001  +9.7753074737E-001 +1.5642251167E+001 
15234.954 +9.7957077483E-001 +1.5569632054E+001  +3.4980291235E-005 +7.4371973746E+001  +4.0963744213E-005 +1.4717068843E+002  +9.7953632978E-001 +1.5565855807E+001 
15346.740 +9.8142984141E-001 +1.5506845368E+001  +3.2138007564E-005 +9.9195644368E+001  +4.5571219707E-005 -1.2099689702E+002  +9.8122191964E-001 +1.5495914591E+001 
15459.346 +9.8323915431E-001 +1.5444027844E+001  +3.6494467476E-005 +2.0112069751E+001  +4.0644474617E-005 +1.3480454926E+000  +9.8328190322E-001 +1.5440001265E+001 
15572.778 +9.8507058378E-001 +1.5374260135E+001  +2.7303664900E-005 -1.3516446368E+002  +1.5230230653E-005 +1.5276395308E+002  +9.8493805814E-001 +1.5374445248E+001 
15687.043 +9.8695569150E-001 +1.5311240333E+001  +1.3530726602E-005 -1.7484379694E+002  +2.1998945742E-005 +1.1238716413E+001  +9.8681800310E-001 +1.5294547471E+001 
15802.146 +9.8892467899E-001 +1.5224459565E+001  +4.3938870081E-005 +6.0741624673E+001  +3.5046735490E-005 +1.2455601719E+002  +9.8872770960E-001 +1.5215873179E+001 
15918.093 +9.9059561285E-001 +1.5152148560E+001  +4.0662203086E-005 -6.8974234403E+001  +3.2588130892E-005 -3.6872709424E+001  +9.9045667281E-001 +1.5141090400E+001 
16034.892 +9.9261462248E-001 +1.5083151094E+001  +1.3626987165E-005 +1.0960633574E+002  +9.1068056105E-006 +1.6109391921E+002  +9.9225356879E-001 +1.5081553394E+001 
16152.547 +9.9436445703E-001 +1.5000679069E+001  +2.6165621052E-005 -1.4483495795E+002  +1.9731260566E-005 +2.5713340576E+001  +9.9421097487E-001 +1.4998299971E+001 
16271.065 +9.9615937664E-001 +1.4928209900E+001  +3.5209400492E-005 +7.9195285584E+001  +2.2078855746E-005 -3.3186721135E+001  +9.9608150885E-001 +1.4920684262E+001 
16390.454 +9.9804700046E-001 +1.4847679106E+001  +2.3589401964E-005 +1.7223095265E+002  +4.0099171845E-005 -1.3283186866E+002  +9.9778549087E-001 +1.4851339627E+001 
16510.718 +9.9991494546E-001 +1.4776867605E+001  +2.1393253222E-005 +8.9920445950E+001  +2.2695949577E-005 -4.4736068816E+001  +9.9961280481E-001 +1.4758754656E+001 
16631.864 +1.0017770065E+000 +1.4684453764E+001  +1.1366889451E-005 -2.0273542440E+000  +3.6344419526E-005 +1.7196507835E+002  +1.0015754366E+000 +1.4670521388E+001 
16753.900 +1.0034152483E+000 +1.4599742445E+001  +3.7736260816E-005 -1.5222227984E+002  +1.0962625822E-005 -1.2567594526E+002  +1.0034735957E+000 +1.4595398330E+001 
16876.831 +1.0052010511E+000 +1.4511432013E+001  +3.9884555498E-005 +1.3041906832E+002  +8.2930427178E-006 +1.1935279325E+002  +1.0051557414E+000 +1.4509724552E+001 
17000.664 +1.0071227379E+000 +1.4428556030E+001  +3.3592643200E-005 +6.5741916433E+001  +1.1616348549E-005 -1.6678307966E+002  +1.0069750873E+000 +1.4432039535E+001 
17125.405 +1.0087391203E+000 +1.4344116313E+001  +1.0639214891E-005 +2.4210964325E+001  +1.6918565665E-005 +1.3332666227E+001  +1.0085928908E+000 +1.4341712842E+001 
17251.062 +1.0107461145E+000 +1.4235701851E+001  +5.3695338821E-005 +1.0936212184E+002  +3.6322015843E-005 -1.3085246624E+001  +1.0103632507E+000 +1.4240207587E+001 
17377.641 +1.0124195049E+000 +1.4154098853E+001  +1.8607379456E-005 +1.1114058942E+002  +1.7282420012E-005 +1.7887578344E+002  +1.0122418742E+000 +1.4144262695E+001 
17505.149 +1.0142896682E+000 +1.4060947644E+001  +3.0937458754E-005 +1.5219015999E+002  +5.5665972837E-006 -1.7947961601E+002  +1.0139245322E+000 +1.4064060788E+001 
17633.592 +1.0159015537E+000 +1.3964259901E+001  +1.2475241819E-005 +1.7564454435E+002  +2.7477663374E-005 +1.6630435589E+002  +1.0158589821E+000 +1.3958851915E+001 
17762.977 +1.0175187963E+000 +1.3863275049E+001  +7.5509766711E-006 +2.3804581560E+001  +4.6901309756E-005 -1.0584850549E+002  +1.0176179583E+000 +1.3861484944E+001 
17893.312 +1.0192212404E+000 +1.3779109118E+001  +6.2708860983E-005 +1.3040428416E+002  +1.6155831142E-005 -1.2426845546E+002  +1.0193472398E+000 +1.3774031465E+001 
18024.604 +1.0211622154E+000 +1.3672567767E+001  +3.4279354626E-005 -1.7675283858E+002  +6.4687781819E-005 +5.7881450076E+001  +1.0212548241E+000 +1.3664822679E+001 
18156.858 +1.0230552468E+000 +1.3571534867E+001  +1.9058091575E-006 -7.9629225543E+000  +2.0953987965E-005 -1.6509446160E+002  +1.0227667471E+000 +1.3569029238E+001 
18290.084 +1.0246604154E+000 +1.3464415942E+001  +1.5830484842E-005 +8.7504101902E+001  +2.2254810957E-005 -6.5651130837E+001  +1.0245467932E+000 +1.3462542343E+001 
18424.286 +1.0262368041E+000 +1.3362686520E+001  +2.5587482321E-005 +6.3078200294E+001  +5.7397350252E-005 -1.3800566782E+002  +1.0262759168E+000 +1.3363758234E+001 
18559.473 +1.0279244646E+000 +1.3246305596E+001  +2.9687931734E-005 +5.4778104201E+001  +1.2559200691E-005 +1.6307960838E+002  +1.0279371932E+000 +1.3239719509E+001 
18695.653 +1.0296187355E+000 +1.3149769312E+001  +4.4264579852E-005 +1.4101979694E+002  +4.9745765127E-005 +7.0637099302E+001  +1.0297334717E+000 +1.3138604807E+001 
18832.831 +1.0313609458E+000 +1.3030423789E+001  +3.1648581383E-005 -1.7258456675E+002  +3.0784553256E-005 -2.8934001573E+001  +1.0313557288E+000 +1.3033107090E+001 
18971.016 +1.0329072177E+000 +1.2911612750E+001  +1.2166976586E-005 -1.7494998213E+002  +1.4378781623E-005 -4.2417589772E+001  +1.0328755115E+000 +1.2921959437E+001 
19110.215 +1.0344073691E+000 +1.2831701499E+001  +4.2900935337E-005 +9.5823126605E+001  +5.0741087394E-005 +3.1695577672E+001  +1.0341669608E+000 +1.2822171993E+001 
19250.435 +1.0355315821E+000 +1.2763006735E+001  +8.1543582623E-005 +1.1451784242E+002  +2.2007218347E-005 -1.0038771111E+001  +1.0353399627E+000 +1.2766299959E+001 
19391.685 +1.0368048058E+000 +1.2712383950E+001  +7.5938810110E-006 +1.2658190994E+002  +1.8772290663E-005 +1.2764893110E+002  +1.0365495246E+000 +1.2707952697E+001 
19533.970 +1.0377035886E+000 +1.2652054784E+001  +2.4808581664E-005 +8.4735977581E+001  +1.6649631264E-005 +1.2192035624E+002  +1.0376655469E+000 +1.2643686562E+001 
19677.300 +1.0389716235E+000 +1.2575916478E+001  +2.7683413277E-005 +2.4012506944E+001  +1.7572382725E-005 +1.4629231433E+002  +1.0388235406E+000 +1.2580583904E+001 
19821.681 +1.0399167094E+000 +1.2519586565E+001  +4.0670192159E-005 +1.5334598109E+002  +1.9337768390E-005 -1.3358866454E+002  +1.0398557023E+000 +1.2526687211E+001 
19967.122 +1.0410010944E+000 +1.2468093825E+001  +2.3159570155E-005 +3.8471457408E+001  +5.4985939783E-005 +1.1164982022E+002  +1.0408380272E+000 +1.2459895208E+001 
20113.629 +1.0419742097E+000 +1.2396039126E+001  +4.0643597006E-005 -1.4085187415E+002  +3.8061337506E-005 +1.2559331788E+001  +1.0420756271E+000 +1.2402965637E+001 
20261.212 +1.0430716090E+000 +1.2338225298E+001  +1.2526413624E-005 -1.3051622103E+002  +2.0213405795E-005 -8.1537622684E+001  +1.0428798961E+000 +1.2337549144E+001 
20409.878 +1.0443326338E+000 +1.2273935567E+001  +4.7460972185E-005 +1.0724640253E+002  +5.3408103305E-005 +1.7071432570E+002  +1.0441529614E+000 +1.2269049780E+001 
20559.634 +1.0452595378E+000 +1.2215603206E+001  +4.6866752417E-005 +7.4619053681E+001  +1.3174637185E-005 -1.1969908519E+001  +1.0452025290E+000 +1.2205704078E+001 
20710.490 +1.0464681570E+000 +1.2142964659E+001  +3.6885078741E-005 -1.1773403797E+002  +2.7894605362E-005 +6.3747642198E+001  +1.0461681687E+000 +1.2137774735E+001 
20862.452 +1.0472727481E+000 +1.2072861832E+001  +1.8450755626E-005 -1.4461861816E+002  +3.0979960398E-005 -1.8782338023E+001  +1.0470355021E+000 +1.2066773891E+001 
21015.529 +1.0484456772E+000 +1.1997491454E+001  +1.0859061186E-005 +7.0136132484E+001  +3.2207330871E-005 +1.3686667195E+002  +1.0482082894E+000 +1.1999502026E+001 
