!  2-Port S-parameters saved by WinCal
! VAR MeasName=S-Parameters (CALIBRATED_DATA) read from VNA (P5004A)
! VAR MeasDate=26/04/2024 18:12:30
! VAR NAME=Wafer2_r1_c2_pristine_log
! VAR FILENAME=Wafer2_r1_c2_pristine_log_1.S2P
! VAR DATE=26/04/2024 18:12:30
! VAR PHYS_PORTS=1,2
! VAR ObjTypeName=DATASET
! VAR IndexType=Frequency
!
# Hz S MA R 50
9000.000 +7.9776735352E-001 +1.7324002334E+001  +2.3697334150E-005 +6.9814564794E+001  +2.2232919212E-005 +1.1664213952E+002  +7.9771393792E-001 +1.7303395268E+001 
9066.037 +8.0037787328E-001 +1.7371575362E+001  +2.6499393092E-005 -2.7467344443E+001  +1.5118277309E-005 -8.9347868859E+001  +8.0033850184E-001 +1.7359660409E+001 
9132.559 +8.0266119463E-001 +1.7430368916E+001  +1.1585866085E-005 -9.3553670634E+001  +2.4968705526E-005 -1.1730033623E+001  +8.0249506122E-001 +1.7422720199E+001 
9199.568 +8.0542992061E-001 +1.7494638805E+001  +2.7879051245E-005 +1.1165441476E+002  +2.5467162843E-005 -1.0832655708E+002  +8.0548663973E-001 +1.7490824399E+001 
9267.070 +8.0805983570E-001 +1.7517971976E+001  +2.8151374815E-006 +1.3812319213E+002  +2.1823698964E-005 +1.8737645843E+001  +8.0784457431E-001 +1.7517017000E+001 
9335.066 +8.1058519272E-001 +1.7586448223E+001  +1.7464570226E-005 +2.8463934934E+001  +3.1877721082E-005 -6.0917675342E+001  +8.1024016890E-001 +1.7572827975E+001 
9403.562 +8.1314454443E-001 +1.7640189230E+001  +1.3305175418E-005 +9.6326595389E+001  +2.4851083298E-005 +6.4266684488E+001  +8.1321736950E-001 +1.7626303153E+001 
9472.560 +8.1588330018E-001 +1.7668084801E+001  +2.2839197138E-005 -1.6373575154E+002  +2.6473434665E-005 +9.9975026476E+001  +8.1576113629E-001 +1.7650891348E+001 
9542.065 +8.1863399661E-001 +1.7686620546E+001  +1.4964728941E-005 +6.0981492239E+001  +2.6938122773E-005 -7.5110131468E+001  +8.1844508920E-001 +1.7670179456E+001 
9612.079 +8.2109293076E-001 +1.7734023971E+001  +2.6857339500E-005 +4.6486263327E+001  +1.9016470695E-005 -7.6997726206E+001  +8.2097552493E-001 +1.7704732396E+001 
9682.607 +8.2385933850E-001 +1.7738257582E+001  +2.5447886656E-005 +1.5172807052E+002  +2.7452254487E-005 -1.7242342702E+002  +8.2359750387E-001 +1.7726113239E+001 
9753.653 +8.2642371595E-001 +1.7782376991E+001  +2.6617078484E-005 +4.2218990611E+000  +8.3393668177E-006 +1.0752742606E+002  +8.2615601824E-001 +1.7760319514E+001 
9825.220 +8.2885265378E-001 +1.7798180323E+001  +2.8466237999E-005 +1.4041755921E+002  +5.3018012309E-006 +5.4213343030E+001  +8.2851378217E-001 +1.7785631877E+001 
9897.312 +8.3165705447E-001 +1.7806698056E+001  +2.1968098558E-005 -1.0538552038E+002  +2.2184408018E-005 -1.5300345583E+002  +8.3159400619E-001 +1.7794821614E+001 
9969.933 +8.3426591133E-001 +1.7837681019E+001  +2.0738211838E-005 -1.6843381611E+002  +1.9826527115E-005 +1.2994036542E+002  +8.3398711755E-001 +1.7842405555E+001 
10043.087 +8.3690405579E-001 +1.7856601341E+001  +3.0350679138E-005 +1.3106805565E+002  +3.3162164178E-005 +1.6786959207E+002  +8.3671407946E-001 +1.7846778936E+001 
10116.778 +8.3962343072E-001 +1.7861213076E+001  +3.4046633642E-005 +6.7237050719E+001  +7.3959737228E-006 +5.7752177882E+001  +8.3925759240E-001 +1.7852893749E+001 
10191.009 +8.4203731561E-001 +1.7885506072E+001  +5.3513721331E-006 +1.0663678095E+002  +8.0888436755E-006 -1.2885305221E+002  +8.4190870604E-001 +1.7874640224E+001 
10265.785 +8.4503213909E-001 +1.7882223575E+001  +3.1921871939E-005 -5.5475101505E+001  +3.4936789903E-005 +5.2490434319E+001  +8.4491996822E-001 +1.7874442490E+001 
10341.110 +8.4797517336E-001 +1.7904370182E+001  +2.7337225717E-005 +2.5836307449E+001  +1.9553660643E-005 +6.4777472839E+001  +8.4776840943E-001 +1.7885545248E+001 
10416.987 +8.5061922330E-001 +1.7895062965E+001  +1.5656574744E-005 +2.0842725763E+001  +1.9138081180E-005 -1.3844966725E+002  +8.5060946019E-001 +1.7901426713E+001 
10493.421 +8.5344036358E-001 +1.7888954984E+001  +2.4332284016E-005 +5.8723972295E+001  +2.1294665535E-005 +1.0596905848E+002  +8.5347852559E-001 +1.7881102242E+001 
10570.416 +8.5622729476E-001 +1.7876815776E+001  +2.1608665281E-005 -1.0908635457E+002  +3.0971689178E-005 -1.4955467798E+001  +8.5622816379E-001 +1.7872032060E+001 
10647.976 +8.5906187315E-001 +1.7884587594E+001  +3.0956980955E-006 -1.0881744597E+002  +4.2529219928E-005 -4.5389267863E+001  +8.5896939794E-001 +1.7880541385E+001 
10726.105 +8.6210148443E-001 +1.7867538919E+001  +2.4014135766E-005 -8.1177215230E+000  +3.2672932704E-005 -2.2510647048E+001  +8.6193943939E-001 +1.7855117852E+001 
10804.808 +8.6524480935E-001 +1.7842329532E+001  +2.3342732404E-005 +6.8434199722E+001  +1.6770951743E-006 -1.6173895960E+002  +8.6494944661E-001 +1.7841955470E+001 
10884.087 +8.6815946987E-001 +1.7835780256E+001  +8.5623494177E-006 +1.1552584901E+002  +1.9571969775E-005 +6.7019796779E+001  +8.6791671440E-001 +1.7840018965E+001 
10963.949 +8.7111585046E-001 +1.7800329642E+001  +2.1343424133E-005 +8.1513249265E+001  +3.6796506815E-005 -1.3437694781E+002  +8.7102448210E-001 +1.7807555123E+001 
11044.396 +8.7411268922E-001 +1.7795199644E+001  +2.5684582388E-005 -1.7011924202E+002  +2.1824775301E-005 +7.5984702338E+001  +8.7402313347E-001 +1.7800535256E+001 
11125.434 +8.7644162413E-001 +1.7783269514E+001  +2.8308478998E-005 +6.4217585136E+001  +2.5093959335E-005 +1.1989170465E+002  +8.7637464250E-001 +1.7786139187E+001 
11207.066 +8.7904419661E-001 +1.7764212183E+001  +1.7976597726E-005 -1.3843760235E+002  +2.2595301686E-005 -1.8678854891E+000  +8.7905081539E-001 +1.7755803004E+001 
11289.298 +8.8153209418E-001 +1.7759320901E+001  +2.9669013015E-005 -4.3574810325E+001  +4.4476503539E-005 +5.2830088493E+001  +8.8133454119E-001 +1.7759454978E+001 
11372.132 +8.8404617972E-001 +1.7734142963E+001  +3.0023289362E-005 +9.5952360229E+001  +2.5580629657E-005 +5.2834726146E+001  +8.8409992987E-001 +1.7722116014E+001 
11455.575 +8.8694713299E-001 +1.7713174204E+001  +2.2177110302E-005 -1.0421384751E+002  +3.6989633943E-005 +1.5915145530E+002  +8.8690465319E-001 +1.7714630774E+001 
11539.630 +8.8943511380E-001 +1.7698017732E+001  +1.2750035553E-005 +4.8508502086E+001  +1.2307135550E-005 +8.8392015971E+001  +8.8926609682E-001 +1.7685501620E+001 
11624.301 +8.9212296146E-001 +1.7656382606E+001  +9.9795091126E-006 -7.3177472229E+000  +3.7998911274E-005 -9.1834456028E+001  +8.9187897199E-001 +1.7648709959E+001 
11709.594 +8.9457694063E-001 +1.7625891546E+001  +2.5262850549E-005 -1.4663574051E+002  +1.9874113885E-005 +1.4156361978E+002  +8.9441646525E-001 +1.7624656559E+001 
11795.512 +8.9726545212E-001 +1.7588838579E+001  +4.8464966861E-005 -3.7925979244E+001  +2.0823894426E-005 -1.1941741267E+002  +8.9735184641E-001 +1.7582498759E+001 
11882.062 +8.9992661091E-001 +1.7556479887E+001  +2.7024498519E-005 +1.3470612420E+002  +1.4620820794E-005 +1.6263179254E+002  +8.9989985909E-001 +1.7558959221E+001 
11969.246 +9.0290259807E-001 +1.7521777453E+001  +5.2406714408E-005 +5.0343598555E+001  +1.5229586658E-005 -7.3932119497E+001  +9.0286306727E-001 +1.7514973645E+001 
12057.069 +9.0535775172E-001 +1.7470969828E+001  +2.5887134435E-005 -7.8778877843E+001  +1.0189751908E-005 -1.5466650843E+002  +9.0538006202E-001 +1.7462324186E+001 
12145.538 +9.0820885245E-001 +1.7416428306E+001  +3.4168779873E-005 -2.9714088553E+001  +6.9649367836E-006 +1.2452272305E+002  +9.0810124357E-001 +1.7426594921E+001 
12234.655 +9.1092714053E-001 +1.7386336027E+001  +2.0471078904E-005 -1.6088638312E+002  +4.0559222926E-005 +9.3265131072E+001  +9.1073191405E-001 +1.7372454984E+001 
12324.426 +9.1366862406E-001 +1.7310422961E+001  +3.7224319377E-006 +1.6124001646E+002  +1.5451393646E-005 +7.7903464776E+001  +9.1373203994E-001 +1.7318168342E+001 
12414.856 +9.1637223445E-001 +1.7262860243E+001  +1.8353501401E-005 -8.2204338973E+001  +3.4214443431E-005 +2.7954297503E+001  +9.1615845551E-001 +1.7257570540E+001 
12505.949 +9.1945732210E-001 +1.7212870593E+001  +2.1543792122E-005 +1.6841794191E+002  +5.4964625126E-005 -8.3466615845E+001  +9.1921349450E-001 +1.7216629946E+001 
12597.711 +9.2149861389E-001 +1.7187446054E+001  +2.6528372735E-005 +2.2444319154E+001  +2.1277832653E-005 -4.9703882295E+001  +9.2119538391E-001 +1.7175672136E+001 
12690.146 +9.2397935428E-001 +1.7128263623E+001  +4.9310628099E-005 +9.8817886323E+001  +1.0807017533E-005 +9.0773374457E+001  +9.2399300445E-001 +1.7124935831E+001 
12783.260 +9.2645512508E-001 +1.7082649235E+001  +4.0147978512E-005 +9.8660549846E+001  +6.3226213662E-006 +1.3655279862E+002  +9.2619893083E-001 +1.7077318806E+001 
12877.056 +9.2862757842E-001 +1.7026092580E+001  +8.0602907709E-006 +8.5584539605E+001  +3.9980991440E-005 -1.4310283576E+002  +9.2882483951E-001 +1.7033994726E+001 
12971.541 +9.3120140832E-001 +1.6980544086E+001  +8.9667914293E-006 -1.5288307048E+002  +1.5099147970E-005 +9.4429433149E+001  +9.3114123626E-001 +1.6972812570E+001 
13066.719 +9.3338552229E-001 +1.6929842211E+001  +4.4356720699E-006 -7.7038233950E+001  +5.0189931159E-006 +9.0110650054E+001  +9.3317506600E-001 +1.6921723628E+001 
13162.595 +9.3587591923E-001 +1.6871954585E+001  +3.8821208787E-005 -2.2434401593E+001  +1.7945118222E-005 -2.4268466703E+001  +9.3569627736E-001 +1.6877007129E+001 
13259.175 +9.3822411222E-001 +1.6821733273E+001  +3.3963732768E-005 -1.3433713634E+001  +2.2783163978E-005 +9.2182262882E+001  +9.3821566627E-001 +1.6810829350E+001 
13356.464 +9.4062750996E-001 +1.6754620896E+001  +1.2659946871E-005 +1.7863469699E+002  +4.6708517815E-005 +7.7623177692E+001  +9.4064539833E-001 +1.6748654934E+001 
13454.466 +9.4312752652E-001 +1.6683740500E+001  +9.5574153575E-006 -3.2406379361E+001  +1.2212726784E-005 +1.1214537751E+002  +9.4296320109E-001 +1.6681496526E+001 
13553.188 +9.4539894082E-001 +1.6632210445E+001  +2.8729753792E-005 +3.5373025943E+001  +4.9794797875E-005 +1.1348460995E+002  +9.4522572583E-001 +1.6621320038E+001 
13652.634 +9.4783273888E-001 +1.6563252401E+001  +1.6723325120E-005 +1.5891430219E+002  +1.5311906339E-005 -4.6955365525E+001  +9.4770044612E-001 +1.6556268101E+001 
13752.809 +9.5023971250E-001 +1.6488640507E+001  +2.4796037167E-005 +1.1395279873E+002  +1.5486733474E-005 +1.7134506817E+002  +9.5028030293E-001 +1.6490640837E+001 
13853.720 +9.5274967132E-001 +1.6408069647E+001  +2.7199277432E-005 -1.2485672606E+002  +1.8865090167E-005 -7.6414665311E+001  +9.5267059860E-001 +1.6408214414E+001 
13955.371 +9.5543890999E-001 +1.6359821377E+001  +2.2566511786E-005 +1.3095944743E+002  +1.7107237714E-005 +8.5301213768E+001  +9.5517042765E-001 +1.6342727017E+001 
14057.768 +9.5742060080E-001 +1.6263238063E+001  +1.5959493478E-005 +8.0600526560E+001  +3.8184179611E-005 +2.5000169025E+001  +9.5730802555E-001 +1.6255120173E+001 
14160.916 +9.6000498113E-001 +1.6194192965E+001  +2.2105298478E-005 +2.1169239163E+001  +5.2745153912E-005 -9.7266748114E+001  +9.5976066517E-001 +1.6184145085E+001 
14264.821 +9.6231822415E-001 +1.6108614537E+001  +5.0329434434E-005 +8.9032188311E+001  +1.2083223138E-005 -1.4184304712E+002  +9.6229604900E-001 +1.6109389250E+001 
14369.488 +9.6458637260E-001 +1.6044575919E+001  +2.6440767628E-005 -2.6635378357E+001  +3.6624948476E-005 -7.9841825801E+001  +9.6433932364E-001 +1.6040996268E+001 
14474.924 +9.6629578760E-001 +1.5987202871E+001  +3.4094072654E-005 +1.6330804192E+002  +8.3751903187E-006 +9.6146505792E+000  +9.6628702050E-001 +1.5985978662E+001 
14581.133 +9.6843967125E-001 +1.5936849382E+001  +1.8471573098E-005 +2.0882416482E+001  +3.3781325384E-005 +2.1183723514E+001  +9.6820847377E-001 +1.5920838412E+001 
14688.121 +9.7004419874E-001 +1.5884798273E+001  +6.8757892497E-006 -1.4414881904E+002  +2.8175227228E-005 +1.3925366640E+002  +9.6973160143E-001 +1.5872966250E+001 
14795.895 +9.7185844936E-001 +1.5830229648E+001  +1.3382978465E-005 +1.5327210839E+002  +1.8558937861E-005 +1.2753855706E+002  +9.7183068473E-001 +1.5809551690E+001 
14904.459 +9.7386570830E-001 +1.5744064399E+001  +1.9025383062E-005 -4.2750277616E+001  +3.0900295980E-005 +1.1921288574E+002  +9.7355191656E-001 +1.5751792884E+001 
15013.820 +9.7579614494E-001 +1.5690995173E+001  +2.6596456013E-005 +1.0374085529E+001  +2.3682250348E-005 -6.2450572271E+001  +9.7577256892E-001 +1.5690945999E+001 
15123.983 +9.7771388019E-001 +1.5651597328E+001  +1.9876266862E-005 -2.8925459789E+001  +2.2963676555E-005 +9.6333835875E+001  +9.7744410540E-001 +1.5641282191E+001 
15234.954 +9.7952793367E-001 +1.5568211205E+001  +3.3248901725E-005 +1.6959931228E+002  +1.2856406498E-005 -1.0116833945E+002  +9.7943358857E-001 +1.5569162487E+001 
15346.740 +9.8136038376E-001 +1.5506365225E+001  +2.5782484462E-005 -7.4654979465E+001  +2.2208635413E-005 +8.3355334055E+000  +9.8137703393E-001 +1.5496458872E+001 
15459.346 +9.8312167532E-001 +1.5446834775E+001  +4.2784139953E-005 +1.0685265261E+002  +2.6657375970E-005 +7.1411893465E+001  +9.8332491847E-001 +1.5440126899E+001 
15572.778 +9.8515810778E-001 +1.5378977778E+001  +1.7693588841E-005 -1.0761771431E+002  +2.8585201520E-005 +7.7592830800E+001  +9.8494654606E-001 +1.5374174633E+001 
15687.043 +9.8691316378E-001 +1.5304618961E+001  +3.8346166498E-005 +6.7615390697E+001  +7.5239335353E-006 -1.0078805451E+002  +9.8688126375E-001 +1.5301482468E+001 
15802.146 +9.8886863573E-001 +1.5218287093E+001  +2.9108713066E-005 +3.0228713256E+001  +2.0693450765E-005 -1.9035413107E+000  +9.8877970471E-001 +1.5219041087E+001 
15918.093 +9.9046324830E-001 +1.5149397855E+001  +6.5603097773E-005 +1.3438042903E+002  +1.2335844654E-005 +1.2278475816E+001  +9.9048556788E-001 +1.5144983364E+001 
16034.892 +9.9249231263E-001 +1.5077367207E+001  +2.8276657204E-005 -1.5188382522E+002  +4.9239871462E-006 +1.4721966408E+002  +9.9245513354E-001 +1.5081794323E+001 
16152.547 +9.9429455337E-001 +1.5003799554E+001  +2.4414367730E-005 +1.4637889735E+002  +2.4873429112E-005 -5.3297935086E+001  +9.9424281353E-001 +1.5004191520E+001 
16271.065 +9.9615865931E-001 +1.4925100446E+001  +2.9137840133E-005 +9.7472322736E+001  +1.5637908813E-005 -4.2923885626E+001  +9.9611576095E-001 +1.4920634720E+001 
16390.454 +9.9798384589E-001 +1.4847489748E+001  +1.5784089542E-005 -9.6990078419E+001  +8.0404203184E-006 +1.1900014285E+002  +9.9784658430E-001 +1.4853592566E+001 
16510.718 +9.9983985453E-001 +1.4779048293E+001  +8.9504450008E-006 -2.1517807106E+001  +2.7145844716E-005 -7.9698734630E+001  +9.9966036581E-001 +1.4757421817E+001 
16631.864 +1.0017235444E+000 +1.4681526370E+001  +1.3026518908E-005 -1.4637499067E+002  +1.1864176248E-005 -1.5552685751E+002  +1.0014950103E+000 +1.4670328333E+001 
16753.900 +1.0034256272E+000 +1.4598979638E+001  +1.1797497177E-005 +1.4246974490E+002  +3.5883891151E-005 -2.5475897393E+001  +1.0034710608E+000 +1.4596679200E+001 
16876.831 +1.0051899684E+000 +1.4506075266E+001  +4.6961210335E-005 +1.7997525051E+002  +1.4210241958E-005 -1.5334756290E+002  +1.0050777349E+000 +1.4503919077E+001 
17000.664 +1.0071621765E+000 +1.4427301294E+001  +8.6593179551E-006 +1.2905030780E+002  +3.6058516678E-005 +7.7601226098E+001  +1.0070300944E+000 +1.4427245658E+001 
17125.405 +1.0086843732E+000 +1.4347001345E+001  +4.3006128245E-005 +1.7415051537E+002  +1.5122515541E-005 -3.8249300620E+001  +1.0087006808E+000 +1.4341317251E+001 
17251.062 +1.0107228795E+000 +1.4239605616E+001  +1.1642837600E-005 -2.0889410329E+001  +3.4197511072E-005 +1.2003621336E+002  +1.0104838842E+000 +1.4243445618E+001 
17377.641 +1.0124124671E+000 +1.4154064492E+001  +5.6172705473E-005 -1.3547532753E+002  +4.6148464388E-005 -2.7754454667E+001  +1.0123613793E+000 +1.4145838830E+001 
17505.149 +1.0142134680E+000 +1.4062165529E+001  +1.4819021900E-005 +1.7190832748E+002  +2.0885442033E-005 -1.1486931517E+002  +1.0140208527E+000 +1.4057137149E+001 
17633.592 +1.0158869630E+000 +1.3967957202E+001  +2.2481567776E-005 +5.0290524391E+001  +5.2065098518E-005 +5.3150483197E+001  +1.0158065461E+000 +1.3961753985E+001 
17762.977 +1.0175100535E+000 +1.3860341419E+001  +4.1435511742E-005 +1.7022420581E+002  +3.1006774419E-005 +1.7086639134E+002  +1.0175558925E+000 +1.3867619950E+001 
17893.312 +1.0190831289E+000 +1.3779229511E+001  +3.0323632589E-005 +1.9128696031E+001  +5.9723126882E-005 -4.6041461220E+001  +1.0193988412E+000 +1.3765823570E+001 
18024.604 +1.0211210723E+000 +1.3678979980E+001  +2.2827270211E-005 +2.6961660268E+001  +3.2357678447E-005 +1.2956912036E+002  +1.0211583256E+000 +1.3673792820E+001 
18156.858 +1.0230583471E+000 +1.3575624958E+001  +5.3112898455E-006 +5.3733505208E+001  +2.4029102042E-005 -1.5724380289E+002  +1.0228498590E+000 +1.3574698589E+001 
18290.084 +1.0246583214E+000 +1.3466431706E+001  +2.2405804335E-005 -1.3147333693E+002  +1.1774810758E-005 +1.1071435362E+002  +1.0246096425E+000 +1.3469991627E+001 
18424.286 +1.0262871252E+000 +1.3360805860E+001  +4.4463436329E-005 +1.3491233858E+002  +1.9693304877E-005 +1.4385339465E+002  +1.0261867256E+000 +1.3361153869E+001 
18559.473 +1.0278982925E+000 +1.3245328098E+001  +2.9128135938E-005 -1.2801551158E+002  +3.9696477902E-005 +9.3004478802E+001  +1.0279703657E+000 +1.3244240899E+001 
18695.653 +1.0298207516E+000 +1.3149775104E+001  +4.7388295893E-005 +1.6823540751E+002  +3.1657401684E-005 +1.4387929691E+002  +1.0296533383E+000 +1.3144451428E+001 
18832.831 +1.0313537506E+000 +1.3033454569E+001  +2.5553509088E-005 +1.6007926382E+002  +8.6668064167E-006 +1.6308219920E+002  +1.0314002879E+000 +1.3033170512E+001 
18971.016 +1.0328765268E+000 +1.2905901453E+001  +2.3579685877E-005 +1.1762627642E+002  +1.8199109768E-005 +1.8384073338E+001  +1.0330133787E+000 +1.2919866682E+001 
19110.215 +1.0342781115E+000 +1.2829316127E+001  +5.5825593259E-005 +1.0868535818E+002  +5.5722458781E-005 +1.3625557694E+001  +1.0340763710E+000 +1.2827023237E+001 
19250.435 +1.0353791404E+000 +1.2762374343E+001  +2.8207747622E-005 +1.1026758726E+002  +1.7103288738E-005 +1.1574508292E+002  +1.0352508470E+000 +1.2759100174E+001 
19391.685 +1.0367172888E+000 +1.2705461720E+001  +1.1611463215E-005 +1.7632304573E+002  +3.5372515229E-005 +5.8098906086E+001  +1.0365348529E+000 +1.2704445734E+001 
19533.970 +1.0376428344E+000 +1.2640230635E+001  +1.3619829466E-005 -1.3122313781E+002  +3.0132248526E-005 +1.1748746159E+002  +1.0376361048E+000 +1.2642965143E+001 
19677.300 +1.0389734039E+000 +1.2576084855E+001  +4.0562766085E-005 -1.3894199259E+002  +4.7715638831E-005 -4.6307784317E+001  +1.0387947093E+000 +1.2578952268E+001 
19821.681 +1.0398232837E+000 +1.2523613748E+001  +3.3372626052E-005 +9.1835263883E+001  +2.3504384718E-005 +3.2474744753E+001  +1.0398107333E+000 +1.2517045388E+001 
19967.122 +1.0408242859E+000 +1.2469941793E+001  +2.1343437551E-005 +4.1728734292E+001  +1.3322722737E-005 +1.1519951981E+002  +1.0407629534E+000 +1.2461022658E+001 
20113.629 +1.0419123724E+000 +1.2398340344E+001  +4.0337867315E-005 +1.0371015282E+002  +4.8673065124E-005 +9.7362382026E+001  +1.0418802343E+000 +1.2398269924E+001 
20261.212 +1.0432300022E+000 +1.2335958076E+001  +5.1804778608E-005 +3.5566643269E+001  +2.4482628053E-005 +2.0369668516E+001  +1.0428992711E+000 +1.2340944082E+001 
20409.878 +1.0443709699E+000 +1.2274957991E+001  +1.8888615703E-005 +1.2831460631E+002  +2.1294430487E-005 +9.1827278375E+001  +1.0441492238E+000 +1.2266567301E+001 
20559.634 +1.0453121114E+000 +1.2210754999E+001  +3.6080773471E-005 +2.2031823577E+001  +2.2566415572E-005 -8.7384264123E+001  +1.0451361312E+000 +1.2210142247E+001 
20710.490 +1.0463576248E+000 +1.2135624527E+001  +1.2643142284E-005 -1.7975609837E+002  +1.8174415237E-005 -1.6670003977E+002  +1.0461018299E+000 +1.2135133471E+001 
20862.452 +1.0470664581E+000 +1.2074289804E+001  +9.3959783570E-006 -3.8249743465E+001  +5.1903203693E-005 +5.4047149057E+001  +1.0471185034E+000 +1.2068704559E+001 
21015.529 +1.0485106878E+000 +1.1999197256E+001  +2.5018429537E-005 -7.9593041131E+001  +2.4921702677E-005 +1.3666564313E+001  +1.0481297635E+000 +1.2003158394E+001 
