!  2-Port S-parameters saved by WinCal
! VAR MeasName=S-Parameters (CALIBRATED_DATA) read from VNA (P5004A)
! VAR MeasDate=26/04/2024 18:18:59
! VAR NAME=Wafer2_r1_c9_pristine_log
! VAR FILENAME=Wafer2_r1_c9_pristine_log_1.S2P
! VAR DATE=26/04/2024 18:18:59
! VAR PHYS_PORTS=1,2
! VAR ObjTypeName=DATASET
! VAR IndexType=Frequency
!
# Hz S MA R 50
9000.000 +7.9762415531E-001 +1.7321967904E+001  +4.2655127036E-005 +2.8450439423E+001  +1.1771289560E-005 +1.6725213557E+002  +7.9777839605E-001 +1.7307215843E+001 
9066.037 +8.0046138478E-001 +1.7369877459E+001  +2.0236329897E-005 +5.5849138304E+001  +1.5417819554E-005 -1.2384252101E+002  +8.0024012292E-001 +1.7368578378E+001 
9132.559 +8.0255765562E-001 +1.7421625580E+001  +3.3015787319E-005 -1.1916012877E+002  +4.3943225795E-005 +9.4616827621E+000  +8.0250022002E-001 +1.7422898987E+001 
9199.568 +8.0520944520E-001 +1.7486709944E+001  +1.7754439400E-005 -5.9267528728E+001  +2.4058692363E-005 -1.2547078729E+002  +8.0532287696E-001 +1.7489858524E+001 
9267.070 +8.0805796897E-001 +1.7509702035E+001  +9.2787386653E-006 +4.2934528531E+001  +1.7897643079E-005 +1.2591022960E+002  +8.0796566368E-001 +1.7520153016E+001 
9335.066 +8.1056152802E-001 +1.7583024928E+001  +7.7570658161E-006 -5.0536690540E+001  +5.4326662105E-005 -1.7748499715E+002  +8.1032363229E-001 +1.7588440552E+001 
9403.562 +8.1306301757E-001 +1.7630214133E+001  +2.9348058492E-005 +1.3024995340E+002  +1.5634128664E-005 +1.1664915889E+002  +8.1326916733E-001 +1.7624323087E+001 
9472.560 +8.1584728591E-001 +1.7664019547E+001  +1.5256480700E-005 +5.2218139800E+000  +3.0293626841E-005 +1.3436279272E+002  +8.1583313510E-001 +1.7663202593E+001 
9542.065 +8.1864012789E-001 +1.7681209722E+001  +3.5587204374E-005 -3.5330021734E+000  +1.0468681461E-005 +1.7016888784E+002  +8.1867521002E-001 +1.7672922795E+001 
9612.079 +8.2102545161E-001 +1.7723515324E+001  +6.4999298329E-006 +9.3227238617E+001  +3.8924177880E-005 +1.1833713245E+002  +8.2116638977E-001 +1.7707460611E+001 
9682.607 +8.2377832250E-001 +1.7734003482E+001  +4.4618670138E-005 +2.1925122666E+001  +1.0395344651E-005 +1.2033074155E+002  +8.2367919344E-001 +1.7732913410E+001 
9753.653 +8.2634299114E-001 +1.7777861646E+001  +7.2673860580E-006 -9.0150249146E+001  +3.1642665296E-005 -1.4757279543E+002  +8.2635546713E-001 +1.7768036636E+001 
9825.220 +8.2861134207E-001 +1.7794475032E+001  +2.7931309467E-005 +1.6106645535E+001  +2.5943336808E-005 -1.4822815138E+002  +8.2854429320E-001 +1.7789712316E+001 
9897.312 +8.3157046321E-001 +1.7799778409E+001  +1.4894597308E-005 +1.7080743565E+002  +9.5851952235E-006 -7.3012668283E+001  +8.3163814420E-001 +1.7801298237E+001 
9969.933 +8.3408226908E-001 +1.7837428445E+001  +4.6386347593E-006 -1.1846586476E+002  +2.1986264920E-005 +6.0551288637E+001  +8.3406612580E-001 +1.7832965765E+001 
10043.087 +8.3694761538E-001 +1.7848237341E+001  +9.1399433382E-006 -7.5356272235E+001  +3.5563719993E-005 +9.6604750187E+001  +8.3676830471E-001 +1.7844554481E+001 
10116.778 +8.3955028547E-001 +1.7859541574E+001  +6.1458871038E-005 +9.6419656096E+001  +2.0991898508E-005 -1.4355501204E+002  +8.3940914432E-001 +1.7859318088E+001 
10191.009 +8.4194758589E-001 +1.7881019504E+001  +2.4749114120E-005 -1.2207166183E+001  +2.9831820523E-005 -8.8144546740E+001  +8.4190143038E-001 +1.7877399836E+001 
10265.785 +8.4501580724E-001 +1.7889214211E+001  +2.0187831835E-005 +5.8370194465E-001  +2.8490368562E-005 +2.9834751297E+001  +8.4490500483E-001 +1.7879144189E+001 
10341.110 +8.4787506260E-001 +1.7903829871E+001  +1.2315336244E-005 +7.0594871742E+001  +2.6834061726E-005 -6.6401714704E+001  +8.4777841457E-001 +1.7895088249E+001 
10416.987 +8.5045950834E-001 +1.7891861753E+001  +5.4820576615E-006 +4.9146139695E+001  +1.1239033535E-005 +9.1397004496E+001  +8.5066525592E-001 +1.7897884007E+001 
10493.421 +8.5352646872E-001 +1.7889681327E+001  +2.3864637286E-005 +2.5404814381E+001  +1.4093076819E-005 +9.1938055978E+001  +8.5342237489E-001 +1.7890528500E+001 
10570.416 +8.5630527520E-001 +1.7880844527E+001  +2.4508298320E-005 +5.0741271180E+001  +1.9213041496E-005 -4.5471020313E+001  +8.5638429081E-001 +1.7868029124E+001 
10647.976 +8.5895461145E-001 +1.7889045915E+001  +3.1283790674E-005 -2.5200461816E+001  +1.1747748581E-005 +2.8411809521E+001  +8.5899264799E-001 +1.7879314194E+001 
10726.105 +8.6210421060E-001 +1.7870566729E+001  +8.4587022576E-006 +5.1636149223E+000  +2.2359844632E-005 +1.1534533036E+002  +8.6196041547E-001 +1.7873444589E+001 
10804.808 +8.6519679159E-001 +1.7843284652E+001  +2.8905507431E-005 -1.5680393339E+001  +3.5815683964E-005 +1.1397556987E+002  +8.6506320922E-001 +1.7845856894E+001 
10884.087 +8.6816590041E-001 +1.7841259578E+001  +3.2422932641E-005 +9.9113606366E+000  +1.0548774882E-005 +1.4416466141E+001  +8.6816694864E-001 +1.7834976812E+001 
10963.949 +8.7109413204E-001 +1.7804280053E+001  +1.4691840039E-005 -1.2916399829E+002  +3.0079449481E-005 +1.3325070751E+002  +8.7107415011E-001 +1.7807675209E+001 
11044.396 +8.7397697262E-001 +1.7792757318E+001  +2.0548083061E-005 -1.7827774438E+001  +2.9244669892E-005 +4.5335472129E+001  +8.7406023416E-001 +1.7799060896E+001 
11125.434 +8.7636939659E-001 +1.7788297507E+001  +9.6909560994E-006 -7.7752430786E+001  +1.4362952479E-005 -5.2768818033E+000  +8.7648672944E-001 +1.7783391771E+001 
11207.066 +8.7916021537E-001 +1.7763125669E+001  +2.3494045055E-005 +5.3191686958E+001  +2.7821639362E-005 +6.1287854532E+001  +8.7919938885E-001 +1.7760284797E+001 
11289.298 +8.8141641256E-001 +1.7761920589E+001  +2.2540769157E-005 +1.4256986076E+002  +2.2650352337E-005 -1.5153898402E+002  +8.8135368075E-001 +1.7761446852E+001 
11372.132 +8.8401303956E-001 +1.7724037376E+001  +4.4486808389E-005 +1.6681737093E+002  +2.6671447118E-005 -1.1756636953E+002  +8.8411279672E-001 +1.7730154730E+001 
11455.575 +8.8693235163E-001 +1.7715803404E+001  +2.3682344983E-005 +6.6704084125E+001  +1.8895710173E-005 +8.3726909157E+001  +8.8695024044E-001 +1.7709765364E+001 
11539.630 +8.8944706454E-001 +1.7685661397E+001  +2.5528404105E-005 +5.2472910230E+000  +2.4312899182E-005 +1.0508369126E+002  +8.8932420608E-001 +1.7686321161E+001 
11624.301 +8.9206950596E-001 +1.7649356135E+001  +3.3639978513E-005 +1.2692817500E+002  +2.3040834822E-005 +3.2531509831E+001  +8.9195330343E-001 +1.7649043090E+001 
11709.594 +8.9450464207E-001 +1.7618602064E+001  +1.3184441218E-005 +7.2917695038E+001  +6.8391572801E-006 -2.2981588230E+001  +8.9448209044E-001 +1.7619817927E+001 
11795.512 +8.9736231600E-001 +1.7589696611E+001  +3.0388863974E-005 +2.1318565555E+001  +1.3414881324E-005 +3.0060520360E+001  +8.9730433387E-001 +1.7586103174E+001 
11882.062 +8.9991573089E-001 +1.7564868823E+001  +4.5905242306E-006 -1.1693274133E+002  +1.1401135539E-005 +8.4764956424E+001  +8.9979330384E-001 +1.7560966906E+001 
11969.246 +9.0280676751E-001 +1.7511519786E+001  +4.5970051955E-005 +8.5034387233E+001  +2.3681748240E-005 +1.5950407585E+002  +9.0297055359E-001 +1.7510043189E+001 
12057.069 +9.0532350715E-001 +1.7465917755E+001  +1.3190944380E-005 -7.4586394936E+001  +2.7081245500E-005 +8.0411818890E+001  +9.0534232566E-001 +1.7470707637E+001 
12145.538 +9.0817298265E-001 +1.7407817742E+001  +3.7189677628E-005 +1.0145579628E+002  +2.8245130465E-005 +9.5979777653E+001  +9.0810429137E-001 +1.7423176350E+001 
12234.655 +9.1081508814E-001 +1.7376332067E+001  +5.2142758591E-005 +2.9915167151E+001  +3.0201477449E-005 -7.5537174451E+001  +9.1080903280E-001 +1.7373909340E+001 
12324.426 +9.1374253819E-001 +1.7317115493E+001  +8.6983433634E-007 -3.0035107701E+001  +3.9414364164E-005 +1.4741594953E+002  +9.1381469717E-001 +1.7312001670E+001 
12414.856 +9.1634660841E-001 +1.7261609778E+001  +3.5538958134E-005 -1.4883890692E+002  +6.1674650011E-006 +1.7960154049E+002  +9.1635204085E-001 +1.7260881767E+001 
12505.949 +9.1936587491E-001 +1.7203409457E+001  +3.7247903176E-005 -8.2011183437E+001  +2.7680964293E-005 -3.9968312517E+001  +9.1937428440E-001 +1.7215296267E+001 
12597.711 +9.2135383642E-001 +1.7176736980E+001  +1.5108613971E-005 +1.5838991224E+002  +2.9095521362E-005 +4.5663098012E+001  +9.2127604351E-001 +1.7174829739E+001 
12690.146 +9.2386273233E-001 +1.7128554656E+001  +1.8909961413E-005 -1.3098379280E+002  +1.8254324353E-005 -9.3496337521E+001  +9.2402545565E-001 +1.7133309545E+001 
12783.260 +9.2635908360E-001 +1.7078554681E+001  +2.1219587684E-005 -1.3336483638E+002  +1.9335271925E-005 +2.4802035855E+001  +9.2625898903E-001 +1.7084451000E+001 
12877.056 +9.2874624972E-001 +1.7031726654E+001  +3.6816869168E-005 +2.3213964190E+001  +2.9472967664E-005 -7.5642629116E+001  +9.2879138782E-001 +1.7027433837E+001 
12971.541 +9.3126379455E-001 +1.6980142725E+001  +5.5366667810E-005 +1.6222448117E+002  +1.2890415969E-005 +1.5148052424E+002  +9.3111719404E-001 +1.6978191863E+001 
13066.719 +9.3326986298E-001 +1.6916512609E+001  +3.5411280602E-005 -1.2248873276E+002  +2.5536130624E-005 -1.7838156868E+002  +9.3325760660E-001 +1.6920514696E+001 
13162.595 +9.3583688423E-001 +1.6882277983E+001  +7.0605130943E-006 -7.9156421169E+001  +3.2958062610E-005 +9.8744470196E+001  +9.3570870953E-001 +1.6878309413E+001 
13259.175 +9.3822199335E-001 +1.6818235932E+001  +1.9858104691E-005 +1.3621266651E+002  +2.4021149450E-005 +3.7327549686E+001  +9.3831406377E-001 +1.6820143016E+001 
13356.464 +9.4062266913E-001 +1.6750542703E+001  +2.7747954662E-005 +1.4297021061E+002  +1.5872972003E-005 +1.8743548753E+001  +9.4067860411E-001 +1.6754480185E+001 
13454.466 +9.4304555132E-001 +1.6691970189E+001  +3.8585361234E-005 +1.2988873994E+002  +1.8587594461E-005 +5.4933584830E+000  +9.4300593941E-001 +1.6681482068E+001 
13553.188 +9.4526771027E-001 +1.6623655855E+001  +2.3110318393E-005 +1.3114451980E+001  +1.2070570685E-005 +1.2311679500E+002  +9.4529558479E-001 +1.6614979482E+001 
13652.634 +9.4768286648E-001 +1.6563465952E+001  +2.0936269686E-005 -1.7181851599E+002  +2.9860877706E-005 -1.0118142071E+001  +9.4777091944E-001 +1.6554274195E+001 
13752.809 +9.5025135063E-001 +1.6487984911E+001  +4.4747955560E-005 -4.4591037497E+001  +3.0245554701E-005 +1.5282173730E+002  +9.5027269940E-001 +1.6488788262E+001 
13853.720 +9.5267018871E-001 +1.6405643192E+001  +2.0083595861E-005 +9.2211110154E+001  +2.7731096894E-005 +7.5502027210E+001  +9.5279936858E-001 +1.6407204574E+001 
13955.371 +9.5528154209E-001 +1.6348086015E+001  +2.6200758738E-005 +7.3770471167E+001  +1.8774621105E-005 +1.4652071673E+002  +9.5527802172E-001 +1.6341039628E+001 
14057.768 +9.5729662620E-001 +1.6265699987E+001  +4.4401418289E-005 +7.9380790557E+001  +6.2660448748E-006 -1.4569029975E+002  +9.5730420442E-001 +1.6250397048E+001 
14160.916 +9.5986896291E-001 +1.6198421898E+001  +2.4315064891E-005 +1.7032889299E+000  +5.1401372422E-005 +9.1111524418E+001  +9.5983432884E-001 +1.6186734890E+001 
14264.821 +9.6229632607E-001 +1.6106440430E+001  +1.7873886891E-005 -1.6709363307E+002  +1.2499518303E-005 -1.7448696695E+002  +9.6222505414E-001 +1.6109001342E+001 
14369.488 +9.6444252018E-001 +1.6033535685E+001  +1.3407006516E-005 -2.1608988995E+001  +2.8610199533E-005 -1.6113842654E+002  +9.6441005810E-001 +1.6045410736E+001 
14474.924 +9.6629522379E-001 +1.5985944092E+001  +1.9881480702E-005 -1.4004483542E+002  +6.2338207738E-006 -1.1334733606E+002  +9.6605961582E-001 +1.5992219909E+001 
14581.133 +9.6833306339E-001 +1.5934256686E+001  +9.1654275288E-006 +2.4940220449E+001  +1.6232889723E-005 -1.4814028796E+002  +9.6839025911E-001 +1.5924166085E+001 
14688.121 +9.6994823624E-001 +1.5875398419E+001  +4.4404200672E-005 +5.8752491486E+001  +2.4460955196E-005 +1.7944479973E+001  +9.6986154205E-001 +1.5872231333E+001 
14795.895 +9.7183637739E-001 +1.5829479097E+001  +1.2376978215E-005 +1.4589923459E+002  +4.7352038666E-005 +1.5800775453E+002  +9.7188766468E-001 +1.5815481045E+001 
14904.459 +9.7378827416E-001 +1.5739690185E+001  +2.7028476032E-006 +1.5151392014E+002  +1.7425277573E-005 -2.8092692129E+001  +9.7360601279E-001 +1.5752897611E+001 
15013.820 +9.7579461827E-001 +1.5697184067E+001  +3.6665507285E-005 -1.3571280253E+002  +2.1930810536E-005 +1.6466035885E+002  +9.7564846377E-001 +1.5694989479E+001 
15123.983 +9.7749287262E-001 +1.5647369868E+001  +5.9692257261E-005 -1.5568298046E+002  +5.4503943879E-005 -3.0832794975E+001  +9.7749410677E-001 +1.5638843504E+001 
15234.954 +9.7945774070E-001 +1.5558952922E+001  +3.5084266636E-005 +1.7710641863E+002  +2.3225666608E-005 +6.4920914723E+001  +9.7958116866E-001 +1.5571060493E+001 
15346.740 +9.8126044212E-001 +1.5503908397E+001  +3.0968555694E-005 +1.6306905286E+002  +3.0916170639E-005 +9.3146484772E+001  +9.8139035951E-001 +1.5504303361E+001 
15459.346 +9.8309134936E-001 +1.5444912084E+001  +2.3355838850E-005 +5.2520812224E+001  +4.0233532271E-005 +9.8270829017E+001  +9.8326905241E-001 +1.5438464123E+001 
15572.778 +9.8499046591E-001 +1.5377763803E+001  +5.3711399803E-005 +1.3595612756E+002  +1.7148374344E-005 +1.1626981705E+002  +9.8493622149E-001 +1.5380659862E+001 
15687.043 +9.8706180158E-001 +1.5308135318E+001  +2.0811957275E-005 -5.9480515881E+001  +1.3616279074E-005 -3.8990184113E+001  +9.8690059801E-001 +1.5303119849E+001 
15802.146 +9.8894334333E-001 +1.5228524388E+001  +1.0173746358E-005 +1.6031314735E+002  +1.0837860877E-005 -9.4599702006E+001  +9.8869896449E-001 +1.5216158021E+001 
15918.093 +9.9054850743E-001 +1.5147744760E+001  +3.5463979570E-005 +7.9960258928E+001  +1.7697177912E-005 -1.3185884340E+002  +9.9053020644E-001 +1.5147066940E+001 
16034.892 +9.9244142079E-001 +1.5076594221E+001  +3.4884774973E-005 -1.7962816547E+002  +1.6333438726E-005 +1.5430200677E+002  +9.9250428510E-001 +1.5080488020E+001 
16152.547 +9.9427976859E-001 +1.4996665385E+001  +3.6182461470E-005 -4.0965086175E+001  +2.2384826107E-005 +1.3884803449E+002  +9.9426203138E-001 +1.4998637159E+001 
16271.065 +9.9624830342E-001 +1.4921869070E+001  +2.8190440053E-005 +1.6028492433E+002  +3.5741300637E-005 +1.6324846207E+002  +9.9610532869E-001 +1.4919634397E+001 
16390.454 +9.9808009580E-001 +1.4846072787E+001  +1.7484896022E-005 -3.1279430345E-001  +3.2940239602E-005 -6.0650254352E+001  +9.9780101338E-001 +1.4851202417E+001 
16510.718 +9.9980546219E-001 +1.4776304129E+001  +6.5932625773E-006 -1.1127492920E+002  +2.9468761877E-005 +1.2139715438E+001  +9.9979453339E-001 +1.4757994476E+001 
16631.864 +1.0016629347E+000 +1.4677965664E+001  +1.3385473579E-005 +1.4457553030E+002  +2.2646767906E-005 +1.4895810351E+002  +1.0017156715E+000 +1.4671868112E+001 
16753.900 +1.0033250696E+000 +1.4593136470E+001  +3.1686123780E-005 +3.7519106084E+000  +2.4773124757E-005 -9.2291986901E+001  +1.0034201865E+000 +1.4605968064E+001 
16876.831 +1.0052397412E+000 +1.4506515087E+001  +1.0166290737E-005 -9.7442878255E+001  +1.0186293023E-005 +1.5550727228E+002  +1.0050907883E+000 +1.4505927138E+001 
17000.664 +1.0069947145E+000 +1.4424606679E+001  +4.2623950346E-005 +1.0819409151E+002  +3.0944167255E-005 +1.2616916401E+002  +1.0070703280E+000 +1.4436072590E+001 
17125.405 +1.0087665624E+000 +1.4342777762E+001  +9.5801521773E-006 +1.3146349521E+002  +1.9560690183E-005 -2.5869378320E+000  +1.0086932738E+000 +1.4345739771E+001 
17251.062 +1.0107109471E+000 +1.4233174868E+001  +1.7404837309E-005 +1.4636244493E+001  +2.6254742200E-005 +7.8424593946E+001  +1.0104038074E+000 +1.4244528546E+001 
17377.641 +1.0123137172E+000 +1.4159437708E+001  +2.0920048161E-005 +4.6193376539E+001  +3.7414782887E-005 +8.0584640932E+001  +1.0123257894E+000 +1.4143395450E+001 
17505.149 +1.0142079614E+000 +1.4069070689E+001  +2.7620828646E-005 -1.2886961835E+002  +5.7043015335E-005 +1.4166622208E+002  +1.0141128063E+000 +1.4061802195E+001 
17633.592 +1.0159346899E+000 +1.3966286617E+001  +3.5389919247E-005 -1.1847267269E+002  +2.0475361079E-005 -9.7172385299E+001  +1.0158389400E+000 +1.3961397598E+001 
17762.977 +1.0174327342E+000 +1.3859606764E+001  +9.5323559546E-006 +8.1574437348E+000  +2.1569355608E-005 +1.2736176723E+002  +1.0176664293E+000 +1.3865553850E+001 
17893.312 +1.0191763814E+000 +1.3768343262E+001  +4.6298910432E-005 -9.2597482130E+000  +3.5237972113E-005 +1.0966031304E+002  +1.0193740302E+000 +1.3777528251E+001 
18024.604 +1.0211114483E+000 +1.3665851011E+001  +4.2695933233E-005 +3.7014665202E+001  +2.1529220541E-005 +9.1840824849E+001  +1.0212801828E+000 +1.3671847398E+001 
18156.858 +1.0230037159E+000 +1.3573961561E+001  +2.4175452575E-005 +1.4798522707E+002  +3.4631318458E-005 -4.5977814497E+001  +1.0228819739E+000 +1.3568263992E+001 
18290.084 +1.0245627717E+000 +1.3463411497E+001  +2.0217143007E-005 +1.0281510649E+002  +3.3588004832E-005 +3.0801945707E+001  +1.0245043693E+000 +1.3466004078E+001 
18424.286 +1.0261905692E+000 +1.3368118480E+001  +2.6579253957E-005 -9.5808442378E+000  +3.6596145133E-005 +1.0357807914E+001  +1.0262571484E+000 +1.3370806034E+001 
18559.473 +1.0279244579E+000 +1.3247985803E+001  +5.8913086542E-005 +1.1133743968E+002  +1.7152937587E-005 -1.3880999749E+002  +1.0280373206E+000 +1.3243826749E+001 
18695.653 +1.0296028713E+000 +1.3151734879E+001  +4.1425085903E-005 +1.1172265768E+002  +2.9830348991E-005 +1.3890715220E+002  +1.0297435472E+000 +1.3152204856E+001 
18832.831 +1.0313345401E+000 +1.3031868767E+001  +3.3948710273E-005 +1.2191381691E+002  +3.6797393918E-005 -7.5741379489E+001  +1.0312738883E+000 +1.3032230614E+001 
18971.016 +1.0328289187E+000 +1.2911162521E+001  +2.8246038444E-005 +7.1540932902E+001  +1.7660166192E-005 -1.7356046017E+002  +1.0330842074E+000 +1.2920727497E+001 
19110.215 +1.0343692393E+000 +1.2823823909E+001  +4.6064633492E-005 -1.7352700058E+002  +3.5508573944E-005 -1.5193056037E+002  +1.0341039068E+000 +1.2822804565E+001 
19250.435 +1.0353990171E+000 +1.2762064334E+001  +1.3058114344E-005 -3.3805751850E+001  +1.8831547945E-005 -1.2033036973E+002  +1.0352720419E+000 +1.2759709716E+001 
19391.685 +1.0367558642E+000 +1.2706530138E+001  +6.2214132454E-005 +4.7532770988E+001  +2.6732344380E-005 -9.5634983711E+001  +1.0364885444E+000 +1.2706544436E+001 
19533.970 +1.0375104515E+000 +1.2644514098E+001  +1.5141034889E-005 -5.1455421312E+001  +4.8924862801E-005 +5.4039007251E+001  +1.0375182362E+000 +1.2639843345E+001 
19677.300 +1.0389976744E+000 +1.2581056790E+001  +3.5997472458E-005 +1.6084473588E+002  +2.6414077887E-005 +1.7906902497E+002  +1.0387818046E+000 +1.2578509828E+001 
19821.681 +1.0397286950E+000 +1.2519020573E+001  +2.3110427140E-005 -8.7079305226E+001  +1.8387792183E-005 +1.5348681018E+002  +1.0397650088E+000 +1.2525333890E+001 
19967.122 +1.0409472090E+000 +1.2465590404E+001  +2.9322602527E-005 +1.3449823877E+002  +2.6279475186E-005 +1.2976019633E+002  +1.0408138858E+000 +1.2455492003E+001 
20113.629 +1.0419515799E+000 +1.2395324342E+001  +1.2341155910E-005 -1.3836834369E+002  +2.6508673674E-005 -1.5137065122E+002  +1.0418921297E+000 +1.2403290289E+001 
20261.212 +1.0430415143E+000 +1.2332903508E+001  +3.3779102378E-005 +7.9358434864E+001  +5.4501180130E-005 +8.0344213813E+001  +1.0428919220E+000 +1.2336738416E+001 
20409.878 +1.0443465797E+000 +1.2263727081E+001  +2.4720564177E-005 +1.3709867079E+002  +2.1656743730E-005 +7.6836185434E+001  +1.0440923267E+000 +1.2268094706E+001 
20559.634 +1.0453563158E+000 +1.2214165715E+001  +3.2883669444E-005 +1.2813932917E+002  +1.4572234662E-005 -1.3649805787E+002  +1.0450806547E+000 +1.2205201897E+001 
20710.490 +1.0463934270E+000 +1.2136699373E+001  +1.7938755237E-005 +7.2967534046E+001  +4.5464389004E-005 +1.0088700421E+002  +1.0460287015E+000 +1.2137439915E+001 
20862.452 +1.0471881964E+000 +1.2074683383E+001  +5.3311523301E-005 +8.4096266916E+001  +3.2347412240E-005 -6.2791214279E+001  +1.0469699428E+000 +1.2069182815E+001 
21015.529 +1.0483305396E+000 +1.1995211100E+001  +1.3566501007E-005 +3.6868325870E+001  +3.8361238472E-005 +1.4244145232E+002  +1.0481507787E+000 +1.1999818802E+001 
