!  2-Port S-parameters saved by WinCal
! VAR MeasName=S-Parameters (CALIBRATED_DATA) read from VNA (P5004A)
! VAR MeasDate=26/04/2024 18:17:33
! VAR NAME=Wafer2_r1_c7_pristine_log
! VAR FILENAME=Wafer2_r1_c7_pristine_log_1.S2P
! VAR DATE=26/04/2024 18:17:33
! VAR PHYS_PORTS=1,2
! VAR ObjTypeName=DATASET
! VAR IndexType=Frequency
!
# Hz S MA R 50
9000.000 +7.9783932750E-001 +1.7316033301E+001  +2.7574005878E-005 +1.1718159743E+002  +1.9627798156E-005 +1.5121007719E+002  +7.9783108522E-001 +1.7316047463E+001 
9066.037 +8.0036090071E-001 +1.7371307190E+001  +4.2683882545E-005 +4.5591033558E+000  +3.1670858511E-005 +1.3798669937E+002  +8.0030621106E-001 +1.7365436391E+001 
9132.559 +8.0266673492E-001 +1.7419139935E+001  +2.3360647379E-005 +4.8106053077E+001  +2.0943115429E-005 +1.0635486006E+001  +8.0249765007E-001 +1.7418590070E+001 
9199.568 +8.0537909938E-001 +1.7484392460E+001  +3.5047011836E-005 +1.6473066383E+002  +5.2835587297E-005 +1.1290429666E+002  +8.0538378369E-001 +1.7493408126E+001 
9267.070 +8.0806961089E-001 +1.7515632614E+001  +1.3501067219E-005 +1.0796852180E+002  +1.3147209566E-005 -1.1534549243E+002  +8.0787216763E-001 +1.7515703381E+001 
9335.066 +8.1054746438E-001 +1.7585452646E+001  +2.7368500022E-005 +1.3803065473E+002  +2.2738159198E-005 -1.6480657149E+002  +8.1028880676E-001 +1.7586362771E+001 
9403.562 +8.1326436846E-001 +1.7636291986E+001  +9.6807139670E-006 +6.4762891667E+001  +1.0654731542E-005 +1.9374676705E+000  +8.1326998657E-001 +1.7625641984E+001 
9472.560 +8.1592566317E-001 +1.7662460153E+001  +3.2554408617E-005 -8.0001546292E+001  +6.5925583638E-006 -6.5348110584E+001  +8.1575922103E-001 +1.7656045744E+001 
9542.065 +8.1869615911E-001 +1.7684885209E+001  +3.8176237388E-006 +1.5775348469E+002  +1.6572604400E-005 -1.9206330264E+001  +8.1849210457E-001 +1.7671823016E+001 
9612.079 +8.2110469371E-001 +1.7726375463E+001  +1.8145190019E-005 +1.1472882198E+002  +1.9893815124E-005 +1.3355211020E+002  +8.2105486022E-001 +1.7707604152E+001 
9682.607 +8.2382133125E-001 +1.7741477366E+001  +2.3582173001E-005 -1.6460269874E+002  +1.2205293467E-005 +3.2243108284E+001  +8.2366521881E-001 +1.7727939736E+001 
9753.653 +8.2639020551E-001 +1.7786377116E+001  +1.5696897312E-005 +1.2135828354E+002  +1.4127871980E-005 +1.4602958618E+002  +8.2625451133E-001 +1.7765544800E+001 
9825.220 +8.2875403289E-001 +1.7794372892E+001  +1.4661418437E-005 -2.4290824817E+000  +1.6493971285E-005 +2.5063941940E+001  +8.2861946630E-001 +1.7785272194E+001 
9897.312 +8.3157257725E-001 +1.7805645226E+001  +3.3826848384E-005 +3.7304472567E+000  +3.8604828175E-005 -6.8807516790E+001  +8.3162669819E-001 +1.7807223163E+001 
9969.933 +8.3408866688E-001 +1.7837377350E+001  +1.7981460576E-005 -1.0250989751E+002  +3.5385995768E-005 +9.6462688316E+001  +8.3403968125E-001 +1.7835982596E+001 
10043.087 +8.3686626723E-001 +1.7866041915E+001  +4.0468454424E-005 -7.3065950323E+000  +3.9389690543E-005 +2.5605260050E+001  +8.3671363046E-001 +1.7854858834E+001 
10116.778 +8.3956470507E-001 +1.7850457362E+001  +1.5784540198E-005 -7.6922085844E+001  +7.6377071984E-006 +8.5309001703E+001  +8.3927172794E-001 +1.7854363466E+001 
10191.009 +8.4194390096E-001 +1.7885882524E+001  +3.3229640307E-005 +1.5077047585E+002  +1.7910052658E-005 -1.7510744544E+002  +8.4194672888E-001 +1.7873307106E+001 
10265.785 +8.4513379653E-001 +1.7879632664E+001  +1.3005599416E-005 +4.9592944135E+001  +1.5908256540E-005 +9.2359465737E+001  +8.4480923339E-001 +1.7883223172E+001 
10341.110 +8.4790057519E-001 +1.7899588418E+001  +2.5985067262E-005 +7.6409379195E+001  +1.4711839836E-005 -5.6141231227E+001  +8.4775366248E-001 +1.7890798383E+001 
10416.987 +8.5065933229E-001 +1.7891657331E+001  +3.4613690277E-005 -2.8507993462E+001  +3.7342936121E-005 +1.2408957216E+002  +8.5056200025E-001 +1.7896113542E+001 
10493.421 +8.5348663401E-001 +1.7889655244E+001  +5.9325619807E-005 +7.4734183972E-001  +5.1560540206E-006 -8.8674342201E+001  +8.5336398478E-001 +1.7890955082E+001 
10570.416 +8.5621285651E-001 +1.7882408094E+001  +1.8082484668E-005 -1.8106981317E+001  +1.1134249059E-005 +1.4690163275E+002  +8.5641184688E-001 +1.7882566748E+001 
10647.976 +8.5894420462E-001 +1.7886623295E+001  +4.3529620336E-005 +5.3782529976E+001  +2.2744969947E-005 +1.5886883225E+002  +8.5908118143E-001 +1.7877263208E+001 
10726.105 +8.6209314208E-001 +1.7869576062E+001  +1.5254098584E-005 +8.3598776160E+001  +4.9932728327E-005 -1.0789099985E+002  +8.6205417557E-001 +1.7870877243E+001 
10804.808 +8.6520153989E-001 +1.7843115014E+001  +1.6700519190E-005 -1.3990136010E+002  +9.4489630520E-006 +1.4812191612E+002  +8.6514182064E-001 +1.7848296656E+001 
10884.087 +8.6809315203E-001 +1.7838552398E+001  +3.2952062961E-005 +9.2936318376E+001  +1.4916655407E-005 -2.5960266265E+001  +8.6811580519E-001 +1.7837265409E+001 
10963.949 +8.7095848087E-001 +1.7801742686E+001  +4.8188630367E-006 +7.6493431174E+001  +2.1958403020E-005 +1.2456361970E+002  +8.7100457977E-001 +1.7807197317E+001 
11044.396 +8.7402901067E-001 +1.7795113680E+001  +2.0874482049E-005 +6.1425452949E+001  +8.8164194018E-006 +8.5776994088E+001  +8.7407577724E-001 +1.7797773581E+001 
11125.434 +8.7636791575E-001 +1.7792191960E+001  +4.2615198922E-006 +1.6953582330E+002  +5.3747908545E-005 +1.6436958284E+002  +8.7635611144E-001 +1.7786802052E+001 
11207.066 +8.7898622693E-001 +1.7764298803E+001  +1.7998077405E-006 +7.7808461606E+001  +3.0792969684E-005 -1.7123880237E+002  +8.7914241632E-001 +1.7758141574E+001 
11289.298 +8.8155504946E-001 +1.7761007126E+001  +2.9490046025E-005 +3.4158716239E+001  +2.3683276586E-005 +1.3870508567E+002  +8.8125116870E-001 +1.7765716160E+001 
11372.132 +8.8411441563E-001 +1.7735099201E+001  +2.5994458635E-005 +1.9979684886E+001  +1.0277135432E-005 -5.2353974814E+001  +8.8418321658E-001 +1.7732961682E+001 
11455.575 +8.8697395263E-001 +1.7714017342E+001  +1.3800340433E-005 +1.2271039375E+002  +2.6594420212E-005 +1.4175718633E+002  +8.8682403327E-001 +1.7712878542E+001 
11539.630 +8.8949854955E-001 +1.7691321712E+001  +8.6680849756E-006 -1.3651715384E+002  +1.4464507591E-005 +1.4637442811E+002  +8.8953376725E-001 +1.7688679996E+001 
11624.301 +8.9199253769E-001 +1.7657353659E+001  +1.4439710570E-005 -1.5515088358E+001  +4.3351253764E-005 +9.0519012162E+001  +8.9190859789E-001 +1.7657884732E+001 
11709.594 +8.9466034848E-001 +1.7627286474E+001  +2.8596892396E-005 -3.8333016934E+001  +3.5460070833E-005 +1.3524484585E+002  +8.9456500369E-001 +1.7619058597E+001 
11795.512 +8.9738231042E-001 +1.7592829087E+001  +9.0079060811E-006 +9.5289946105E+001  +1.0536345114E-005 +2.1758893342E+001  +8.9746277529E-001 +1.7601260239E+001 
11882.062 +8.9991768707E-001 +1.7557489539E+001  +3.1964187933E-005 +8.7519433559E+001  +3.1879534087E-005 +1.6307222415E+002  +8.9995477351E-001 +1.7562963545E+001 
11969.246 +9.0278407054E-001 +1.7517702273E+001  +1.3171516249E-005 +2.2613578313E+000  +2.7905082386E-005 +7.7849922931E+001  +9.0294374917E-001 +1.7519307092E+001 
12057.069 +9.0528764023E-001 +1.7472402052E+001  +1.7814308718E-005 -6.6051250016E+001  +3.1367445454E-005 +6.1547155785E+001  +9.0545581406E-001 +1.7473071716E+001 
12145.538 +9.0808106655E-001 +1.7412789164E+001  +1.9384748173E-005 +1.1793704927E+002  +2.7210830571E-005 +1.6898085465E+002  +9.0816940340E-001 +1.7426520157E+001 
12234.655 +9.1093364443E-001 +1.7373874862E+001  +1.4188658079E-005 +1.0468285439E+002  +6.2002845413E-006 +4.9325599098E+001  +9.1088137716E-001 +1.7372532701E+001 
12324.426 +9.1373694718E-001 +1.7312675672E+001  +2.0798842752E-005 +5.1657909441E+001  +2.6978585076E-005 +3.4989056086E+001  +9.1390140341E-001 +1.7321402209E+001 
12414.856 +9.1638775787E-001 +1.7265229898E+001  +1.8010115801E-005 +1.1642258449E+001  +3.4922068974E-005 +7.5879911066E+001  +9.1633344558E-001 +1.7261937720E+001 
12505.949 +9.1934305609E-001 +1.7212177606E+001  +1.3981643446E-005 -8.0035165497E+001  +1.2809500722E-005 +6.2293730447E+001  +9.1945903434E-001 +1.7220254803E+001 
12597.711 +9.2130410993E-001 +1.7178957733E+001  +4.6395802449E-005 +6.5810501636E+001  +5.8327766171E-006 -1.7162272123E+002  +9.2115739538E-001 +1.7172659802E+001 
12690.146 +9.2407464559E-001 +1.7127633877E+001  +1.1048221729E-005 +1.1243620074E+002  +5.6310630001E-006 -1.4555241118E+002  +9.2408875043E-001 +1.7136931906E+001 
12783.260 +9.2642738443E-001 +1.7078622051E+001  +3.2423296172E-005 -2.7723508090E+001  +2.2503164960E-005 +1.9545354054E+001  +9.2624741456E-001 +1.7078104222E+001 
12877.056 +9.2875312235E-001 +1.7034554167E+001  +3.1025687705E-005 +5.9351378386E+001  +1.4247440692E-005 -1.2247971023E+002  +9.2895017494E-001 +1.7032683649E+001 
12971.541 +9.3119728350E-001 +1.6978570086E+001  +2.2285514034E-005 +1.2734792645E+002  +2.6107586839E-006 -5.8576844552E+001  +9.3126812387E-001 +1.6982057153E+001 
13066.719 +9.3333939386E-001 +1.6920486544E+001  +1.6574016755E-005 -1.0724883378E+002  +4.0007556425E-005 +1.3576473116E+001  +9.3334999476E-001 +1.6925541634E+001 
13162.595 +9.3583125778E-001 +1.6872783892E+001  +1.9292708600E-005 -6.1734770768E+001  +1.0917903953E-005 +1.5175887906E+002  +9.3590784360E-001 +1.6876059620E+001 
13259.175 +9.3824845629E-001 +1.6815040114E+001  +1.9580864663E-005 -7.4615797930E+001  +3.2323069479E-005 -1.3012652714E+002  +9.3831477887E-001 +1.6820350348E+001 
13356.464 +9.4070587642E-001 +1.6754116602E+001  +1.8634012118E-005 -1.2829786983E+002  +2.2261590251E-005 +7.6814529550E+001  +9.4071242299E-001 +1.6756146224E+001 
13454.466 +9.4307382792E-001 +1.6684812776E+001  +3.0901430542E-005 +4.7479714901E+001  +1.1714648489E-005 -7.3009993502E+001  +9.4304193807E-001 +1.6676568038E+001 
13553.188 +9.4528170305E-001 +1.6630536286E+001  +4.4081488314E-006 +1.1937523773E+002  +2.1624908781E-005 -1.0235087791E+002  +9.4528578959E-001 +1.6620380299E+001 
13652.634 +9.4767162046E-001 +1.6559991242E+001  +4.1146982623E-005 +1.2809766085E+002  +2.6248230128E-005 -9.9919701890E+001  +9.4769135497E-001 +1.6561753091E+001 
13752.809 +9.5025358974E-001 +1.6486338941E+001  +3.9404875943E-005 -9.4754147810E+001  +4.0245559221E-005 +4.4768425162E+001  +9.5029382551E-001 +1.6482517832E+001 
13853.720 +9.5268421083E-001 +1.6409890378E+001  +3.5986741374E-005 +3.8002916107E+001  +2.1585956257E-005 +1.6245882266E+001  +9.5270722102E-001 +1.6408270236E+001 
13955.371 +9.5540728847E-001 +1.6352344541E+001  +2.8184757425E-005 +5.7064353891E+001  +3.2477638108E-005 -7.8688516531E+001  +9.5513845244E-001 +1.6341992798E+001 
14057.768 +9.5735465671E-001 +1.6265325809E+001  +2.1328163873E-005 -4.7621685542E+001  +2.5491814009E-006 +1.7632204225E+002  +9.5734991119E-001 +1.6258441351E+001 
14160.916 +9.5992481239E-001 +1.6188303064E+001  +3.9648135609E-005 -8.0506513677E+001  +3.0084938258E-005 +7.0945836592E+001  +9.5991209530E-001 +1.6182203469E+001 
14264.821 +9.6245198830E-001 +1.6111646159E+001  +1.2587209387E-005 +5.9693705822E+001  +3.0210873890E-005 +4.4721029697E+001  +9.6238596579E-001 +1.6110135058E+001 
14369.488 +9.6454099680E-001 +1.6045362142E+001  +3.9659698357E-005 +8.1112801095E+001  +1.7743268361E-005 +2.4833612098E+000  +9.6447278692E-001 +1.6041918347E+001 
14474.924 +9.6625028758E-001 +1.5986280962E+001  +1.2438413243E-005 -6.7727367817E+000  +3.3190914404E-005 +9.4311943235E+001  +9.6614843950E-001 +1.5983667022E+001 
14581.133 +9.6829586858E-001 +1.5934191825E+001  +3.0816795596E-005 +6.5455524143E+001  +1.7436845327E-005 +9.4661183525E+001  +9.6832874383E-001 +1.5927694867E+001 
14688.121 +9.7005058386E-001 +1.5880013138E+001  +3.1447549993E-005 +9.5524314509E+001  +2.4499373068E-005 +1.5464063822E+002  +9.6987656471E-001 +1.5874592774E+001 
14795.895 +9.7183460502E-001 +1.5829831977E+001  +1.3314320364E-005 -8.4608301385E+001  +2.8420890737E-005 -1.2449497422E+002  +9.7186093740E-001 +1.5810768660E+001 
14904.459 +9.7383280724E-001 +1.5741139656E+001  +7.5320677529E-006 -1.1495924870E+001  +5.0803531196E-005 -5.7184401861E+001  +9.7358431682E-001 +1.5755050955E+001 
15013.820 +9.7576577127E-001 +1.5694791706E+001  +2.1128739625E-005 +1.2989052472E+002  +3.5518897571E-005 +1.3272019274E+002  +9.7570199671E-001 +1.5686184159E+001 
15123.983 +9.7774503800E-001 +1.5647549165E+001  +2.2587906603E-005 +7.0666111576E+001  +2.9633002910E-005 +1.2260165322E+001  +9.7756080840E-001 +1.5644837891E+001 
15234.954 +9.7952339734E-001 +1.5572090832E+001  +2.9889670243E-005 +5.5168778566E+001  +4.1621072686E-005 +1.3491823467E+002  +9.7964133697E-001 +1.5575870150E+001 
15346.740 +9.8136042118E-001 +1.5510655022E+001  +1.8948887450E-005 -1.5440911756E+002  +1.4052617347E-005 +3.8808500383E+001  +9.8150449887E-001 +1.5499698196E+001 
15459.346 +9.8317675987E-001 +1.5443949504E+001  +1.4551180984E-005 -6.2597654518E+001  +4.6888417242E-005 +1.1761364699E+002  +9.8331284071E-001 +1.5446722265E+001 
15572.778 +9.8502501212E-001 +1.5379291294E+001  +3.4943471737E-005 +9.7841716308E+001  +5.8862874839E-005 +1.6030641766E+002  +9.8497222234E-001 +1.5377579208E+001 
15687.043 +9.8683161588E-001 +1.5303456926E+001  +3.6112782394E-005 -1.6973239097E+002  +4.3629566771E-005 +5.5612902513E+001  +9.8691181226E-001 +1.5303899592E+001 
15802.146 +9.8880104383E-001 +1.5225689811E+001  +6.4016525447E-006 -1.5385895404E+002  +1.3589612652E-005 -1.7563278322E+002  +9.8881919911E-001 +1.5218388090E+001 
15918.093 +9.9061406379E-001 +1.5150154133E+001  +3.8825741697E-005 -4.0861325082E+001  +1.0927369064E-005 -7.5551980686E+001  +9.9050844647E-001 +1.5144132248E+001 
16034.892 +9.9264519857E-001 +1.5071542705E+001  +1.4793502407E-005 +6.2375028957E+001  +1.4024096347E-005 +9.1201988625E+001  +9.9253960350E-001 +1.5079696337E+001 
16152.547 +9.9440097261E-001 +1.5007242355E+001  +3.8214516804E-006 -1.7659338707E+002  +5.2112239509E-005 -3.5268005808E+001  +9.9415843915E-001 +1.5002873788E+001 
16271.065 +9.9632171540E-001 +1.4924426170E+001  +2.5280779092E-005 +3.0756834262E+001  +3.6235424659E-005 -1.0416418701E+002  +9.9616135666E-001 +1.4926121706E+001 
16390.454 +9.9813079186E-001 +1.4842749335E+001  +4.3189394089E-005 -1.5558921182E+002  +9.5645887066E-006 -8.3747562641E+001  +9.9798345266E-001 +1.4848005522E+001 
16510.718 +9.9980551156E-001 +1.4772859139E+001  +3.3364217172E-005 +1.5462470874E+002  +1.2489039570E-005 +1.8628289886E+001  +9.9976684247E-001 +1.4756556235E+001 
16631.864 +1.0017412568E+000 +1.4682272396E+001  +3.4927164278E-005 +5.1877696093E+001  +2.0013866868E-005 -1.0825229612E+001  +1.0016485437E+000 +1.4667512888E+001 
16753.900 +1.0035097649E+000 +1.4597791718E+001  +2.8627524114E-005 +3.6131193057E+001  +3.8008154299E-005 +8.7350324603E+001  +1.0034149670E+000 +1.4612731909E+001 
16876.831 +1.0051951274E+000 +1.4508866314E+001  +4.0652167157E-005 -2.1922112403E+001  +2.0566917006E-005 -1.5226484330E+002  +1.0052713621E+000 +1.4503471393E+001 
17000.664 +1.0072100472E+000 +1.4428305738E+001  +4.6577575449E-006 +9.9195595166E+001  +2.8100095960E-005 -8.4508336998E+001  +1.0071023076E+000 +1.4431223825E+001 
17125.405 +1.0087869533E+000 +1.4346363788E+001  +2.1491689941E-005 +1.2885365862E+002  +2.7454956074E-005 -7.6149161074E+001  +1.0087471410E+000 +1.4346826818E+001 
17251.062 +1.0107108969E+000 +1.4241585504E+001  +4.7172020228E-006 -1.1372594522E+002  +1.0362968565E-005 +4.8904717226E+001  +1.0105986237E+000 +1.4235818658E+001 
17377.641 +1.0122973175E+000 +1.4151605228E+001  +2.6961156906E-005 +1.1849644018E+002  +3.6952662317E-005 +1.5259261522E+002  +1.0124015327E+000 +1.4147884735E+001 
17505.149 +1.0141297690E+000 +1.4059169409E+001  +2.5704366611E-005 -6.5496446664E+001  +4.2439801021E-005 -1.5234606221E+002  +1.0140391790E+000 +1.4061133446E+001 
17633.592 +1.0159305660E+000 +1.3966632833E+001  +3.6579587431E-005 -5.2393595252E+000  +1.8987838068E-005 -6.6154828693E+001  +1.0158681369E+000 +1.3962071594E+001 
17762.977 +1.0173601244E+000 +1.3858083090E+001  +3.0242044781E-005 +1.4243760144E+002  +2.1559560247E-005 +4.8684919069E+001  +1.0176260708E+000 +1.3868867138E+001 
17893.312 +1.0192254091E+000 +1.3778953325E+001  +3.0042771680E-005 -8.4635468481E+001  +5.1707230124E-005 +1.3352324441E+002  +1.0194181620E+000 +1.3768594492E+001 
18024.604 +1.0211990678E+000 +1.3673696160E+001  +4.2276928277E-005 -1.7282164661E+002  +2.7423170204E-005 +1.9545111042E+001  +1.0214186134E+000 +1.3678164460E+001 
18156.858 +1.0230316272E+000 +1.3566552005E+001  +2.1606529695E-005 +5.0285952629E+001  +8.0169871526E-006 +1.6632264347E+002  +1.0229162837E+000 +1.3569552621E+001 
18290.084 +1.0244791154E+000 +1.3464672115E+001  +5.7332484692E-005 +1.1844014368E+002  +5.8836452741E-005 -1.7336079269E+002  +1.0246156193E+000 +1.3467365939E+001 
18424.286 +1.0261999954E+000 +1.3368706602E+001  +2.7024004374E-005 +1.4836694388E+002  +3.2512604858E-005 +5.7305789902E+001  +1.0261876590E+000 +1.3365376141E+001 
18559.473 +1.0279656521E+000 +1.3243907684E+001  +4.3269178442E-006 -1.6506793660E+002  +1.7012117285E-005 -1.0613334671E+002  +1.0279866901E+000 +1.3244394493E+001 
18695.653 +1.0297283703E+000 +1.3148327977E+001  +4.1890486646E-005 +1.6904762716E+002  +3.2317497712E-006 +5.4639992212E+001  +1.0297881616E+000 +1.3141398777E+001 
18832.831 +1.0313782098E+000 +1.3030044646E+001  +3.7511112775E-005 +1.9478480220E+001  +4.1817872531E-005 +1.4424979410E+002  +1.0314443459E+000 +1.3030000744E+001 
18971.016 +1.0329059933E+000 +1.2907735110E+001  +2.1782244303E-005 -9.1895062128E+001  +1.6900918348E-005 -4.0398671465E+001  +1.0329955810E+000 +1.2928217674E+001 
19110.215 +1.0344307888E+000 +1.2830885437E+001  +2.0396884080E-005 +6.4944560260E+001  +1.9442017902E-005 -4.0621444023E+001  +1.0342429863E+000 +1.2823417148E+001 
19250.435 +1.0353098728E+000 +1.2756677876E+001  +2.8252281342E-005 +7.5965634496E+001  +1.0370608091E-005 +2.6588156455E+001  +1.0353242686E+000 +1.2759867747E+001 
19391.685 +1.0365792658E+000 +1.2710539679E+001  +1.6810143257E-005 +8.2941866421E+001  +3.4810614600E-005 +6.7011816013E+001  +1.0365296229E+000 +1.2713706966E+001 
19533.970 +1.0376055278E+000 +1.2649481342E+001  +2.1205315734E-005 +1.5450579281E+002  +1.3440758355E-005 -1.7586494081E+002  +1.0377554377E+000 +1.2646956830E+001 
19677.300 +1.0388630650E+000 +1.2576073296E+001  +4.9312039498E-005 -9.9786713099E+001  +2.6445364250E-005 -1.7173947374E+002  +1.0387657622E+000 +1.2576446176E+001 
19821.681 +1.0397503572E+000 +1.2528151126E+001  +2.7813248416E-005 -5.9653981209E+001  +2.5864659099E-005 +9.0547302668E+001  +1.0398620508E+000 +1.2520749849E+001 
19967.122 +1.0409835827E+000 +1.2460115677E+001  +3.2946313748E-005 +5.9300186159E+001  +2.9770121492E-005 +7.6724764973E-001  +1.0408714867E+000 +1.2458011468E+001 
20113.629 +1.0420749074E+000 +1.2394787837E+001  +3.5371211935E-005 -1.3312681584E+002  +4.5525638621E-005 +7.4690441219E+001  +1.0418890619E+000 +1.2399928498E+001 
20261.212 +1.0430498075E+000 +1.2340717719E+001  +2.1871280054E-005 +1.2655563296E+002  +3.8980375089E-005 -1.5704626208E+002  +1.0428935492E+000 +1.2341437736E+001 
20409.878 +1.0442666963E+000 +1.2278319690E+001  +4.1627253670E-005 +1.4498250541E+001  +2.0030254712E-005 -4.2641108292E+001  +1.0441526259E+000 +1.2267364324E+001 
20559.634 +1.0453244680E+000 +1.2209590600E+001  +3.4142530085E-005 -8.7986557513E+001  +2.1823657953E-005 +1.2408404462E+002  +1.0451232822E+000 +1.2211830918E+001 
20710.490 +1.0464005847E+000 +1.2135634475E+001  +5.6016605938E-005 +2.3380677750E+001  +5.1360340595E-006 +1.6274497169E+002  +1.0461950885E+000 +1.2138823288E+001 
20862.452 +1.0471542465E+000 +1.2069740480E+001  +3.3396358973E-005 +1.6637352330E+002  +2.2455911898E-005 +1.1992477307E+002  +1.0471136096E+000 +1.2061272833E+001 
21015.529 +1.0484950082E+000 +1.2001714469E+001  +2.5162274353E-005 +1.1587917514E+002  +2.1398712603E-005 +1.1477090655E+002  +1.0482716457E+000 +1.1999810976E+001 
