!  2-Port S-parameters saved by WinCal
! VAR MeasName=S-Parameters (CALIBRATED_DATA) read from VNA (P5004A)
! VAR MeasDate=26/04/2024 17:50:42
! VAR NAME=Wafer2_r1_c9_pristine
! VAR FILENAME=Wafer2_r1_c9_pristine_1.S2P
! VAR DATE=26/04/2024 17:50:42
! VAR PHYS_PORTS=1,2
! VAR ObjTypeName=DATASET
! VAR IndexType=Frequency
!
# Hz S MA R 50
9000.000 +7.9712850913E-001 +1.7522017477E+001  +2.6563058534E-006 +1.7566087558E+002  +2.0368095106E-005 -1.7735574459E+002  +7.9700393869E-001 +1.7511397514E+001 
10013997.999 +9.8062354514E-001 -1.9371509489E-001  +4.7141546428E-003 +8.8853415886E+001  +4.7530619781E-003 +8.8524833685E+001  +9.8059700732E-001 -1.8825251705E-001 
20018995.998 +9.9490729723E-001 +1.9696158002E-001  +9.5480370027E-003 +8.9001211705E+001  +9.5783826021E-003 +8.8267025789E+001  +9.9477187136E-001 +1.9889374423E-001 
30023993.997 +1.0052557720E+000 -1.1372436451E-001  +1.4407566341E-002 +8.8560004599E+001  +1.4278066243E-002 +8.8035690441E+001  +1.0049654894E+000 -9.8842397038E-002 
40028991.996 +1.0129694930E+000 -8.4632378012E-001  +1.9276255717E-002 +8.7967467374E+001  +1.9107068899E-002 +8.7621642583E+001  +1.0127941682E+000 -8.1299003496E-001 
50033989.995 +1.0136565035E+000 -1.7489183268E+000  +2.4054815429E-002 +8.6975763601E+001  +2.3810451909E-002 +8.6937348672E+001  +1.0136612594E+000 -1.7165792261E+000 
60038987.994 +1.0065697696E+000 -2.5895082938E+000  +2.8596531574E-002 +8.6020988939E+001  +2.8312888127E-002 +8.6357887024E+001  +1.0068208757E+000 -2.5509747435E+000 
70043985.993 +9.9442353898E-001 -2.9828991500E+000  +3.2815610989E-002 +8.5656266544E+001  +3.2700042045E-002 +8.6138030919E+001  +9.9473225381E-001 -2.9503518207E+000 
80048983.992 +9.8445622385E-001 -2.8536944806E+000  +3.7064555200E-002 +8.5783886090E+001  +3.7169877633E-002 +8.6307331638E+001  +9.8478651568E-001 -2.8335982133E+000 
90053981.991 +9.8142522053E-001 -2.5164058476E+000  +4.1557664310E-002 +8.6088431475E+001  +4.1872327622E-002 +8.6434853475E+001  +9.8160278963E-001 -2.5010052466E+000 
100058979.990 +9.8547675766E-001 -2.2150077325E+000  +4.6308764372E-002 +8.6294111483E+001  +4.6729962358E-002 +8.6262092077E+001  +9.8533971573E-001 -2.2105675852E+000 
110063977.989 +9.9459330539E-001 -2.1577665833E+000  +5.1282304918E-002 +8.6323854846E+001  +5.1622925377E-002 +8.5866115273E+001  +9.9408344869E-001 -2.1498219468E+000 
120068975.988 +1.0060291181E+000 -2.5086507681E+000  +5.6452405772E-002 +8.5972003586E+001  +5.6546732504E-002 +8.5428040342E+001  +1.0053910551E+000 -2.4833277013E+000 
130073973.987 +1.0149102515E+000 -3.3206293472E+000  +6.1692671597E-002 +8.5192999918E+001  +6.1432159326E-002 +8.4694603607E+001  +1.0143411830E+000 -3.2602496448E+000 
140078971.986 +1.0156662661E+000 -4.4286175178E+000  +6.6470177868E-002 +8.4024843963E+001  +6.5847331766E-002 +8.3743458952E+001  +1.0152452880E+000 -4.3417850775E+000 
150083969.985 +1.0058814436E+000 -5.4125564827E+000  +7.0448015647E-002 +8.3019882693E+001  +6.9667760619E-002 +8.3011562163E+001  +1.0059961307E+000 -5.3092763760E+000 
160088967.984 +9.9010709591E-001 -5.8221717941E+000  +7.3803291537E-002 +8.2585819573E+001  +7.3204238368E-002 +8.2988563162E+001  +9.9067137206E-001 -5.7278265276E+000 
170093965.983 +9.7740822818E-001 -5.6416654674E+000  +7.7295578051E-002 +8.2807921145E+001  +7.7146687517E-002 +8.3414905844E+001  +9.7814193727E-001 -5.5755029537E+000 
180098963.982 +9.7276937259E-001 -5.1544331047E+000  +8.1540369411E-002 +8.3305045663E+001  +8.1898116822E-002 +8.3828806757E+001  +9.7335656841E-001 -5.1093908009E+000 
190103961.981 +9.7629528198E-001 -4.6819433498E+000  +8.6328218581E-002 +8.3674622202E+001  +8.7152735827E-002 +8.3895594043E+001  +9.7661626977E-001 -4.6721788152E+000 
200108959.980 +9.8666251483E-001 -4.4814938845E+000  +9.1653028273E-002 +8.3804377620E+001  +9.2571811756E-002 +8.3631932673E+001  +9.8622260048E-001 -4.4670244223E+000 
210113957.979 +1.0000412161E+000 -4.7187954404E+000  +9.7408847869E-002 +8.3585820536E+001  +9.7962688264E-002 +8.3101574646E+001  +9.9915427872E-001 -4.6835181230E+000 
220118955.978 +1.0121236088E+000 -5.4916507186E+000  +1.0327727931E-001 +8.2845801575E+001  +1.0322040653E-001 +8.2267454193E+001  +1.0109909986E+000 -5.4144144459E+000 
230123953.977 +1.0164129706E+000 -6.7010916354E+000  +1.0851866241E-001 +8.1598048787E+001  +1.0785960880E-001 +8.1139879743E+001  +1.0154649752E+000 -6.5775836004E+000 
240128951.976 +1.0080610500E+000 -7.9327070211E+000  +1.1220019755E-001 +8.0283315800E+001  +1.1104322789E-001 +8.0078343127E+001  +1.0078126680E+000 -7.7740551250E+000 
250133949.975 +9.9024637020E-001 -8.6489287041E+000  +1.1447420779E-001 +7.9530725935E+001  +1.1335094390E-001 +7.9726702617E+001  +9.9085882855E-001 -8.4782850710E+000 
260138947.974 +9.7248246446E-001 -8.6046851053E+000  +1.1678845309E-001 +7.9654807139E+001  +1.1604118711E-001 +8.0152658413E+001  +9.7364948897E-001 -8.4648432145E+000 
270143945.973 +9.6286370761E-001 -8.0297396038E+000  +1.2014402222E-001 +8.0283215786E+001  +1.2018140263E-001 +8.0875898988E+001  +9.6413044692E-001 -7.9387508435E+000 
280148943.972 +9.6344267036E-001 -7.3482831961E+000  +1.2480644060E-001 +8.0880565631E+001  +1.2555631813E-001 +8.1316467322E+001  +9.6428693457E-001 -7.2974930942E+000 
290153941.971 +9.7257116371E-001 -6.8867109330E+000  +1.3035366741E-001 +8.1217151983E+001  +1.3161974335E-001 +8.1337919942E+001  +9.7296096894E-001 -6.8631255303E+000 
300158939.970 +9.8757721260E-001 -6.8765901391E+000  +1.3659117771E-001 +8.1210323386E+001  +1.3781233646E-001 +8.0947487275E+001  +9.8687453930E-001 -6.8471308461E+000 
310163937.969 +1.0033433035E+000 -7.4610198896E+000  +1.4327366630E-001 +8.0691575018E+001  +1.4385489593E-001 +8.0165178941E+001  +1.0019181153E+000 -7.3870977968E+000 
320168935.968 +1.0131767603E+000 -8.6246498563E+000  +1.4953817683E-001 +7.9522659233E+001  +1.4923777410E-001 +7.8985513957E+001  +1.0115261078E+000 -8.4999702669E+000 
330173933.967 +1.0105552279E+000 -1.0070696486E+001  +1.5386996743E-001 +7.7989116381E+001  +1.5281584236E-001 +7.7606327710E+001  +1.0095683397E+000 -9.8858169264E+000 
340178931.966 +9.9429794454E-001 -1.1218407911E+001  +1.5573359132E-001 +7.6767130951E+001  +1.5424700121E-001 +7.6675278949E+001  +9.9424846002E-001 -1.1003461898E+001 
350183929.965 +9.7205686988E-001 -1.1568225986E+001  +1.5632771854E-001 +7.6455991760E+001  +1.5500264881E-001 +7.6686671944E+001  +9.7303074061E-001 -1.1360794579E+001 
360188927.964 +9.5507726320E-001 -1.1111580676E+001  +1.5799424962E-001 +7.7014176901E+001  +1.5726534606E-001 +7.7486458071E+001  +9.5665750097E-001 -1.0947095062E+001 
370193925.963 +9.4947197725E-001 -1.0271299113E+001  +1.6166270936E-001 +7.7842688197E+001  +1.6181466781E-001 +7.8363893943E+001  +9.5105323307E-001 -1.0166166770E+001 
380198923.962 +9.5505169436E-001 -9.5007424850E+000  +1.6706008341E-001 +7.8469944122E+001  +1.6809482820E-001 +7.8846939086E+001  +9.5607143176E-001 -9.4384464286E+000 
390203921.961 +9.6908444091E-001 -9.1242078304E+000  +1.7361720232E-001 +7.8755101564E+001  +1.7514982403E-001 +7.8808219382E+001  +9.6911066975E-001 -9.0923851944E+000 
400208919.960 +9.8725178430E-001 -9.3517916852E+000  +1.8109490312E-001 +7.8568811204E+001  +1.8238810664E-001 +7.8290936585E+001  +9.8647085648E-001 -9.2982787570E+000 
410213917.959 +1.0034473068E+000 -1.0282168376E+001  +1.8875462210E-001 +7.7700253307E+001  +1.8924676004E-001 +7.7235877942E+001  +1.0017836264E+000 -1.0181997380E+001 
420218915.958 +1.0095245780E+000 -1.1774772821E+001  +1.9473876126E-001 +7.6141166153E+001  +1.9420934268E-001 +7.5692256682E+001  +1.0078124666E+000 -1.1608185498E+001 
430223913.957 +9.9990944615E-001 -1.3332514043E+001  +1.9733593022E-001 +7.4476096857E+001  +1.9603728049E-001 +7.4199916927E+001  +9.9890947969E-001 -1.3101544821E+001 
440228911.956 +9.7730080098E-001 -1.4278686647E+001  +1.9690446088E-001 +7.3500500229E+001  +1.9529146209E-001 +7.3504844215E+001  +9.7745538433E-001 -1.4029940610E+001 
450233909.955 +9.5327149037E-001 -1.4255386909E+001  +1.9615518953E-001 +7.3642892346E+001  +1.9476000155E-001 +7.3914309068E+001  +9.5445759317E-001 -1.4020225542E+001 
460238907.954 +9.3842153559E-001 -1.3479501394E+001  +1.9757487476E-001 +7.4507752938E+001  +1.9696452356E-001 +7.4937894579E+001  +9.4012028588E-001 -1.3296212285E+001 
470243905.953 +9.3662054653E-001 -1.2465880953E+001  +2.0180176548E-001 +7.5449921664E+001  +2.0226976411E-001 +7.5886249574E+001  +9.3823767890E-001 -1.2341965494E+001 
480248903.952 +9.4660876873E-001 -1.1679446164E+001  +2.0817161132E-001 +7.6091757998E+001  +2.0949598212E-001 +7.6354803198E+001  +9.4751130348E-001 -1.1600352698E+001 
490253901.951 +9.6441624682E-001 -1.1419975508E+001  +2.1602107043E-001 +7.6288786071E+001  +2.1761815612E-001 +7.6245399564E+001  +9.6414122690E-001 -1.1357304811E+001 
500258899.950 +9.8499078306E-001 -1.1902831842E+001  +2.2481865501E-001 +7.5867272208E+001  +2.2606901544E-001 +7.5573621680E+001  +9.8361753103E-001 -1.1809262117E+001 
510263897.949 +1.0002105793E+000 -1.3160739716E+001  +2.3312521320E-001 +7.4664132509E+001  +2.3336816635E-001 +7.4233548030E+001  +9.9818506422E-001 -1.3000971700E+001 
520268895.948 +1.0014164919E+000 -1.4891641498E+001  +2.3824279743E-001 +7.2843355367E+001  +2.3741898399E-001 +7.2463989072E+001  +9.9965958651E-001 -1.4661525190E+001 
530273893.947 +9.8486815984E-001 -1.6440083008E+001  +2.3847190115E-001 +7.1188675738E+001  +2.3693886795E-001 +7.0988254111E+001  +9.8409381771E-001 -1.6153179678E+001 
540278891.946 +9.5795139329E-001 -1.7117104972E+001  +2.3578026702E-001 +7.0545271655E+001  +2.3400487037E-001 +7.0559663013E+001  +9.5842846408E-001 -1.6820945987E+001 
550283889.945 +9.3391772131E-001 -1.6740894128E+001  +2.3400004801E-001 +7.1037965323E+001  +2.3261395144E-001 +7.1285589150E+001  +9.3526178327E-001 -1.6475809061E+001 
560288887.944 +9.2208372924E-001 -1.5704834723E+001  +2.3567612871E-001 +7.2119452872E+001  +2.3510697060E-001 +7.2491575179E+001  +9.2377558185E-001 -1.5498994617E+001 
570293885.943 +9.2428256277E-001 -1.4585891020E+001  +2.4064226061E-001 +7.3109541340E+001  +2.4114355685E-001 +7.3459157381E+001  +9.2576620477E-001 -1.4440442305E+001 
580298883.942 +9.3790569379E-001 -1.3837675587E+001  +2.4807125799E-001 +7.3707805046E+001  +2.4945241671E-001 +7.3905283419E+001  +9.3858092831E-001 -1.3734483930E+001 
590303881.941 +9.5847800691E-001 -1.3743973325E+001  +2.5721013536E-001 +7.3805972239E+001  +2.5883133504E-001 +7.3740740266E+001  +9.5813703003E-001 -1.3643157439E+001 
600308879.940 +9.7994541474E-001 -1.4479400112E+001  +2.6738017298E-001 +7.3170035381E+001  +2.6841145285E-001 +7.2900858442E+001  +9.7874357731E-001 -1.4340154274E+001 
610313877.939 +9.9319118605E-001 -1.6019603020E+001  +2.7598879452E-001 +7.1633880603E+001  +2.7612301574E-001 +7.1298047960E+001  +9.9154006972E-001 -1.5813183012E+001 
620318875.938 +9.8922380682E-001 -1.7903591762E+001  +2.7952192008E-001 +6.9630471177E+001  +2.7858326045E-001 +6.9336375389E+001  +9.8781843540E-001 -1.7627894378E+001 
630323873.937 +9.6707834468E-001 -1.9354366998E+001  +2.7703075461E-001 +6.8099890846E+001  +2.7555898445E-001 +6.7958934577E+001  +9.6677328320E-001 -1.9023166016E+001 
640328871.936 +9.3782580334E-001 -1.9734619201E+001  +2.7235636836E-001 +6.7797443694E+001  +2.7069265370E-001 +6.7861931449E+001  +9.3861910216E-001 -1.9410491302E+001 
650333869.935 +9.1508211696E-001 -1.9059925173E+001  +2.7003214120E-001 +6.8604638617E+001  +2.6880898081E-001 +6.8849970702E+001  +9.1674600292E-001 -1.8772961467E+001 
660338867.934 +9.0663151574E-001 -1.7843738127E+001  +2.7221339026E-001 +6.9802360437E+001  +2.7188813423E-001 +7.0130496131E+001  +9.0842437249E-001 -1.7617233306E+001 
670343865.933 +9.1220585234E-001 -1.6693022002E+001  +2.7805338304E-001 +7.0790532329E+001  +2.7875660870E-001 +7.1079340939E+001  +9.1360669947E-001 -1.6526263206E+001 
680348863.932 +9.2865195962E-001 -1.6025252511E+001  +2.8662190121E-001 +7.1352818181E+001  +2.8804221685E-001 +7.1469379163E+001  +9.2933755983E-001 -1.5881600606E+001 
690353861.931 +9.5104067433E-001 -1.6089667026E+001  +2.9719694414E-001 +7.1326378040E+001  +2.9860718750E-001 +7.1242263267E+001  +9.5076845240E-001 -1.5947352438E+001 
700358859.930 +9.7250754601E-001 -1.7058418432E+001  +3.0849325004E-001 +7.0463209434E+001  +3.0924167689E-001 +7.0234565201E+001  +9.7135956690E-001 -1.6876785604E+001 
710363857.929 +9.8289588596E-001 -1.8806933402E+001  +3.1695029157E-001 +6.8671553184E+001  +3.1668712153E-001 +6.8417049432E+001  +9.8141521403E-001 -1.8560304658E+001 
720368855.928 +9.7398275965E-001 -2.0770395660E+001  +3.1848669594E-001 +6.6564474118E+001  +3.1750858962E-001 +6.6380033866E+001  +9.7309343655E-001 -2.0458207381E+001 
730373853.927 +9.4773015240E-001 -2.2075415954E+001  +3.1332310741E-001 +6.5204098330E+001  +3.1195734798E-001 +6.5142440814E+001  +9.4785258822E-001 -2.1736478856E+001 
740378851.926 +9.1741137259E-001 -2.2193199103E+001  +3.0684888959E-001 +6.5225933497E+001  +3.0555400475E-001 +6.5296647692E+001  +9.1838624807E-001 -2.1854733088E+001 
750383849.925 +8.9643736912E-001 -2.1255218525E+001  +3.0424303276E-001 +6.6273641817E+001  +3.0342665065E-001 +6.6466279878E+001  +8.9800126767E-001 -2.0967009296E+001 
760388847.924 +8.9106211234E-001 -1.9903855038E+001  +3.0715948920E-001 +6.7561602861E+001  +3.0701354542E-001 +6.7785259359E+001  +8.9256038915E-001 -1.9670282002E+001 
770393845.923 +8.9984417918E-001 -1.8751011652E+001  +3.1415917237E-001 +6.8532114405E+001  +3.1482569184E-001 +6.8709569303E+001  +9.0083563262E-001 -1.8567633519E+001 
780398843.922 +9.1874854003E-001 -1.8189461898E+001  +3.2397152295E-001 +6.9013586821E+001  +3.2501055022E-001 +6.9051212761E+001  +9.1884213292E-001 -1.8017253236E+001 
790403841.921 +9.4216136902E-001 -1.8439712617E+001  +3.3578293010E-001 +6.8834628785E+001  +3.3675070454E-001 +6.8743719341E+001  +9.4143752356E-001 -1.8247213240E+001 
800408839.920 +9.6243110364E-001 -1.9624158045E+001  +3.4777051979E-001 +6.7751084583E+001  +3.4809376450E-001 +6.7580846143E+001  +9.6123196381E-001 -1.9374095092E+001 
810413837.919 +9.6957860151E-001 -2.1523639544E+001  +3.5549408877E-001 +6.5784178788E+001  +3.5507972330E-001 +6.5617303609E+001  +9.6844973613E-001 -2.1217632802E+001 
820418835.918 +9.5637715877E-001 -2.3479326043E+001  +3.5476361399E-001 +6.3682143672E+001  +3.5386524735E-001 +6.3566787143E+001  +9.5603063031E-001 -2.3131643332E+001 
830423833.917 +9.2730558720E-001 -2.4619882775E+001  +3.4718429557E-001 +6.2530143582E+001  +3.4617034628E-001 +6.2511356683E+001  +9.2797084480E-001 -2.4261664550E+001 
840428831.916 +8.9706035034E-001 -2.4479047872E+001  +3.3942058920E-001 +6.2821381666E+001  +3.3848658899E-001 +6.2875952573E+001  +8.9815096937E-001 -2.4140967712E+001 
850433829.915 +8.7831864335E-001 -2.3332727441E+001  +3.3691885611E-001 +6.4042400637E+001  +3.3632838154E-001 +6.4160524650E+001  +8.7968961458E-001 -2.3046873496E+001 
860438827.914 +8.7605789638E-001 -2.1910672009E+001  +3.4061220157E-001 +6.5346680616E+001  +3.4062391750E-001 +6.5501720990E+001  +8.7710180035E-001 -2.1658461734E+001 
870443825.913 +8.8750051167E-001 -2.0797333461E+001  +3.4855868694E-001 +6.6281156109E+001  +3.4921253944E-001 +6.6379599952E+001  +8.8799978624E-001 -2.0569303508E+001 
880448823.912 +9.0785127628E-001 -2.0358468490E+001  +3.5935879184E-001 +6.6688133209E+001  +3.6030191552E-001 +6.6675711038E+001  +9.0770846503E-001 -2.0128207263E+001 
890453821.911 +9.3138849319E-001 -2.0787100051E+001  +3.7225805188E-001 +6.6393285882E+001  +3.7285877833E-001 +6.6271716776E+001  +9.3055763346E-001 -2.0520038630E+001 
900458819.910 +9.5010089916E-001 -2.2133117954E+001  +3.8494355475E-001 +6.5150866302E+001  +3.8479906191E-001 +6.4996210780E+001  +9.4915843510E-001 -2.1808936041E+001 
910463817.909 +9.5394178303E-001 -2.4134949524E+001  +3.9179534511E-001 +6.3048493122E+001  +3.9098295405E-001 +6.2952031134E+001  +9.5358541192E-001 -2.3756574199E+001 
920468815.908 +9.3739243530E-001 -2.6046551136E+001  +3.8880245389E-001 +6.0962912165E+001  +3.8783249440E-001 +6.0942514053E+001  +9.3791697117E-001 -2.5652685240E+001 
930473813.907 +9.0666732653E-001 -2.7015173129E+001  +3.7883176470E-001 +5.9999624449E+001  +3.7807363639E-001 +6.0059904175E+001  +9.0812722969E-001 -2.6630738435E+001 
940478811.906 +8.7692307201E-001 -2.6652200703E+001  +3.6991253237E-001 +6.0540491473E+001  +3.6951196555E-001 +6.0632657180E+001  +8.7847210724E-001 -2.6316293711E+001 
950483809.905 +8.6061128907E-001 -2.5353893981E+001  +3.6776372047E-001 +6.1918220672E+001  +3.6777295690E-001 +6.2023183728E+001  +8.6188785453E-001 -2.5063631466E+001 
960488807.904 +8.6094120268E-001 -2.3872980366E+001  +3.7243312300E-001 +6.3253044876E+001  +3.7289936370E-001 +6.3334072155E+001  +8.6152328689E-001 -2.3615395139E+001 
970493805.903 +8.7454649593E-001 -2.2820206319E+001  +3.8148770949E-001 +6.4120416242E+001  +3.8227480726E-001 +6.4125359683E+001  +8.7441807089E-001 -2.2556795205E+001 
980498803.902 +8.9588084803E-001 -2.2523133147E+001  +3.9349755803E-001 +6.4415980256E+001  +3.9415799272E-001 +6.4341606473E+001  +8.9511878925E-001 -2.2225454760E+001 
990503801.901 +9.1876978844E-001 -2.3113049397E+001  +4.0724551271E-001 +6.3979219178E+001  +4.0724931502E-001 +6.3846277079E+001  +9.1779438782E-001 -2.2763607130E+001 
1000508799.900 +9.3520301930E-001 -2.4588174598E+001  +4.1986523261E-001 +6.2586910808E+001  +4.1920217881E-001 +6.2494133381E+001  +9.3458252823E-001 -2.4181695758E+001 
1010513797.899 +9.3596656510E-001 -2.6607043001E+001  +4.2547532707E-001 +6.0436750000E+001  +4.2449483927E-001 +6.0411620471E+001  +9.3612640043E-001 -2.6173475273E+001 
1020518795.898 +9.1701859337E-001 -2.8436184867E+001  +4.2041745677E-001 +5.8424345402E+001  +4.1959506130E-001 +5.8486408035E+001  +9.1823597836E-001 -2.8004033030E+001 
1030523793.897 +8.8580216115E-001 -2.9220957181E+001  +4.0860385019E-001 +5.7669034908E+001  +4.0828502436E-001 +5.7762303914E+001  +8.8768105143E-001 -2.8830880436E+001 
1040528791.896 +8.5740336657E-001 -2.8674937541E+001  +3.9903179157E-001 +5.8400900287E+001  +3.9909897750E-001 +5.8493863694E+001  +8.5905124361E-001 -2.8339499606E+001 
1050533789.895 +8.4332823671E-001 -2.7258699829E+001  +3.9729075025E-001 +5.9871789104E+001  +3.9773591416E-001 +5.9937609025E+001  +8.4446430903E-001 -2.6970631043E+001 
1060538787.894 +8.4613723917E-001 -2.5766667137E+001  +4.0297333353E-001 +6.1179530381E+001  +4.0371707019E-001 +6.1207614572E+001  +8.4646355258E-001 -2.5489933838E+001 
1070543785.893 +8.6163357911E-001 -2.4809458676E+001  +4.1311513018E-001 +6.1947436516E+001  +4.1393222890E-001 +6.1899578519E+001  +8.6098484526E-001 -2.4512753561E+001 
1080548783.892 +8.8320850448E-001 -2.4651812060E+001  +4.2584312877E-001 +6.2129885440E+001  +4.2625655563E-001 +6.1998073023E+001  +8.8212695801E-001 -2.4305751167E+001 
1090553781.891 +9.0476052529E-001 -2.5394227582E+001  +4.3997379001E-001 +6.1587640290E+001  +4.3954685202E-001 +6.1441716974E+001  +9.0384005935E-001 -2.4973019007E+001 
1100558779.890 +9.1859963004E-001 -2.6951026642E+001  +4.5229323266E-001 +6.0120586126E+001  +4.5105312903E-001 +6.0030711652E+001  +9.1841844048E-001 -2.6472845984E+001 
1110563777.889 +9.1646216649E-001 -2.8958913200E+001  +4.5666609307E-001 +5.7961562777E+001  +4.5530694314E-001 +5.7992572278E+001  +9.1759922953E-001 -2.8458226718E+001 
1120568775.888 +8.9596790501E-001 -3.0655787376E+001  +4.4973462141E-001 +5.6060837255E+001  +4.4871275048E-001 +5.6188470487E+001  +8.9810142776E-001 -3.0189679687E+001 
1130573773.887 +8.6506134897E-001 -3.1279464382E+001  +4.3647303062E-001 +5.5480614706E+001  +4.3623822105E-001 +5.5636944626E+001  +8.6755354739E-001 -3.0883945377E+001 
