!  2-Port S-parameters saved by WinCal
! VAR MeasName=S-Parameters (CALIBRATED_DATA) read from VNA (P5004A)
! VAR MeasDate=26/04/2024 18:47:38
! VAR NAME=Wafer2_r1_c5_smallform_log
! VAR FILENAME=Wafer2_r1_c5_smallform_log_1.S2P
! VAR DATE=26/04/2024 18:47:38
! VAR PHYS_PORTS=1,2
! VAR ObjTypeName=DATASET
! VAR IndexType=Frequency
!
# Hz S MA R 50
9000.000 +7.9777774126E-001 +1.7315308185E+001  +4.3874133439E-006 -1.5649553867E+002  +3.8584732481E-005 -1.5267294804E+002  +7.9786467396E-001 +1.7309848107E+001 
9066.037 +8.0046765520E-001 +1.7372212469E+001  +1.6531025937E-005 -2.2543645534E+001  +2.1793121917E-005 +1.3170733799E+001  +8.0029196653E-001 +1.7361888957E+001 
9132.559 +8.0274131270E-001 +1.7421453779E+001  +2.4848854862E-005 +1.1900764689E+002  +8.9257072923E-006 -1.5199572096E+002  +8.0257532215E-001 +1.7417230588E+001 
9199.568 +8.0532701979E-001 +1.7496281634E+001  +1.2082414529E-005 +3.2006635843E+001  +1.9011106206E-005 +9.4226676417E+001  +8.0539826744E-001 +1.7500343621E+001 
9267.070 +8.0809351673E-001 +1.7519753105E+001  +2.9592981276E-005 -2.9921895703E+001  +2.5478799472E-005 +1.7983923181E+002  +8.0794182813E-001 +1.7515261278E+001 
9335.066 +8.1053003121E-001 +1.7589443328E+001  +2.0068668674E-005 +7.4992990015E+001  +1.6257050787E-005 +1.5373139825E+002  +8.1050681707E-001 +1.7589802226E+001 
9403.562 +8.1323677062E-001 +1.7637702207E+001  +2.9126408779E-005 -1.0819867575E+002  +1.1739719112E-005 +1.4535726135E+002  +8.1321371341E-001 +1.7623855753E+001 
9472.560 +8.1584529163E-001 +1.7666931755E+001  +2.6356353999E-005 +1.4366517964E+002  +9.1101936722E-006 -1.3806279417E+002  +8.1587323144E-001 +1.7658125060E+001 
9542.065 +8.1855047593E-001 +1.7679381853E+001  +7.4404129548E-006 -1.5685494743E+002  +1.8092804341E-005 -9.8572541585E+001  +8.1847589197E-001 +1.7679021701E+001 
9612.079 +8.2109750854E-001 +1.7727511643E+001  +8.3244345758E-006 +1.4941749789E+002  +4.2372428026E-005 -8.9986405635E+001  +8.2125341714E-001 +1.7707636996E+001 
9682.607 +8.2382117797E-001 +1.7737226329E+001  +3.1423978348E-005 -1.3913183782E+002  +1.6608750578E-005 +1.4179754439E+001  +8.2369894226E-001 +1.7737725931E+001 
9753.653 +8.2645267402E-001 +1.7785280722E+001  +2.9353814399E-005 -6.6662469458E+001  +5.1165697795E-005 +3.8827041270E+000  +8.2635020256E-001 +1.7761032212E+001 
9825.220 +8.2875837060E-001 +1.7793136276E+001  +3.4295790278E-005 +1.3832685031E+002  +3.9805331649E-005 +1.3839918558E+002  +8.2851344410E-001 +1.7789836244E+001 
9897.312 +8.3155479473E-001 +1.7805631118E+001  +1.2746171033E-005 -3.2054901441E+001  +2.2561073561E-005 +7.6324660651E+001  +8.3162367598E-001 +1.7797441167E+001 
9969.933 +8.3422113352E-001 +1.7839175973E+001  +2.5523895788E-005 +2.6452681178E+001  +3.3597183520E-006 -1.0105245310E+002  +8.3403263629E-001 +1.7844182152E+001 
10043.087 +8.3680672409E-001 +1.7851965258E+001  +1.3393585853E-005 -1.5798907176E+002  +2.0254300047E-005 +3.4605137253E+001  +8.3675773471E-001 +1.7854184043E+001 
10116.778 +8.3958257670E-001 +1.7848365965E+001  +6.4122282165E-006 -7.7664433857E+000  +1.4365782035E-005 -1.1298897949E+002  +8.3929190612E-001 +1.7847862338E+001 
10191.009 +8.4204468265E-001 +1.7884325766E+001  +1.7129622048E-006 +4.9194912203E+001  +1.9318981041E-005 +1.3909951652E+002  +8.4192571888E-001 +1.7881096834E+001 
10265.785 +8.4502588793E-001 +1.7890450218E+001  +1.7314827049E-005 +1.7060585322E+002  +2.3218753014E-005 +4.9387915311E+001  +8.4491474720E-001 +1.7877716419E+001 
10341.110 +8.4802389418E-001 +1.7903856863E+001  +1.4573656607E-005 +1.2138568633E+001  +1.1687949792E-005 -4.9327231598E+001  +8.4772945562E-001 +1.7896220219E+001 
10416.987 +8.5058151510E-001 +1.7898237440E+001  +1.4705249113E-005 +3.8189998475E+000  +4.8023201935E-006 +1.8362635423E+001  +8.5062474092E-001 +1.7902836720E+001 
10493.421 +8.5348892562E-001 +1.7882184574E+001  +8.8936934407E-006 -9.6532183446E+001  +4.3409406047E-005 +5.7931471741E+001  +8.5331829481E-001 +1.7894088162E+001 
10570.416 +8.5617925789E-001 +1.7872358147E+001  +1.5449091956E-005 +8.6882618141E+001  +1.6071612688E-005 -1.0470684639E+002  +8.5631825579E-001 +1.7878158978E+001 
10647.976 +8.5895708948E-001 +1.7886943340E+001  +1.8006699207E-005 +1.0057340159E+002  +2.5351675311E-005 -8.6754928565E+000  +8.5900563596E-001 +1.7871457135E+001 
10726.105 +8.6204126406E-001 +1.7866627302E+001  +1.8014573982E-005 +3.5576318457E+001  +3.5759600225E-005 +1.1955146612E+002  +8.6184667139E-001 +1.7865422545E+001 
10804.808 +8.6523053579E-001 +1.7847082993E+001  +2.8762744031E-005 +1.3971443288E+002  +1.5768807952E-005 -1.5331668441E+002  +8.6494553116E-001 +1.7842283675E+001 
10884.087 +8.6817918965E-001 +1.7841378137E+001  +2.1118066411E-005 +9.2002321068E+001  +2.3319485060E-005 +1.2252089127E+002  +8.6803657728E-001 +1.7836567606E+001 
10963.949 +8.7110626236E-001 +1.7799955670E+001  +4.4035955130E-005 -5.1474168518E+001  +1.0937247098E-005 +1.5359165506E+001  +8.7117753586E-001 +1.7813165968E+001 
11044.396 +8.7397174305E-001 +1.7789067214E+001  +4.9245568585E-005 +1.5282675962E+002  +2.1057864759E-005 -1.3012225578E+001  +8.7414638119E-001 +1.7792837301E+001 
11125.434 +8.7637420576E-001 +1.7787683023E+001  +2.6679494082E-005 +1.1650280594E+002  +1.1582161167E-005 -1.5204302055E+002  +8.7645419177E-001 +1.7777958583E+001 
11207.066 +8.7901687590E-001 +1.7765249834E+001  +5.5252070669E-006 +1.4091262692E+002  +2.0082925562E-005 +1.2697549256E+000  +8.7915624425E-001 +1.7758497422E+001 
11289.298 +8.8132593345E-001 +1.7762230156E+001  +1.9945504409E-005 -5.1015898960E+001  +1.1189809942E-005 +1.2052479763E+002  +8.8135711588E-001 +1.7764138022E+001 
11372.132 +8.8413703515E-001 +1.7731262466E+001  +4.2764135387E-005 +1.3984009881E+002  +1.9814874141E-005 +4.7092366466E+001  +8.8427195574E-001 +1.7738502673E+001 
11455.575 +8.8682345098E-001 +1.7715190798E+001  +1.0576972484E-005 +7.2352956980E+001  +1.4042670216E-005 +1.2026276747E+002  +8.8701023986E-001 +1.7710827473E+001 
11539.630 +8.8948466893E-001 +1.7693041598E+001  +1.1800583625E-005 -6.1240312271E+000  +1.3162799301E-005 +2.4818629571E+001  +8.8944691872E-001 +1.7692960929E+001 
11624.301 +8.9203096230E-001 +1.7647610757E+001  +1.5932520127E-005 -1.5601467769E+002  +2.1167847249E-005 +1.4293233070E+001  +8.9198089218E-001 +1.7648993538E+001 
11709.594 +8.9463049984E-001 +1.7619907281E+001  +1.8739608638E-005 +6.5192083899E+001  +1.2107019352E-005 -4.4612205842E+001  +8.9443861830E-001 +1.7624255807E+001 
11795.512 +8.9734871722E-001 +1.7588342969E+001  +6.1775018719E-006 +7.9982341544E+001  +8.8567366667E-006 +1.3116913172E+002  +8.9740127342E-001 +1.7596936533E+001 
11882.062 +9.0004255995E-001 +1.7563129003E+001  +2.1472963788E-005 -1.4820853983E+002  +1.3081272792E-005 +6.0200733196E+001  +8.9998926495E-001 +1.7564091452E+001 
11969.246 +9.0280663388E-001 +1.7518343122E+001  +3.4883454517E-005 +7.7735080806E+001  +6.5485186164E-006 -1.7870664397E+002  +9.0296462711E-001 +1.7509442030E+001 
12057.069 +9.0519875014E-001 +1.7460391421E+001  +1.3959629469E-005 +1.2798364251E+002  +3.0620654630E-005 +7.4986667798E+001  +9.0535521392E-001 +1.7472859244E+001 
12145.538 +9.0820370828E-001 +1.7406534162E+001  +1.0381035504E-005 +8.9973237199E+001  +3.0336577807E-005 -3.0592284660E+001  +9.0812453406E-001 +1.7425010349E+001 
12234.655 +9.1086552285E-001 +1.7381071158E+001  +2.6383345609E-005 +6.7893861795E+001  +3.0459174531E-005 +4.5783291032E+000  +9.1078608642E-001 +1.7381311292E+001 
12324.426 +9.1366750668E-001 +1.7315146914E+001  +2.1368339038E-005 -1.0941843792E+002  +7.8975259680E-006 +1.5029178832E+002  +9.1387124788E-001 +1.7315765958E+001 
12414.856 +9.1633114043E-001 +1.7258848660E+001  +2.4651624391E-006 -1.5287667584E+002  +3.4549412611E-005 +1.3328370936E+002  +9.1641961419E-001 +1.7260864626E+001 
12505.949 +9.1934497739E-001 +1.7202832750E+001  +1.8289377441E-005 +7.7321818041E+001  +1.3736403399E-005 +1.2112386704E+002  +9.1935715238E-001 +1.7209966899E+001 
12597.711 +9.2127002024E-001 +1.7172299403E+001  +2.3211674478E-005 +9.0964502018E+001  +2.7145334065E-005 +1.4843116167E+002  +9.2118172458E-001 +1.7184935425E+001 
12690.146 +9.2391712156E-001 +1.7128153379E+001  +2.2340622361E-005 +1.7157184774E+002  +2.4595892033E-005 +5.4705837871E+001  +9.2392594294E-001 +1.7126238476E+001 
12783.260 +9.2643406983E-001 +1.7075838030E+001  +2.0842533113E-005 +1.1995985401E+002  +3.0132551225E-005 +8.8088377790E+001  +9.2631896817E-001 +1.7082880746E+001 
12877.056 +9.2869814999E-001 +1.7029810854E+001  +2.1995070901E-005 +6.7972754694E+001  +4.6878097115E-005 +1.7688809155E+002  +9.2888199793E-001 +1.7029574982E+001 
12971.541 +9.3122773368E-001 +1.6987266083E+001  +1.4454625831E-005 -2.2081465872E+001  +3.1786200188E-005 +1.3593089943E+002  +9.3115800190E-001 +1.6978176828E+001 
13066.719 +9.3347660906E-001 +1.6923759889E+001  +4.0998518873E-005 +2.0381555568E+001  +4.3889885103E-005 +8.8354875146E+001  +9.3325697050E-001 +1.6918424799E+001 
13162.595 +9.3584322640E-001 +1.6868862707E+001  +2.4765640034E-005 +1.5437109807E+002  +3.3736794540E-005 -6.8595621309E+001  +9.3584061635E-001 +1.6883772212E+001 
13259.175 +9.3837158558E-001 +1.6814555019E+001  +2.3632465236E-005 -1.1051777161E+002  +3.1276252187E-005 +1.6324232916E+001  +9.3838030228E-001 +1.6817599206E+001 
13356.464 +9.4067284819E-001 +1.6754587626E+001  +6.5204748128E-005 -1.7450325069E+001  +1.9996858097E-005 +1.3437336397E+002  +9.4064663363E-001 +1.6745477854E+001 
13454.466 +9.4310450714E-001 +1.6688344428E+001  +2.3024364790E-005 +6.4712071377E+001  +1.9710536513E-005 +3.0574131800E+000  +9.4297734213E-001 +1.6686861056E+001 
13553.188 +9.4538444449E-001 +1.6632853676E+001  +1.5285845337E-005 -2.9776993927E+001  +4.6466757790E-005 -3.6882800617E+001  +9.4529189922E-001 +1.6619839951E+001 
13652.634 +9.4770599322E-001 +1.6560961697E+001  +2.7658723157E-005 +9.3358029076E+001  +1.9570276273E-005 +8.2272720530E+001  +9.4774723921E-001 +1.6558537913E+001 
13752.809 +9.5025957229E-001 +1.6490748505E+001  +2.5305287794E-005 +1.6910471455E+002  +1.9225498112E-005 -1.3876932840E+002  +9.5037256539E-001 +1.6483299891E+001 
13853.720 +9.5280680248E-001 +1.6409395129E+001  +2.6846701031E-005 -2.1287641637E+001  +4.0383647319E-005 +9.8337057454E+001  +9.5280276031E-001 +1.6402985934E+001 
13955.371 +9.5535823397E-001 +1.6353148141E+001  +3.4859150286E-005 +1.1134099842E+002  +3.9453985730E-006 -5.0246513675E+001  +9.5533573082E-001 +1.6347277996E+001 
14057.768 +9.5756543352E-001 +1.6266977368E+001  +1.3233706704E-005 +1.7450927244E+001  +3.9170386577E-005 +1.7221015442E+002  +9.5736595155E-001 +1.6259974697E+001 
14160.916 +9.5994687892E-001 +1.6191984545E+001  +4.3570550979E-005 +8.4909677120E+001  +1.6589211919E-005 +7.9197748901E+001  +9.5982437854E-001 +1.6190840111E+001 
14264.821 +9.6240563991E-001 +1.6112489369E+001  +2.8613817851E-005 -1.7204454919E+002  +2.9304167811E-005 -7.5217289623E+001  +9.6235603237E-001 +1.6119040306E+001 
14369.488 +9.6455636526E-001 +1.6048138996E+001  +1.8496779759E-005 +8.0772407113E+000  +1.3113257855E-005 -1.4593712721E+002  +9.6442244385E-001 +1.6045073832E+001 
14474.924 +9.6634634697E-001 +1.5987413790E+001  +3.4643120105E-005 +9.8477683851E+001  +1.1157541980E-005 +5.9150829534E+001  +9.6617087673E-001 +1.5981791281E+001 
14581.133 +9.6836295075E-001 +1.5931111173E+001  +9.8812533911E-006 -8.4044977065E+001  +5.3254267751E-005 +1.1309958025E+002  +9.6833217789E-001 +1.5922944263E+001 
14688.121 +9.6995248337E-001 +1.5881723901E+001  +2.1740725231E-005 -6.8460982506E+001  +2.2863514180E-005 -1.0632298992E+002  +9.6993194652E-001 +1.5873301865E+001 
14795.895 +9.7184725561E-001 +1.5823057005E+001  +2.1753248426E-005 -9.5315721970E+001  +5.4882672038E-005 +1.7702337586E+002  +9.7199403835E-001 +1.5812026938E+001 
14904.459 +9.7392512087E-001 +1.5747855315E+001  +2.1057858494E-005 -7.8634108344E+000  +1.9605142757E-005 -5.6380221619E+001  +9.7357683890E-001 +1.5749666208E+001 
15013.820 +9.7565900512E-001 +1.5684482698E+001  +3.4278309422E-005 -2.4036676563E+001  +4.0065073418E-005 +8.7245579483E+001  +9.7574582659E-001 +1.5693806545E+001 
15123.983 +9.7754401181E-001 +1.5644975732E+001  +9.4249273148E-006 +1.1466624015E+002  +2.5227443106E-005 -1.7232099157E+002  +9.7752634147E-001 +1.5648402239E+001 
15234.954 +9.7952931446E-001 +1.5566422517E+001  +1.8850592606E-005 +6.8250769747E+001  +1.3230906473E-005 +1.3526012128E+002  +9.7950003029E-001 +1.5571575940E+001 
15346.740 +9.8126287911E-001 +1.5509550250E+001  +4.2443268141E-005 +1.3346160510E+002  +1.4504218982E-005 -6.4709344689E+000  +9.8136317498E-001 +1.5502643639E+001 
15459.346 +9.8314519733E-001 +1.5449591324E+001  +2.2943087432E-005 -7.0710616848E+001  +1.3427225700E-005 -2.5073428316E+001  +9.8328861900E-001 +1.5443244160E+001 
15572.778 +9.8518741288E-001 +1.5384245175E+001  +1.8316543295E-005 +7.5110451436E+001  +1.9965514375E-005 +5.0102070189E+001  +9.8495877139E-001 +1.5381428181E+001 
15687.043 +9.8692640231E-001 +1.5307650025E+001  +1.1167278902E-005 +5.0361379834E+001  +2.2769789797E-005 -1.7712485353E+002  +9.8685428404E-001 +1.5301317258E+001 
15802.146 +9.8880281854E-001 +1.5225699406E+001  +1.0921730303E-005 -1.0033116943E+002  +3.0244515543E-005 -4.7840020132E+001  +9.8870660716E-001 +1.5220667809E+001 
15918.093 +9.9055329039E-001 +1.5147434129E+001  +3.4673731396E-005 +1.0768526886E+002  +3.8467069457E-005 +1.3840515659E+002  +9.9047365648E-001 +1.5148098927E+001 
16034.892 +9.9248819945E-001 +1.5070571319E+001  +1.4019558570E-005 -1.0042127946E+001  +4.3870686986E-005 +8.0613589168E+001  +9.9253701524E-001 +1.5072037830E+001 
16152.547 +9.9428551919E-001 +1.5002746065E+001  +4.8741841431E-005 -9.2784366417E+001  +2.8889377095E-005 +1.4628004376E+002  +9.9424914945E-001 +1.5005606777E+001 
16271.065 +9.9621748660E-001 +1.4919850914E+001  +4.9610382932E-005 -1.7793309175E+002  +2.3244685102E-005 +5.4304688626E+001  +9.9611110820E-001 +1.4918325300E+001 
16390.454 +9.9792390928E-001 +1.4846982316E+001  +3.5811491355E-005 +9.6512456572E+001  +6.9749214692E-006 -2.1247631688E+001  +9.9782059840E-001 +1.4852959675E+001 
16510.718 +9.9966112251E-001 +1.4771460746E+001  +8.9515407341E-006 -6.6696879289E+001  +1.1258802933E-005 +8.3251816072E+001  +9.9969933999E-001 +1.4753844821E+001 
16631.864 +1.0017187562E+000 +1.4677534638E+001  +7.2915745360E-006 +1.5877000425E+002  +2.2418679720E-005 +1.5502738463E+002  +1.0016105642E+000 +1.4669607635E+001 
16753.900 +1.0034401105E+000 +1.4599049111E+001  +3.5558307302E-005 -1.7939489390E+002  +2.5455193962E-005 -1.1772973062E+002  +1.0035055870E+000 +1.4604989318E+001 
16876.831 +1.0052302403E+000 +1.4503675907E+001  +2.0443423778E-005 +1.1072968384E+002  +1.9459289359E-005 +4.5659135150E+001  +1.0052486725E+000 +1.4516182853E+001 
17000.664 +1.0071044679E+000 +1.4432109588E+001  +7.9585379948E-006 +1.7760792717E+002  +3.1719230880E-005 -9.9565832062E+001  +1.0069816178E+000 +1.4429918056E+001 
17125.405 +1.0087303296E+000 +1.4346235857E+001  +1.7091657158E-005 +1.7677320627E+001  +2.2472840182E-005 +1.5739135559E+002  +1.0087588564E+000 +1.4339917743E+001 
17251.062 +1.0107870868E+000 +1.4237450662E+001  +2.6434399835E-005 +1.7325024859E+002  +3.3274335565E-005 -9.2034169200E+001  +1.0106225745E+000 +1.4238394789E+001 
17377.641 +1.0124341426E+000 +1.4155990258E+001  +1.5318348334E-005 -8.4196957172E+001  +7.7101198453E-006 +1.3178401381E+002  +1.0124242842E+000 +1.4146961843E+001 
17505.149 +1.0142244748E+000 +1.4058009236E+001  +2.5012223735E-005 +2.7328120878E+001  +2.0273748063E-005 +2.6157803182E+001  +1.0141598113E+000 +1.4061871248E+001 
17633.592 +1.0158230983E+000 +1.3960520712E+001  +2.6013104975E-005 +6.5435592220E+001  +2.3777432905E-005 -1.1000999818E+001  +1.0158351389E+000 +1.3962931847E+001 
17762.977 +1.0176166662E+000 +1.3853497459E+001  +2.2617466071E-005 +1.6583472898E+002  +1.7185303928E-005 +9.8227652266E+001  +1.0176978813E+000 +1.3865922116E+001 
17893.312 +1.0192521412E+000 +1.3783167138E+001  +2.9174157475E-005 +9.1358289743E+001  +6.5127685457E-006 +5.4814812030E+001  +1.0193347202E+000 +1.3773370055E+001 
18024.604 +1.0210912297E+000 +1.3669296102E+001  +1.9142033257E-005 +1.1076318258E+002  +1.3861162939E-005 -1.0313522217E+002  +1.0213121406E+000 +1.3667743713E+001 
18156.858 +1.0230556259E+000 +1.3573187520E+001  +3.8403166766E-005 +1.4790974277E+002  +3.3013444903E-005 +1.1223010762E+002  +1.0231115669E+000 +1.3565039942E+001 
18290.084 +1.0244731698E+000 +1.3466418469E+001  +3.9928821301E-005 +1.1704337996E+002  +4.3612204854E-005 +5.2430213206E+001  +1.0245662643E+000 +1.3462394787E+001 
18424.286 +1.0262068764E+000 +1.3363413523E+001  +2.0453429852E-005 +7.1606477473E+001  +1.8903430251E-005 +7.0657792114E+001  +1.0263938966E+000 +1.3368893243E+001 
18559.473 +1.0280469789E+000 +1.3249128854E+001  +7.4524893245E-005 +1.5377675370E+002  +9.1168490662E-006 +6.0458709583E+001  +1.0279972865E+000 +1.3243655678E+001 
18695.653 +1.0297065841E+000 +1.3143429191E+001  +1.9537076090E-005 +8.1707555455E+001  +3.5005430885E-005 -8.5183370511E+001  +1.0298011663E+000 +1.3149717218E+001 
18832.831 +1.0314675444E+000 +1.3033688893E+001  +4.7737260768E-005 +7.9634269813E+001  +1.9881105218E-005 +1.9747014195E+001  +1.0314256540E+000 +1.3038463968E+001 
18971.016 +1.0327840225E+000 +1.2911011734E+001  +5.0436466612E-005 +7.9347707161E+001  +3.7178645430E-005 -6.0792689711E+001  +1.0330321852E+000 +1.2920332892E+001 
19110.215 +1.0343716018E+000 +1.2824964010E+001  +1.2866554568E-005 -9.0372113242E+001  +1.8015111799E-005 +1.5960446891E+002  +1.0341676907E+000 +1.2821218744E+001 
19250.435 +1.0353159634E+000 +1.2761183482E+001  +1.5597379153E-005 -7.1515333674E+001  +5.8364661018E-006 +8.7055147245E+001  +1.0352866024E+000 +1.2765208576E+001 
19391.685 +1.0365929284E+000 +1.2716611518E+001  +3.1025922913E-005 -1.0409845645E+002  +1.8230390643E-005 -1.7558384812E+002  +1.0366222812E+000 +1.2706496224E+001 
19533.970 +1.0374972176E+000 +1.2643090837E+001  +2.3487267161E-005 -8.7162803622E+001  +3.7178149917E-005 +1.3521648776E+002  +1.0378131123E+000 +1.2649183177E+001 
19677.300 +1.0389326489E+000 +1.2568876349E+001  +1.8794991430E-005 +1.0979117709E+002  +1.2886048035E-005 -1.7001978086E+002  +1.0388825172E+000 +1.2582480959E+001 
19821.681 +1.0398115161E+000 +1.2524420565E+001  +3.1259066603E-005 +1.3504358176E+002  +3.0046809502E-005 +9.1239506127E+001  +1.0398572974E+000 +1.2522963636E+001 
19967.122 +1.0408538427E+000 +1.2468303391E+001  +2.5884357781E-005 +6.4564540191E+001  +1.2579979362E-005 +2.4258912608E+001  +1.0409263759E+000 +1.2459124758E+001 
20113.629 +1.0419769043E+000 +1.2396071997E+001  +1.7203666139E-005 -1.5973121833E+002  +2.0602636504E-005 +7.8407965238E+000  +1.0420506322E+000 +1.2395371422E+001 
20261.212 +1.0430212625E+000 +1.2341179761E+001  +2.9943793049E-005 +9.1985812978E+001  +1.3212928527E-005 -3.1333993837E+001  +1.0430191595E+000 +1.2344327992E+001 
20409.878 +1.0441741728E+000 +1.2267691301E+001  +2.3086051067E-005 +1.4766142962E+002  +7.3896780617E-006 -1.3292824346E+002  +1.0441373093E+000 +1.2263898696E+001 
20559.634 +1.0453634990E+000 +1.2209930736E+001  +1.5511250106E-005 +6.5816592781E+001  +4.8737418839E-005 +8.7114906609E+001  +1.0451595684E+000 +1.2207087741E+001 
20710.490 +1.0462620270E+000 +1.2132083607E+001  +1.6394798614E-005 +1.3606428438E+002  +2.6693424031E-005 +1.0749316333E+002  +1.0462053961E+000 +1.2139274495E+001 
20862.452 +1.0471707416E+000 +1.2069438273E+001  +1.0248377762E-005 +9.1523739378E+001  +8.8622575704E-006 -1.3633053611E+002  +1.0471496681E+000 +1.2072093574E+001 
21015.529 +1.0483480134E+000 +1.1993498732E+001  +3.3755757095E-005 +8.9862143632E+001  +4.9844653789E-005 +1.1341048809E+002  +1.0482060139E+000 +1.1999825739E+001 
